Frequency (GHz),Re( S21 ),Im( S21 ),S2
0,0.048387669,5.88E-05,2.34E-03
0.000226506,0.044105999,-0.019739829,2.34E-03
0.000453012,0.0320067,-0.035960387,2.32E-03
0.000679518,0.0143035,-0.04569437,2.29E-03
0.000906024,-0.0058026,-0.047237519,2.27E-03
0.00113253,-0.024727685,-0.040366087,2.24E-03
0.001359035,-0.039144684,-0.026330905,2.23E-03
0.001585541,-0.046540041,-0.007603554,2.22E-03
0.001812047,-0.045610558,0.012557971,2.24E-03
0.002038553,-0.036464896,0.030645689,2.27E-03
0.002265059,-0.020554962,0.043654334,2.33E-03
0.002491565,-0.000641144,0.048852034,2.39E-03
0.002718071,0.019812405,0.045360148,2.45E-03
0.002944577,0.0371476,0.033632655,2.51E-03
0.003171083,0.048167795,0.015626762,2.56E-03
0.003397589,0.050740566,-0.0054333,2.60E-03
0.003624094,0.04427433,-0.025867991,2.63E-03
0.0038506,0.029831335,-0.041841805,2.64E-03
0.004077106,0.010020232,-0.050345279,2.64E-03
0.004303612,-0.011689773,-0.049957182,2.63E-03
0.004530118,-0.031413145,-0.040580664,2.63E-03
0.004756624,-0.045619354,-0.023797697,2.65E-03
0.00498313,-0.051727936,-0.002481692,2.68E-03
0.005209636,-0.048528835,0.01969306,2.74E-03
0.005436142,-0.036377832,0.03903703,2.85E-03
0.005662648,-0.01711686,0.051715735,2.97E-03
0.005889154,0.006009098,0.055448514,3.11E-03
0.006115659,0.029011553,0.04925479,3.27E-03
0.006342165,0.047747746,0.03387649,3.43E-03
0.006568671,0.05868189,0.011749249,3.58E-03
0.006795177,0.059420131,-0.013194614,3.70E-03
0.007021683,0.049544789,-0.036692299,3.80E-03
0.007248189,0.030564306,-0.054074608,3.86E-03
0.007474695,0.005664266,-0.062223978,3.90E-03
0.007701201,-0.020789767,-0.059212897,3.94E-03
0.007927707,-0.044000357,-0.045231722,3.98E-03
0.008154212,-0.059629258,-0.022442251,4.06E-03
0.008380718,-0.064556912,0.005379391,4.20E-03
0.008607224,-0.057427354,0.033458486,4.42E-03
0.00883373,-0.03891455,0.056788456,4.74E-03
0.009060236,-0.011687987,0.070944004,5.17E-03
0.009286742,0.020150321,0.072987624,5.73E-03
0.009513248,0.050797451,0.06139395,6.35E-03
0.009739754,0.074827842,0.037565678,7.01E-03
0.009966259,0.08743196,0.00504162,7.67E-03
0.010192765,0.085266702,-0.030616377,8.21E-03
0.010419271,0.068092361,-0.06344904,8.66E-03
0.010645777,0.037834942,-0.086828962,8.97E-03
0.010872283,-0.000781765,-0.095553026,9.13E-03
0.011098789,-0.041046735,-0.086677849,9.20E-03
0.011325295,-0.075314365,-0.060203899,9.30E-03
0.011551801,-0.096252874,-0.01929139,9.64E-03
0.011778307,-0.098082237,0.030023757,1.05E-02
0.012004812,-0.077627048,0.079562612,1.24E-02
0.012231318,-0.035042543,0.120082967,1.56E-02
0.012457824,0.025877506,0.142585456,2.10E-02
0.01268433,0.098462172,0.139821902,2.92E-02
0.012910836,0.171537876,0.106880598,4.08E-02
0.013137342,0.233499482,0.043977913,5.65E-02
0.013363848,0.273920953,-0.045444179,7.71E-02
0.013590354,0.282345444,-0.153079763,1.03E-01
0.01381686,0.252227426,-0.267288923,1.35E-01
0.014043366,0.181432053,-0.374407083,1.73E-01
0.014269871,0.072712734,-0.460520953,2.17E-01
0.014496377,-0.06654802,-0.51322943,2.68E-01
0.014722883,-0.225240216,-0.523084342,3.24E-01
0.014949389,-0.389741451,-0.484491915,3.87E-01
0.015175895,-0.545183122,-0.396224529,4.54E-01
0.015402401,-0.67679441,-0.261602283,5.26E-01
0.015628907,-0.771192908,-0.08831469,6.03E-01
0.015855413,-0.817387044,0.112090521,6.81E-01
0.016081919,-0.807681739,0.325508803,7.58E-01
0.016308424,-0.739453554,0.53625685,8.34E-01
0.01653493,-0.615054011,0.727498174,9.08E-01
0.016761436,-0.441504419,0.883497357,9.75E-01
0.016987942,-0.230351835,0.991359353,1.04E+00
0.017214448,0.00337811,1.04239357,1.09E+00
0.017440954,0.242820442,1.03306592,1.13E+00
0.01766746,0.471202642,0.96526289,1.15E+00
0.017893966,0.673713982,0.845764101,1.17E+00
0.018120472,0.838975906,0.685036421,1.17E+00
0.018346978,0.959937692,0.495622158,1.17E+00
0.018573484,1.0341388,0.290798485,1.15E+00
0.01879999,1.06252372,0.083034091,1.14E+00
0.019026496,1.0499121,-0.117973708,1.12E+00
0.019253002,1.01193643,-0.290149599,1.11E+00
0.019479508,0.916625917,-0.4555161,1.05E+00
0.019706012,0.81240344,-0.596992731,1.02E+00
0.019932518,0.692989767,-0.713070154,9.89E-01
0.020159024,0.56321609,-0.804841816,9.65E-01
0.02038553,0.427109241,-0.87384975,9.46E-01
0.020612036,0.287555188,-0.921842098,9.32E-01
0.020838542,0.146447226,-0.950364351,9.25E-01
0.021065048,0.005013485,-0.960449934,9.22E-01
0.021291554,-0.135773957,-0.952475429,9.26E-01
0.02151806,-0.274766624,-0.926157534,9.33E-01
0.021744566,-0.410050601,-0.880716801,9.44E-01
0.021971072,-0.53857547,-0.816135049,9.56E-01
0.022197578,-0.669963002,-0.734169602,9.88E-01
0.022424084,-0.763334394,-0.633251011,9.84E-01
0.02265059,-0.859072089,-0.523234725,1.01E+00
0.022877096,-0.941259086,-0.387247384,1.04E+00
0.023103602,-0.996440649,-0.238089517,1.05E+00
0.023330108,-1.02570784,-0.08151792,1.06E+00
0.023556614,-1.0282377,0.077764928,1.06E+00
0.02378312,-1.00405097,0.234555468,1.06E+00
0.024009624,-0.954460442,0.383702308,1.06E+00
0.02423613,-0.882025898,0.520612657,1.05E+00
0.024462636,-0.79027462,0.641646922,1.04E+00
0.024689142,-0.683294058,0.74433583,1.02E+00
0.024915648,-0.565309286,0.827390015,1.00E+00
0.025142154,-0.440395713,0.890580773,9.87E-01
0.02536866,-0.312226504,0.934691608,9.71E-01
0.025595166,-0.183808655,0.961275876,9.58E-01
0.025821672,-0.05766578,0.973142147,9.50E-01
0.026048178,0.068893895,0.974697769,9.55E-01
0.026274684,0.198518008,0.959689975,9.60E-01
0.02650119,0.325106084,0.927352548,9.66E-01
0.026727696,0.447102845,0.879283071,9.73E-01
0.026954202,0.563198388,0.815610886,9.82E-01
0.027180708,0.671423137,0.736313581,9.93E-01
0.027407214,0.769286633,0.641765296,1.00E+00
0.02763372,0.854026735,0.533015072,1.01E+00
0.027860226,0.922909975,0.411912948,1.02E+00
0.028086732,0.973545432,0.281110376,1.03E+00
0.028313236,1.00418007,0.143948629,1.03E+00
0.028539742,1.01397026,0.004244057,1.03E+00
0.028766248,1.00318372,-0.134056628,1.02E+00
0.028992754,0.973369241,-0.267303884,1.02E+00
0.02921926,0.927570522,-0.393409103,1.02E+00
0.029445766,0.866630614,-0.513540447,1.01E+00
0.029672272,0.788291156,-0.624213159,1.01E+00
0.029898778,0.695916116,-0.721073747,1.00E+00
0.030125284,0.593039572,-0.80320847,9.97E-01
0.03035179,0.482115209,-0.870388031,9.90E-01
0.030578296,0.36514172,-0.922514319,9.84E-01
0.030804802,0.243858591,-0.959561765,9.80E-01
0.031031308,0.11983633,-0.981528342,9.78E-01
0.031257814,-0.005438122,-0.988395274,9.77E-01
0.03148432,-0.1304629,-0.980128169,9.78E-01
0.031710826,-0.253629059,-0.956736386,9.80E-01
0.031937332,-0.373185158,-0.918401718,9.83E-01
0.032163838,-0.487303972,-0.865650773,9.87E-01
0.032390344,-0.594418108,-0.799547434,9.93E-01
0.032616848,-0.694176078,-0.721108139,1.00E+00
0.032843354,-0.785960257,-0.628771842,1.01E+00
0.03306986,-0.865154147,-0.522090495,1.02E+00
0.033296366,-0.928361237,-0.404362619,1.03E+00
0.033522872,-0.974239945,-0.278831065,1.03E+00
0.03374938,-1.00200677,-0.148422688,1.03E+00
0.033975884,-1.01132321,-0.016078839,1.02E+00
0.034202392,-1.00239587,0.115275629,1.02E+00
0.034428896,-0.975995362,0.242881447,1.01E+00
0.0346554,-0.933387995,0.36429894,1.00E+00
0.034881908,-0.876209617,0.4775168,9.96E-01
0.035108412,-0.80632621,0.581007838,9.88E-01
0.03533492,-0.725707293,0.673751354,9.81E-01
0.035561424,-0.636318505,0.755277574,9.75E-01
0.035787932,-0.539885342,0.825875819,9.74E-01
0.036014436,-0.436811864,0.886520624,9.77E-01
0.036240944,-0.325828284,0.936356127,9.83E-01
0.036467448,-0.207809657,0.972486675,9.89E-01
0.036693956,-0.085264728,0.993580282,9.94E-01
0.03692046,0.039769217,0.999192894,1.00E+00
0.037146968,0.165407091,0.988896847,1.01E+00
0.037373472,0.289557427,0.962360561,1.01E+00
0.03759998,0.409881532,0.919566214,1.01E+00
0.037826484,0.523898423,0.860966027,1.02E+00
0.038052992,0.629151642,0.787563384,1.02E+00
0.038279496,0.723398685,0.700917959,1.01E+00
0.038506004,0.804799974,0.603080332,1.01E+00
0.038732508,0.872100294,0.496460438,1.01E+00
0.038959016,0.924821973,0.383597136,1.00E+00
0.03918552,0.963407278,0.266604334,9.99E-01
0.039412024,0.988436699,0.146239594,9.98E-01
0.039638532,0.998764634,0.022999819,9.98E-01
0.039865036,0.993157923,-0.100603975,9.96E-01
0.040091544,0.972114027,-0.221847281,9.94E-01
0.040318048,0.936650693,-0.338898361,9.92E-01
0.040544556,0.887668073,-0.450368673,9.91E-01
0.04077106,0.825964451,-0.554985285,9.90E-01
0.040997568,0.752337933,-0.651479244,9.90E-01
0.041224072,0.667678475,-0.738562584,9.91E-01
0.04145058,0.573041201,-0.814946055,9.93E-01
0.041677084,0.469705701,-0.87940228,9.94E-01
0.041903592,0.359205067,-0.93086201,9.96E-01
0.042130096,0.243293226,-0.968555748,9.97E-01
0.042356604,0.123766281,-0.992186129,1.00E+00
0.042583108,0.001961425,-1.00187242,1.00E+00
0.042809616,-0.121495768,-0.997153521,1.01E+00
0.04303612,-0.245009333,-0.976393402,1.01E+00
0.043262628,-0.365314662,-0.938962102,1.02E+00
0.043489132,-0.47941488,-0.885846198,1.01E+00
0.043715636,-0.585119843,-0.818549812,1.01E+00
0.043942144,-0.68072021,-0.738699675,1.01E+00
0.044168648,-0.764836669,-0.648028076,1.00E+00
0.044395156,-0.836407959,-0.548362315,1.00E+00
0.04462166,-0.894696355,-0.441577494,9.95E-01
0.044848168,-0.939275742,-0.329533309,9.91E-01
0.045074672,-0.970008194,-0.214019135,9.87E-01
0.04530118,-0.987022638,-0.096706718,9.84E-01
0.045527684,-0.990705252,0.020922741,9.82E-01
0.045754192,-0.98165983,0.137760729,9.83E-01
0.045980696,-0.960316658,0.253351033,9.86E-01
0.046207204,-0.926030695,0.367414057,9.93E-01
0.046433708,-0.877528548,0.478268296,9.99E-01
0.046660216,-0.814744771,0.58318305,1.00E+00
0.04688672,-0.73867774,0.679836094,1.01E+00
0.047113228,-0.650606275,0.766389728,1.01E+00
0.047339732,-0.551971912,0.84122473,1.01E+00
0.04756624,-0.444459379,0.902902782,1.01E+00
0.047792744,-0.330022663,0.950250745,1.01E+00
0.048019248,-0.210834295,0.982463419,1.01E+00
0.048245756,-0.089183912,0.99917841,1.01E+00
0.04847226,0.032654513,1.00050926,1.00E+00
0.048698768,0.152575031,0.987044096,9.98E-01
0.048925272,0.268829316,0.959788144,9.93E-01
0.04915178,0.380279452,0.919955254,9.91E-01
0.049378284,0.486473769,0.868365645,9.91E-01
0.049604792,0.586781442,0.80488354,9.92E-01
0.049831296,0.679409981,0.729421437,9.94E-01
0.050057804,0.762354016,0.643027484,9.95E-01
0.050284308,0.834277987,0.54724586,9.95E-01
0.050510816,0.89426899,0.443543643,9.96E-01
0.05073732,0.941532791,0.333319247,9.98E-01
0.050963828,0.975328803,0.218034506,9.99E-01
0.051190332,0.99501878,0.099296123,1.00E+00
0.05141684,1.00015008,-0.021124601,1.00E+00
0.051643344,0.990542352,-0.141323671,1.00E+00
0.051869852,0.966361403,-0.259341836,1.00E+00
0.052096356,0.928162456,-0.373295248,1.00E+00
0.05232286,0.876858473,-0.481570423,1.00E+00
0.052549368,0.813471377,-0.583037853,1.00E+00
0.052775872,0.738588452,-0.676897466,1.00E+00
0.05300238,0.652328849,-0.761774063,1.01E+00
0.053228884,0.555534303,-0.83548826,1.01E+00
0.053455392,0.450153708,-0.896251559,1.01E+00
0.053681896,0.338404804,-0.943145931,1.00E+00
0.053908404,0.222327203,-0.975784183,1.00E+00
0.054134908,0.103781417,-0.994045615,9.99E-01
0.054361416,-0.015487284,-0.997990847,9.96E-01
0.05458792,-0.133817375,-0.987845898,9.94E-01
0.054814428,-0.249627247,-0.963997662,9.92E-01
0.055040932,-0.36142391,-0.926996052,9.90E-01
0.05526744,-0.467832386,-0.877555132,9.89E-01
0.055493944,-0.567653477,-0.81654036,9.89E-01
0.055720452,-0.659964979,-0.744885683,9.90E-01
0.055946956,-0.744146466,-0.663316905,9.94E-01
0.056173464,-0.819455981,-0.572027743,9.99E-01
0.056399968,-0.884276927,-0.471148014,1.00E+00
0.056626472,-0.936473608,-0.361835182,1.01E+00
0.05685298,-0.974488497,-0.246184811,1.01E+00
0.057079484,-0.997531652,-0.126480415,1.01E+00
0.057305992,-1.00528383,-0.004922363,1.01E+00
0.057532496,-0.997754931,0.116358034,1.01E+00
0.057759004,-0.975270092,0.235295311,1.01E+00
0.057985508,-0.938471615,0.349934667,1.00E+00
0.058212016,-0.888303876,0.458501905,9.99E-01
0.05843852,-0.825964212,0.559474647,9.95E-01
0.058665028,-0.752833009,0.651652277,9.91E-01
0.058891532,-0.670360804,0.734215617,9.88E-01
0.05911804,-0.579870284,0.80676347,9.87E-01
0.059344544,-0.482235968,0.869151592,9.88E-01
0.059571052,-0.37778461,0.920893013,9.91E-01
0.059797556,-0.267034471,0.96069175,9.94E-01
0.060024064,-0.151435778,0.987111807,9.97E-01
0.060250568,-0.032964468,0.99934411,1.00E+00
0.060477076,0.08643622,0.997110903,1.00E+00
0.06070358,0.204929546,0.980391204,1.00E+00
0.060930084,0.320698053,0.949350119,1.00E+00
0.061156592,0.431910038,0.904380322,1.00E+00
0.061383096,0.536756873,0.846158028,1.00E+00
0.061609604,0.633531332,0.775671422,1.00E+00
0.061836108,0.720728278,0.69420886,1.00E+00
0.062062616,0.79715234,0.60329783,9.99E-01
0.06228912,0.862014711,0.504573941,9.98E-01
0.062515628,0.914948642,0.399536699,9.97E-01
0.062742132,0.955753446,0.28926751,9.97E-01
0.06296864,0.983829975,0.174558952,9.98E-01
0.063195144,0.9981094,0.056687344,9.99E-01
0.063421652,0.997863173,-0.062313214,1.00E+00
0.063648156,0.983120978,-0.180275396,9.99E-01
0.063874664,0.954370081,-0.29532215,9.98E-01
0.064101168,0.912266552,-0.405845195,9.97E-01
0.064327676,0.857552528,-0.510390937,9.96E-01
0.06455418,0.791069269,-0.60760051,9.95E-01
0.064780688,0.713786185,-0.696198761,9.94E-01
0.065007192,0.626822829,-0.775021613,9.94E-01
0.065233696,0.53144902,-0.843064547,9.93E-01
0.065460204,0.429048091,-0.899546921,9.93E-01
0.065686708,0.321010113,-0.943963885,9.94E-01
0.065913216,0.208541542,-0.976032972,9.96E-01
0.06613972,0.092546582,-0.995376289,9.99E-01
0.066366228,-0.025994502,-1.0011301,1.00E+00
0.066592732,-0.145349458,-0.992260098,1.01E+00
0.06681924,-0.263139546,-0.968376637,1.01E+00
0.067045744,-0.377022505,-0.929899693,1.01E+00
0.067272248,-0.485002756,-0.877714515,1.01E+00
0.06749876,-0.585402012,-0.812932253,1.00E+00
0.067725264,-0.676793873,-0.736813009,1.00E+00
0.067951768,-0.757982731,-0.650741398,9.98E-01
0.068178272,-0.828010559,-0.556200624,9.95E-01
0.068404784,-0.886170328,-0.454732448,9.92E-01
0.068631288,-0.932017267,-0.347885728,9.90E-01
0.068857792,-0.965371907,-0.237137869,9.88E-01
0.069084296,-0.986278236,-0.123773895,9.88E-01
0.0693108,-0.994829118,-0.00875152,9.90E-01
0.069537312,-0.99079293,0.107228555,9.93E-01
0.069763816,-0.973421872,0.223170877,9.97E-01
0.06999032,-0.942006707,0.337295175,1.00E+00
0.070216824,-0.896532297,0.447380602,1.00E+00
0.070443336,-0.837639153,0.551338136,1.01E+00
0.07066984,-0.766318858,0.64737004,1.01E+00
0.070896344,-0.683769226,0.733909011,1.01E+00
0.071122848,-0.591377914,0.809589207,1.01E+00
0.07134936,-0.490716636,0.873268723,1.00E+00
0.071575864,-0.383512884,0.924081385,1.00E+00
0.071802368,-0.271584272,0.961482108,9.98E-01
0.072028872,-0.156746179,0.985277891,9.95E-01
0.072255384,-0.040682655,0.99561739,9.93E-01
0.072481888,0.07520736,0.992898762,9.92E-01
0.072708392,0.18991068,0.977512002,9.92E-01
0.072934896,0.302592069,0.949483931,9.93E-01
0.073161408,0.412029624,0.908500075,9.95E-01
0.073387912,0.516407609,0.854530394,9.97E-01
0.073614416,0.613807142,0.788214445,9.98E-01
0.07384092,0.702617407,0.710630536,9.99E-01
0.074067424,0.781542122,0.623013079,9.99E-01
0.074293936,0.849482059,0.526664138,9.99E-01
0.07452044,0.905483961,0.422975808,9.99E-01
0.074746944,0.94875133,0.313456506,9.98E-01
0.074973448,0.978689492,0.199731871,9.98E-01
0.07519996,0.994956672,0.083506189,9.97E-01
0.075426464,0.997503042,-0.033511277,9.96E-01
0.075652968,0.98656559,-0.149724871,9.96E-01
0.075879472,0.962563217,-0.263785362,9.96E-01
0.076105984,0.925841093,-0.374611646,9.98E-01
0.076332488,0.87644285,-0.481083989,1.00E+00
0.076558992,0.814370811,-0.581593215,1.00E+00
0.076785496,0.740189135,-0.674138308,1.00E+00
0.077012008,0.655153215,-0.756905019,1.00E+00
0.077238512,0.560856044,-0.828553319,1.00E+00
0.077465016,0.458955258,-0.888149381,9.99E-01
0.07769152,0.351089358,-0.935036421,9.98E-01
0.077918032,0.238879219,-0.968768477,9.96E-01
0.078144536,0.123933509,-0.98909086,9.94E-01
0.07837104,0.007839495,-0.995943666,9.92E-01
0.078597544,-0.107865229,-0.989466488,9.91E-01
0.078824048,-0.221746475,-0.969992518,9.90E-01
0.07905056,-0.332548112,-0.938001215,9.90E-01
0.079277064,-0.439246982,-0.893977523,9.92E-01
0.079503568,-0.540941954,-0.838184893,9.95E-01
0.079730072,-0.63646394,-0.770617664,9.99E-01
0.079956584,-0.724075496,-0.691449463,1.00E+00
0.080183088,-0.801794589,-0.60155344,1.00E+00
0.080409592,-0.867947817,-0.502447844,1.01E+00
0.080636096,-0.921352208,-0.395936757,1.01E+00
0.080862608,-0.961229742,-0.283894241,1.00E+00
0.081089112,-0.987118483,-0.16819948,1.00E+00
0.081315616,-0.998839259,-0.050718073,1.00E+00
0.08154212,-0.996488988,0.066731207,9.97E-01
0.081768632,-0.980431259,0.182427138,9.95E-01
0.081995136,-0.951271296,0.294807076,9.92E-01
0.08222164,-0.909799278,0.402537912,9.90E-01
0.082448144,-0.856878638,0.504577994,9.89E-01
0.082674648,-0.793250978,0.600162029,9.89E-01
0.08290116,-0.71934098,0.6885764,9.92E-01
0.083127664,-0.635361195,0.768747151,9.95E-01
0.083354168,-0.541830957,0.839115381,9.98E-01
0.083580672,-0.43992269,0.898070693,1.00E+00
0.083807184,-0.33126983,0.944378436,1.00E+00
0.084033688,-0.21765554,0.977226317,1.00E+00
0.084260192,-0.100884899,0.996110976,1.00E+00
0.084486696,0.01722428,1.00077927,1.00E+00
0.084713208,0.134842545,0.991225779,1.00E+00
0.084939712,0.250160903,0.96771735,9.99E-01
0.085166216,0.361451775,0.930802584,9.97E-01
0.08539272,0.467151463,0.881296277,9.95E-01
0.085619232,0.565951049,0.820216298,9.93E-01
0.085845736,0.656856418,0.74864316,9.92E-01
0.08607224,0.739132822,0.667516708,9.92E-01
0.086298744,0.812033534,0.577507913,9.93E-01
0.086525256,0.874467731,0.479250371,9.94E-01
0.08675176,0.925085247,0.373813629,9.96E-01
0.086978264,0.962756097,0.262818843,9.96E-01
0.087204768,0.986836493,0.148122966,9.96E-01
0.087431272,0.997088075,0.031541713,9.95E-01
0.087657784,0.993523479,-0.085217901,9.94E-01
0.087884288,0.976329148,-0.20053257,9.93E-01
0.088110792,0.945852637,-0.312836438,9.93E-01
0.088337296,0.902613759,-0.420622528,9.92E-01
0.088563808,0.847318053,-0.522474647,9.91E-01
0.088790312,0.780842245,-0.617118359,9.91E-01
0.089016816,0.704181731,-0.703481972,9.91E-01
0.08924332,0.618328214,-0.780715406,9.92E-01
0.089469832,0.524121225,-0.848081291,9.94E-01
0.089696336,0.422255933,-0.904673874,9.97E-01
0.08992284,0.313631415,-0.949239016,9.99E-01
0.090149344,0.199739873,-0.980463266,1.00E+00
0.090375856,0.08258649,-0.997460604,1.00E+00
0.09060236,-0.035693359,-0.999930859,1.00E+00
0.090828864,-0.153084189,-0.988023639,1.00E+00
0.091055368,-0.267750531,-0.962186456,9.97E-01
0.091281872,-0.378030539,-0.9230811,9.95E-01
0.091508384,-0.48243174,-0.871545851,9.92E-01
0.091734888,-0.579642415,-0.808570206,9.90E-01
0.091961392,-0.668553412,-0.735259116,9.88E-01
0.092187896,-0.748283446,-0.652782619,9.86E-01
0.092414408,-0.818184674,-0.562285125,9.86E-01
0.092640912,-0.877787411,-0.464764416,9.87E-01
0.092867416,-0.926603675,-0.360983491,9.89E-01
0.09309392,-0.963846385,-0.251614004,9.92E-01
0.093320432,-0.988388896,-0.137659907,9.96E-01
0.093546936,-0.999166131,-0.020730788,9.99E-01
0.09377344,-0.995589197,0.097155616,1.00E+00
0.093999944,-0.977600157,0.213925242,1.00E+00
0.094226456,-0.945531249,0.32762146,1.00E+00
0.09445296,-0.89999491,0.436434448,1.00E+00
0.094679464,-0.841841102,0.538704574,9.99E-01
0.094905968,-0.772137225,0.632946491,9.97E-01
0.09513248,-0.69214052,0.717890024,9.94E-01
0.095358984,-0.603245437,0.792527378,9.92E-01
0.095585488,-0.506898642,0.856147408,9.90E-01
0.095811992,-0.404475391,0.908326387,9.89E-01
0.096038496,-0.297144085,0.948826551,9.89E-01
0.096265008,-0.185826778,0.977354527,9.90E-01
0.096491512,-0.071427457,0.993328273,9.92E-01
0.096718016,0.044774238,0.995972633,9.94E-01
0.09694452,0.161017478,0.984742582,9.96E-01
0.097171032,0.275349706,0.959595144,9.97E-01
0.097397536,0.385916829,0.920918643,9.97E-01
0.09762404,0.491046131,0.869368076,9.97E-01
0.097850544,0.589222133,0.805777669,9.96E-01
0.098077056,0.679065049,0.731139958,9.96E-01
0.09830356,0.759340763,0.646609187,9.95E-01
0.098530064,0.82899648,0.553491116,9.94E-01
0.098756568,0.887207031,0.453204572,9.93E-01
0.09898308,0.933407247,0.347206652,9.92E-01
0.099209584,0.967273355,0.236879334,9.92E-01
