Frequency (GHz),Re( S21 ),Im( S21 ),S2
0,0.048361149,6.00E-05,2.34E-03
0.000226555,0.044082172,-0.019727571,2.33E-03
0.000453109,0.0319901,-0.035939045,2.31E-03
0.000679664,0.014297447,-0.045667835,2.29E-03
0.000906218,-0.005796741,-0.047210835,2.26E-03
0.001132773,-0.024710961,-0.040344287,2.24E-03
0.001359328,-0.039120175,-0.026318329,2.22E-03
0.001585882,-0.046512235,-0.00760275,2.22E-03
0.001812437,-0.045585003,0.012546613,2.24E-03
0.002038991,-0.036446411,0.030624284,2.27E-03
0.002265546,-0.020546999,0.043630604,2.33E-03
0.002492101,-0.000644298,0.048827343,2.38E-03
0.002718655,0.019798851,0.045339204,2.45E-03
0.00294521,0.037126076,0.033619572,2.51E-03
0.003171764,0.048142485,0.015624199,2.56E-03
0.003398319,0.050716024,-0.005425323,2.60E-03
0.003624874,0.044255357,-0.025850149,2.63E-03
0.003851428,0.029821547,-0.041817453,2.64E-03
0.004077983,0.010021817,-0.050316714,2.63E-03
0.004304538,-0.011676003,-0.04993207,2.63E-03
0.004531092,-0.031389657,-0.040563941,2.63E-03
0.004757647,-0.045590755,-0.023792792,2.64E-03
0.004984201,-0.051699922,-0.002489935,2.68E-03
0.005210756,-0.04850699,0.019673323,2.74E-03
0.005437311,-0.036367964,0.039012335,2.84E-03
0.005663865,-0.017118949,0.051689245,2.96E-03
0.00589042,0.005995603,0.055425268,3.11E-03
0.006116974,0.028989319,0.049239505,3.26E-03
0.006343529,0.047720864,0.033872042,3.42E-03
0.006570083,0.058656029,0.01175665,3.58E-03
0.006796638,0.059398126,-0.013177018,3.70E-03
0.007023193,0.049532432,-0.036666874,3.80E-03
0.007249747,0.030563118,-0.05404415,3.85E-03
0.007476302,0.005676596,-0.0621957,3.90E-03
0.007702856,-0.020766083,-0.059192471,3.93E-03
0.007929411,-0.043969501,-0.045223769,3.98E-03
0.008155966,-0.059597388,-0.02244908,4.06E-03
0.00838252,-0.064530879,0.005358488,4.19E-03
0.008609075,-0.057413064,0.033427034,4.41E-03
0.008835629,-0.038915731,0.056752976,4.74E-03
0.009062184,-0.011705069,0.07091175,5.17E-03
0.009288738,0.020121021,0.072968289,5.73E-03
0.009515293,0.050761573,0.061389156,6.35E-03
0.009741848,0.074792586,0.037576921,7.01E-03
0.009968402,0.087403849,0.00506868,7.67E-03
0.010194957,0.085248828,-0.030579818,8.20E-03
0.010421511,0.068092153,-0.063408472,8.66E-03
0.010648066,0.037852943,-0.086791888,8.97E-03
0.010874621,-0.000748505,-0.095527545,9.13E-03
0.011101175,-0.041004259,-0.086670436,9.19E-03
0.01132773,-0.07527151,-0.060218032,9.29E-03
0.011554284,-0.096219562,-0.01932673,9.63E-03
0.011780839,-0.098067999,0.029972216,1.05E-02
0.012007393,-0.077639028,0.079503618,1.23E-02
0.012233948,-0.035084188,0.120028324,1.56E-02
0.012460503,0.025808405,0.14254795,2.10E-02
0.012687057,0.098374233,0.139816284,2.92E-02
0.012913612,0.171441272,0.106911905,4.08E-02
0.013140166,0.233407259,0.04404987,5.64E-02
0.013366721,0.273849875,-0.045330863,7.70E-02
0.013593276,0.282311678,-0.152932629,1.03E-01
0.01381983,0.252245009,-0.267120987,1.35E-01
0.014046385,0.181510583,-0.374237299,1.73E-01
0.014272939,0.072854601,-0.460371882,2.17E-01
0.014499494,-0.066349633,-0.513125718,2.68E-01
0.014726049,-0.225002438,-0.523047507,3.24E-01
0.014952603,-0.389490247,-0.484536082,3.86E-01
0.015179158,-0.544948459,-0.396352917,4.54E-01
0.015405712,-0.676606715,-0.261806965,5.26E-01
0.015632267,-0.771075487,-0.088577904,6.02E-01
0.015858822,-0.817349076,0.111794986,6.81E-01
0.016085376,-0.807722986,0.325221241,7.58E-01
0.016311931,-0.739573002,0.536007047,8.34E-01
0.016538485,-0.615234792,0.727302849,9.07E-01
0.01676504,-0.441723436,0.883366823,9.75E-01
0.016991594,-0.230585665,0.991295576,1.04E+00
0.01721815,0.003148308,1.04239118,1.09E+00
0.017444704,0.242609352,1.03311694,1.13E+00
0.017671258,0.471020311,0.965357304,1.15E+00
0.017897812,0.67356801,0.845891535,1.17E+00
0.018124368,0.838873386,0.685185373,1.17E+00
0.018350922,0.959887207,0.495779544,1.17E+00
0.018577476,1.03414619,0.290959746,1.15E+00
0.018804032,1.06258559,0.083182596,1.14E+00
0.019030586,1.05006146,-0.117862158,1.12E+00
0.01925714,1.01111913,-0.289245248,1.11E+00
0.019483696,0.916672826,-0.455481231,1.05E+00
0.01971025,0.812478423,-0.596967995,1.02E+00
0.019936804,0.6930601,-0.713065505,9.89E-01
0.020163358,0.563271761,-0.804849923,9.65E-01
0.020389914,0.427148521,-0.873862326,9.46E-01
0.020616468,0.287581146,-0.92185092,9.33E-01
0.020843022,0.146466523,-0.95036447,9.25E-01
0.021069578,0.005033449,-0.960441709,9.22E-01
0.021296132,-0.135747626,-0.952460587,9.26E-01
0.021522686,-0.274730384,-0.926138997,9.33E-01
0.021749242,-0.409993142,-0.88069725,9.44E-01
0.021975796,-0.538495123,-0.816139638,9.56E-01
0.02220235,-0.669974864,-0.73421979,9.88E-01
0.022428904,-0.763207257,-0.633379638,9.84E-01
0.02265546,-0.859249055,-0.523370802,1.01E+00
0.022882014,-0.941316485,-0.38726598,1.04E+00
0.023108568,-0.996490717,-0.238114521,1.05E+00
0.023335124,-1.02576721,-0.081530467,1.06E+00
0.023561678,-1.02830029,0.077774718,1.06E+00
0.023788232,-1.00410604,0.2345891,1.06E+00
0.024014786,-0.954498112,0.383755386,1.06E+00
0.024241342,-0.882039785,0.520676374,1.05E+00
0.024467896,-0.79026264,0.641710222,1.04E+00
0.02469445,-0.683258235,0.744387805,1.02E+00
0.024921006,-0.56525743,0.827419937,1.00E+00
0.02514756,-0.440342337,0.890582204,9.87E-01
0.025374114,-0.312189668,0.934667766,9.71E-01
0.02560067,-0.183810964,0.96124053,9.58E-01
0.025827224,-0.057723384,0.973167241,9.50E-01
0.026053778,0.06895069,0.974781156,9.55E-01
0.026280332,0.198591769,0.959691405,9.60E-01
0.026506888,0.325155258,0.927332819,9.66E-01
0.026733442,0.447138488,0.879260361,9.73E-01
0.026959996,0.563227415,0.815588057,9.82E-01
0.027186552,0.671448708,0.736289859,9.93E-01
0.027413106,0.76930958,0.641739726,1.00E+00
0.02763966,0.854046404,0.532986522,1.01E+00
0.027866216,0.922924995,0.411882073,1.02E+00
0.02809277,0.973553658,0.281079054,1.03E+00
0.028319324,1.00418067,0.143920764,1.03E+00
0.028545878,1.01396573,0.004226514,1.03E+00
0.028772434,1.00318396,-0.134056672,1.02E+00
0.028998988,0.97339952,-0.267284513,1.02E+00
0.029225542,0.927669525,-0.393427014,1.02E+00
0.029452098,0.866691768,-0.513658524,1.01E+00
0.029678652,0.788279355,-0.624327958,1.01E+00
0.029905206,0.695874751,-0.721165538,1.00E+00
0.030131762,0.592981756,-0.803281426,9.97E-01
0.030358316,0.482045919,-0.870442927,9.90E-01
0.03058487,0.365065455,-0.922549307,9.84E-01
0.030811424,0.243781596,-0.959575653,9.80E-01
0.03103798,0.119765811,-0.981522262,9.78E-01
0.031264534,-0.005495505,-0.988373876,9.77E-01
0.031491088,-0.130501404,-0.980096877,9.78E-01
0.031717644,-0.253644645,-0.956705332,9.80E-01
0.031944198,-0.373177469,-0.918383718,9.83E-01
0.032170752,-0.487278134,-0.865663528,9.87E-01
0.032397306,-0.594400585,-0.799615383,9.93E-01
0.032623862,-0.6942361,-0.721213162,1.00E+00
0.032850416,-0.786085308,-0.628817201,1.01E+00
0.03307697,-0.865272522,-0.522082627,1.02E+00
0.033303526,-0.928467631,-0.404329747,1.03E+00
0.03353008,-0.974337697,-0.27877751,1.03E+00
0.033756636,-1.00209308,-0.148348331,1.03E+00
0.033983188,-1.01139033,-0.015985919,1.02E+00
0.034209744,-1.00243819,0.115380183,1.02E+00
0.0344363,-0.976010025,0.242988288,1.01E+00
0.034662852,-0.933376014,0.3643969,1.00E+00
0.034889408,-0.876178026,0.477595508,9.96E-01
0.035115964,-0.806287527,0.58106041,9.88E-01
0.035342516,-0.725678265,0.673777521,9.81E-01
0.035569072,-0.636320412,0.755289078,9.75E-01
0.035795624,-0.539928496,0.825910985,9.74E-01
0.03602218,-0.436847955,0.886618853,9.77E-01
0.036248736,-0.325806111,0.936468661,9.83E-01
0.036475288,-0.207760915,0.972574532,9.89E-01
0.036701844,-0.08521156,0.993652761,9.95E-01
0.0369284,0.039825965,0.999259591,1.00E+00
0.037154952,0.165471271,0.988960147,1.01E+00
0.037381508,0.289631367,0.962418377,1.01E+00
0.037608064,0.409965336,0.919614315,1.01E+00
0.037834616,0.523989081,0.861001074,1.02E+00
0.038061172,0.629243553,0.787584007,1.02E+00
0.038287728,0.723487198,0.700927079,1.01E+00
0.03851428,0.804881752,0.603084147,1.01E+00
0.038740836,0.872177899,0.49646911,1.01E+00
0.038967392,0.924910963,0.3836191,1.00E+00
0.039193944,0.963538647,0.266624808,9.99E-01
0.0394205,0.98860389,0.146201834,9.99E-01
0.039647056,0.998902321,0.022896089,9.98E-01
0.039873608,0.99324441,-0.100728467,9.97E-01
0.040100164,0.972162843,-0.221967146,9.94E-01
0.040326716,0.936674297,-0.339006305,9.92E-01
0.040553272,0.887675583,-0.450461596,9.91E-01
0.040779828,0.825962722,-0.555061638,9.90E-01
0.04100638,0.752334833,-0.651539087,9.91E-01
0.041232936,0.667681277,-0.738606691,9.91E-01
0.041459492,0.57305789,-0.814979434,9.93E-01
0.041686044,0.46974358,-0.87943238,9.94E-01
0.0419126,0.359269947,-0.930900633,9.96E-01
0.042139156,0.243387207,-0.968621373,9.97E-01
0.042365708,0.123878516,-0.992307186,1.00E+00
0.042592264,0.002048529,-1.0020709,1.00E+00
0.04281882,-0.121490069,-0.997394383,1.01E+00
0.043045372,-0.245075986,-0.9766168,1.01E+00
0.043271928,-0.365419984,-0.939155698,1.02E+00
0.043498484,-0.479546219,-0.886015773,1.01E+00
0.043725036,-0.585274816,-0.818696499,1.01E+00
0.043951592,-0.680895209,-0.738820076,1.01E+00
0.044178144,-0.765025735,-0.648119211,1.01E+00
0.0444047,-0.836603761,-0.548424304,1.00E+00
0.044631256,-0.894892037,-0.441613376,9.96E-01
0.044857808,-0.939467132,-0.329548657,9.91E-01
0.045084364,-0.970196128,-0.214022323,9.87E-01
0.04531092,-0.987213016,-0.096704334,9.84E-01
0.045537472,-0.990913272,0.020929614,9.82E-01
0.045764028,-0.98190552,0.137788981,9.83E-01
0.045990584,-0.960597396,0.253444225,9.87E-01
0.046217136,-0.926293969,0.367597163,9.93E-01
0.046443692,-0.877732098,0.478507996,9.99E-01
0.046670248,-0.814890027,0.583445072,1.00E+00
0.0468968,-0.738774717,0.680107832,1.01E+00
0.047123356,-0.650658488,0.766666055,1.01E+00
0.047349912,-0.551980376,0.841499865,1.01E+00
0.047576464,-0.444425225,0.903167546,1.01E+00
0.04780302,-0.329950958,0.95049727,1.01E+00
0.048029572,-0.210733041,0.982684612,1.01E+00
0.048256128,-0.089063793,0.999370694,1.01E+00
0.048482684,0.03278178,1.00067604,1.00E+00
0.048709236,0.152700663,0.987195253,9.98E-01
0.048935792,0.268954337,0.959940672,9.94E-01
0.049162348,0.380425632,0.9201231,9.91E-01
0.0493889,0.486675173,0.868530393,9.91E-01
0.049615456,0.587032735,0.804994941,9.93E-01
0.049842012,0.679666519,0.72946465,9.94E-01
0.050068564,0.762588322,0.643022478,9.95E-01
0.05029512,0.834485948,0.54721278,9.96E-01
0.050521676,0.894453585,0.443493843,9.97E-01
0.050748228,0.94169718,0.333259404,9.98E-01
0.050974784,0.975475371,0.217969701,9.99E-01
0.05120134,0.995150864,0.099231064,1.00E+00
0.051427892,1.00027287,-0.021185787,1.00E+00
0.051654448,0.990662098,-0.141377807,1.00E+00
0.051881004,0.966488302,-0.259388566,1.00E+00
0.052107556,0.928309858,-0.373340249,1.00E+00
0.052334112,0.877039135,-0.481632382,1.00E+00
0.052560664,0.813681066,-0.58315134,1.00E+00
0.05278722,0.738784969,-0.677088261,1.00E+00
0.053013776,0.65246278,-0.762017727,1.01E+00
0.053240328,0.555600286,-0.835738838,1.01E+00
0.053466884,0.450171471,-0.896485806,1.01E+00
0.05369344,0.338390619,-0.943359256,1.00E+00
0.053919992,0.222291037,-0.97597456,1.00E+00
0.054146548,0.103731461,-0.994212329,9.99E-01
0.054373104,-0.01554163,-0.998134375,9.97E-01
0.054599656,-0.133866459,-0.987969995,9.94E-01
0.054826212,-0.249661699,-0.964110374,9.92E-01
0.055052768,-0.361438453,-0.927110195,9.90E-01
0.05527932,-0.467827141,-0.877687812,9.89E-01
0.055505876,-0.567640126,-0.816712201,9.89E-01
0.055732432,-0.659971118,-0.745109379,9.91E-01
0.055958984,-0.744211137,-0.663580894,9.94E-01
0.05618554,-0.819596171,-0.572287619,9.99E-01
0.056412092,-0.884464979,-0.471370012,1.00E+00
0.056638648,-0.936680555,-0.362026155,1.01E+00
0.056865204,-0.974712431,-0.246360376,1.01E+00
0.057091756,-0.997780502,-0.12664409,1.01E+00
0.057318312,-1.00556457,-0.005068866,1.01E+00
0.057544868,-0.998070002,0.11623808,1.01E+00
0.05777142,-0.975617349,0.235211208,1.01E+00
0.057997976,-0.938847184,0.349894464,1.00E+00
0.058224532,-0.888701856,0.458512068,1.00E+00
0.058451084,-0.826379597,0.559541643,9.96E-01
0.05867764,-0.753260553,0.651783228,9.92E-01
0.058904196,-0.670793474,0.734423459,9.89E-01
0.059130748,-0.580290675,0.807068408,9.88E-01
0.059357304,-0.482601523,0.869565964,9.89E-01
0.05958386,-0.378039777,0.921389997,9.92E-01
0.059810412,-0.267160535,0.961210132,9.95E-01
0.060036968,-0.151455179,0.987604439,9.98E-01
0.060263524,-0.032907333,0.999791086,1.00E+00
0.060490076,0.086546123,0.99750632,1.00E+00
0.060716632,0.205071867,0.980733216,1.00E+00
0.060943184,0.320853293,0.949641764,1.00E+00
0.06116974,0.43206045,0.904630363,1.01E+00
0.061396296,0.536888897,0.846382737,1.00E+00
0.061622848,0.63363874,0.77589184,1.00E+00
0.061849404,0.720815361,0.694449723,1.00E+00
0.06207596,0.797236979,0.603582978,1.00E+00
0.062302512,0.862130463,0.504916906,9.98E-01
0.062529068,0.915138841,0.399927557,9.97E-01
0.062755624,0.956047833,0.289663732,9.98E-01
0.062982176,0.984217107,0.174912855,9.99E-01
0.063208732,0.99855864,0.056983918,1.00E+00
0.063435288,0.998363554,-0.062069044,1.00E+00
0.06366184,0.983675599,-0.180087626,1.00E+00
0.063888396,0.954978764,-0.295206606,9.99E-01
0.064114952,0.91291976,-0.405821055,9.98E-01
0.064341504,0.858231664,-0.510473788,9.97E-01
0.06456806,0.791751087,-0.607798398,9.96E-01
0.064794612,0.714446008,-0.696512103,9.96E-01
0.065021168,0.627439141,-0.775445819,9.95E-01
0.065247724,0.532004237,-0.843590975,9.95E-01
0.065474276,0.429527253,-0.90016818,9.95E-01
0.065700832,0.321395338,-0.944676578,9.96E-01
0.065927388,0.208802015,-0.976830661,9.98E-01
0.06615394,0.092640892,-0.996226132,1.00E+00
0.066380496,-0.026082993,-1.00196612,1.00E+00
0.066607052,-0.145589903,-0.993020833,1.01E+00
0.066833604,-0.263483226,-0.969037354,1.01E+00
0.06706016,-0.377429932,-0.930459797,1.01E+00
0.067286712,-0.485447705,-0.878181696,1.01E+00
0.067513272,-0.585865498,-0.813316703,1.00E+00
0.067739824,-0.677262127,-0.737126768,1.00E+00
0.067966376,-0.758446813,-0.650998294,9.99E-01
0.068192936,-0.828467965,-0.556414545,9.96E-01
0.068419488,-0.886624575,-0.454916984,9.93E-01
0.06864604,-0.93247962,-0.348050624,9.91E-01
0.0688726,-0.965859652,-0.23728399,9.89E-01
0.069099152,-0.986812413,-0.123886593,9.89E-01
0.069325704,-0.995417595,-0.008794661,9.91E-01
0.069552264,-0.991408288,0.107296072,9.94E-01
0.069778816,-0.974009216,0.223357588,9.99E-01
0.070005368,-0.942525923,0.337570578,1.00E+00
0.070231928,-0.896974087,0.447708249,1.01E+00
0.07045848,-0.838008583,0.551693141,1.01E+00
0.070685032,-0.766623318,0.647735298,1.01E+00
0.070911592,-0.684018314,0.734271765,1.01E+00
0.071138144,-0.591583252,0.80993855,1.01E+00
0.071364696,-0.490894258,0.873598695,1.00E+00
0.071591248,-0.383680671,0.924392521,1.00E+00
0.071817808,-0.271760017,0.961784542,9.99E-01
0.07204436,-0.156941786,0.98559165,9.96E-01
0.072270912,-0.040898293,0.995971262,9.94E-01
0.072497472,0.074993014,0.993322134,9.92E-01
0.072724024,0.189740673,0.978015125,9.93E-01
0.072950576,0.302505732,0.950040877,9.94E-01
0.073177136,0.412032068,0.909069777,9.96E-01
0.073403688,0.516480863,0.855094016,9.98E-01
0.07363024,0.61394006,0.788772345,9.99E-01
0.0738568,0.702813208,0.711185157,1.00E+00
0.074083352,0.781807423,0.623557627,1.00E+00
0.074309904,0.849821389,0.527186275,1.00E+00
0.074536464,0.905895591,0.423460901,1.00E+00
0.074763016,0.949229181,0.313892096,1.00E+00
0.074989568,0.979224443,0.200108185,9.99E-01
0.075216128,0.995540142,0.083817676,9.98E-01
0.07544268,0.998129487,-0.033269025,9.97E-01
0.075669232,0.987232983,-0.149561435,9.97E-01
0.075895792,0.963263988,-0.263720334,9.97E-01
0.076122344,0.926546752,-0.374668598,9.99E-01
0.076348896,0.877101958,-0.481262565,1.00E+00
0.076575456,0.814942181,-0.581851959,1.00E+00
0.076802008,0.74067241,-0.674425185,1.00E+00
0.07702856,0.655572832,-0.757185936,1.00E+00
0.07725512,0.561243057,-0.828816414,1.00E+00
0.077481672,0.459335715,-0.88839668,1.00E+00
0.077708224,0.351484627,-0.935279489,9.98E-01
0.077934784,0.239304006,-0.969024658,9.96E-01
0.078161336,0.124395721,-0.989384353,9.94E-01
0.078387888,0.008338365,-0.996302247,9.93E-01
0.078614448,-0.107341863,-0.989919543,9.91E-01
0.078841,-0.221225053,-0.970568717,9.91E-01
0.079067552,-0.332072198,-0.938721299,9.91E-01
0.079294112,-0.438876271,-0.89483875,9.93E-01
0.079520664,-0.540733695,-0.839147747,9.97E-01
0.079747216,-0.636440396,-0.771615744,1.00E+00
0.079973768,-0.724218369,-0.692427516,1.00E+00
0.080200328,-0.802075565,-0.602485299,1.01E+00
0.08042688,-0.868347466,-0.503321171,1.01E+00
0.080653432,-0.92185694,-0.396739751,1.01E+00
0.080879992,-0.961823046,-0.284614474,1.01E+00
0.081106544,-0.987780571,-0.168829173,1.00E+00
0.081333096,-0.999548972,-0.051256191,1.00E+00
0.081559656,-0.997228324,0.066277646,9.99E-01
0.081786208,-0.981189132,0.182045013,9.96E-01
0.08201276,-0.95204699,0.294482768,9.93E-01
0.08223932,-0.910601199,0.402263969,9.91E-01
0.082465872,-0.857718587,0.504359961,9.90E-01
0.082692424,-0.794129252,0.600016832,9.91E-01
0.082918984,-0.72023797,0.688515306,9.93E-01
0.083145536,-0.636256218,0.768753827,9.96E-01
0.083372088,-0.542733431,0.839160442,9.99E-01
0.083598648,-0.440868437,0.898147106,1.00E+00
0.0838252,-0.332294613,0.944510102,1.00E+00
0.084051752,-0.218777522,0.977456927,1.00E+00
0.084278312,-0.102100514,0.996492982,1.00E+00
0.084504864,0.015938748,1.00136411,1.00E+00
0.084731416,0.133529291,0.99205941,1.00E+00
0.084957976,0.248878628,0.968834281,1.00E+00
0.085184528,0.360272527,0.932222247,9.99E-01
0.08541108,0.466159195,0.883019388,9.97E-01
0.08563764,0.565236509,0.822217762,9.96E-01
0.085864192,0.656512856,0.750866652,9.95E-01
0.086090744,0.739238203,0.669862509,9.95E-01
0.086317304,0.812622011,0.579842448,9.97E-01
0.086543856,0.875511587,0.481440097,9.98E-01
0.086770408,0.926517606,0.375760138,1.00E+00
0.086996968,0.96449995,0.264457464,1.00E+00
0.08722352,0.988813698,0.149408385,1.00E+00
0.087450072,0.999215186,0.032445218,9.99E-01
0.087676624,0.995712936,-0.084703885,9.99E-01
0.087903184,0.978496313,-0.200392082,9.98E-01
0.088129736,0.947925091,-0.313031256,9.97E-01
0.088356288,0.904538989,-0.421098411,9.96E-01
0.088582848,0.849066377,-0.523170888,9.95E-01
0.0888094,0.782408476,-0.617978811,9.94E-01
0.089035952,0.705575824,-0.704465687,9.94E-01
0.089262512,0.61956197,-0.781800091,9.95E-01
0.089489064,0.525194407,-0.849252641,9.97E-01
0.089715616,0.423160434,-0.905903935,1.00E+00
0.089942176,0.314378649,-0.950486958,1.00E+00
0.090168728,0.200369358,-0.981702864,1.00E+00
0.09039528,0.083140552,-0.998700202,1.00E+00
0.09062184,-0.035192598,-1.0012008,1.00E+00
0.090848392,-0.152639866,-0.989360392,1.00E+00
0.091074944,-0.267386734,-0.963617861,1.00E+00
0.091301504,-0.377784222,-0.924620867,9.98E-01
0.091528056,-0.482346177,-0.87319243,9.95E-01
0.091754608,-0.579761088,-0.810304761,9.93E-01
0.091981168,-0.668916106,-0.737049639,9.91E-01
0.09220772,-0.748923361,-0.654583097,9.89E-01
0.092434272,-0.819126368,-0.564035475,9.89E-01
0.092660832,-0.879039347,-0.466386378,9.90E-01
0.092887384,-0.928141057,-0.362384856,9.93E-01
0.093113936,-0.965596199,-0.252714843,9.96E-01
0.093340496,-0.990248561,-0.138426781,1.00E+00
0.093567048,-1.00104201,-0.021181105,1.00E+00
0.0937936,-0.997417629,0.09697935,1.00E+00
0.09402016,-0.979344249,0.213974893,1.00E+00
0.094246712,-0.947171926,0.327850133,1.00E+00
0.094473264,-0.901529372,0.436799347,1.00E+00
0.094699824,-0.843279839,0.539170325,1.00E+00
0.094926376,-0.773501635,0.633489609,1.00E+00
0.095152928,-0.693458259,0.71850282,9.97E-01
0.095379488,-0.604542792,0.793220818,9.95E-01
0.09560604,-0.508191466,0.856951058,9.93E-01
0.095832592,-0.405757368,0.90928328,9.91E-01
0.096059144,-0.298377037,0.949976087,9.91E-01
0.096285704,-0.186945766,0.978709936,9.93E-01
0.096512256,-0.072370611,0.994860888,9.95E-01
0.096738808,0.044038966,0.997633457,9.97E-01
0.096965368,0.1604978,0.986490548,9.99E-01
0.09719192,0.275049597,0.961400926,1.00E+00
0.097418472,0.385842562,0.922754288,1.00E+00
0.097645032,0.491201729,0.8712008,1.00E+00
0.097871584,0.589603961,0.807571828,1.00E+00
0.098098136,0.679659545,0.732861817,9.99E-01
0.098324696,0.760126472,0.648232341,9.98E-01
0.098551248,0.829950035,0.554998279,9.97E-01
0.0987778,0.888307631,0.45458737,9.96E-01
0.09900436,0.934642434,0.348459989,9.95E-01
