Frequency (GHz),Re( S21 ),Im( S21 ),S2
0,0.048386756,6.21E-05,2.34E-03
0.000226486,0.044108566,-0.019728823,2.33E-03
0.000452973,0.032018904,-0.035945393,2.32E-03
0.000679459,0.01432856,-0.04568255,2.29E-03
0.000905945,-0.00576609,-0.047237564,2.26E-03
0.001132432,-0.024686165,-0.040385474,2.24E-03
0.001358918,-0.039108824,-0.026373521,2.23E-03
0.001585405,-0.046522245,-0.007667094,2.22E-03
0.001811891,-0.045622099,0.012482327,2.24E-03
0.002038377,-0.036511738,0.030572398,2.27E-03
0.002264864,-0.020637404,0.043625332,2.33E-03
0.00249135,-0.000739182,0.048860095,2.39E-03
0.002717836,0.019716151,0.045412313,2.45E-03
0.002944323,0.037073538,0.033727154,2.51E-03
0.003170809,0.048135366,0.015752381,2.57E-03
0.003397296,0.050763164,-0.005296561,2.60E-03
0.003623782,0.044355683,-0.025745466,2.63E-03
0.003850268,0.029963849,-0.041758802,2.64E-03
0.004076755,0.010122064,-0.050401766,2.64E-03
0.004303241,-0.01151429,-0.049987868,2.63E-03
0.004529727,-0.031256929,-0.040688694,2.63E-03
0.004756214,-0.045515712,-0.023971772,2.65E-03
0.0049827,-0.051704045,-0.00269658,2.68E-03
0.005209187,-0.048599821,0.019474018,2.74E-03
0.005435673,-0.036554162,0.038874619,2.85E-03
0.005662159,-0.017358508,0.05163493,2.97E-03
0.005888646,0.005740422,0.055474687,3.11E-03
0.006115132,0.028763633,0.049395803,3.27E-03
0.006341618,0.047570311,0.034118347,3.43E-03
0.006568105,0.058615971,0.012056568,3.58E-03
0.006794591,0.059489775,-0.012874012,3.70E-03
0.007021077,0.049749367,-0.036418688,3.80E-03
0.007247564,0.030832242,-0.054032739,3.87E-03
0.00747405,0.006036359,-0.062176805,3.90E-03
0.007700537,-0.020415314,-0.059331972,3.94E-03
0.007927023,-0.043695029,-0.045510493,3.98E-03
0.008153509,-0.05945874,-0.022844182,4.06E-03
0.008379996,-0.06456843,0.00491695,4.19E-03
0.008606482,-0.057639763,0.03301575,4.41E-03
0.008832968,-0.039311994,0.056451179,4.73E-03
0.009059454,-0.01205932,0.071029082,5.19E-03
0.009285941,0.019577498,0.07308697,5.72E-03
0.009512427,0.050285332,0.061734155,6.34E-03
0.009738914,0.074478999,0.038111161,7.00E-03
0.0099654,0.087330155,0.005713008,7.66E-03
0.010191886,0.085551158,-0.030132655,8.23E-03
0.010418373,0.068559513,-0.062864266,8.65E-03
0.010644859,0.038539231,-0.086481132,8.96E-03
0.010871345,4.83E-05,-0.095541045,9.13E-03
0.011097832,-0.040241968,-0.087050051,9.20E-03
0.011324318,-0.074703381,-0.060943741,9.29E-03
0.011550804,-0.095994435,-0.020312257,9.63E-03
0.011777291,-0.098298349,0.028873509,1.05E-02
0.012003777,-0.078376435,0.078483403,1.23E-02
0.012230263,-0.036302883,0.119298786,1.56E-02
0.01245675,0.024219237,0.14231132,2.08E-02
0.012683236,0.096615613,0.140258595,2.90E-02
0.012909723,0.169765487,0.108084232,4.05E-02
0.013136209,0.232076213,0.045921084,5.60E-02
0.013362695,0.273155719,-0.042865656,7.65E-02
0.013589182,0.28247866,-0.150102019,1.02E-01
0.013815668,0.253409863,-0.264232278,1.34E-01
0.014042154,0.183697388,-0.371636808,1.72E-01
0.014268641,0.075966537,-0.458402991,2.16E-01
0.014495127,-0.06251999,-0.512087762,2.66E-01
0.014721613,-0.220749706,-0.523165286,3.22E-01
0.0149481,-0.385170996,-0.485939413,3.84E-01
0.015174586,-0.540952802,-0.399060607,4.52E-01
0.015401073,-0.673323572,-0.265719116,5.24E-01
0.015627559,-0.7688604,-0.093475774,6.00E-01
0.015854045,-0.816497862,0.106237076,6.78E-01
0.016080532,-0.808433294,0.319395572,7.56E-01
0.016307018,-0.74189502,0.530367196,8.32E-01
0.016533504,-0.619082987,0.722324789,9.05E-01
0.016759991,-0.446867347,0.879485548,9.73E-01
0.016986478,-0.236664459,0.988855302,1.03E+00
0.017212964,-0.003410355,1.04160345,1.08E+00
0.01743945,0.236065611,1.03403473,1.12E+00
0.017665936,0.464966804,0.967873514,1.15E+00
0.017892422,0.668405056,0.849762619,1.17E+00
0.018118908,0.83488667,0.690072119,1.17E+00
0.018345396,0.9572258,0.50129813,1.17E+00
0.018571882,1.03282833,0.296714067,1.15E+00
0.018798368,1.06253111,0.088835485,1.14E+00
0.019024854,1.05104637,-0.112554953,1.12E+00
0.01925134,1.01442063,-0.286042631,1.11E+00
0.019477828,0.919417679,-0.451453418,1.05E+00
0.019704314,0.815636456,-0.59370935,1.02E+00
0.0199308,0.696480751,-0.71052444,9.90E-01
0.020157286,0.566818118,-0.802957654,9.66E-01
0.020383772,0.43072772,-0.872534156,9.47E-01
0.020610258,0.29114604,-0.921006143,9.33E-01
0.020836746,0.150005043,-0.949940801,9.25E-01
0.021063232,0.008554885,-0.960407317,9.22E-01
0.021289718,-0.132230818,-0.952817261,9.25E-01
0.021516204,-0.27122131,-0.926921487,9.33E-01
0.02174269,-0.406540751,-0.881956995,9.43E-01
0.021969176,-0.535167694,-0.817888856,9.55E-01
0.022195664,-0.666667283,-0.736518085,9.87E-01
0.02242215,-0.760446966,-0.63605392,9.83E-01
0.022648636,-0.856399655,-0.526602268,1.01E+00
0.022875122,-0.939274013,-0.391183227,1.04E+00
0.023101608,-0.995178163,-0.242368817,1.05E+00
0.023328096,-1.02523136,-0.085987575,1.06E+00
0.023554582,-1.02857578,0.073281549,1.06E+00
0.023781068,-1.00518036,0.230239436,1.06E+00
0.024007554,-0.956307888,0.379718661,1.06E+00
0.02423404,-0.884475768,0.517093539,1.05E+00
0.024460526,-0.793186426,0.638679147,1.04E+00
0.024687014,-0.686519384,0.741957903,1.02E+00
0.0249135,-0.568710208,0.825595856,1.01E+00
0.025139986,-0.443856299,0.889328957,9.88E-01
0.025366472,-0.315663725,0.933915854,9.72E-01
0.025592958,-0.187172323,0.960900724,9.58E-01
0.025819446,-0.060945649,0.97306484,9.51E-01
0.026045932,0.065561958,0.97490555,9.55E-01
0.026272418,0.195200205,0.960287571,9.60E-01
0.026498904,0.321833491,0.92831701,9.65E-01
0.02672539,0.443887472,0.880638421,9.73E-01
0.026951876,0.560080767,0.817395151,9.82E-01
0.027178364,0.668473184,0.738558173,9.92E-01
0.02740485,0.766597986,0.644481361,1.00E+00
0.027631336,0.85170579,0.536181331,1.01E+00
0.027857822,0.921062469,0.4154737,1.02E+00
0.028084308,0.972262681,0.284974873,1.03E+00
0.028310796,1.00352645,0.147998706,1.03E+00
0.028537282,1.01397109,0.008344796,1.03E+00
0.028763768,1.00382388,-0.13004072,1.02E+00
0.028990254,0.974586904,-0.263491154,1.02E+00
0.02921674,0.929275632,-0.38985312,1.02E+00
0.029443226,0.868822753,-0.51027298,1.02E+00
0.029669714,0.790903389,-0.621362805,1.01E+00
0.0298962,0.698822379,-0.71867609,1.00E+00
0.030122686,0.596148729,-0.801255763,9.97E-01
0.030349172,0.48536101,-0.868859231,9.90E-01
0.030575658,0.36847797,-0.921384573,9.85E-01
0.030802146,0.247257113,-0.958809197,9.80E-01
0.031028632,0.123280458,-0.981141031,9.78E-01
0.031255118,-0.001960411,-0.988373935,9.77E-01
0.031481604,-0.126967192,-0.980486274,9.77E-01
0.03170809,-0.250141591,-0.957496226,9.79E-01
0.031934576,-0.369747669,-0.919586301,9.82E-01
0.032161064,-0.483970314,-0.867274225,9.86E-01
0.03238755,-0.591243923,-0.80160886,9.92E-01
0.032614036,-0.691198647,-0.723620355,1.00E+00
0.032840522,-0.78328675,-0.631780505,1.01E+00
0.033067008,-0.862932026,-0.525533319,1.02E+00
0.033293494,-0.926672637,-0.408133954,1.03E+00
0.033519982,-0.973134518,-0.282823533,1.03E+00
0.033746468,-1.0015105,-0.15252395,1.03E+00
0.033972956,-1.01143396,-0.020175604,1.02E+00
0.03419944,-1.0030849,0.111289091,1.02E+00
0.034425928,-0.977210462,0.239094883,1.01E+00
0.034652412,-0.935062468,0.360779583,1.00E+00
0.0348789,-0.878270388,0.474307626,9.96E-01
0.035105384,-0.808703601,0.578129649,9.88E-01
0.035331872,-0.728339493,0.671206176,9.81E-01
0.03555836,-0.639157593,0.753051162,9.76E-01
0.035784844,-0.542907119,0.823939204,9.74E-01
0.036011332,-0.440044969,0.884855151,9.77E-01
0.036237816,-0.329303205,0.935022533,9.83E-01
0.036464304,-0.211489007,0.971551001,9.89E-01
0.036690792,-0.089104474,0.993081808,9.94E-01
0.036917276,0.035814911,0.999171913,1.00E+00
0.037143764,0.161399439,0.989394546,1.00E+00
0.037370248,0.285576046,0.963409305,1.01E+00
0.037596736,0.406021535,0.921179295,1.01E+00
0.037823224,0.520262063,0.863131046,1.02E+00
0.038049708,0.625839233,0.79024148,1.02E+00
0.038276196,0.720498562,0.704043627,1.01E+00
0.03850268,0.802379668,0.606567621,1.01E+00
0.038729168,0.87019968,0.500210822,1.01E+00
0.038955656,0.923446894,0.387512654,1.00E+00
0.03918214,0.962533951,0.27061221,1.00E+00
0.039408628,0.988054037,0.150305897,9.99E-01
0.039635112,0.99889487,0.02706738,9.99E-01
0.0398616,0.993785262,-0.096619584,9.97E-01
0.040088084,0.973196626,-0.218001053,9.95E-01
0.040314572,0.938151836,-0.335222542,9.93E-01
0.04054106,0.88956362,-0.446887583,9.91E-01
0.040767544,0.828238547,-0.551724255,9.90E-01
0.040994032,0.754980624,-0.648469746,9.91E-01
0.041220516,0.670678556,-0.735843718,9.91E-01
0.041447004,0.576381505,-0.812566102,9.92E-01
0.041673492,0.473358154,-0.877414763,9.94E-01
0.041899976,0.363126308,-0.929319799,9.95E-01
0.042126464,0.247425616,-0.967504025,9.97E-01
0.042352948,0.128044799,-0.991654575,1.00E+00
0.042579436,0.006331568,-1.00188243,1.00E+00
0.042805924,-0.117091946,-0.997748971,1.01E+00
0.043032408,-0.240683332,-0.97761488,1.01E+00
0.043258896,-0.361195505,-0.940787613,1.02E+00
0.04348538,-0.475603104,-0.888217032,1.02E+00
0.043711868,-0.581690669,-0.821393967,1.01E+00
0.043938352,-0.677727401,-0.741937757,1.01E+00
0.04416484,-0.762314856,-0.651578784,1.01E+00
0.044391328,-0.834373236,-0.552147329,1.00E+00
0.044617812,-0.893149555,-0.445525467,9.96E-01
0.0448443,-0.938206851,-0.333582371,9.92E-01
0.045070784,-0.969401836,-0.218119651,9.87E-01
0.045297272,-0.986860216,-0.100819372,9.84E-01
0.04552376,-0.990969956,0.016826721,9.82E-01
0.045750244,-0.98233819,0.13369669,9.83E-01
0.045976732,-0.961419523,0.249320328,9.86E-01
0.046203216,-0.927607477,0.363442302,9.93E-01
0.046429704,-0.879618466,0.4744367,9.99E-01
0.046656192,-0.817341983,0.579584837,1.00E+00
0.046882676,-0.74175477,0.676553369,1.01E+00
0.047109164,-0.654123008,0.763500214,1.01E+00
0.047335648,-0.555872083,0.838800907,1.01E+00
0.047562136,-0.448669791,0.90100646,1.01E+00
0.047788624,-0.334456384,0.948928356,1.01E+00
0.048015108,-0.215395391,0.981739879,1.01E+00
0.048241596,-0.093774915,0.999055505,1.01E+00
0.04846808,0.02812437,1.00096679,1.00E+00
0.048694568,0.148183227,0.988042772,9.98E-01
0.048921052,0.264631897,0.961274743,9.94E-01
0.04914754,0.376303405,0.921878636,9.91E-01
0.049374028,0.482728124,0.870702267,9.91E-01
0.049600512,0.58329761,0.807635605,9.93E-01
0.049827,0.676246643,0.732571363,9.94E-01
0.050053484,0.759557843,0.646534622,9.95E-01
0.050279972,0.831882775,0.551071107,9.96E-01
0.05050646,0.892308056,0.447652459,9.97E-01
0.050732944,0.940044105,0.33767426,9.98E-01
0.050959432,0.974354327,0.222589955,9.99E-01
0.051185916,0.994598985,0.103992797,1.00E+00
0.051412404,1.00031745,-0.016359115,1.00E+00
0.051638892,0.991315424,-0.136573106,1.00E+00
0.051865376,0.967740595,-0.254696935,1.00E+00
0.052091864,0.930127501,-0.368844897,1.00E+00
0.052318348,0.879369974,-0.477391839,1.00E+00
0.052544836,0.816485226,-0.579188943,1.00E+00
0.05277132,0.742073238,-0.673431695,1.00E+00
0.052997808,0.656246901,-0.758767247,1.01E+00
0.053224296,0.559807837,-0.833016038,1.01E+00
0.05345078,0.454683632,-0.894352138,1.01E+00
0.053677268,0.34310025,-0.941828132,1.00E+00
0.053903752,0.227111205,-0.975040913,1.00E+00
0.05413024,0.108588457,-0.993862331,1.00E+00
0.054356728,-0.010711941,-0.998351038,9.97E-01
0.054583212,-0.129121602,-0.988732517,9.94E-01
0.0548097,-0.245055005,-0.965396285,9.92E-01
0.055036184,-0.357017994,-0.92889303,9.90E-01
0.055262672,-0.463635474,-0.879936516,9.89E-01
0.05548916,-0.563709438,-0.819391966,9.89E-01
0.055715644,-0.656315267,-0.748192608,9.91E-01
0.055942132,-0.740834355,-0.667073846,9.94E-01
0.056168616,-0.816548765,-0.576238155,9.99E-01
0.056395104,-0.881877482,-0.475786865,1.00E+00
0.056621592,-0.934679985,-0.366825044,1.01E+00
0.056848076,-0.973366857,-0.251420319,1.01E+00
0.057074564,-0.997117281,-0.131848782,1.01E+00
0.057301048,-1.00558853,-0.010309053,1.01E+00
0.057527536,-0.998768568,0.11106582,1.01E+00
0.05775402,-0.976959288,0.230203792,1.01E+00
0.057980508,-0.940783978,0.345137268,1.00E+00
0.058206996,-0.891171932,0.454075128,1.00E+00
0.05843348,-0.829311013,0.555474699,9.96E-01
0.058659968,-0.756579995,0.648113191,9.92E-01
0.058886452,-0.67443496,0.731150031,9.89E-01
0.05911294,-0.584216118,0.804166973,9.88E-01
0.059339428,-0.486826092,0.867017567,9.89E-01
0.059565912,-0.382609725,0.919243097,9.91E-01
0.0597924,-0.272063762,0.95957464,9.95E-01
0.060018884,-0.156610027,0.986569524,9.98E-01
0.060245372,-0.038217485,0.999401271,1.00E+00
0.06047186,0.081171095,0.997784734,1.00E+00
0.060698344,0.199723318,0.981695771,1.00E+00
0.060924832,0.315629482,0.951292634,1.00E+00
0.061151316,0.427066207,0.906955361,1.00E+00
0.061377804,0.532229066,0.849343657,1.00E+00
0.061604292,0.629409671,0.779426932,1.00E+00
0.061830776,0.717094064,0.698473752,1.00E+00
0.062057264,0.794071972,0.607997,1.00E+00
0.062283748,0.859534442,0.509624004,9.99E-01
0.062510236,0.913095415,0.404859394,9.98E-01
0.06273672,0.954550266,0.294798136,9.98E-01
0.062963208,0.983314812,0.180229709,9.99E-01
0.063189696,0.998316705,0.062400743,1.00E+00
0.06341618,0.998795211,-0.05667109,1.00E+00
0.063642668,0.984748721,-0.174806833,1.00E+00
0.063869152,0.95665127,-0.290112793,9.99E-01
0.06409564,0.915153742,-0.400968105,9.98E-01
0.064322128,0.860994637,-0.505910635,9.97E-01
0.064548612,0.795010388,-0.603574336,9.96E-01
0.0647751,0.718166411,-0.692678213,9.96E-01
0.065001584,0.6315763,-0.772050738,9.95E-01
0.065228072,0.53650552,-0.840678751,9.95E-01
0.06545456,0.434334308,-0.897769153,9.95E-01
0.065681044,0.32645607,-0.942805052,9.95E-01
0.065907532,0.214088127,-0.975497127,9.97E-01
0.066134016,0.098143719,-0.995477259,1.00E+00
0.066360504,-0.020413645,-1.00189793,1.00E+00
0.066586988,-0.139883116,-0.993709326,1.01E+00
0.066813476,-0.257893384,-0.970487356,1.01E+00
0.067039964,-0.372086048,-0.932623863,1.01E+00
0.067266448,-0.480447143,-0.880993783,1.01E+00
0.067492936,-0.581283212,-0.816703677,1.00E+00
0.067719424,-0.673155308,-0.741011918,1.00E+00
0.067945912,-0.754856825,-0.655303717,9.99E-01
0.068172392,-0.825421751,-0.561063409,9.96E-01
0.06839888,-0.884134889,-0.459835857,9.93E-01
0.068625368,-0.930545151,-0.353173733,9.91E-01
0.068851856,-0.964467466,-0.242559284,9.89E-01
0.069078336,-0.985943913,-0.129287064,9.89E-01
0.069304824,-0.995077252,-0.014324718,9.90E-01
0.069531312,-0.991657138,0.101629242,9.94E-01
0.0697578,-0.974951148,0.217612341,9.98E-01
0.069984288,-0.944229186,0.331880927,1.00E+00
0.070210768,-0.8994385,0.442222655,1.00E+00
0.070437256,-0.841193676,0.546540618,1.01E+00
0.070663744,-0.770468295,0.643025339,1.01E+00
0.070890232,-0.688446105,0.730099559,1.01E+00
0.07111672,-0.596501052,0.806383669,1.01E+00
0.0713432,-0.496194869,0.870720088,1.00E+00
0.071569688,-0.389248282,0.922222674,1.00E+00
0.071796176,-0.277478606,0.96032697,9.99E-01
0.072022664,-0.162707344,0.984820366,9.96E-01
0.072249152,-0.046632592,0.995835543,9.94E-01
0.072475632,0.069327958,0.993765116,9.92E-01
0.07270212,0.184142366,0.979008973,9.92E-01
0.072928608,0.296976268,0.951616228,9.94E-01
0.073155096,0.406635344,0.91128099,9.96E-01
0.073381584,0.511323631,0.857950687,9.98E-01
0.073608064,0.609118402,0.792240024,9.99E-01
0.073834552,0.698399842,0.715216637,9.99E-01
0.07406104,0.777865231,0.628107607,1.00E+00
0.074287528,0.846413195,0.532207072,1.00E+00
0.074514016,0.903086901,0.428895354,1.00E+00
0.074740496,0.947081327,0.319667429,9.99E-01
0.074966984,0.977789044,0.206136167,9.99E-01
0.075193472,0.994848967,0.089997292,9.98E-01
0.07541996,0.998190641,-0.027042225,9.97E-01
0.075646448,0.988030016,-0.143379509,9.97E-01
0.075872928,0.964774013,-0.25765115,9.97E-01
0.076099416,0.928769112,-0.368763268,9.99E-01
0.076325904,0.880066633,-0.475603014,1.00E+00
0.076552392,0.818652153,-0.576578319,1.00E+00
0.07677888,0.745057106,-0.669685364,1.00E+00
0.07700536,0.660513997,-0.75308305,1.00E+00
0.077231848,0.566615105,-0.825405359,1.00E+00
0.077458336,0.465023458,-0.885700583,1.00E+00
0.077684824,0.357385099,-0.933302104,9.99E-01
0.077911312,0.245326445,-0.967758477,9.97E-01
0.078137792,0.130458415,-0.988812089,9.95E-01
0.07836428,0.014369766,-0.996399045,9.93E-01
0.078590768,-0.101403162,-0.990653634,9.92E-01
0.078817256,-0.215425387,-0.971904635,9.91E-01
0.079043736,-0.326438099,-0.940626442,9.91E-01
0.079270224,-0.433415502,-0.897304833,9.93E-01
0.079496712,-0.53546381,-0.842211187,9.96E-01
0.0797232,-0.631439626,-0.775336504,1.00E+00
0.079949688,-0.719629228,-0.696820259,1.00E+00
0.080176168,-0.798042417,-0.607488811,1.01E+00
0.080402656,-0.864975154,-0.508830607,1.01E+00
0.080629144,-0.91921103,-0.402639717,1.01E+00
0.080855632,-0.959943414,-0.290788025,1.01E+00
0.08108212,-0.986685455,-0.175160989,1.00E+00
0.0813086,-0.999236286,-0.057634011,1.00E+00
0.081535088,-0.997675776,0.059959766,9.99E-01
0.081761576,-0.982355952,0.175880402,9.96E-01
0.081988064,-0.953877211,0.288546205,9.93E-01
0.082214552,-0.913032591,0.39660421,9.91E-01
0.082441032,-0.860698223,0.498995513,9.90E-01
0.08266752,-0.797639847,0.594947934,9.90E-01
0.082894008,-0.72430867,0.683763862,9.92E-01
0.083120496,-0.640923619,0.764407158,9.95E-01
0.083346984,-0.547977448,0.83535099,9.98E-01
0.083573464,-0.446606457,0.894990802,1.00E+00
0.083799952,-0.338417321,0.942084253,1.00E+00
0.08402644,-0.225172684,0.97580868,1.00E+00
0.084252928,-0.10865555,0.995651186,1.00E+00
0.084479416,0.00933883,1.00134015,1.00E+00
0.084705896,0.127001271,0.99284488,1.00E+00
0.084932384,0.242534712,0.970396936,1.00E+00
0.085158872,0.354213387,0.934507191,9.99E-01
0.08538536,0.460462898,0.885952353,9.97E-01
0.085611848,0.559949875,0.825717151,9.95E-01
0.085838328,0.651648164,0.754863858,9.94E-01
0.086064816,0.734792948,0.674328804,9.95E-01
0.086291304,0.808622479,0.58478725,9.96E-01
0.086517792,0.872039557,0.486862302,9.97E-01
0.08674428,0.923670471,0.381602347,9.99E-01
0.08697076,0.962342322,0.270623624,9.99E-01
0.087197248,0.987373173,0.155802459,9.99E-01
0.087423736,0.998503566,0.03898542,9.99E-01
0.087650224,0.995740116,-0.078091674,9.98E-01
0.087876704,0.97927314,-0.193782657,9.97E-01
0.088103192,0.949458063,-0.306504607,9.95E-01
0.08832968,0.906826138,-0.414742082,9.94E-01
0.088556168,0.852092147,-0.517074406,9.93E-01
0.088782656,0.786140919,-0.612227321,9.93E-01
0.089009136,0.709974885,-0.699131727,9.93E-01
0.089235624,0.62459439,-0.776943743,9.94E-01
0.089462112,0.530846238,-0.84494251,9.96E-01
0.0896886,0.429417551,-0.902252734,9.98E-01
0.089915088,0.321169168,-0.947644711,1.00E+00
0.090141568,0.20754388,-0.979796052,1.00E+00
0.090368056,0.090511583,-0.997787476,1.00E+00
0.090594544,-0.027805137,-1.001279,1.00E+00
0.090821032,-0.145391047,-0.990386009,1.00E+00
0.09104752,-0.260405391,-0.965524912,1.00E+00
0.091274,-0.371174395,-0.927329421,9.98E-01
0.091500488,-0.476187736,-0.876612902,9.95E-01
0.091726976,-0.574109793,-0.8143453,9.93E-01
0.091953464,-0.663804054,-0.741620958,9.91E-01
0.092179952,-0.744359016,-0.659606636,9.89E-01
0.092406432,-0.815100491,-0.569456756,9.89E-01
0.09263292,-0.875539958,-0.472188205,9.90E-01
0.092859408,-0.925191283,-0.368587226,9.92E-01
0.093085896,-0.963284075,-0.259332806,9.95E-01
0.093312384,-0.988702595,-0.145411208,9.99E-01
0.093538864,-1.00036812,-0.028410889,1.00E+00
0.093765352,-0.997668624,0.089654461,1.00E+00
0.09399184,-0.980528474,0.206703827,1.00E+00
0.094218328,-0.949270844,0.32077235,1.00E+00
0.094444816,-0.904501021,0.430045754,1.00E+00
0.094671296,-0.847060144,0.532860994,1.00E+00
0.094897784,-0.7780056,0.627728939,9.99E-01
0.095124272,-0.698582292,0.713371813,9.97E-01
0.09535076,-0.610174894,0.788770497,9.94E-01
0.095577248,-0.514223278,0.853198469,9.92E-01
0.095803728,-0.412104547,0.906217635,9.91E-01
0.096030216,-0.304994732,0.947580934,9.91E-01
0.096256704,-0.193821102,0.977001011,9.92E-01
0.096483192,-0.079474822,0.993906558,9.94E-01
0.096709672,0.036793262,0.997513831,9.96E-01
0.09693616,0.153240547,0.987246156,9.98E-01
0.097162648,0.267910659,0.963026106,9.99E-01
0.097389136,0.37893343,0.925218225,1.00E+00
0.097615624,0.484618902,0.874465048,1.00E+00
0.097842104,0.583437622,0.811592162,9.99E-01
0.098068592,0.673997343,0.737586141,9.98E-01
0.09829508,0.755051672,0.653595507,9.97E-01
0.098521568,0.825535536,0.560921371,9.96E-01
0.098748056,0.884609818,0.46098119,9.95E-01
0.098974536,0.93169564,0.355234385,9.94E-01
0.099201024,0.966459811,0.245069727,9.94E-01
