Frequency (GHz),Re( S21 ),Im( S21 ),S2
0,0.048466649,5.99E-05,2.35E-03
0.000226531,0.044173624,-0.01978075,2.34E-03
0.000453061,0.032042701,-0.036032245,2.33E-03
0.000679592,0.014295239,-0.045777194,2.30E-03
0.000906123,-0.005856844,-0.04730697,2.27E-03
0.001132653,-0.024817165,-0.040398937,2.25E-03
0.001359184,-0.039247621,-0.026311167,2.23E-03
0.001585715,-0.046627939,-0.00752741,2.23E-03
0.001812245,-0.045654967,0.012679359,2.25E-03
0.002038776,-0.036444891,0.030787502,2.28E-03
0.002265307,-0.020464269,0.043790564,2.34E-03
0.002491837,-0.00048721,0.048940379,2.40E-03
0.002718368,0.020002618,0.045372155,2.46E-03
0.002944899,0.03733509,0.03355534,2.52E-03
0.003171429,0.048310347,0.015466641,2.57E-03
0.00339796,0.050803021,-0.005650122,2.61E-03
0.003624491,0.044233859,-0.02610126,2.64E-03
0.003851021,0.029686695,-0.042043597,2.65E-03
0.004077552,0.009791099,-0.050463952,2.64E-03
0.004304083,-0.011961899,-0.049965624,2.64E-03
0.004530613,-0.031677011,-0.040464625,2.64E-03
0.004757144,-0.045820031,-0.023566116,2.65E-03
0.004983675,-0.051816497,-0.002167578,2.69E-03
0.005210205,-0.048472922,0.020036491,2.75E-03
0.005436736,-0.036172964,0.039350029,2.86E-03
0.005663267,-0.016780624,0.051926773,2.98E-03
0.005889797,0.006425342,0.055503015,3.12E-03
0.006116328,0.029433582,0.049124319,3.28E-03
0.006342859,0.048092235,0.033567559,3.44E-03
0.006569389,0.058872998,0.011305317,3.59E-03
0.00679592,0.05940694,-0.013696391,3.72E-03
0.007022451,0.049311359,-0.037158039,3.81E-03
0.007248981,0.030138055,-0.054403085,3.87E-03
0.007475512,0.00511635,-0.062343888,3.91E-03
0.007702043,-0.021361847,-0.059081521,3.95E-03
0.007928573,-0.044486057,-0.044850487,3.99E-03
0.008155104,-0.05992385,-0.021859793,4.07E-03
0.008381635,-0.064581402,0.006071685,4.21E-03
0.008608165,-0.057145003,0.034139324,4.43E-03
0.008834696,-0.038342387,0.057325572,4.76E-03
0.009061226,-0.010736926,0.07144022,5.22E-03
0.009287757,0.021035334,0.072917752,5.76E-03
0.009514288,0.051620722,0.060947552,6.38E-03
0.009740818,0.075426646,0.036785081,7.04E-03
0.009967349,0.087668665,0.004040229,7.70E-03
0.01019388,0.085150093,-0.031868652,8.27E-03
0.01042041,0.067432866,-0.064345449,8.69E-03
0.010646941,0.036809221,-0.087379746,8.99E-03
0.010873472,-0.002009269,-0.095604718,9.14E-03
0.011100002,-0.042249326,-0.086151205,9.21E-03
0.011326533,-0.076236405,-0.059117202,9.31E-03
0.011553064,-0.096649371,-0.017770218,9.66E-03
0.011779594,-0.097762674,0.031752925,1.06E-02
0.012006125,-0.076495215,0.081195459,1.24E-02
0.012232656,-0.033127118,0.121276274,1.58E-02
0.012459186,0.028408978,0.143008232,2.13E-02
0.012685717,0.101314381,0.13921088,2.96E-02
0.012912248,0.174299985,0.105091967,4.14E-02
0.013138778,0.235716239,0.041038938,5.72E-02
0.013365309,0.275155216,-0.049346287,7.81E-02
0.01359184,0.282239258,-0.157591179,1.04E-01
0.01381837,0.250560999,-0.271934628,1.37E-01
0.014044901,0.1781611,-0.378649354,1.75E-01
0.014271432,0.067978941,-0.463824987,2.20E-01
0.014497962,-0.072432384,-0.515126586,2.71E-01
0.014724493,-0.231825486,-0.523218989,3.28E-01
0.014951024,-0.396477818,-0.48265478,3.90E-01
0.015177554,-0.551466346,-0.392380536,4.58E-01
0.015404085,-0.682022154,-0.255904585,5.31E-01
0.015630616,-0.77482152,-0.08110176,6.07E-01
0.015857146,-0.818983614,0.120309517,6.85E-01
0.016083677,-0.80696398,0.334104896,7.63E-01
0.016310208,-0.736354887,0.544540882,8.39E-01
0.016536738,-0.609739006,0.734771073,9.12E-01
0.016763269,-0.434355527,0.889136195,9.79E-01
0.0169898,-0.221934751,0.994893849,1.04E+00
0.01721633,0.012376891,1.04356468,1.09E+00
0.01744286,0.25167954,1.03185499,1.13E+00
0.017669392,0.479253471,0.96188271,1.15E+00
0.017895922,0.68041718,0.840617478,1.17E+00
0.018122452,0.843971729,0.678649366,1.17E+00
0.018348984,0.963067114,0.488566041,1.17E+00
0.018575514,1.03543913,0.283624589,1.15E+00
0.018802044,1.06217909,0.076213725,1.13E+00
0.019028576,1.04822266,-0.124112867,1.11E+00
0.019255106,1.0093478,-0.294732243,1.11E+00
0.019481636,0.913318574,-0.459630549,1.05E+00
0.019708168,0.808797061,-0.600111604,1.01E+00
0.019934698,0.689333677,-0.715313852,9.87E-01
0.020161228,0.559679687,-0.80638212,9.63E-01
0.02038776,0.423770756,-0.874872148,9.45E-01
0.02061429,0.284412146,-0.922509491,9.32E-01
0.02084082,0.143438116,-0.950789511,9.25E-01
0.021067352,0.002048598,-0.960681677,9.23E-01
0.021293882,-0.138780519,-0.952495158,9.27E-01
0.021520412,-0.277866781,-0.925893009,9.34E-01
0.021746944,-0.413238555,-0.880068839,9.45E-01
0.021973474,-0.54179585,-0.815009296,9.58E-01
0.022200004,-0.673168123,-0.732420504,9.90E-01
0.022426536,-0.766255558,-0.631014526,9.85E-01
0.022653066,-0.861721694,-0.520345747,1.01E+00
0.022879596,-0.943264484,-0.383829087,1.04E+00
0.023106128,-0.997725189,-0.234324306,1.05E+00
0.023332658,-1.02619469,-0.077596247,1.06E+00
0.023559188,-1.02791297,0.081627667,1.06E+00
0.02378572,-1.00297427,0.238149554,1.06E+00
0.02401225,-0.952756464,0.386852056,1.06E+00
0.02423878,-0.879865706,0.523198843,1.05E+00
0.024465312,-0.787851334,0.643618643,1.03E+00
0.024691842,-0.680792868,0.745711744,1.02E+00
0.024918372,-0.562883794,0.828246117,1.00E+00
0.025144904,-0.438150674,0.891034245,9.86E-01
0.025371434,-0.310207099,0.93487519,9.70E-01
0.025597964,-0.182005346,0.961314976,9.57E-01
0.025824496,-0.056012441,0.973149061,9.50E-01
0.026051026,0.070537269,0.974677444,9.55E-01
0.026277556,0.200169444,0.959599674,9.61E-01
0.026504088,0.326818824,0.927171171,9.66E-01
0.026730618,0.44890669,0.878939807,9.74E-01
0.026957148,0.565075934,0.815021276,9.84E-01
0.02718368,0.673312426,0.735403597,9.94E-01
0.02741021,0.771091282,0.640492201,1.00E+00
0.02763674,0.855630994,0.531377375,1.01E+00
0.027863272,0.92419976,0.409957349,1.02E+00
0.028089802,0.974427223,0.278926224,1.03E+00
0.028316332,1.00459802,0.141656786,1.03E+00
0.028542864,1.01391613,0.001978963,1.03E+00
0.028769394,1.0026983,-0.136167109,1.02E+00
0.028995924,0.972538292,-0.269160658,1.02E+00
0.029222456,0.926499665,-0.394971848,1.01E+00
0.029448986,0.865383327,-0.514785886,1.01E+00
0.029675516,0.786980867,-0.625109017,1.01E+00
0.029902048,0.694654703,-0.721667349,1.00E+00
0.030128578,0.591893673,-0.803578198,9.96E-01
0.030355108,0.481111079,-0.870620072,9.89E-01
0.03058164,0.364268273,-0.922687709,9.84E-01
0.03080817,0.243076041,-0.959736764,9.80E-01
0.0310347,0.119086362,-0.981735945,9.78E-01
0.031261232,-0.006217469,-0.988634467,9.77E-01
0.031487762,-0.131323203,-0.980367064,9.78E-01
0.031714292,-0.254599482,-0.956921995,9.81E-01
0.031940824,-0.374266237,-0.918471813,9.84E-01
0.032167354,-0.488467485,-0.865548134,9.88E-01
0.032393884,-0.595618367,-0.799231589,9.94E-01
0.032620416,-0.695358455,-0.720542967,1.00E+00
0.032846946,-0.787025928,-0.627935052,1.01E+00
0.033073476,-0.86600101,-0.521036685,1.02E+00
0.033300008,-0.928934455,-0.403175116,1.03E+00
0.033526538,-0.974515736,-0.277600318,1.03E+00
0.033753068,-1.00199461,-0.147242308,1.03E+00
0.0339796,-1.01106417,-0.015031951,1.02E+00
0.034206128,-1.00195825,0.116127685,1.02E+00
0.03443266,-0.975464106,0.243508875,1.01E+00
0.034659192,-0.93284899,0.364705533,1.00E+00
0.03488572,-0.875738084,0.477738976,9.95E-01
0.035112252,-0.805974782,0.581106246,9.87E-01
0.035338784,-0.725497723,0.673799098,9.80E-01
0.035565312,-0.63624239,0.755348742,9.75E-01
0.035791844,-0.539901316,0.82603699,9.74E-01
0.036018376,-0.43684262,0.886808157,9.77E-01
0.036244904,-0.325799227,0.936748505,9.84E-01
0.036471436,-0.207679868,0.972946465,9.90E-01
0.036697968,-0.085003138,0.994061947,9.95E-01
0.036924496,0.040173676,0.999637723,1.00E+00
0.037151028,0.165938139,0.98924315,1.01E+00
0.03737756,0.290172249,0.962559342,1.01E+00
0.037604088,0.410518438,0.919589162,1.01E+00
0.03783062,0.524488091,0.860814035,1.02E+00
0.038057152,0.629630148,0.787266672,1.02E+00
0.03828368,0.723719358,0.700530589,1.01E+00
0.038510212,0.804942608,0.602671802,1.01E+00
0.038736744,0.872075677,0.496103287,1.01E+00
0.038963272,0.924670637,0.383352071,1.00E+00
0.039189804,0.963193178,0.266504824,9.99E-01
0.039416336,0.988218069,0.146283716,9.98E-01
0.039642864,0.998586118,0.023181683,9.98E-01
0.039869396,0.993074536,-0.100303389,9.96E-01
0.040095928,0.972171009,-0.221476287,9.94E-01
0.040322456,0.936864257,-0.338520318,9.92E-01
0.040548988,0.888027728,-0.450045466,9.91E-01
0.04077552,0.826435387,-0.554767132,9.91E-01
0.041002048,0.752870381,-0.651396394,9.91E-01
0.04122858,0.668217123,-0.738621473,9.92E-01
0.041455112,0.573535442,-0.815130413,9.93E-01
0.04168164,0.47011897,-0.879677951,9.95E-01
0.041908172,0.359520286,-0.931184828,9.96E-01
0.042134704,0.243514732,-0.96888262,9.98E-01
0.042361232,0.123913154,-0.992483914,1.00E+00
0.042587764,0.002058657,-1.00211978,1.00E+00
0.042814296,-0.121416166,-0.997329772,1.01E+00
0.043040824,-0.244893149,-0.976497233,1.01E+00
0.043267356,-0.365115136,-0.939029932,1.02E+00
0.043493888,-0.479112774,-0.885931909,1.01E+00
0.043720416,-0.584722996,-0.818709612,1.01E+00
0.043946948,-0.680257618,-0.738981426,1.01E+00
0.04417348,-0.764356256,-0.648464918,1.00E+00
0.044400008,-0.83596915,-0.548967659,1.00E+00
0.04462654,-0.894359887,-0.442340225,9.96E-01
0.044853072,-0.939095378,-0.330419362,9.91E-01
0.0450796,-0.970022738,-0.214977354,9.87E-01
0.045306132,-0.987249196,-0.097675078,9.84E-01
0.045532664,-0.991139591,0.02000859,9.83E-01
0.045759192,-0.982275844,0.136961445,9.84E-01
0.045985724,-0.961063683,0.252717644,9.88E-01
0.046212256,-0.926835299,0.366966635,9.94E-01
0.046438784,-0.878325939,0.477986932,1.00E+00
0.046665316,-0.815493882,0.583030879,1.00E+00
0.046891848,-0.739355981,0.679769278,1.01E+00
0.047118376,-0.651210248,0.766362429,1.01E+00
0.047344908,-0.552518547,0.841194928,1.01E+00
0.04757144,-0.444982678,0.902840912,1.01E+00
0.047797968,-0.330567271,0.950147867,1.01E+00
0.0480245,-0.211445525,0.982332528,1.01E+00
0.048251032,-0.089898102,0.99905318,1.01E+00
0.04847756,0.031817827,1.00044,1.00E+00
0.048704092,0.151618958,0.987088382,9.97E-01
0.048930624,0.267782748,0.960002005,9.93E-01
0.049157152,0.379196137,0.920380175,9.91E-01
0.049383684,0.485422283,0.869014323,9.91E-01
0.049610216,0.585821092,0.80573988,9.92E-01
0.049836744,0.678587139,0.730460525,9.94E-01
0.050063276,0.761710405,0.644213915,9.95E-01
0.050289808,0.833844662,0.548529804,9.96E-01
0.050516336,0.894055426,0.444867849,9.97E-01
0.050742868,0.941527724,0.334629446,9.98E-01
0.0509694,0.975504041,0.219288811,1.00E+00
0.051195928,0.995337009,0.100469559,1.00E+00
0.05142246,1.00057256,-0.020038571,1.00E+00
0.051648992,0.991037786,-0.140315413,1.00E+00
0.05187552,0.966911376,-0.258390903,1.00E+00
0.052102052,0.928765953,-0.372378826,1.00E+00
0.052328584,0.877529085,-0.480672717,1.00E+00
0.052555112,0.814229786,-0.58215636,1.00E+00
0.052781644,0.739451051,-0.676039577,1.00E+00
0.053008176,0.653313935,-0.760947704,1.01E+00
0.053234704,0.556668103,-0.834714532,1.01E+00
0.053461236,0.451454639,-0.895572126,1.01E+00
0.053687768,0.339870661,-0.942613959,1.00E+00
0.053914296,0.22393401,-0.975450873,1.00E+00
0.054140828,0.1054876,-0.993952215,9.99E-01
0.05436736,-0.013735571,-0.998163879,9.97E-01
0.054593888,-0.132079333,-0.988293946,9.94E-01
0.05482042,-0.247960195,-0.964710653,9.92E-01
0.055046952,-0.359877795,-0.927948594,9.91E-01
0.05527348,-0.466444314,-0.878711462,9.90E-01
0.055500012,-0.566447556,-0.817860544,9.90E-01
0.055726544,-0.658953607,-0.74632889,9.91E-01
0.055953072,-0.743331671,-0.664843202,9.95E-01
0.056179604,-0.818823636,-0.573599935,9.99E-01
0.056406136,-0.883799076,-0.472748309,1.00E+00
0.056632664,-0.936129153,-0.363469541,1.01E+00
0.056859196,-0.974275827,-0.247868508,1.01E+00
0.057085728,-0.997463524,-0.128225818,1.01E+00
0.057312256,-1.0053854,-0.006734799,1.01E+00
0.057538788,-0.99805975,0.11448545,1.01E+00
0.05776532,-0.975814104,0.23338443,1.01E+00
0.057991848,-0.939288259,0.348023087,1.00E+00
0.05821838,-0.889416039,0.456642717,1.00E+00
0.058444912,-0.827378929,0.557731509,9.96E-01
0.05867144,-0.754538178,0.650093257,9.92E-01
0.058897972,-0.672323048,0.732907057,9.89E-01
0.059124504,-0.582035422,0.805763066,9.88E-01
0.059351032,-0.484529316,0.868496954,9.89E-01
0.059577564,-0.380123824,0.920591295,9.92E-01
0.059804096,-0.269349426,0.960721195,9.96E-01
0.060030624,-0.153675765,0.987437963,9.99E-01
0.060257156,-0.035093974,0.999927938,1.00E+00
0.060483688,0.084438458,0.997910202,1.00E+00
0.060710216,0.203068033,0.981366813,1.00E+00
0.060936748,0.318963677,0.95047152,1.01E+00
0.06116328,0.430285662,0.905631959,1.01E+00
0.061389808,0.535225868,0.84754163,1.00E+00
0.06161634,0.6320858,0.777202904,1.00E+00
0.061842872,0.719375134,0.69591397,1.00E+00
0.0620694,0.795917988,0.605203688,1.00E+00
0.062295932,0.860944927,0.506699145,9.98E-01
0.062522464,0.914104402,0.401880801,9.97E-01
0.062748992,0.955198288,0.291804343,9.98E-01
0.062975524,0.983616114,0.177242666,9.99E-01
0.063202056,0.998277605,0.059461698,1.00E+00
0.063428584,0.998447299,-0.059517544,1.00E+00
0.063655116,0.984136164,-0.177541941,1.00E+00
0.063881648,0.955805361,-0.292740762,9.99E-01
0.064108176,0.914084733,-0.403499871,9.98E-01
0.064334708,0.859694898,-0.50835073,9.97E-01
0.06456124,0.793462515,-0.605912149,9.97E-01
0.064787768,0.716351628,-0.694885731,9.96E-01
0.0650143,0.629485905,-0.774084806,9.95E-01
0.065240832,0.534145892,-0.842486918,9.95E-01
0.06546736,0.431730121,-0.899300635,9.95E-01
0.065693892,0.323643327,-0.944018364,9.96E-01
0.065920424,0.211102411,-0.97635895,9.98E-01
0.066146952,0.095020108,-0.9959445,1.00E+00
0.066373484,-0.023609789,-1.00191355,1.00E+00
0.066600016,-0.143042535,-0.993246198,1.01E+00
0.066826544,-0.260902911,-0.969574809,1.01E+00
0.067053076,-0.374863654,-0.931329787,1.01E+00
0.067279608,-0.482946098,-0.87939775,1.01E+00
0.067506136,-0.583486915,-0.814883113,1.00E+00
0.067732664,-0.675070107,-0.739034355,1.00E+00
0.0679592,-0.756505072,-0.653220356,9.99E-01
0.068185728,-0.826834083,-0.55890739,9.96E-01
0.068412256,-0.885343075,-0.457621843,9.93E-01
0.068638792,-0.931576073,-0.350899249,9.91E-01
0.06886532,-0.96533823,-0.240208268,9.90E-01
0.069091848,-0.986657858,-0.126829758,9.90E-01
0.069318384,-0.995607913,-0.011720114,9.91E-01
0.069544912,-0.991934955,0.104410402,9.95E-01
0.06977144,-0.974877834,0.220544517,9.99E-01
0.069997976,-0.943730116,0.334879637,1.00E+00
0.070224504,-0.898488164,0.445183277,1.01E+00
0.070451032,-0.839802027,0.549363613,1.01E+00
0.070677568,-0.76867038,0.645621181,1.01E+00
0.070904096,-0.686298668,0.732392311,1.01E+00
0.071130624,-0.594079256,0.808316886,1.01E+00
0.07135716,-0.49358514,0.87226212,1.00E+00
0.071583688,-0.386538982,0.923370779,1.00E+00
0.071810216,-0.274748772,0.961105943,9.99E-01
0.072036752,-0.160016462,0.985278249,9.96E-01
0.07226328,-0.04400963,0.996034026,9.94E-01
0.072489808,0.07189092,0.993761837,9.93E-01
0.072716344,0.186686218,0.978833318,9.93E-01
0.072942872,0.299543083,0.951247156,9.95E-01
0.0731694,0.409228802,0.910669386,9.97E-01
0.073395936,0.513914526,0.8570593,9.99E-01
0.073622464,0.611671209,0.791047335,1.00E+00
0.073848992,0.700876713,0.713703632,1.00E+00
0.074075528,0.780217052,0.626257181,1.00E+00
0.074302056,0.84857595,0.530011535,1.00E+00
0.074528584,0.904986501,0.426367462,1.00E+00
0.07475512,0.948643267,0.31684494,1.00E+00
0.074981648,0.978948295,0.203081086,1.00E+00
0.075208176,0.995562494,0.086790986,9.99E-01
0.075434712,0.998442352,-0.030309973,9.98E-01
0.07566124,0.987832963,-0.146626145,9.97E-01
0.075887768,0.964157283,-0.26081419,9.98E-01
0.076114304,0.927758455,-0.371800005,9.99E-01
0.076340832,0.878673077,-0.478464991,1.00E+00
0.07656736,0.816902936,-0.579197526,1.00E+00
0.076793896,0.74301511,-0.672002554,1.00E+00
0.077020424,0.65825665,-0.755073726,1.00E+00
0.077246952,0.564208925,-0.827076256,1.00E+00
0.077473488,0.462513447,-0.887071788,1.00E+00
0.077700016,0.354797691,-0.934394479,9.99E-01
0.077926544,0.242673889,-0.968586266,9.97E-01
0.07815308,0.127748415,-0.98937875,9.95E-01
0.078379608,0.01160958,-0.996699154,9.94E-01
0.078606136,-0.104200862,-0.990675807,9.92E-01
0.078832672,-0.218243107,-0.971634865,9.92E-01
0.0790592,-0.329255909,-0.940050304,9.92E-01
0.079285728,-0.436211467,-0.896401286,9.94E-01
0.079512264,-0.538202584,-0.840943933,9.97E-01
0.079738792,-0.634047329,-0.773670077,1.00E+00
0.07996532,-0.721998334,-0.694760263,1.00E+00
0.080191856,-0.80007565,-0.605096877,1.01E+00
0.080418384,-0.866613865,-0.506198406,1.01E+00
0.080644912,-0.920434296,-0.399863064,1.01E+00
0.080871448,-0.960758865,-0.28795445,1.01E+00
0.081097976,-0.987122297,-0.17234388,1.00E+00
0.081324504,-0.999339342,-0.054888222,1.00E+00
0.08155104,-0.997496247,0.062600412,9.99E-01
0.081777568,-0.981945872,0.178404078,9.96E-01
0.082004096,-0.953280747,0.290960729,9.93E-01
0.082230632,-0.912279487,0.398935109,9.91E-01
0.08245716,-0.85979408,0.501280725,9.91E-01
0.082683688,-0.796554506,0.597224891,9.91E-01
0.082910224,-0.722975731,0.686040163,9.93E-01
0.083136752,-0.639270425,0.766634166,9.96E-01
0.08336328,-0.545969784,0.83743608,9.99E-01
0.083589816,-0.444258034,0.896837413,1.00E+00
0.083816344,-0.335772574,0.943610609,1.00E+00
0.084042872,-0.222294956,0.976950109,1.00E+00
0.084269408,-0.105623916,0.996358812,1.00E+00
0.084495936,0.012432362,1.0015887,1.00E+00
0.084722464,0.130059078,0.992635965,1.00E+00
0.084949,0.245463923,0.969762504,1.00E+00
0.085175528,0.356938452,0.93350625,9.99E-01
0.085402056,0.46293512,0.884663284,9.97E-01
0.085628592,0.562156677,0.82422471,9.95E-01
0.08585512,0.653613508,0.75323838,9.95E-01
0.086081648,0.736562252,0.672605753,9.95E-01
0.086308184,0.810232103,0.58296293,9.96E-01
0.086534712,0.87349391,0.4849208,9.98E-01
0.08676124,0.924959838,0.379542679,1.00E+00
0.086987776,0.96346283,0.268451482,1.00E+00
0.087214304,0.988324225,0.153513864,1.00E+00
0.087440832,0.999273002,0.036566842,1.00E+00
0.087667368,0.996297956,-0.080652513,9.99E-01
0.087893896,0.979572892,-0.196483746,9.98E-01
0.088120424,0.949447453,-0.309323996,9.97E-01
0.08834696,0.90645659,-0.417634964,9.96E-01
0.088573488,0.851328909,-0.51997745,9.95E-01
0.088800016,0.784970164,-0.615068197,9.94E-01
0.089026552,0.708401918,-0.701838851,9.94E-01
0.08925308,0.622636378,-0.77945286,9.95E-01
0.089479608,0.528521299,-0.84719032,9.97E-01
0.089706144,0.426753491,-0.904161513,1.00E+00
0.089932672,0.318231732,-0.949128687,1.00E+00
0.0901592,0.204440624,-0.980796933,1.00E+00
0.090385736,0.087362923,-0.998299062,1.00E+00
0.090612264,-0.030896654,-1.00133777,1.00E+00
0.090838792,-0.148353711,-0.990051508,1.00E+00
0.091065328,-0.263196021,-0.964862943,1.00E+00
0.091291856,-0.373774976,-0.926402867,9.98E-01
0.091518384,-0.47859931,-0.875474036,9.96E-01
0.09174492,-0.576346576,-0.81303376,9.93E-01
0.091971448,-0.665886879,-0.740159571,9.91E-01
0.092197976,-0.746311367,-0.658002496,9.90E-01
0.092424512,-0.816942275,-0.567698061,9.90E-01
0.09265104,-0.877278686,-0.470241964,9.91E-01
0.092877568,-0.926801503,-0.366404444,9.93E-01
0.093104104,-0.964695334,-0.256877601,9.97E-01
0.093330632,-0.989816487,-0.142695412,1.00E+00
0.09355716,-1.00110233,-0.025499778,1.00E+00
0.093783696,-0.997978508,0.092671365,1.00E+00
0.094010224,-0.980402887,0.209734634,1.01E+00
0.094236752,-0.948724091,0.323732108,1.00E+00
0.094463288,-0.903567314,0.432859987,1.00E+00
0.094689816,-0.845789909,0.535470665,1.00E+00
0.094916344,-0.77646035,0.630093813,1.00E+00
0.09514288,-0.696828067,0.715474665,9.97E-01
0.095369408,-0.608272493,0.790618241,9.95E-01
0.095595936,-0.512218177,0.854818642,9.93E-01
0.095822472,-0.410014987,0.907649815,9.92E-01
0.096049,-0.302804738,0.948859215,9.92E-01
0.096275528,-0.191489205,0.978127658,9.93E-01
0.096502064,-0.076966427,0.994838119,9.96E-01
0.096728592,0.039474811,0.998185158,9.98E-01
0.09695512,0.156058148,0.987602651,1.00E+00
0.097181656,0.2708143,0.963030934,1.00E+00
0.097408184,0.381869197,0.924847126,1.00E+00
0.097634712,0.487526923,0.873701334,1.00E+00
0.097861248,0.586250186,0.810431004,1.00E+00
0.098087776,0.676641345,0.736039937,1.00E+00
0.098314304,0.757456064,0.65169692,9.98E-01
0.09854084,0.827640831,0.558724284,9.97E-01
0.098767368,0.88637656,0.458553225,9.96E-01
0.098993896,0.933109224,0.352646559,9.95E-01
0.099220432,0.967528522,0.242382079,9.95E-01
