Frequency (GHz),Re( S21 ),Im( S21 ),S2
0,0.04862117,5.70E-05,2.36E-03
0.000226485,0.044312984,-0.01985045,2.36E-03
0.000452971,0.032139834,-0.036155846,2.34E-03
0.000679456,0.014331482,-0.045931496,2.32E-03
0.000905941,-0.005888047,-0.047463656,2.29E-03
0.001132426,-0.024910118,-0.040530119,2.26E-03
0.001358912,-0.039386086,-0.026394429,2.25E-03
0.001585397,-0.046788678,-0.007549055,2.25E-03
0.001811882,-0.045811888,0.012723188,2.26E-03
0.002038367,-0.036572352,0.030890105,2.29E-03
0.002264853,-0.020539794,0.043914273,2.35E-03
0.002491338,-0.000505462,0.049082365,2.41E-03
0.002717823,0.020045381,0.045507953,2.47E-03
0.002944308,0.037431728,0.033660077,2.53E-03
0.003170794,0.04844331,0.015519927,2.59E-03
0.003397279,0.050946362,-0.005659352,2.63E-03
0.003623764,0.044360004,-0.026172256,2.65E-03
0.00385025,0.029770447,-0.042163204,2.66E-03
0.004076735,0.009819521,-0.050628699,2.66E-03
0.00430322,-0.012005161,-0.050128106,2.66E-03
0.004529705,-0.03178357,-0.040595722,2.66E-03
0.004756191,-0.045970928,-0.023643728,2.67E-03
0.004982676,-0.051986124,-0.002179231,2.71E-03
0.005209161,-0.048633616,0.020092117,2.77E-03
0.005435646,-0.036300801,0.039270893,2.86E-03
0.005662132,-0.016848175,0.052059155,2.99E-03
0.005888617,0.006416466,0.055649757,3.14E-03
0.006115102,0.02948558,0.049260445,3.30E-03
0.006341587,0.048196431,0.033668526,3.46E-03
0.006568073,0.059010334,0.011351418,3.61E-03
0.006794558,0.059551973,-0.013715387,3.73E-03
0.007021043,0.049434092,-0.037240583,3.83E-03
0.007247529,0.030220818,-0.054553308,3.89E-03
0.007474014,0.005127124,-0.062518761,3.93E-03
0.007700499,-0.021426683,-0.05924841,3.97E-03
0.007926984,-0.04461541,-0.044979073,4.01E-03
0.00815347,-0.060095713,-0.021927966,4.09E-03
0.008379955,-0.064767323,0.006074859,4.23E-03
0.00860644,-0.057315502,0.034211952,4.46E-03
0.008832925,-0.038471669,0.057455082,4.78E-03
0.00905941,-0.010968933,0.071382165,5.22E-03
0.009285896,0.021027356,0.073071331,5.78E-03
0.009512381,0.051673468,0.061085228,6.40E-03
0.009738866,0.075528942,0.036882374,7.06E-03
0.009965351,0.087800115,0.004077354,7.73E-03
0.010191837,0.085206099,-0.031704396,8.27E-03
0.010418322,0.06754864,-0.06445735,8.72E-03
0.010644807,0.036863171,-0.087543018,9.02E-03
0.010871292,-0.002034328,-0.095789634,9.18E-03
0.011097778,-0.042356189,-0.086324386,9.25E-03
0.011324263,-0.076413304,-0.059248403,9.35E-03
0.011550748,-0.096874267,-0.017837985,9.70E-03
0.011777233,-0.098008484,0.031758685,1.06E-02
0.012003719,-0.076734588,0.08127325,1.25E-02
0.012230204,-0.033336792,0.121414781,1.59E-02
0.012456689,0.02824544,0.143187925,2.13E-02
0.012683174,0.101192422,0.139387563,2.97E-02
0.01290966,0.174222618,0.105261855,4.14E-02
0.013136145,0.235683635,0.041175783,5.72E-02
0.01336263,0.275117159,-0.049269356,7.81E-02
0.013589115,0.282146603,-0.157571018,1.04E-01
0.013815601,0.250361562,-0.271939754,1.37E-01
0.014042086,0.177814916,-0.378618598,1.75E-01
0.014268571,0.067476191,-0.463672042,2.20E-01
0.014495057,-0.073056698,-0.514754653,2.70E-01
0.014721542,-0.232486665,-0.522546232,3.27E-01
0.014948027,-0.397055417,-0.481639743,3.90E-01
0.015174512,-0.551825047,-0.391030371,4.57E-01
0.015400998,-0.682031214,-0.254276454,5.30E-01
0.015627483,-0.774375439,-0.079294764,6.06E-01
0.015853968,-0.818025172,0.122170344,6.84E-01
0.016080453,-0.805491328,0.335862696,7.62E-01
0.016306939,-0.734384894,0.546041012,8.37E-01
0.016533424,-0.607325733,0.73589164,9.10E-01
0.016759909,-0.431583166,0.889776528,9.78E-01
0.016986394,-0.21890454,0.994974613,1.04E+00
0.01721288,0.01555321,1.04302406,1.09E+00
0.017439364,0.254878193,1.03065002,1.13E+00
0.01766585,0.482338071,0.959991932,1.15E+00
0.017892336,0.683240891,0.838046968,1.17E+00
0.01811882,0.846383035,0.675440729,1.17E+00
0.018345306,0.964916766,0.484800875,1.17E+00
0.018571792,1.0365907,0.279405624,1.15E+00
0.018798276,1.06254256,0.071679071,1.13E+00
0.019024762,1.047701,-0.128784314,1.11E+00
0.019251246,1.00857437,-0.300853342,1.11E+00
0.019477732,0.911280274,-0.464206457,1.05E+00
0.019704218,0.805899262,-0.604393363,1.01E+00
0.019930702,0.685662866,-0.71916467,9.87E-01
0.020157188,0.555312634,-0.809678674,9.64E-01
0.020383674,0.418795735,-0.877502084,9.45E-01
0.020610158,0.278930753,-0.924370646,9.32E-01
0.020836644,0.137568533,-0.95179224,9.25E-01
0.02106313,-0.004074253,-0.960751772,9.23E-01
0.021289614,-0.145005018,-0.951579273,9.27E-01
0.0215161,-0.284029484,-0.923965931,9.34E-01
0.021742584,-0.419176936,-0.877133429,9.45E-01
0.02196907,-0.547335982,-0.811086059,9.57E-01
0.022195556,-0.678030908,-0.727511764,9.89E-01
0.02242204,-0.770543277,-0.625296354,9.85E-01
0.022648526,-0.864929914,-0.513993382,1.01E+00
0.022875012,-0.945666909,-0.376969069,1.04E+00
0.023101496,-0.999094009,-0.227043092,1.05E+00
0.023327982,-1.0264684,-0.070083559,1.06E+00
0.023554466,-1.02707541,0.089198493,1.06E+00
0.023780952,-1.00103319,0.245615944,1.06E+00
0.024007438,-0.949740291,0.394061685,1.06E+00
0.024233922,-0.875818074,0.530008495,1.05E+00
0.024460408,-0.782829463,0.649894178,1.04E+00
0.024686894,-0.674867153,0.751325786,1.02E+00
0.024913378,-0.556136608,0.833080113,1.00E+00
0.025139864,-0.430675298,0.894974709,9.86E-01
0.025366348,-0.302111387,0.937815547,9.71E-01
0.025592834,-0.173406094,0.963156521,9.58E-01
0.02581932,-0.047044307,0.973761737,9.50E-01
0.026045804,0.079589911,0.974020898,9.55E-01
0.02627229,0.20923759,0.957711339,9.61E-01
0.026498776,0.335720718,0.92397052,9.66E-01
0.02672526,0.457425684,0.874432683,9.74E-01
0.026951746,0.573005438,0.809258223,9.83E-01
0.02717823,0.680456221,0.728471041,9.94E-01
0.027404716,0.777268887,0.632508814,1.00E+00
0.027631202,0.860683799,0.522492766,1.01E+00
0.027857686,0.927996635,0.40034619,1.02E+00
0.028084172,0.976869941,0.26878199,1.03E+00
0.028310658,1.00562358,0.131183356,1.03E+00
0.028537142,1.01349461,-0.008617884,1.03E+00
0.028763628,1.00083137,-0.146687582,1.02E+00
0.028990114,0.969243169,-0.279414147,1.02E+00
0.029216598,0.921806395,-0.404738754,1.01E+00
0.029443084,0.859445393,-0.52386421,1.01E+00
0.029669568,0.779892921,-0.633420587,1.01E+00
0.029896054,0.686488569,-0.72906673,1.00E+00
0.03012254,0.582766473,-0.809926629,9.96E-01
0.030349024,0.471155941,-0.875800371,9.89E-01
0.03057551,0.353627592,-0.926599145,9.84E-01
0.030801996,0.231902346,-0.962290943,9.80E-01
0.03102848,0.107544445,-0.982858717,9.78E-01
0.031254966,-0.017949987,-0.988268018,9.77E-01
0.03148145,-0.143055886,-0.978473902,9.78E-01
0.031707936,-0.266132534,-0.953489542,9.80E-01
0.031934422,-0.385394454,-0.913514555,9.83E-01
0.032160906,-0.498984724,-0.85910666,9.87E-01
0.032387392,-0.605312526,-0.791369677,9.93E-01
0.032613878,-0.703997791,-0.711379528,1.00E+00
0.032840362,-0.794452667,-0.617666662,1.01E+00
0.033066848,-0.872104108,-0.50980556,1.02E+00
0.033293332,-0.933576226,-0.391148239,1.02E+00
0.033519818,-0.977591872,-0.264982522,1.03E+00
0.033746304,-1.0034411,-0.134248048,1.02E+00
0.033972788,-1.010849,-0.001875129,1.02E+00
0.034199276,-1.00007749,0.129237562,1.02E+00
0.03442576,-0.97193712,0.256368667,1.01E+00
0.034652244,-0.927715778,0.377120018,1.00E+00
0.034878728,-0.869056821,0.489519835,9.95E-01
0.035105216,-0.797819614,0.592072368,9.87E-01
0.0353317,-0.715958953,0.683776379,9.80E-01
0.035558184,-0.625423431,0.764165938,9.75E-01
0.035784672,-0.527927577,0.833515942,9.73E-01
0.036011156,-0.423895687,0.892777681,9.77E-01
0.03623764,-0.31207937,0.941107869,9.83E-01
0.036464128,-0.193358094,0.975592792,9.89E-01
0.036690612,-0.070292555,0.994888425,9.95E-01
0.036917096,0.055028077,0.998576283,1.00E+00
0.037143584,0.180679262,0.986269593,1.01E+00
0.037370068,0.304541498,0.957689226,1.01E+00
0.037596552,0.424262792,0.912877679,1.01E+00
0.03782304,0.537366688,0.852352381,1.02E+00
0.038049524,0.641419351,0.777177989,1.02E+00
0.038276008,0.734218597,0.688966513,1.01E+00
0.038502492,0.813975811,0.58980453,1.01E+00
0.03872898,0.879491329,0.482119858,1.01E+00
0.038955464,0.930336654,0.368450433,1.00E+00
0.039181948,0.966988802,0.250904143,9.98E-01
0.039408436,0.990066886,0.130238742,9.97E-01
0.03963492,0.998467386,0.006921432,9.97E-01
0.039861404,0.99095726,-0.116566934,9.96E-01
0.040087892,0.968033969,-0.237501621,9.93E-01
0.040314376,0.93072629,-0.354052007,9.92E-01
0.04054086,0.879942775,-0.464829445,9.90E-01
0.040767348,0.816491902,-0.568553507,9.90E-01
0.040993832,0.741191149,-0.663945377,9.90E-01
0.041220316,0.654958069,-0.74970746,9.91E-01
0.041446804,0.558885157,-0.824549258,9.92E-01
0.041673288,0.454294801,-0.887252629,9.94E-01
0.041899772,0.342761189,-0.936769366,9.95E-01
0.04212626,0.226075605,-0.972363472,9.97E-01
0.042352744,0.106063046,-0.993776858,9.99E-01
0.042579228,-0.015911916,-1.00117421,1.00E+00
0.042805712,-0.139206856,-0.994161189,1.01E+00
0.0430322,-0.262247354,-0.971164167,1.01E+00
0.043258684,-0.381789565,-0.931589901,1.01E+00
0.043485168,-0.494856924,-0.876467645,1.01E+00
0.043711656,-0.599295497,-0.807338357,1.01E+00
0.04393814,-0.693435848,-0.725847721,1.01E+00
0.044164624,-0.775935352,-0.633735657,1.00E+00
0.044391112,-0.845760822,-0.532828629,9.99E-01
0.044617596,-0.902193606,-0.424998254,9.95E-01
0.04484408,-0.944819152,-0.312102407,9.90E-01
0.045070568,-0.973507106,-0.195934638,9.86E-01
0.045297052,-0.98839134,-0.078175835,9.83E-01
0.045523536,-0.989864945,0.039676055,9.81E-01
0.045750024,-0.978541195,0.156487167,9.82E-01
0.045976508,-0.954876482,0.271765918,9.86E-01
0.046202992,-0.918275595,0.385207474,9.92E-01
0.046429476,-0.867512941,0.495127261,9.98E-01
0.046655964,-0.802571416,0.598786116,1.00E+00
0.046882448,-0.724514902,0.693868279,1.01E+00
0.047108932,-0.634685874,0.778570235,1.01E+00
0.04733542,-0.534573674,0.851321757,1.01E+00
0.047561904,-0.425895065,0.910743058,1.01E+00
0.047788388,-0.310617864,0.955723703,1.01E+00
0.048014876,-0.190912083,0.985517085,1.01E+00
0.04824136,-0.069049783,0.999810338,1.00E+00
0.048467844,0.052721206,0.998755395,1.00E+00
0.048694332,0.172324494,0.982962191,9.96E-01
0.048920816,0.288037121,0.953442693,9.92E-01
0.0491473,0.398731768,0.911409259,9.90E-01
0.049373788,0.503953099,0.857685685,9.90E-01
0.049600272,0.603068948,0.792148352,9.91E-01
0.049826756,0.69427979,0.714714527,9.93E-01
0.050053244,0.775553465,0.626452565,9.94E-01
0.050279728,0.845537722,0.528953135,9.95E-01
0.050506212,0.903319478,0.423739403,9.96E-01
0.050732696,0.948121846,0.312270284,9.96E-01
0.050959184,0.979239464,0.196066871,9.97E-01
0.051185668,0.996088803,0.076788776,9.98E-01
0.051412152,0.998287559,-0.043754522,9.98E-01
0.05163864,0.985737681,-0.16364044,9.98E-01
0.051865124,0.958689868,-0.280915976,9.98E-01
0.052091608,0.917777359,-0.393725842,9.97E-01
0.052318096,0.863975883,-0.500502586,9.97E-01
0.05254458,0.798354089,-0.600169003,9.98E-01
0.052771064,0.721537411,-0.691985011,9.99E-01
0.052997552,0.633661985,-0.77464813,1.00E+00
0.053224036,0.535554051,-0.846041739,1.00E+00
0.05345052,0.429140061,-0.90441519,1.00E+00
0.053677008,0.316615373,-0.948879421,1.00E+00
0.053903492,0.19999361,-0.979061365,9.99E-01
0.054129976,0.081115179,-0.994839966,9.96E-01
0.05435646,-0.038280949,-0.996264398,9.94E-01
0.054582948,-0.156523168,-0.983547211,9.92E-01
0.054809432,-0.272003055,-0.957067907,9.90E-01
0.055035916,-0.383188933,-0.917382956,9.88E-01
0.055262404,-0.488660693,-0.865230203,9.87E-01
0.055488888,-0.587177873,-0.80152005,9.87E-01
0.055715372,-0.677781761,-0.727247059,9.88E-01
0.05594186,-0.759830236,-0.643219769,9.91E-01
0.056168344,-0.832586944,-0.549731433,9.95E-01
0.056394828,-0.894476175,-0.447006971,1.00E+00
0.056621316,-0.943422139,-0.336285889,1.00E+00
0.0568478,-0.977952838,-0.219738334,1.00E+00
0.057074284,-0.997386217,-0.099695273,1.00E+00
0.057300772,-1.00152266,0.021629525,1.00E+00
0.057527256,-0.990485668,0.142125458,1.00E+00
0.05775374,-0.964699268,0.259774029,9.98E-01
0.057980228,-0.924885333,0.372688234,9.94E-01
0.058206712,-0.872042418,0.479172975,9.90E-01
0.058433196,-0.807397068,0.577788949,9.86E-01
0.05865968,-0.732335687,0.667411387,9.82E-01
0.058886168,-0.648296177,0.747284532,9.79E-01
0.059112652,-0.556581318,0.817051828,9.77E-01
0.059339136,-0.458050936,0.876596153,9.78E-01
0.059565624,-0.353025407,0.925459623,9.81E-01
0.059792108,-0.24201037,0.962374091,9.85E-01
0.060018592,-0.126445383,0.985919714,9.88E-01
0.06024508,-0.008309008,0.995304763,9.91E-01
0.060471564,0.110452712,0.990277648,9.93E-01
0.060698048,0.22800307,0.970850408,9.95E-01
0.060924536,0.342531979,0.937222958,9.96E-01
0.06115102,0.45222196,0.889823794,9.96E-01
0.061377504,0.555285215,0.829362929,9.96E-01
0.061603992,0.650043368,0.756857812,9.95E-01
0.061830476,0.735023856,0.673617125,9.94E-01
0.06205696,0.809063613,0.581180394,9.92E-01
0.062283448,0.87140137,0.481186777,9.91E-01
0.062509932,0.92168957,0.375139296,9.90E-01
0.062736416,0.9597435,0.264128596,9.91E-01
0.0629629,0.984984756,0.148956537,9.92E-01
0.063189388,0.996361256,0.030903477,9.94E-01
0.063415872,0.993152916,-0.087982126,9.94E-01
0.063642356,0.975405753,-0.205505207,9.94E-01
0.063868844,0.943640053,-0.319758922,9.93E-01
0.064095328,0.89855653,-0.429109335,9.92E-01
0.064321812,0.840954065,-0.532084584,9.90E-01
0.0645483,0.771740913,-0.627317786,9.89E-01
0.064774784,0.691961288,-0.71354419,9.88E-01
0.065001268,0.602811337,-0.789630055,9.87E-01
0.065227756,0.505630791,-0.854621708,9.86E-01
0.06545424,0.401858777,-0.907807589,9.86E-01
0.065680724,0.292922378,-0.948762476,9.86E-01
0.065907212,0.180047914,-0.977288127,9.88E-01
0.066133696,0.064141892,-0.993096352,9.90E-01
0.06636018,-0.053841569,-0.995414853,9.94E-01
0.066586664,-0.172223136,-0.983279765,9.96E-01
0.066813152,-0.28868559,-0.956347227,9.98E-01
0.067039636,-0.400948673,-0.915060341,9.98E-01
0.06726612,-0.50707531,-0.860308588,9.97E-01
0.067492608,-0.605432034,-0.793186247,9.96E-01
0.067719096,-0.694616437,-0.714927375,9.94E-01
0.067945576,-0.773432314,-0.626889765,9.91E-01
0.068172064,-0.8409006,-0.530542791,9.89E-01
0.068398552,-0.896279633,-0.427435607,9.86E-01
0.068625032,-0.939086139,-0.319149703,9.84E-01
0.06885152,-0.96911031,-0.207222894,9.82E-01
0.069078,-0.986384869,-0.093025647,9.82E-01
0.069304488,-0.991022408,0.022379929,9.83E-01
0.069530976,-0.982854545,0.138181984,9.85E-01
0.069757456,-0.961242259,0.253291816,9.88E-01
0.069983944,-0.925616503,0.365867287,9.91E-01
0.070210432,-0.87612927,0.473662943,9.92E-01
0.070436912,-0.813602567,0.57462126,9.92E-01
0.0706634,-0.739197493,0.667033195,9.91E-01
0.070889888,-0.654250085,0.749473155,9.90E-01
0.071116368,-0.560237527,0.820751131,9.87E-01
0.071342856,-0.458764642,0.879919291,9.85E-01
0.071569344,-0.351531863,0.926303625,9.82E-01
0.071795824,-0.240274504,0.959527731,9.78E-01
0.072022312,-0.126682654,0.979526937,9.76E-01
0.0722488,-0.012291635,0.986525476,9.73E-01
0.07247528,0.101650894,0.980941653,9.73E-01
0.072701768,0.214263096,0.963140965,9.74E-01
0.072928256,0.324816912,0.933095813,9.76E-01
0.073154736,0.432173312,0.890410662,9.80E-01
0.073381224,0.534556746,0.83495003,9.83E-01
0.073607712,0.630034506,0.76724869,9.86E-01
0.073834192,0.716941357,0.688308716,9.88E-01
0.07406068,0.79390049,0.59932375,9.89E-01
0.074287168,0.859725118,0.501596868,9.91E-01
0.074513648,0.913378894,0.396561563,9.92E-01
0.074740136,0.954005599,0.285803318,9.92E-01
0.074966624,0.980982721,0.171047285,9.92E-01
0.075193104,0.993980467,0.054108322,9.91E-01
0.075419592,0.993000388,-0.06320098,9.90E-01
0.07564608,0.978362203,-0.179199934,9.89E-01
0.07587256,0.950593829,-0.292479753,9.89E-01
0.076099048,0.91016537,-0.401932269,9.90E-01
0.076325536,0.857253253,-0.506451905,9.91E-01
0.076552016,0.791976929,-0.604483485,9.93E-01
0.076778504,0.71499306,-0.694106758,9.93E-01
0.077004984,0.627621233,-0.773601234,9.92E-01
0.077231472,0.531491697,-0.841732442,9.91E-01
0.07745796,0.428265154,-0.897667944,9.89E-01
0.07768444,0.319558114,-0.940838695,9.87E-01
0.077910928,0.206952378,-0.970863581,9.85E-01
0.078137416,0.092013024,-0.98753041,9.84E-01
0.078363896,-0.023712099,-0.990800917,9.82E-01
0.078590384,-0.138713658,-0.980821133,9.81E-01
0.078816872,-0.251570016,-0.957924485,9.81E-01
0.079043352,-0.361020535,-0.922590077,9.82E-01
0.07926984,-0.466021419,-0.87531507,9.83E-01
0.079496328,-0.565645993,-0.816396177,9.86E-01
0.079722808,-0.658707976,-0.745880723,9.90E-01
0.079949296,-0.743468225,-0.664004028,9.94E-01
0.080175784,-0.8179546,-0.5717085,9.96E-01
0.080402264,-0.880524039,-0.470589459,9.97E-01
0.080628752,-0.930049121,-0.362523407,9.96E-01
0.08085524,-0.965828478,-0.249439657,9.95E-01
0.08108172,-0.987488389,-0.133253053,9.93E-01
0.081308208,-0.994942129,-0.015840171,9.90E-01
0.081534696,-0.988375485,0.100990355,9.87E-01
0.081761176,-0.968229949,0.215544641,9.84E-01
0.081987664,-0.935174942,0.326300442,9.81E-01
0.082214152,-0.890048385,0.431970179,9.79E-01
0.082440632,-0.833746791,0.531553328,9.78E-01
0.08266712,-0.767039716,0.62431848,9.78E-01
0.082893608,-0.690380812,0.70958209,9.80E-01
0.083120088,-0.604013383,0.786301732,9.83E-01
0.083346576,-0.508483529,0.852951646,9.86E-01
0.083573064,-0.404994667,0.907951057,9.88E-01
0.083799544,-0.295217454,0.950103521,9.90E-01
0.084026032,-0.180971399,0.978644729,9.90E-01
0.08425252,-0.064092636,0.993133187,9.90E-01
0.084479,0.053580739,0.993385732,9.90E-01
0.084705488,0.170211583,0.979473531,9.88E-01
0.084931968,0.283998519,0.951742411,9.86E-01
0.085158456,0.393237621,0.910817802,9.84E-01
0.085384944,0.496404618,0.857584715,9.82E-01
0.085611424,0.592238307,0.793117523,9.80E-01
0.085837912,0.679796159,0.718541503,9.78E-01
0.0860644,0.758397222,0.634834111,9.78E-01
0.08629088,0.827349544,0.542697668,9.79E-01
0.086517368,0.885622203,0.442786574,9.80E-01
0.086743856,0.931920588,0.336179286,9.81E-01
0.086970336,0.965160072,0.224503055,9.82E-01
0.087196824,0.984742045,0.109622546,9.82E-01
0.087423312,0.990472436,-0.00663795,9.81E-01
0.087649792,0.982411563,-0.122563012,9.80E-01
0.08787628,0.960796416,-0.236520857,9.79E-01
0.088102768,0.92603153,-0.346937954,9.78E-01
0.088329248,0.878704786,-0.452306926,9.77E-01
0.088555736,0.819594562,-0.551219761,9.76E-01
0.088782224,0.749657273,-0.642425776,9.75E-01
0.089008704,0.669967055,-0.724891961,9.74E-01
0.089235192,0.581593096,-0.797822773,9.75E-01
0.08946168,0.485447854,-0.860553086,9.76E-01
0.08968816,0.38228786,-0.91227293,9.78E-01
0.089914648,0.273047775,-0.951845467,9.81E-01
0.090141136,0.159223124,-0.978075504,9.82E-01
0.090367616,0.042794287,-0.990191936,9.82E-01
0.090594104,-0.074154452,-0.987996757,9.82E-01
0.090820592,-0.189679846,-0.971720874,9.80E-01
0.091047072,-0.302030593,-0.941864789,9.78E-01
0.09127356,-0.409629643,-0.899114788,9.76E-01
0.091500048,-0.511058331,-0.844309092,9.74E-01
0.091726528,-0.605061233,-0.778418899,9.72E-01
0.091953016,-0.690563381,-0.702522993,9.70E-01
0.092179504,-0.766692996,-0.61776638,9.69E-01
0.092405984,-0.832792759,-0.525282145,9.69E-01
0.092632472,-0.888369739,-0.42607826,9.71E-01
0.092858952,-0.932915509,-0.320956975,9.73E-01
0.09308544,-0.965639532,-0.210652173,9.77E-01
0.093311928,-0.985434353,-0.096239455,9.80E-01
0.093538408,-0.991279006,0.020593448,9.83E-01
0.093764896,-0.982658923,0.137752667,9.85E-01
0.093991384,-0.959621787,0.25310564,9.85E-01
0.094217864,-0.92262733,0.364666611,9.84E-01
0.094444352,-0.872425377,0.470633209,9.83E-01
0.09467084,-0.809999406,0.569389999,9.80E-01
0.09489732,-0.736535847,0.659529209,9.77E-01
0.095123808,-0.653385222,0.739884853,9.74E-01
0.095350296,-0.562004149,0.809569716,9.71E-01
0.095576776,-0.463866651,0.867996156,9.69E-01
0.095803264,-0.360346407,0.91485554,9.67E-01
0.096029752,-0.252589375,0.950006604,9.66E-01
0.096256232,-0.141486019,0.973240256,9.67E-01
0.09648272,-0.027898518,0.984044075,9.69E-01
0.096709208,0.086941816,0.981694818,9.71E-01
0.096935688,0.201318532,0.965680063,9.73E-01
0.097162176,0.313311875,0.935976803,9.74E-01
0.097388664,0.421086371,0.892991602,9.75E-01
0.097615144,0.52297616,0.83740145,9.75E-01
0.097841632,0.61746496,0.770071447,9.74E-01
0.09806812,0.70316869,0.692040384,9.73E-01
0.0982946,0.778854907,0.604524851,9.72E-01
0.098521088,0.843484581,0.508907259,9.70E-01
0.098747576,0.896265924,0.406692982,9.69E-01
0.098974056,0.936689556,0.299428612,9.67E-01
