Frequency (GHz),Re( S21 ),Im( S21 ),S2
0,0.048302516,6.24E-05,2.33E-03
0.000226424,0.044038568,-0.019679014,2.33E-03
0.000452849,0.031988066,-0.035860378,2.31E-03
0.000679273,0.014351741,-0.045587726,2.28E-03
0.000905697,-0.005688509,-0.047163308,2.26E-03
0.001132122,-0.024569655,-0.040359605,2.23E-03
0.001358546,-0.038981568,-0.026413448,2.22E-03
0.00158497,-0.046419397,-0.007774939,2.22E-03
0.001811395,-0.045577407,0.01232233,2.23E-03
0.002037819,-0.036548972,0.030392231,2.26E-03
0.002264243,-0.020763492,0.043470834,2.32E-03
0.002490668,-0.000937822,0.048770122,2.38E-03
0.002717092,0.019479478,0.045419324,2.44E-03
0.002943516,0.036847144,0.033845164,2.50E-03
0.003169941,0.047971569,0.015971299,2.56E-03
0.003396365,0.050706107,-0.005010596,2.60E-03
0.003622789,0.044431709,-0.025445888,2.62E-03
0.003849214,0.030172881,-0.041507032,2.63E-03
0.004075638,0.010435971,-0.050255861,2.63E-03
0.004302062,-0.011147589,-0.049986053,2.62E-03
0.004528487,-0.030904817,-0.040852163,2.62E-03
0.004754911,-0.045251165,-0.024286885,2.64E-03
0.004981335,-0.051590487,-0.003117742,2.67E-03
0.00520776,-0.048757825,0.019198922,2.75E-03
0.005434184,-0.036834784,0.038473256,2.84E-03
0.005660608,-0.017805595,0.051372282,2.96E-03
0.005887033,0.005195161,0.055419028,3.10E-03
0.006113457,0.028216584,0.049581725,3.25E-03
0.006339881,0.047128979,0.034535978,3.41E-03
0.006566306,0.058377929,0.012648347,3.57E-03
0.00679273,0.059523188,-0.012208379,3.69E-03
0.007019154,0.050073657,-0.035803292,3.79E-03
0.007245579,0.031410236,-0.053593054,3.86E-03
0.007472003,0.006776595,-0.062010501,3.89E-03
0.007698427,-0.019639259,-0.059501931,3.93E-03
0.007924852,-0.043031491,-0.046015941,3.97E-03
0.008151276,-0.059048023,-0.023620607,4.04E-03
0.0083777,-0.064516664,0.003990894,4.18E-03
0.008604124,-0.057996452,0.032101162,4.39E-03
0.008830549,-0.040055729,0.055723559,4.71E-03
0.009056973,-0.013096586,0.070654504,5.16E-03
0.009283397,0.01841324,0.073173158,5.69E-03
0.009509822,0.049199406,0.062318947,6.30E-03
0.009736246,0.073685929,0.039141219,6.96E-03
0.00996267,0.087014459,0.007041571,7.62E-03
0.010189095,0.085827835,-0.028726947,8.19E-03
0.010415519,0.069433779,-0.061643466,8.62E-03
0.010641943,0.039915875,-0.085709103,8.94E-03
0.010868368,0.001713068,-0.095428713,9.11E-03
0.011094792,-0.038588736,-0.087710321,9.18E-03
0.011321216,-0.073403128,-0.062359046,9.28E-03
0.011547641,-0.095375933,-0.022321239,9.59E-03
0.011774065,-0.098618932,0.026567301,1.04E-02
0.012000489,-0.07976947,0.076280557,1.22E-02
0.012226914,-0.038737789,0.117653094,1.53E-02
0.012453338,0.020956144,0.141663805,2.05E-02
0.012679762,0.092915386,0.140977889,2.85E-02
0.012906187,0.166163906,0.110357277,3.98E-02
0.013132611,0.229169086,0.049725179,5.50E-02
0.013359035,0.271547824,-0.037757598,7.52E-02
0.01358546,0.282669842,-0.144154742,1.01E-01
0.013811884,0.255721331,-0.258087993,1.32E-01
0.014038308,0.188213408,-0.366038799,1.69E-01
0.014264733,0.082509495,-0.45410502,2.13E-01
0.014491157,-0.054376788,-0.509762764,2.63E-01
0.014717581,-0.211639777,-0.523330569,3.19E-01
0.014944006,-0.375878185,-0.488901317,3.80E-01
0.01517043,-0.532342434,-0.404874355,4.47E-01
0.015396854,-0.666261792,-0.274169713,5.19E-01
0.015623279,-0.764132321,-0.104082339,5.95E-01
0.015849703,-0.81473583,0.094193839,6.73E-01
0.016076127,-0.810048103,0.306803852,7.50E-01
0.016302552,-0.746997356,0.518220484,8.27E-01
0.016528976,-0.627471566,0.711638451,9.00E-01
0.0167554,-0.458032489,0.871180356,9.69E-01
0.016981824,-0.249826357,0.983653963,1.03E+00
0.017208248,-0.017600825,1.03994799,1.08E+00
0.017434674,0.221893892,1.03603673,1.12E+00
0.017661098,0.451819271,0.973314762,1.15E+00
0.017887522,0.657137513,0.858138204,1.17E+00
0.018113946,0.826123476,0.700674295,1.17E+00
0.01834037,0.951317489,0.513316214,1.17E+00
0.018566794,1.02985144,0.309321404,1.16E+00
0.01879322,1.06233788,0.10129486,1.14E+00
0.019019644,1.05326807,-0.100812934,1.12E+00
0.019246068,1.01931477,-0.277019769,1.12E+00
0.019472492,0.925274611,-0.442408174,1.05E+00
0.019698916,0.822538018,-0.586263001,1.02E+00
0.01992534,0.704052448,-0.704615593,9.92E-01
0.020151766,0.574756444,-0.798457861,9.68E-01
0.02037819,0.438832045,-0.869280636,9.48E-01
0.020604614,0.299312443,-0.918843687,9.34E-01
0.020831038,0.158203498,-0.948758006,9.25E-01
0.021057462,0.016793998,-0.960157514,9.22E-01
0.021283886,-0.123943135,-0.953525901,9.25E-01
0.021510312,-0.262916327,-0.928673089,9.32E-01
0.021736736,-0.398328841,-0.884863675,9.42E-01
0.02196316,-0.527219117,-0.822020233,9.54E-01
0.022189584,-0.659033179,-0.742036045,9.85E-01
0.022416008,-0.753756464,-0.642642438,9.81E-01
0.022642432,-0.850272775,-0.534442067,1.01E+00
0.022868858,-0.934691668,-0.400314599,1.03E+00
0.023095282,-0.992237687,-0.25228706,1.05E+00
0.023321706,-1.02407002,-0.09635441,1.06E+00
0.02354813,-1.02925813,0.062851705,1.06E+00
0.023774554,-1.00766432,0.220141098,1.06E+00
0.024000978,-0.96044445,0.370314062,1.06E+00
0.024227404,-0.890029192,0.508677483,1.05E+00
0.024453828,-0.799865067,0.631455839,1.04E+00
0.024680252,-0.694013953,0.736033022,1.02E+00
0.024906676,-0.576726973,0.820984483,1.01E+00
0.0251331,-0.452142745,0.885971844,9.89E-01
0.025359524,-0.324029148,0.93170166,9.73E-01
0.02558595,-0.195489779,0.959694982,9.59E-01
0.025812374,-0.069163375,0.972674906,9.51E-01
0.026038798,0.057194211,0.975304246,9.54E-01
0.026265222,0.186838254,0.96171385,9.60E-01
0.026491646,0.313586473,0.93072927,9.65E-01
0.02671807,0.435817689,0.884078562,9.72E-01
0.026944496,0.552306652,0.821930945,9.81E-01
0.02717092,0.66117084,0.744237185,9.91E-01
0.027397344,0.75998795,0.651302636,1.00E+00
0.027623768,0.846030414,0.544076562,1.01E+00
0.027850192,0.916557431,0.424298286,1.02E+00
0.028076616,0.969128072,0.294512153,1.03E+00
0.028303042,1.00189984,0.157974586,1.03E+00
0.028529466,1.01390946,0.018453311,1.03E+00
0.02875589,1.0052923,-0.120106064,1.03E+00
0.028982314,0.977454901,-0.253998756,1.02E+00
0.029208738,0.933349013,-0.380938023,1.02E+00
0.029435162,0.874091864,-0.502011955,1.02E+00
0.029661588,0.797237277,-0.614041626,1.01E+00
0.029888012,0.705955625,-0.712397575,1.01E+00
0.030114436,0.603881776,-0.79602778,9.98E-01
0.03034086,0.493545353,-0.864665568,9.91E-01
0.030567284,0.377002478,-0.918200195,9.85E-01
0.030793708,0.256040484,-0.956615865,9.81E-01
0.031020132,0.132260457,-0.979937315,9.78E-01
0.031246558,0.007157112,-0.988181055,9.77E-01
0.031472982,-0.117783323,-0.981345296,9.77E-01
0.031699406,-0.240988269,-0.959457874,9.79E-01
0.03192583,-0.360752076,-0.92269522,9.82E-01
0.032152254,-0.475286692,-0.871548414,9.85E-01
0.032378678,-0.583024025,-0.807027161,9.91E-01
0.032605104,-0.683552027,-0.730182886,1.00E+00
0.032831528,-0.776452661,-0.639555216,1.01E+00
0.033057952,-0.857240736,-0.53436923,1.02E+00
0.033284376,-0.92231375,-0.417779535,1.03E+00
0.0335108,-0.970222116,-0.293024153,1.03E+00
0.033737224,-1.00010395,-0.16301626,1.03E+00
0.033963648,-1.01153231,-0.030695548,1.02E+00
0.034190072,-1.00462925,0.100987755,1.02E+00
0.034416496,-0.980094075,0.229224116,1.01E+00
0.034642924,-0.939145207,0.35150671,1.01E+00
0.034869348,-0.883398533,0.465750873,9.97E-01
0.035095772,-0.814724565,0.570361078,9.89E-01
0.035322196,-0.735116422,0.664259434,9.82E-01
0.03554862,-0.646576881,0.746928155,9.76E-01
0.035775044,-0.550898671,0.818608165,9.74E-01
0.036001468,-0.448642254,0.880303144,9.76E-01
0.036227892,-0.338546753,0.931396306,9.82E-01
0.036454316,-0.22127153,0.969014585,9.88E-01
0.03668074,-0.099293374,0.991733789,9.93E-01
0.036907164,0.02535639,0.9991045,9.99E-01
0.037133588,0.150840104,0.990694225,1.00E+00
0.037360016,0.275121421,0.9661358,1.01E+00
0.03758644,0.395905256,0.925346851,1.01E+00
0.037812864,0.510729671,0.868697703,1.02E+00
0.038039288,0.617126644,0.797103822,1.02E+00
0.038265712,0.712812722,0.712043166,1.02E+00
0.038492136,0.795879662,0.615501165,1.01E+00
0.03871856,0.864982307,0.5098508,1.01E+00
0.038944984,0.919537425,0.397632658,1.00E+00
0.039171408,0.959893167,0.281038076,1.00E+00
0.039397832,0.986666203,0.160947993,9.99E-01
0.039624256,0.998818278,0.037790585,9.99E-01
0.03985068,0.99500531,-0.086012162,9.97E-01
0.040077108,0.975638866,-0.207655102,9.95E-01
0.040303532,0.941751182,-0.325238645,9.93E-01
0.040529956,0.894273579,-0.437353104,9.91E-01
0.04075638,0.834026992,-0.542731702,9.90E-01
0.040982804,0.761817575,-0.640125632,9.90E-01
0.041209228,0.678526044,-0.728271544,9.91E-01
0.041435652,0.585180461,-0.805904627,9.92E-01
0.041662076,0.483018458,-0.871809125,9.93E-01
0.0418885,0.373521239,-0.924907148,9.95E-01
0.042114924,0.258394599,-0.964398026,9.97E-01
0.042341348,0.139411971,-0.989927769,9.99E-01
0.042567772,0.017941697,-1.00158036,1.00E+00
0.0427942,-0.105392583,-0.998958349,1.01E+00
0.043020624,-0.229154795,-0.980416,1.01E+00
0.043247048,-0.35013622,-0.945132792,1.02E+00
0.043473472,-0.465251148,-0.89397496,1.02E+00
0.043699896,-0.57222724,-0.828404903,1.01E+00
0.04392632,-0.669288278,-0.750028491,1.01E+00
0.044152744,-0.754995346,-0.660572767,1.01E+00
0.044379168,-0.828232348,-0.561872959,1.00E+00
0.044605592,-0.888217032,-0.455824196,9.97E-01
0.044832016,-0.934493721,-0.344314218,9.92E-01
0.04505844,-0.966908038,-0.229161963,9.87E-01
0.045284864,-0.985582292,-0.112065174,9.84E-01
0.045511288,-0.990902781,0.005470462,9.82E-01
0.045737716,-0.983483255,0.122301742,9.82E-01
0.04596414,-0.963819206,0.237936363,9.86E-01
0.046190564,-0.931378901,0.352170557,9.91E-01
0.046416988,-0.884853482,0.463499993,9.98E-01
0.046643412,-0.824029505,0.569239497,1.00E+00
0.046869836,-0.749822259,0.667033315,1.01E+00
0.04709626,-0.663458526,0.755023241,1.01E+00
0.047322684,-0.56632179,0.831568003,1.01E+00
0.047549108,-0.460037321,0.895189106,1.01E+00
0.047775532,-0.346510321,0.944654763,1.01E+00
0.048001956,-0.227883622,0.979085743,1.01E+00
0.04822838,-0.106441431,0.99803859,1.01E+00
0.048454808,0.015522228,1.00154984,1.00E+00
0.048681232,0.13585563,0.990141094,9.99E-01
0.048907656,0.252741665,0.964771926,9.95E-01
0.04913408,0.364950836,0.926655352,9.92E-01
0.049360504,0.471969157,0.876690984,9.91E-01
0.049586928,0.573230088,0.814825952,9.93E-01
0.049813352,0.667027771,0.740913033,9.94E-01
0.050039776,0.751323342,0.655923069,9.95E-01
0.0502662,0.82473737,0.561398745,9.95E-01
0.050492624,0.88635242,0.458816439,9.96E-01
0.050719048,0.93538636,0.349563599,9.97E-01
0.050945472,0.97110486,0.235071003,9.98E-01
0.0511719,0.992861331,0.116902843,9.99E-01
0.051398324,1.00017452,-0.003214199,1.00E+00
0.051624748,0.99281615,-0.123413019,1.00E+00
0.051851172,0.97088927,-0.241755128,1.00E+00
0.052077596,0.934878588,-0.356351733,1.00E+00
0.05230402,0.885634422,-0.465552449,1.00E+00
0.052530444,0.824157238,-0.5681656,1.00E+00
0.052756868,0.751070559,-0.663373172,1.00E+00
0.052983292,0.66647625,-0.749867737,1.01E+00
0.053209716,0.571088672,-0.825471878,1.01E+00
0.05343614,0.466783971,-0.888284922,1.01E+00
0.053662564,0.355796158,-0.93729192,1.01E+00
0.053888992,0.240202278,-0.972052574,1.00E+00
0.054115416,0.121896662,-0.992419541,1.00E+00
0.05434184,0.002650588,-0.998439908,9.97E-01
0.054568264,-0.115855582,-0.990333498,9.94E-01
0.054794688,-0.232030228,-0.968485117,9.92E-01
0.055021112,-0.344377726,-0.933440804,9.90E-01
0.055247536,-0.451523989,-0.885905921,9.89E-01
0.05547396,-0.55226773,-0.826734364,9.88E-01
0.055700384,-0.645675957,-0.756852627,9.90E-01
0.055926808,-0.731126904,-0.677009284,9.93E-01
0.056153232,-0.807944179,-0.587423027,9.98E-01
0.056379656,-0.874616921,-0.48813957,1.00E+00
0.056606084,-0.928996027,-0.380152583,1.01E+00
0.056832508,-0.96941936,-0.265467018,1.01E+00
0.057058932,-0.994998276,-0.146342501,1.01E+00
0.057285356,-1.00533843,-0.024975875,1.01E+00
0.05751178,-1.00037742,0.096496753,1.01E+00
0.057738204,-0.980370939,0.215989605,1.01E+00
0.057964628,-0.945901036,0.331511945,1.00E+00
0.058191052,-0.897862136,0.441239774,1.00E+00
0.058417476,-0.837422371,0.543593228,9.97E-01
0.0586439,-0.765949309,0.637307584,9.93E-01
0.058870324,-0.68490535,0.721501887,9.90E-01
0.059096748,-0.595656872,0.795723438,9.88E-01
0.059323176,-0.499154955,0.859821677,9.88E-01
0.0595496,-0.395773917,0.913391888,9.91E-01
0.059776024,-0.28595978,0.955222726,9.94E-01
0.060002448,-0.171058908,0.983853459,9.97E-01
0.060228872,-0.053012528,0.998409092,1.00E+00
0.060455296,0.066242144,0.998573363,1.00E+00
0.06068172,0.184883073,0.984298766,1.00E+00
0.060908144,0.301114947,0.955713987,1.00E+00
0.061134568,0.413123727,0.913161159,1.00E+00
0.061360992,0.519103944,0.857255459,1.00E+00
0.061587416,0.617332578,0.788919628,1.00E+00
0.06181384,0.706267416,0.709380925,1.00E+00
0.062040264,0.784656286,0.620121598,1.00E+00
0.062266692,0.851638138,0.522756875,9.99E-01
0.062493116,0.906781018,0.418808579,9.98E-01
0.06271954,0.949870348,0.309408575,9.98E-01
0.062945964,0.980354846,0.195350751,9.99E-01
0.063172388,0.997167647,0.0778246,1.00E+00
0.063398812,0.999488771,-0.04118875,1.00E+00
0.063625236,0.987260938,-0.159495682,1.00E+00
0.06385166,0.960934043,-0.275174826,9.99E-01
0.064078084,0.921149194,-0.386589348,9.98E-01
0.064304508,0.868637621,-0.492272079,9.97E-01
0.064530932,0.804222703,-0.590856433,9.96E-01
0.064757356,0.728849888,-0.681061327,9.95E-01
0.064983784,0.643608451,-0.761710823,9.94E-01
0.065210208,0.54973644,-0.831778526,9.94E-01
0.065436632,0.44859013,-0.890449882,9.94E-01
0.065663056,0.341549784,-0.93717736,9.95E-01
0.06588948,0.229839042,-0.97164917,9.97E-01
0.066115904,0.114376448,-0.993505836,1.00E+00
0.066342328,-0.003916725,-1.00192201,1.00E+00
0.066568752,-0.123416543,-0.995809019,1.01E+00
0.066795176,-0.241779238,-0.974648118,1.01E+00
0.0670216,-0.35661754,-0.938754916,1.01E+00
0.067248024,-0.465874463,-0.888959527,1.01E+00
0.067474448,-0.56781739,-0.826343477,1.01E+00
0.067700872,-0.660971582,-0.752148747,1.00E+00
0.067927296,-0.744098186,-0.667750299,1.00E+00
0.06815372,-0.81619978,-0.574628413,9.96E-01
0.068380144,-0.876533926,-0.47432965,9.93E-01
0.068606568,-0.92462492,-0.368410617,9.91E-01
0.068832992,-0.960266471,-0.258365661,9.89E-01
0.069059424,-0.983489394,-0.145508468,9.88E-01
0.069285848,-0.994404912,-0.03083078,9.90E-01
0.069512272,-0.992845595,0.084972054,9.93E-01
0.069738696,-0.978108227,0.201001495,9.97E-01
0.06996512,-0.949418306,0.31559369,1.00E+00
0.070191544,-0.906639457,0.426560849,1.00E+00
0.070417968,-0.850321233,0.531789541,1.01E+00
0.070644392,-0.781391561,0.629446983,1.01E+00
0.070870816,-0.700996101,0.717931092,1.01E+00
0.07109724,-0.610472143,0.795831978,1.01E+00
0.071323664,-0.511351049,0.861954033,1.00E+00
0.071550088,-0.405332714,0.91536653,1.00E+00
0.071776512,-0.294225901,0.955455422,9.99E-01
0.072002936,-0.179857552,0.981958449,9.97E-01
0.07222936,-0.063948333,0.994966865,9.94E-01
0.072455784,0.052045763,0.994847775,9.92E-01
0.072682208,0.167053908,0.982010603,9.92E-01
0.072908632,0.280241877,0.956542969,9.94E-01
0.073135056,0.390467495,0.91814816,9.95E-01
0.07336148,0.495979071,0.866721034,9.97E-01
0.073587904,0.594844401,0.802812397,9.98E-01
0.073814328,0.685415506,0.72745496,9.99E-01
0.074040752,0.766367733,0.641854823,9.99E-01
0.074267176,0.836585522,0.547285497,9.99E-01
0.074493608,0.895094275,0.445101023,9.99E-01
0.074720032,0.941065252,0.336768836,9.99E-01
0.074946456,0.973855734,0.22387661,9.99E-01
0.07517288,0.993062675,0.108103767,9.98E-01
0.075399304,0.998566747,-0.008845724,9.97E-01
0.075625728,0.990537941,-0.125354216,9.97E-01
0.075852152,0.969354987,-0.240026519,9.97E-01
0.076078576,0.935366631,-0.351742625,9.99E-01
0.076305,0.888637006,-0.459402084,1.00E+00
0.076531424,0.829122066,-0.561453879,1.00E+00
0.076757848,0.757277966,-0.655896783,1.00E+00
0.076984272,0.674281538,-0.740840971,1.00E+00
0.077210696,0.581707954,-0.814864993,1.00E+00
0.07743712,0.481223017,-0.876977921,1.00E+00
0.077663544,0.374478102,-0.926488161,9.99E-01
0.077889968,0.263101399,-0.96292603,9.96E-01
0.078116392,0.148702592,-0.986017406,9.94E-01
0.078342816,0.032866407,-0.995682061,9.92E-01
0.07856924,-0.082873829,-0.992035806,9.91E-01
0.078795664,-0.19708322,-0.97538501,9.90E-01
0.079022088,-0.308496922,-0.946186244,9.90E-01
0.079248512,-0.416078925,-0.904920161,9.92E-01
0.079474936,-0.518947005,-0.851869583,9.95E-01
0.07970136,-0.616009653,-0.787019491,9.99E-01
0.079927784,-0.705606043,-0.710438728,1.00E+00
0.080154216,-0.785738826,-0.622851729,1.01E+00
0.08038064,-0.854643941,-0.525672555,1.01E+00
0.080607064,-0.911037147,-0.420659572,1.01E+00
0.080833488,-0.954051435,-0.309670776,1.01E+00
0.081059912,-0.983143747,-0.194586828,1.00E+00
0.081286336,-0.998061776,-0.077288956,1.00E+00
0.08151276,-0.998837769,0.040375639,9.99E-01
0.081739184,-0.985782385,0.156643555,9.96E-01
0.081965608,-0.959462702,0.269900739,9.93E-01
0.082192032,-0.920652926,0.378756255,9.91E-01
0.082418456,-0.870227635,0.482111305,9.90E-01
0.08264488,-0.808976233,0.579165995,9.90E-01
0.082871304,-0.73738575,0.669232965,9.92E-01
0.083097728,-0.655678332,0.751330495,9.94E-01
0.083324152,-0.564285815,0.823972523,9.97E-01
0.083550576,-0.464269608,0.885541022,1.00E+00
0.083777,-0.357190907,0.934747458,1.00E+00
0.084003424,-0.244790033,0.970727205,1.00E+00
0.084229848,-0.128833815,0.992930532,1.00E+00
0.084456272,-0.011101888,1.00104868,1.00E+00
0.084682696,0.106607929,0.995008051,1.00E+00
0.08490912,0.222502232,0.974992156,1.00E+00
0.085135544,0.334846258,0.941462517,9.98E-01
0.085361968,0.442042679,0.895150006,9.97E-01
0.0855884,0.542722344,0.837004244,9.95E-01
0.085814824,0.635817111,0.768073499,9.94E-01
0.086041248,0.720533907,0.689305604,9.94E-01
0.086267672,0.796119571,0.601390719,9.95E-01
0.086494096,0.86150986,0.504925251,9.97E-01
0.08672052,0.915330291,0.400887072,9.99E-01
0.086946944,0.956354558,0.290834814,9.99E-01
0.087173368,0.983835757,0.176626742,9.99E-01
0.087399792,0.997464955,0.0601134,9.99E-01
0.087626216,0.997212231,-0.056963142,9.98E-01
0.08785264,0.983234107,-0.172951818,9.97E-01
0.088079064,0.955852985,-0.286266685,9.96E-01
0.088305488,0.915562868,-0.395383209,9.95E-01
0.088531912,0.863040566,-0.498865008,9.94E-01
0.088758336,0.799137533,-0.595412791,9.93E-01
0.08898476,0.724832416,-0.683922529,9.93E-01
0.089211184,0.641119838,-0.76351577,9.94E-01
0.089437608,0.548857987,-0.833455503,9.96E-01
0.089664032,0.448732466,-0.892884076,9.99E-01
0.089890456,0.341555327,-0.940590382,1.00E+00
0.09011688,0.228695005,-0.975220323,1.00E+00
0.090343304,0.112081915,-0.995776951,1.00E+00
0.090569728,-0.006156894,-1.00184691,1.00E+00
0.090796152,-0.123983257,-0.993492961,1.00E+00
0.091022576,-0.239530832,-0.971095681,1.00E+00
0.091249008,-0.351102978,-0.935261428,9.98E-01
0.091475432,-0.457168549,-0.886781693,9.95E-01
0.091701856,-0.556370974,-0.826606035,9.93E-01
0.09192828,-0.647551179,-0.755811214,9.91E-01
0.092154704,-0.729774177,-0.67555207,9.89E-01
0.092381128,-0.802341521,-0.58697933,9.88E-01
0.092607552,-0.864751339,-0.491119534,9.89E-01
0.092833976,-0.916529715,-0.388767958,9.91E-01
0.0930604,-0.956943512,-0.280579299,9.94E-01
0.093286824,-0.984891832,-0.167463675,9.98E-01
0.093513248,-0.999247134,-0.050925396,1.00E+00
0.093739672,-0.999309838,0.067063145,1.00E+00
0.093966096,-0.984923065,0.184420466,1.00E+00
0.09419252,-0.956344485,0.299162924,1.00E+00
0.094418944,-0.914126158,0.409450144,1.00E+00
0.094645368,-0.85906446,0.513588071,1.00E+00
0.094871792,-0.792177081,0.610048294,1.00E+00
0.095098216,-0.714681625,0.697509766,9.97E-01
0.09532464,-0.627945781,0.774904609,9.95E-01
0.095551064,-0.533409119,0.841458857,9.93E-01
0.095777488,-0.432464898,0.896694362,9.91E-01
0.096003912,-0.326319963,0.940346718,9.91E-01
0.096230336,-0.215924606,0.972147584,9.92E-01
0.09645676,-0.10214787,0.991561472,9.94E-01
0.096683192,0.013827299,0.997810066,9.96E-01
0.096909616,0.130318597,0.990263104,9.98E-01
0.09713604,0.245389059,0.968770087,9.99E-01
0.097362464,0.357160747,0.933635533,9.99E-01
0.097588888,0.46393013,0.885454774,9.99E-01
0.097815312,0.56415242,0.825008869,9.99E-01
0.098041736,0.656415164,0.753239691,9.98E-01
0.09826816,0.739443243,0.671251774,9.97E-01
0.098494584,0.812130272,0.580308199,9.96E-01
0.098721008,0.873586595,0.48179844,9.95E-01
0.098947432,0.923178494,0.377172589,9.95E-01
