Frequency (GHz),Re( S21 ),Im( S21 ),S2
0,0.04834,6.03E-05,2.34E-03
0.000226465,0.044070106,-0.019702733,2.33E-03
0.00045293,0.032002822,-0.035900042,2.31E-03
0.000679395,0.014342621,-0.045632701,2.29E-03
0.00090586,-0.005722243,-0.047200386,2.26E-03
0.001132325,-0.024622073,-0.04037641,2.24E-03
0.00135879,-0.039041057,-0.026401578,2.22E-03
0.001585255,-0.046470709,-0.007732389,2.22E-03
0.00181172,-0.045605715,0.012390112,2.23E-03
0.002038185,-0.036543079,0.030472303,2.26E-03
0.00226465,-0.020717714,0.043525454,2.32E-03
0.002491115,-0.000865109,0.048800379,2.38E-03
0.00271758,0.019566262,0.045413345,2.45E-03
0.002944045,0.03692998,0.033798005,2.51E-03
0.00317051,0.048030622,0.015886897,2.56E-03
0.003396975,0.050724674,-0.005119361,2.60E-03
0.00362344,0.044400286,-0.025558762,2.62E-03
0.003849905,0.030091412,-0.041601047,2.64E-03
0.00407637,0.010376881,-0.050223835,2.63E-03
0.004302835,-0.011292344,-0.050000511,2.63E-03
0.0045293,-0.03104957,-0.040800385,2.63E-03
0.004755765,-0.045366451,-0.024171859,2.64E-03
0.00498223,-0.051649425,-0.002955743,2.68E-03
0.005208695,-0.048662216,0.019199645,2.74E-03
0.00543516,-0.036728215,0.038624458,2.84E-03
0.005661625,-0.017635945,0.051470462,2.96E-03
0.00588809,0.005402118,0.055438269,3.10E-03
0.006114554,0.028423915,0.049508963,3.26E-03
0.006341019,0.047295865,0.034375094,3.42E-03
0.006567484,0.058467217,0.012421345,3.57E-03
0.006793949,0.059508089,-0.012463209,3.70E-03
0.007020414,0.0499475,-0.036037974,3.79E-03
0.007246879,0.031228533,-0.053624794,3.85E-03
0.007473344,0.006491944,-0.062089991,3.90E-03
0.007699809,-0.019943928,-0.059450902,3.93E-03
0.007926274,-0.043298416,-0.045832519,3.98E-03
0.008152739,-0.059221536,-0.023327712,4.05E-03
0.008379204,-0.064553626,0.004347678,4.19E-03
0.008605669,-0.057875354,0.032460198,4.40E-03
0.008832134,-0.039782081,0.056016661,4.72E-03
0.009058599,-0.012861715,0.070570931,5.15E-03
0.009285064,0.018855477,0.073140822,5.71E-03
0.009511529,0.049612783,0.062096339,6.32E-03
0.009737994,0.073988639,0.03874832,6.98E-03
0.009964459,0.087135211,0.006534401,7.64E-03
0.010190924,0.085721336,-0.029264949,8.20E-03
0.010417389,0.069108926,-0.062125813,8.64E-03
0.010643854,0.03939154,-0.086023592,8.95E-03
0.010870319,0.001070079,-0.095491044,9.12E-03
0.011096784,-0.039235275,-0.0874741,9.19E-03
0.011323249,-0.073920831,-0.061828375,9.29E-03
0.011549714,-0.095636815,-0.021556269,9.61E-03
0.011776179,-0.098521702,0.027454045,1.05E-02
0.012002644,-0.079260409,0.077135876,1.22E-02
0.012229108,-0.037825897,0.11830233,1.54E-02
0.012455573,0.022191053,0.141936287,2.06E-02
0.012682038,0.094315372,0.140709013,2.87E-02
0.012908503,0.167527944,0.109496772,4.01E-02
0.013134968,0.230284274,0.048286185,5.54E-02
0.013361433,0.272165865,-0.039703708,7.57E-02
0.013587898,0.28259483,-0.146428794,1.01E-01
0.013814363,0.254825264,-0.260439664,1.33E-01
0.014040828,0.186460882,-0.368177831,1.70E-01
0.014267293,0.079968877,-0.455735981,2.14E-01
0.014493758,-0.057538416,-0.510621727,2.64E-01
0.014720223,-0.215173915,-0.523215234,3.20E-01
0.014946688,-0.37947768,-0.487692088,3.82E-01
0.015173153,-0.535668373,-0.402550131,4.49E-01
0.015399618,-0.668975055,-0.270814896,5.21E-01
0.015626083,-0.765924633,-0.099885523,5.97E-01
0.015852548,-0.815355599,0.098951951,6.75E-01
0.016079013,-0.809331238,0.311780155,7.52E-01
0.016305478,-0.744900048,0.52302444,8.28E-01
0.016531943,-0.624068081,0.715866804,9.02E-01
0.016758408,-0.453518391,0.874464989,9.70E-01
0.016984872,-0.244505584,0.985703051,1.03E+00
0.017211338,-0.011854878,1.04057825,1.08E+00
0.017437802,0.227648377,1.03519571,1.12E+00
0.017664268,0.457179695,0.971081018,1.15E+00
0.017890732,0.661757946,0.854705215,1.17E+00
0.018117198,0.829748213,0.696317613,1.17E+00
0.018343662,0.953800201,0.508354902,1.17E+00
0.018570128,1.03115296,0.304086983,1.16E+00
0.018796592,1.06250525,0.096079797,1.14E+00
0.019023058,1.05245519,-0.105781846,1.12E+00
0.019249522,1.01702189,-0.280430287,1.11E+00
0.019475988,0.922837317,-0.446360171,1.05E+00
0.019702452,0.819628716,-0.589568257,1.02E+00
0.019928918,0.700806201,-0.707291305,9.91E-01
0.020155382,0.571293354,-0.800539434,9.67E-01
0.020381848,0.435237646,-0.870815933,9.48E-01
0.020608312,0.295638919,-0.919879615,9.34E-01
0.020834778,0.154477298,-0.949327767,9.25E-01
0.021061242,0.013028231,-0.960272253,9.22E-01
0.021287708,-0.127734274,-0.953172088,9.25E-01
0.021514172,-0.266703665,-0.927817523,9.32E-01
0.021740638,-0.40204832,-0.883463383,9.42E-01
0.021967102,-0.530786276,-0.820064604,9.54E-01
0.022193568,-0.662466586,-0.739476264,9.86E-01
0.022420032,-0.756691456,-0.639630795,9.82E-01
0.022646498,-0.853062332,-0.530903339,1.01E+00
0.022872962,-0.936737239,-0.396149307,1.03E+00
0.023099428,-0.993543684,-0.247782156,1.05E+00
0.023325892,-1.02458894,-0.091648623,1.06E+00
0.023552358,-1.0289613,0.067597941,1.06E+00
0.023778822,-1.00656354,0.224760771,1.06E+00
0.024005288,-0.95859617,0.374650657,1.06E+00
0.024231752,-0.887525856,0.512599468,1.05E+00
0.024458216,-0.796824276,0.634866893,1.04E+00
0.024684682,-0.690563202,0.738875389,1.02E+00
0.024911146,-0.572991371,0.823236644,1.01E+00
0.025137612,-0.448235899,0.887643874,9.89E-01
0.025364076,-0.320043862,0.932828665,9.73E-01
0.025590542,-0.191497356,0.960326791,9.59E-01
0.025817006,-0.065206245,0.972912848,9.51E-01
0.026043472,0.061283026,0.975161076,9.55E-01
0.026269936,0.190941855,0.961013019,9.60E-01
0.026496402,0.317618608,0.92951417,9.65E-01
0.026722866,0.439740241,0.882344246,9.72E-01
0.026949332,0.556058288,0.819657326,9.81E-01
0.027175796,0.66466701,0.741414189,9.91E-01
0.027402262,0.763127327,0.647941232,1.00E+00
0.027628726,0.848704755,0.5402174,1.01E+00
0.027855192,0.918664157,0.420013845,1.02E+00
0.028081656,0.970580757,0.289904863,1.03E+00
0.028308122,1.00263989,0.153170735,1.03E+00
0.028534586,1.0139153,0.013592589,1.03E+00
0.028761052,1.00458288,-0.124884441,1.02E+00
0.028987516,0.976096749,-0.258573949,1.02E+00
0.029213982,0.931441724,-0.385269612,1.02E+00
0.029440446,0.871595323,-0.506094158,1.02E+00
0.029666912,0.794183433,-0.617699146,1.01E+00
0.029893376,0.702476501,-0.715563893,1.01E+00
0.030119842,0.60007149,-0.798690319,9.98E-01
0.030346306,0.489473909,-0.866819322,9.91E-01
0.030572772,0.372726679,-0.91984266,9.85E-01
0.030799236,0.251608491,-0.957743883,9.81E-01
0.031025702,0.127715066,-0.980543494,9.78E-01
0.031252166,0.002541477,-0.988252044,9.77E-01
0.031478632,-0.12242014,-0.980863988,9.77E-01
0.031705096,-0.245587334,-0.958408117,9.79E-01
0.031931562,-0.365243524,-0.921067476,9.82E-01
0.032158026,-0.479594082,-0.869350076,9.86E-01
0.03238449,-0.587082505,-0.80428654,9.92E-01
0.032610956,-0.687336802,-0.726904273,1.00E+00
0.03283742,-0.779855192,-0.635674834,1.01E+00
0.033063886,-0.860080779,-0.529959738,1.02E+00
0.03329035,-0.924502492,-0.412970215,1.03E+00
0.033516816,-0.971709251,-0.287934691,1.03E+00
0.03374328,-1.00085998,-0.157766163,1.03E+00
0.033969744,-1.01155126,-0.02540586,1.02E+00
0.034196212,-1.00392914,0.106201231,1.02E+00
0.034422676,-0.97871542,0.234257221,1.01E+00
0.03464914,-0.937144458,0.35627234,1.01E+00
0.034875604,-0.880841136,0.470180899,9.97E-01
0.035102072,-0.811680615,0.574407041,9.89E-01
0.035328536,-0.731654167,0.667890429,9.81E-01
0.035555,-0.642759621,0.750132024,9.76E-01
0.035781464,-0.54677099,0.821398854,9.74E-01
0.036007932,-0.444182426,0.882691622,9.76E-01
0.036234396,-0.333726823,0.933288574,9.82E-01
0.03646086,-0.216167927,0.970311284,9.88E-01
0.036687324,-0.093993269,0.992391109,9.94E-01
0.036913792,0.030773902,0.999087393,9.99E-01
0.037140256,0.156286195,0.989970505,1.00E+00
0.03736672,0.280493379,0.9646855,1.01E+00
0.037593184,0.401089728,0.923170626,1.01E+00
0.037819652,0.515610099,0.86582166,1.02E+00
0.038046116,0.621591568,0.79358077,1.02E+00
0.03827258,0.716765046,0.707950294,1.01E+00
0.038499044,0.799244463,0.610935986,1.01E+00
0.038725512,0.867713392,0.504921198,1.01E+00
0.038951976,0.921624124,0.392445713,1.00E+00
0.03917844,0.961358905,0.2756688,1.00E+00
0.039404904,0.987508714,0.155417278,9.99E-01
0.039631372,0.998973727,0.032158796,9.99E-01
0.039857836,0.994457543,-0.091627687,9.97E-01
0.0400843,0.974416852,-0.213162929,9.95E-01
0.040310764,0.939883411,-0.330572128,9.93E-01
0.040537228,0.891782582,-0.442451626,9.91E-01
0.040763696,0.830933034,-0.547531605,9.90E-01
0.04099016,0.758145154,-0.644558549,9.90E-01
0.041216624,0.674307525,-0.732263923,9.91E-01
0.041443088,0.580462456,-0.809381008,9.92E-01
0.041669556,0.477863729,-0.874696195,9.93E-01
0.04189602,0.368009567,-0.927143395,9.95E-01
0.042122484,0.252619058,-0.965938151,9.97E-01
0.042348948,0.133465916,-0.990754068,9.99E-01
0.042575416,0.011893355,-1.001688,1.00E+00
0.04280188,-0.111485653,-0.998305023,1.01E+00
0.043028344,-0.235165358,-0.978946567,1.01E+00
0.043254808,-0.355907559,-0.942870736,1.02E+00
0.043481276,-0.470664978,-0.890988648,1.02E+00
0.04370774,-0.577196419,-0.824772894,1.01E+00
0.043934204,-0.673746467,-0.745832622,1.01E+00
0.044160668,-0.758892179,-0.655894399,1.01E+00
0.044387136,-0.831532717,-0.556792676,1.00E+00
0.0446136,-0.890897334,-0.450417876,9.97E-01
0.044840064,-0.936538398,-0.338652462,9.92E-01
0.045066528,-0.968307972,-0.223310411,9.87E-01
0.045292996,-0.986332715,-0.106084786,9.84E-01
0.04551946,-0.991002917,0.011524899,9.82E-01
0.045745924,-0.982935548,0.12838918,9.83E-01
0.045972388,-0.962600887,0.244035766,9.86E-01
0.046198856,-0.929416001,0.358231097,9.92E-01
0.04642532,-0.882087469,0.469390929,9.98E-01
0.046651784,-0.82047075,0.574812174,1.00E+00
0.046878248,-0.745518088,0.672160149,1.01E+00
0.047104716,-0.658472896,0.759589911,1.01E+00
0.04733118,-0.560738444,0.835470676,1.01E+00
0.047557644,-0.45396021,0.898338914,1.01E+00
0.047784108,-0.340060145,0.946984529,1.01E+00
0.048010576,-0.221192107,0.980554879,1.01E+00
0.04823704,-0.099642046,0.998635411,1.01E+00
0.048463504,0.022301868,1.00129104,1.00E+00
0.048689968,0.142504051,0.98906821,9.99E-01
0.048916432,0.259171963,0.962945044,9.94E-01
0.0491429,0.371112525,0.924135566,9.92E-01
0.049369364,0.477837443,0.873504639,9.91E-01
0.049595828,0.578745961,0.810959876,9.93E-01
0.049822292,0.672086298,0.736387253,9.94E-01
0.05004876,0.755833983,0.650800645,9.95E-01
0.050275224,0.828635037,0.555749059,9.95E-01
0.050501688,0.889579117,0.45270589,9.96E-01
0.050728152,0.937883973,0.343062758,9.97E-01
0.05095462,0.972816765,0.22826156,9.98E-01
0.051181084,0.993737638,0.109880477,1.00E+00
0.051407548,1.00017917,-0.010339517,1.00E+00
0.051634012,0.991932988,-0.130520985,1.00E+00
0.05186048,0.969126165,-0.248721451,1.00E+00
0.052086944,0.932269335,-0.363058537,1.00E+00
0.052313408,0.882234693,-0.471900225,1.00E+00
0.052539872,0.820024729,-0.574083269,1.00E+00
0.05276634,0.746236861,-0.668795764,1.00E+00
0.052992804,0.660972178,-0.754690707,1.01E+00
0.053219268,0.565001607,-0.829578578,1.01E+00
0.053445732,0.460237682,-0.891601861,1.01E+00
0.0536722,0.348909974,-0.939785302,1.00E+00
0.053898664,0.233082861,-0.97370708,1.00E+00
0.054125128,0.114640571,-0.993228734,1.00E+00
0.054351592,-0.004650629,-0.998404384,9.97E-01
0.05457806,-0.12311431,-0.989458323,9.94E-01
0.054804524,-0.239159539,-0.966779828,9.92E-01
0.055030988,-0.351291031,-0.930921555,9.90E-01
0.055257452,-0.458135039,-0.882597923,9.89E-01
0.05548392,-0.558495164,-0.82267189,9.89E-01
0.055710384,-0.651448607,-0.752074718,9.90E-01
0.055936848,-0.736380994,-0.671543479,9.93E-01
0.056163312,-0.812590778,-0.581279099,9.98E-01
0.056389776,-0.878519118,-0.481358916,1.00E+00
0.056616244,-0.932020783,-0.372847825,1.01E+00
0.056842708,-0.9714818,-0.257787347,1.01E+00
0.057069172,-0.99605602,-0.138442189,1.01E+00
0.057295636,-1.00537789,-0.01700593,1.01E+00
0.057522104,-0.999411225,0.104390301,1.01E+00
0.057748568,-0.978435457,0.223669916,1.01E+00
0.057975032,-0.943054199,0.338855445,1.00E+00
0.058201496,-0.894179642,0.448141724,1.00E+00
0.058427964,-0.832989752,0.549969971,9.96E-01
0.058654428,-0.76085794,0.643099129,9.92E-01
0.058880892,-0.679241538,0.726672769,9.89E-01
0.059107356,-0.589488506,0.800258875,9.88E-01
0.059333824,-0.492516339,0.86370945,9.89E-01
0.059560288,-0.388675958,0.916579962,9.91E-01
0.059786752,-0.278447807,0.957616568,9.95E-01
0.060013216,-0.163229108,0.985368788,9.98E-01
0.060239684,-0.044978634,0.998994172,1.00E+00
0.060466148,0.074365981,0.99819535,1.00E+00
0.060692612,0.192978069,0.982935369,1.00E+00
0.060919076,0.309053659,0.95335722,1.00E+00
0.061145544,0.420771748,0.909822941,1.00E+00
0.061372008,0.526324868,0.852972031,1.00E+00
0.061598472,0.623995662,0.783753157,1.00E+00
0.061824936,0.712256074,0.703418672,1.00E+00
0.062051404,0.789875984,0.613469601,1.00E+00
0.062277868,0.856024444,0.515529871,9.99E-01
0.062504332,0.910295665,0.411110431,9.98E-01
0.062730796,0.952478826,0.301320285,9.98E-01
0.062957264,0.981995046,0.186952099,9.99E-01
0.063183728,0.997771621,0.069240093,1.00E+00
0.063410192,0.999030769,-0.049804047,1.00E+00
0.063636656,0.985756874,-0.167995483,1.00E+00
0.063863124,0.958420694,-0.283432215,9.99E-01
0.064089588,0.917671621,-0.394490421,9.98E-01
0.064316052,0.86424762,-0.499711305,9.97E-01
0.064542516,0.798981309,-0.59773314,9.96E-01
0.06476898,0.722827911,-0.687280178,9.95E-01
0.064995448,0.636889398,-0.767184496,9.94E-01
0.065221912,0.54241538,-0.836431682,9.94E-01
0.065448376,0.440770596,-0.894223571,9.94E-01
0.06567484,0.333335459,-0.940032423,9.95E-01
0.065901308,0.22132051,-0.973558486,9.97E-01
0.066127772,0.105631657,-0.994430244,1.00E+00
0.066354236,-0.012786683,-1.00179553,1.00E+00
0.0665807,-0.132258996,-0.994583488,1.01E+00
0.066807168,-0.250421852,-0.972329557,1.01E+00
0.067033632,-0.364905745,-0.935394824,1.01E+00
0.067260096,-0.473678857,-0.884630978,1.01E+00
0.06748656,-0.575029194,-0.821130812,1.00E+00
0.067713024,-0.667500198,-0.746144652,1.00E+00
0.067939488,-0.749868691,-0.661052287,9.99E-01
0.06816596,-0.821152925,-0.567337334,9.96E-01
0.068392424,-0.880625606,-0.466546059,9.93E-01
0.068618888,-0.927825153,-0.360233516,9.91E-01
0.068845352,-0.962558687,-0.249887109,9.89E-01
0.069071816,-0.984864771,-0.136806592,9.89E-01
0.06929828,-0.994848311,-0.021964939,9.90E-01
0.069524744,-0.992310107,0.093944565,9.94E-01
0.069751208,-0.976522028,0.209981844,9.98E-01
0.06997768,-0.946735144,0.324429989,1.00E+00
0.070204144,-0.902865589,0.435085475,1.00E+00
0.070430608,-0.84550041,0.53984642,1.01E+00
0.070657072,-0.77559185,0.636895597,1.01E+00
0.070883536,-0.694303453,0.72464329,1.01E+00
0.07111,-0.602992058,0.801695228,1.01E+00
0.071336464,-0.50320518,0.866873801,1.00E+00
0.071562928,-0.396654814,0.919270754,1.00E+00
0.0717894,-0.28515619,0.958298504,1.00E+00
0.072015864,-0.170534611,0.983721197,9.97E-01
0.072242328,-0.054498483,0.995654225,9.94E-01
0.072468792,0.061518222,0.994477808,9.93E-01
0.072695256,0.17646867,0.980593741,9.93E-01
0.07292172,0.289516389,0.954060316,9.94E-01
0.073148184,0.399479836,0.914572358,9.96E-01
0.073374648,0.504573166,0.862061262,9.98E-01
0.073601112,0.602870107,0.797122896,9.99E-01
0.073827584,0.692742825,0.720813096,9.99E-01
0.074054048,0.772882879,0.634350419,1.00E+00
0.074280512,0.842183411,0.539018571,1.00E+00
0.074506976,0.899681449,0.436186373,1.00E+00
0.07473344,0.944561958,0.327335328,9.99E-01
0.074959904,0.976201952,0.214067072,9.99E-01
0.075186368,0.994222045,0.098068953,9.98E-01
0.075412832,0.998530447,-0.018954264,9.97E-01
0.075639304,0.989322424,-0.135395229,9.97E-01
0.075865768,0.966989994,-0.24987939,9.98E-01
0.076092232,0.931874216,-0.361302197,9.99E-01
0.076318696,0.884024024,-0.468551219,1.00E+00
0.07654516,0.823411524,-0.57003969,1.00E+00
0.076771624,0.75054419,-0.663757026,1.00E+00
0.076998088,0.66663903,-0.74784261,1.00E+00
0.077224552,0.573284686,-0.820909679,1.00E+00
0.077451024,0.472147077,-0.881992221,1.00E+00
0.077677488,0.364876211,-0.930414855,9.99E-01
0.077903952,0.253099591,-0.965720773,9.97E-01
0.078130416,0.138428614,-0.987647414,9.95E-01
0.07835688,0.02244935,-0.99612689,9.93E-01
0.078583344,-0.093304977,-0.991288424,9.91E-01
0.078809808,-0.207402945,-0.973452985,9.91E-01
0.079036272,-0.318587512,-0.943086624,9.91E-01
0.079262744,-0.425833821,-0.900670052,9.93E-01
0.079489208,-0.528254926,-0.846471846,9.96E-01
0.079715672,-0.624723434,-0.780471444,9.99E-01
0.079942136,-0.713538349,-0.70277971,1.00E+00
0.0801686,-0.792702317,-0.614185631,1.01E+00
0.080395064,-0.8604877,-0.516150534,1.01E+00
0.080621528,-0.915649891,-0.410453498,1.01E+00
0.080847992,-0.957356036,-0.29896155,1.01E+00
0.081074456,-0.98509413,-0.183560207,1.00E+00
0.081300928,-0.998641551,-0.066129841,1.00E+00
0.081527392,-0.998060048,0.051485855,9.99E-01
0.081753856,-0.983686864,0.167535305,9.96E-01
0.08198032,-0.956114113,0.280421257,9.93E-01
0.082206784,-0.916131437,0.388776064,9.90E-01
0.082433248,-0.864619136,0.491527975,9.89E-01
0.082659712,-0.802353442,0.587898731,9.89E-01
0.082886176,-0.729799151,0.677198291,9.91E-01
0.083112648,-0.647175491,0.758411646,9.94E-01
0.083339112,-0.554955125,0.830030203,9.97E-01
0.083565576,-0.454248071,0.890452147,9.99E-01
0.08379204,-0.346639663,0.938426316,1.00E+00
0.084018504,-0.233874813,0.973121822,1.00E+00
0.084244968,-0.117719464,0.994013071,1.00E+00
0.084471432,4.78E-05,1.00081301,1.00E+00
0.084697896,0.117632233,0.99347055,1.00E+00
0.084924368,0.233246446,0.972191095,1.00E+00
0.085150832,0.345167518,0.937457263,9.98E-01
0.085377296,0.451815724,0.890018165,9.96E-01
0.08560376,0.55184567,0.830833972,9.95E-01
0.085830224,0.644212723,0.760949135,9.94E-01
0.086056688,0.728137076,0.681292593,9.94E-01
0.086283152,0.802850842,0.592534125,9.96E-01
0.086509616,0.867253602,0.495280623,9.97E-01
0.086736088,0.919958591,0.390556455,9.99E-01
0.086962552,0.959764481,0.279960245,1.00E+00
0.087189016,0.985958695,0.165365204,9.99E-01
0.08741548,0.99825722,0.048623018,9.99E-01
0.087641944,0.99664849,-0.068523057,9.98E-01
0.087868408,0.981306016,-0.184418365,9.97E-01
0.088094872,0.952572286,-0.297473401,9.96E-01
0.088321336,0.910964608,-0.406162918,9.95E-01
0.088547808,0.857185423,-0.509056747,9.94E-01
0.088774272,0.792110264,-0.60486877,9.93E-01
0.089000736,0.716734886,-0.69251591,9.93E-01
0.0892272,0.63205713,-0.771141827,9.94E-01
0.089453664,0.538927317,-0.840020299,9.96E-01
0.089680128,0.43802917,-0.898278534,9.99E-01
0.089906592,0.330207795,-0.944689155,1.00E+00
0.090133056,0.216882467,-0.977916598,1.00E+00
0.09035952,0.100011066,-0.997015357,1.00E+00
0.090585992,-0.018282933,-1.00162029,1.00E+00
0.090812456,-0.135978773,-0.991827607,1.00E+00
0.09103892,-0.251227379,-0.968038499,1.00E+00
0.091265384,-0.36234802,-0.930874586,9.98E-01
0.091491848,-0.467822403,-0.881138802,9.95E-01
0.091718312,-0.566306889,-0.8197909,9.93E-01
0.091944776,-0.656656504,-0.747916996,9.91E-01
0.09217124,-0.737950027,-0.666677654,9.89E-01
0.092397712,-0.809503973,-0.577223659,9.88E-01
0.092624176,-0.870824099,-0.480572194,9.89E-01
0.09285064,-0.921425641,-0.3775087,9.92E-01
0.093077104,-0.960546076,-0.268701494,9.95E-01
0.093303568,-0.987069964,-0.155110836,9.98E-01
0.093530032,-0.999899685,-0.038299907,1.00E+00
0.093756496,-0.998392761,0.079732768,1.00E+00
0.09398296,-0.982445419,0.196907118,1.00E+00
0.094209432,-0.952355981,0.311254263,1.00E+00
0.094435896,-0.908708215,0.420952469,1.00E+00
0.09466236,-0.852323711,0.524329424,1.00E+00
0.094888824,-0.784241974,0.619882524,9.99E-01
0.095115288,-0.705694079,0.706319153,9.97E-01
0.095341752,-0.618053257,0.782602727,9.94E-01
0.095568216,-0.522753835,0.847988069,9.92E-01
0.09579468,-0.421172619,0.902019799,9.91E-01
0.096021152,-0.314489961,0.944439888,9.91E-01
0.096247616,-0.203635797,0.974959195,9.92E-01
0.09647408,-0.089491971,0.9930076,9.94E-01
0.096700544,0.02671044,0.997792304,9.96E-01
0.096927008,0.143243283,0.988710761,9.98E-01
0.097153472,0.258150548,0.965656042,9.99E-01
0.097379936,0.369552493,0.928968847,1.00E+00
0.0976064,0.475746483,0.879272699,9.99E-01
0.097832864,0.575189888,0.817379415,9.99E-01
0.098059336,0.666474998,0.74426347,9.98E-01
0.0982858,0.748340487,0.661065161,9.97E-01
0.098512264,0.819704413,0.56908071,9.96E-01
0.098738728,0.879712105,0.469727099,9.95E-01
0.098965192,0.927770495,0.364467412,9.94E-01
