Frequency (GHz),Re( S21 ),Im( S21 ),S2
0,0.048341647,6.01E-05,2.34E-03
0.000226454,0.044071842,-0.01970367,2.33E-03
0.000452908,0.03200442,-0.035901584,2.31E-03
0.000679362,0.014344141,-0.045634754,2.29E-03
0.000905816,-0.005720423,-0.047203213,2.26E-03
0.001132271,-0.024620058,-0.040380769,2.24E-03
0.001358725,-0.039039698,-0.026408494,2.22E-03
0.001585179,-0.046472035,-0.007741997,2.22E-03
0.001811633,-0.045611732,0.012378895,2.23E-03
0.002038087,-0.036555294,0.030462397,2.26E-03
0.002264541,-0.020734955,0.043515094,2.32E-03
0.002490995,-0.000887338,0.048797727,2.38E-03
0.002717449,0.019543549,0.04542071,2.44E-03
0.002943903,0.036911912,0.03381509,2.51E-03
0.003170357,0.0480216,0.015910698,2.56E-03
0.003396812,0.05072641,-0.005093459,2.60E-03
0.003623266,0.04441309,-0.025536289,2.62E-03
0.00384972,0.030112704,-0.04158609,2.64E-03
0.004076174,0.010403969,-0.050224815,2.63E-03
0.004302628,-0.011266974,-0.050012935,2.63E-03
0.004529082,-0.031030068,-0.040823266,2.63E-03
0.004755536,-0.045356568,-0.024203038,2.64E-03
0.00498199,-0.05165273,-0.002991471,2.68E-03
0.005208444,-0.048680771,0.019164711,2.74E-03
0.005434899,-0.03675909,0.03859238,2.84E-03
0.005661353,-0.017680885,0.051451694,2.96E-03
0.005887807,0.005349557,0.055439193,3.10E-03
0.006114261,0.028373649,0.049532365,3.26E-03
0.006340715,0.047258176,0.034418926,3.42E-03
0.006567169,0.058450777,0.012478791,3.57E-03
0.006793623,0.059517462,-0.012403236,3.70E-03
0.007020077,0.049982354,-0.035987329,3.79E-03
0.007246531,0.031284459,-0.053599559,3.85E-03
0.007472985,0.006555128,-0.062091801,3.90E-03
0.007699439,-0.019885253,-0.059481122,3.93E-03
0.007925894,-0.043255709,-0.045887869,3.98E-03
0.008152348,-0.059204463,-0.02340067,4.05E-03
0.008378802,-0.064568654,0.004267971,4.19E-03
0.008605256,-0.057924412,0.032387149,4.40E-03
0.00883171,-0.039861761,0.055964153,4.72E-03
0.009058164,-0.012962554,0.070551634,5.15E-03
0.009284618,0.018745426,0.073158197,5.70E-03
0.009511072,0.049512956,0.062158063,6.32E-03
0.009737526,0.073918223,0.038848139,6.97E-03
0.00996398,0.087109968,0.006657001,7.63E-03
0.010190434,0.085651964,-0.028941922,8.17E-03
0.010416888,0.069191344,-0.062029701,8.64E-03
0.010643342,0.039511312,-0.085972995,8.95E-03
0.010869797,0.001205929,-0.095501117,9.12E-03
0.011096251,-0.039110221,-0.087551035,9.19E-03
0.011322705,-0.073835492,-0.061967515,9.29E-03
0.011549159,-0.095617935,-0.021741444,9.62E-03
0.011775613,-0.098589748,0.027249459,1.05E-02
0.012002067,-0.079425789,0.076946907,1.22E-02
0.012228521,-0.038085371,0.118168816,1.54E-02
0.012454975,0.021857251,0.141896784,2.06E-02
0.012681429,0.093937941,0.140791103,2.86E-02
0.012907883,0.167157561,0.109721921,4.00E-02
0.013134338,0.229978949,0.048648868,5.53E-02
0.013360792,0.271969497,-0.039227497,7.55E-02
0.013587246,0.282543391,-0.145879701,1.01E-01
0.0138137,0.254937202,-0.259867609,1.33E-01
0.014040154,0.186735064,-0.367634624,1.70E-01
0.014266608,0.080387972,-0.45526728,2.14E-01
0.014493062,-0.057002597,-0.510262549,2.64E-01
0.014719516,-0.214554071,-0.522989869,3.20E-01
0.01494597,-0.378809661,-0.487617642,3.81E-01
0.015172424,-0.534991801,-0.402634352,4.48E-01
0.015398878,-0.66833055,-0.271055311,5.20E-01
0.015625333,-0.765352607,-0.100267217,5.96E-01
0.015851787,-0.814895749,0.098458476,6.74E-01
0.016078241,-0.809018433,0.311211586,7.51E-01
0.016304695,-0.744747519,0.522426367,8.28E-01
0.016531149,-0.624068856,0.715294123,9.01E-01
0.016757603,-0.453645408,0.873968899,9.70E-01
0.016984058,-0.244713098,0.985319555,1.03E+00
0.017210512,-0.012085237,1.04032123,1.08E+00
0.017436966,0.227453187,1.03505182,1.12E+00
0.01766342,0.457065582,0.971012712,1.15E+00
0.017889874,0.66174978,0.854659915,1.17E+00
0.018116328,0.829845726,0.696237862,1.17E+00
0.018342782,0.953976631,0.508189738,1.17E+00
0.018569236,1.03136146,0.303796172,1.16E+00
0.01879569,1.06269312,0.095645174,1.14E+00
0.019022144,1.05255401,-0.106348492,1.12E+00
0.019248598,1.01706731,-0.281620264,1.11E+00
0.019475052,0.922696352,-0.447155833,1.05E+00
0.019701506,0.819274962,-0.590401709,1.02E+00
0.01992796,0.700237036,-0.708106697,9.92E-01
0.020154414,0.570513427,-0.801279962,9.68E-01
0.020380868,0.434265822,-0.871427178,9.48E-01
0.020607322,0.294507504,-0.920315325,9.34E-01
0.020833776,0.153229699,-0.949552059,9.25E-01
0.02106023,0.011714269,-0.960263193,9.22E-01
0.021286684,-0.129062638,-0.952921808,9.25E-01
0.02151314,-0.267997205,-0.927332282,9.32E-01
0.021739594,-0.403266937,-0.882759631,9.42E-01
0.021966048,-0.531894624,-0.819160223,9.54E-01
0.022192502,-0.663397968,-0.738388538,9.85E-01
0.022418956,-0.757513762,-0.638388932,9.81E-01
0.02264541,-0.853629351,-0.529569745,1.01E+00
0.022871864,-0.937185347,-0.394743502,1.03E+00
0.023098318,-0.993813396,-0.246294364,1.05E+00
0.023324772,-1.02466893,-0.09010265,1.06E+00
0.023551226,-1.02884305,0.0691844,1.06E+00
0.02377768,-1.0062362,0.226369992,1.06E+00
0.024004134,-0.958045065,0.376261055,1.06E+00
0.024230588,-0.886736989,0.514182448,1.05E+00
0.024457042,-0.795786619,0.636385858,1.04E+00
0.024683496,-0.689273059,0.740287125,1.02E+00
0.02490995,-0.571455002,0.824492931,1.01E+00
0.025136404,-0.446471334,0.8886953,9.89E-01
0.025362858,-0.318081409,0.933628142,9.73E-01
0.025589312,-0.189376831,0.960833788,9.59E-01
0.025815766,-0.062977478,0.973081708,9.51E-01
0.02604222,0.063517988,0.974986076,9.55E-01
0.026268676,0.193164378,0.960521996,9.60E-01
0.02649513,0.319777191,0.928694069,9.65E-01
0.026721584,0.441778243,0.881211221,9.72E-01
0.026948038,0.557930708,0.81823945,9.81E-01
0.027174492,0.666338682,0.739743471,9.91E-01
0.027400946,0.764570713,0.646051109,1.00E+00
0.0276274,0.849899471,0.538141131,1.01E+00
0.027853854,0.919593334,0.417782217,1.02E+00
0.028080308,0.971230328,0.287547916,1.03E+00
0.028306762,1.00299692,0.150717244,1.03E+00
0.028533216,1.01396537,0.011071524,1.03E+00
0.02875967,1.0043112,-0.127441481,1.02E+00
0.028986124,0.9754861,-0.261130959,1.02E+00
0.029212578,0.930475056,-0.387770653,1.02E+00
0.029439032,0.870297968,-0.508481681,1.02E+00
0.029665486,0.792559862,-0.619952738,1.01E+00
0.02989194,0.700524747,-0.717629671,1.01E+00
0.030118394,0.597812355,-0.800510168,9.98E-01
0.030344848,0.486941695,-0.868341804,9.91E-01
0.030571302,0.369964927,-0.921022773,9.85E-01
0.030797756,0.24866958,-0.958545148,9.81E-01
0.031024212,0.124657214,-0.980939031,9.78E-01
0.031250666,-0.000572952,-0.98822695,9.77E-01
0.03147712,-0.125528708,-0.98041445,9.77E-01
0.031703574,-0.248629451,-0.957541227,9.79E-01
0.031930028,-0.368163139,-0.919798851,9.82E-01
0.032156482,-0.482340634,-0.86770159,9.86E-01
0.032382936,-0.589607775,-0.802282095,9.91E-01
0.03260939,-0.689587593,-0.724580288,1.00E+00
0.032835844,-0.781805038,-0.633087158,1.01E+00
0.033062298,-0.861718059,-0.527135789,1.02E+00
0.033288752,-0.925796986,-0.409937888,1.03E+00
0.033515206,-0.972633898,-0.284731418,1.03E+00
0.03374166,-1.00139213,-0.154433429,1.03E+00
0.033968116,-1.01167142,-0.021987708,1.02E+00
0.034194568,-1.00362098,0.109657004,1.02E+00
0.034421024,-0.97796607,0.237698272,1.01E+00
0.034647476,-0.935948014,0.359641433,1.01E+00
0.034873932,-0.879200339,0.473416954,9.97E-01
0.035100384,-0.809607208,0.577447176,9.89E-01
0.03532684,-0.729170501,0.670672178,9.81E-01
0.035553292,-0.639898181,0.752594948,9.76E-01
0.035779748,-0.54357487,0.82348305,9.74E-01
0.0360062,-0.440716177,0.884344339,9.76E-01
0.036232656,-0.330060035,0.934487879,9.82E-01
0.036459108,-0.212354466,0.971039236,9.88E-01
0.036685564,-0.090094872,0.992628098,9.93E-01
0.036912016,0.034690339,0.99882704,9.99E-01
0.037138472,0.160155743,0.98921752,1.00E+00
0.037364924,0.284255981,0.963453174,1.01E+00
0.03759138,0.404690087,0.921477973,1.01E+00
0.037817832,0.518996239,0.863691747,1.02E+00
0.038044288,0.624715805,0.791040361,1.02E+00
0.038270744,0.7195822,0.705029249,1.01E+00
0.038497196,0.801710546,0.607667267,1.01E+00
0.038723652,0.869786561,0.501341522,1.01E+00
0.038950104,0.923262119,0.388596892,1.00E+00
0.03917656,0.962518513,0.271602988,1.00E+00
0.039403012,0.988159835,0.151202425,9.99E-01
0.039629468,0.9991045,0.0278567,9.99E-01
0.03985592,0.994051993,-0.095959887,9.97E-01
0.040082376,0.973461866,-0.217455015,9.95E-01
0.040308828,0.938380837,-0.334748715,9.93E-01
0.040535284,0.88974762,-0.446437329,9.91E-01
0.040761736,0.828393221,-0.55125469,9.90E-01
0.040988192,0.755138755,-0.647953272,9.90E-01
0.041214644,0.670881629,-0.735271275,9.91E-01
0.0414411,0.576671362,-0.811950862,9.92E-01
0.041667552,0.473766118,-0.876787484,9.93E-01
0.041894008,0.363667339,-0.928723156,9.95E-01
0.04212046,0.24809511,-0.966981769,9.97E-01
0.042346916,0.128824726,-0.991241038,9.99E-01
0.042573368,0.007206046,-1.00160491,1.00E+00
0.042799824,-0.11614567,-0.997655213,1.01E+00
0.04302628,-0.239738792,-0.97774452,1.01E+00
0.043252732,-0.36033839,-0.941122115,1.02E+00
0.043479188,-0.474889129,-0.888704658,1.02E+00
0.04370564,-0.581148326,-0.821974695,1.01E+00
0.043932096,-0.677361548,-0.742550015,1.01E+00
0.044158548,-0.762109339,-0.652166486,1.01E+00
0.044385004,-0.834294796,-0.552666903,1.00E+00
0.044611456,-0.893152714,-0.445950419,9.97E-01
0.044837912,-0.938242972,-0.333906949,9.92E-01
0.045064364,-0.969425797,-0.218356818,9.87E-01
0.04529082,-0.986837864,-0.100997806,9.84E-01
0.045517272,-0.990879416,0.01666747,9.82E-01
0.045743728,-0.982176244,0.133505851,9.82E-01
0.04597018,-0.961213231,0.249040842,9.86E-01
0.046196636,-0.92742753,0.363045156,9.92E-01
0.046423088,-0.87953037,0.473950565,9.98E-01
0.046649544,-0.81737572,0.57905674,1.00E+00
0.046875996,-0.741922081,0.676027596,1.01E+00
0.047102452,-0.654422343,0.763024092,1.01E+00
0.047328904,-0.556284368,0.838420749,1.01E+00
0.04755536,-0.449157894,0.900760591,1.01E+00
0.047781816,-0.334968328,0.948838413,1.01E+00
0.048008268,-0.215873495,0.981806397,1.01E+00
0.048234724,-0.094163626,0.999254823,1.01E+00
0.048461176,0.027868576,1.00125456,1.00E+00
0.048687632,0.14808242,0.988358557,9.99E-01
0.048914084,0.264680445,0.961552262,9.95E-01
0.04914054,0.376462728,0.922059596,9.92E-01
0.049366992,0.48293522,0.870762408,9.91E-01
0.049593448,0.583506227,0.807588041,9.93E-01
0.0498199,0.676432729,0.732426643,9.94E-01
0.050046356,0.759690225,0.646299601,9.95E-01
0.050272808,0.831927419,0.550770164,9.95E-01
0.050499264,0.892244577,0.447325259,9.96E-01
0.050725716,0.939872921,0.337365568,9.97E-01
0.050952172,0.974094391,0.222338557,9.98E-01
0.051178624,0.994281411,0.103824556,9.99E-01
0.05140508,0.999980807,-0.016435426,1.00E+00
0.051631532,0.990996122,-0.136565834,1.00E+00
0.051857988,0.967464387,-0.254628122,1.00E+00
0.05208444,0.929905176,-0.368743181,1.00E+00
0.052310896,0.879197001,-0.477281958,1.00E+00
0.052537352,0.816352189,-0.579082668,1.00E+00
0.052763804,0.741981208,-0.673337698,1.00E+00
0.05299026,0.656193852,-0.758715034,1.01E+00
0.053216712,0.559758186,-0.833032012,1.01E+00
0.053443168,0.454589993,-0.894430697,1.01E+00
0.05366962,0.342929602,-0.941938341,1.00E+00
0.053896076,0.226849571,-0.975142598,1.00E+00
0.054122528,0.10824094,-0.99391526,1.00E+00
0.054348984,-0.01112628,-0.998320639,9.97E-01
0.054575436,-0.12957193,-0.988595188,9.94E-01
0.054801892,-0.245504245,-0.965139449,9.92E-01
0.055028344,-0.357428133,-0.92851907,9.90E-01
0.0552548,-0.463971972,-0.879459262,9.89E-01
0.055481252,-0.56394273,-0.818834066,9.89E-01
0.055707708,-0.656420588,-0.747585893,9.90E-01
0.05593416,-0.740795374,-0.666464865,9.93E-01
0.056160616,-0.81637758,-0.575687051,9.98E-01
0.056387068,-0.88162446,-0.475334346,1.00E+00
0.056613524,-0.934400022,-0.366470069,1.01E+00
0.056839976,-0.973094523,-0.251141816,1.01E+00
0.057066432,-0.996871531,-0.131621182,1.01E+00
0.057292888,-1.00537694,-0.010105917,1.01E+00
0.05751934,-0.998588383,0.111271136,1.01E+00
0.057745796,-0.976796865,0.230434105,1.01E+00
0.057972248,-0.940616846,0.345407456,1.00E+00
0.058198704,-0.890971482,0.454388708,1.00E+00
0.058425156,-0.829049408,0.555823147,9.96E-01
0.058651612,-0.756232202,0.648474097,9.92E-01
0.058878064,-0.673986435,0.731489956,9.89E-01
0.05910452,-0.58366996,0.8044433,9.88E-01
0.059330972,-0.486212075,0.86719203,9.88E-01
0.059557428,-0.381975025,0.919307649,9.91E-01
0.05978388,-0.271438569,0.959549725,9.94E-01
0.060010336,-0.156000525,0.986473978,9.97E-01
0.060236788,-0.037624836,0.999243677,1.00E+00
0.060463244,0.081743993,0.997571945,1.00E+00
0.060689696,0.200276285,0.981435299,1.00E+00
0.060916152,0.316167861,0.950989604,1.00E+00
0.061142604,0.427598834,0.906609714,1.00E+00
0.06136906,0.532764196,0.848946273,1.00E+00
0.061595512,0.629950285,0.77895993,1.00E+00
0.061821968,0.717633486,0.697914243,1.00E+00
0.062048424,0.7945894,0.607321501,1.00E+00
0.062274876,0.859992504,0.508816063,9.98E-01
0.062501332,0.913445592,0.403921992,9.98E-01
0.062727784,0.954748809,0.293762207,9.98E-01
0.06295424,0.983344018,0.179138318,9.99E-01
0.063180692,0.998173177,0.061283328,1.00E+00
0.063407148,0.998469353,-0.057789091,1.00E+00
0.0636336,0.984230578,-0.175888911,1.00E+00
0.063860056,0.955943465,-0.291112989,9.99E-01
0.064086508,0.914277196,-0.401840746,9.97E-01
0.064312964,0.859984517,-0.506619871,9.96E-01
0.064539416,0.793911755,-0.604098856,9.95E-01
0.064765872,0.71702522,-0.69301182,9.94E-01
0.064992324,0.630435109,-0.772201955,9.94E-01
0.06521878,0.535397768,-0.840666234,9.93E-01
0.065445232,0.433282942,-0.897616625,9.93E-01
0.065671688,0.325475454,-0.94253397,9.94E-01
0.06589814,0.213192105,-0.975127995,9.96E-01
0.066124596,0.097346075,-0.995040119,1.00E+00
0.066351048,-0.02111819,-1.0014354,1.00E+00
0.066577504,-0.14052999,-0.993252754,1.01E+00
0.06680396,-0.258524865,-0.970033467,1.01E+00
0.067030412,-0.372729152,-0.932148337,1.01E+00
0.067256864,-0.4811095,-0.880464315,1.01E+00
0.06748332,-0.581956923,-0.816089988,1.00E+00
0.067709776,-0.673820198,-0.74028933,1.00E+00
0.067936232,-0.755483627,-0.654455841,9.99E-01
0.06816268,-0.82597518,-0.560084999,9.96E-01
0.068389136,-0.884578049,-0.458733469,9.93E-01
0.068615592,-0.9308424,-0.35196504,9.90E-01
0.068842048,-0.964588284,-0.241274014,9.89E-01
0.069068496,-0.985865653,-0.127966657,9.88E-01
0.069294952,-0.994793594,-0.013022996,9.90E-01
0.069521408,-0.991191328,0.102859467,9.93E-01
0.069747864,-0.974349976,0.218745276,9.97E-01
0.069974312,-0.943529665,0.332922369,1.00E+00
0.070200768,-0.898656249,0.443188041,1.00E+00
0.070427224,-0.840330422,0.547440767,1.01E+00
0.07065368,-0.769519508,0.643865287,1.01E+00
0.070880128,-0.687401712,0.730879128,1.01E+00
0.071106584,-0.595348358,0.807096064,1.01E+00
0.07133304,-0.494919181,0.871348441,1.00E+00
0.071559496,-0.387837738,0.922739685,1.00E+00
0.071785952,-0.275930315,0.960694373,9.99E-01
0.0720124,-0.161031336,0.984991312,9.96E-01
0.072238856,-0.044857897,0.995761454,9.94E-01
0.072465312,0.071148738,0.993402183,9.92E-01
0.072691768,0.18593505,0.978336811,9.92E-01
0.072918216,0.298664302,0.950648844,9.93E-01
0.073144672,0.408163577,0.910056949,9.95E-01
0.073371128,0.512657285,0.856508315,9.96E-01
0.073597584,0.610227346,0.790615261,9.97E-01
0.073824032,0.699256837,0.71345228,9.98E-01
0.074050488,0.778454363,0.626253724,9.98E-01
0.074276944,0.846732974,0.530315518,9.98E-01
0.0745034,0.903150201,0.427012503,9.98E-01
0.074729848,0.946910918,0.317829609,9.98E-01
0.074956304,0.977410853,0.204366535,9.97E-01
0.07518276,0.994287431,0.088308148,9.96E-01
0.075409216,0.997461915,-0.028646024,9.96E-01
0.075635664,0.987141728,-0.144892946,9.95E-01
0.07586212,0.963729024,-0.259061635,9.96E-01
0.076088576,0.927578688,-0.370050758,9.97E-01
0.076315032,0.878753245,-0.476755232,1.00E+00
0.076541488,0.81723392,-0.577600121,1.00E+00
0.076767936,0.743531942,-0.67058301,1.00E+00
0.076994392,0.658871055,-0.753845036,1.00E+00
0.077220848,0.564850926,-0.826004982,1.00E+00
0.077447304,0.463148475,-0.886104703,1.00E+00
0.077673752,0.355423212,-0.933480024,9.98E-01
0.077900208,0.243311554,-0.967685521,9.96E-01
0.078126664,0.128431082,-0.988472462,9.94E-01
0.07835312,0.012373283,-0.995786905,9.92E-01
0.078579568,-0.103324406,-0.98977232,9.90E-01
0.078806024,-0.217228308,-0.970764816,9.90E-01
0.07903248,-0.328079402,-0.939246833,9.90E-01
0.079258936,-0.434852123,-0.895715892,9.91E-01
0.079485384,-0.536661983,-0.840462208,9.94E-01
0.07971184,-0.632392704,-0.773486614,9.98E-01
0.079938296,-0.720356941,-0.69491291,1.00E+00
0.080164752,-0.798568606,-0.60554105,1.00E+00
0.0803912,-0.865311205,-0.506845057,1.01E+00
0.080617656,-0.919354796,-0.400616586,1.01E+00
0.080844112,-0.959885359,-0.288732886,1.00E+00
0.081070568,-0.986410797,-0.173084095,1.00E+00
0.081297024,-0.99872911,-0.055552539,1.00E+00
0.081523472,-0.99691844,0.062021256,9.98E-01
0.081749928,-0.981333792,0.177889287,9.95E-01
0.081976384,-0.952580512,0.290460199,9.92E-01
0.08220284,-0.911460459,0.398372918,9.89E-01
0.082429288,-0.858864367,0.500561118,9.88E-01
0.082655744,-0.795579731,0.596250236,9.88E-01
0.0828822,-0.722085178,0.684758246,9.90E-01
0.083108656,-0.638609707,0.765080929,9.93E-01
0.083335104,-0.545631647,0.835719049,9.96E-01
0.08356156,-0.444266111,0.895074248,9.99E-01
0.083788016,-0.33611083,0.941900074,1.00E+00
0.084014472,-0.222924367,0.975373447,1.00E+00
0.08424092,-0.106485836,0.994981468,1.00E+00
0.084467376,0.011414414,1.00045311,1.00E+00
0.084693832,0.128972113,0.991754115,1.00E+00
0.084920288,0.244392455,0.969111979,9.99E-01
0.085146736,0.355948269,0.933030427,9.97E-01
0.085373192,0.462059319,0.884282649,9.95E-01
0.085599648,0.561382413,0.823853493,9.94E-01
0.085826104,0.652879834,0.752812505,9.93E-01
0.08605256,0.735783339,0.672115028,9.93E-01
0.086279008,0.809343636,0.582455635,9.94E-01
0.086505464,0.872487068,0.484459311,9.96E-01
0.08673192,0.923852026,0.379159123,9.97E-01
0.086958376,0.962260544,0.268160045,9.98E-01
0.087184824,0.987023473,0.15334025,9.98E-01
0.08741128,0.997883141,0.036551222,9.97E-01
0.087637736,0.994850695,-0.080468707,9.96E-01
0.087864192,0.978120863,-0.196075261,9.95E-01
0.08809064,0.948051691,-0.308689296,9.94E-01
0.088317096,0.905172527,-0.416797578,9.93E-01
0.088543552,0.850195527,-0.51897949,9.92E-01
0.088770008,0.784003198,-0.613956809,9.92E-01
0.088996456,0.707598329,-0.700651586,9.92E-01
0.089222912,0.621990085,-0.778210104,9.92E-01
0.089449368,0.528042674,-0.845910907,9.94E-01
0.089675824,0.426456958,-0.902890205,9.97E-01
0.089902272,0.318091303,-0.947934031,1.00E+00
0.090128728,0.204377651,-0.979719698,1.00E+00
0.090355184,0.087289453,-0.997315228,1.00E+00
0.09058164,-0.031033425,-1.00037694,1.00E+00
0.090808096,-0.148557946,-0.989029109,1.00E+00
0.091034544,-0.263431042,-0.96370554,9.98E-01
0.091261,-0.373974323,-0.925059974,9.96E-01
0.091487456,-0.478679776,-0.873926759,9.93E-01
0.091713912,-0.576220155,-0.811294258,9.90E-01
0.09194036,-0.665470958,-0.738271534,9.88E-01
0.092166816,-0.745534897,-0.656036675,9.86E-01
0.092393272,-0.815752566,-0.565752983,9.86E-01
0.092619728,-0.87565428,-0.468447059,9.86E-01
0.092846176,-0.924779475,-0.364910603,9.88E-01
0.093072632,-0.962393224,-0.255813032,9.92E-01
0.093299088,-0.987402737,-0.142108187,9.95E-01
0.093525544,-0.998726487,-0.025349647,9.98E-01
0.093751992,-0.995734334,0.092468441,1.00E+00
0.093978448,-0.978334665,0.209268302,1.00E+00
0.094204904,-0.946839631,0.323084146,1.00E+00
0.09443136,-0.901848078,0.432097912,1.00E+00
0.094657808,-0.844196439,0.534641385,9.99E-01
0.094884264,-0.774940252,0.629217029,9.96E-01
0.09511072,-0.695327401,0.714538932,9.94E-01
0.095337176,-0.606749773,0.789579511,9.92E-01
0.095563632,-0.510660112,0.853606701,9.89E-01
0.09579008,-0.408453673,0.906181097,9.88E-01
0.096016536,-0.301328838,0.947065771,9.88E-01
0.096242992,-0.190230295,0.975999177,9.89E-01
0.096469448,-0.07604678,0.992444515,9.91E-01
0.096695896,0.039994638,0.995640874,9.93E-01
0.096922352,0.156174526,0.985014081,9.95E-01
0.097148808,0.270548463,0.960480213,9.96E-01
0.097375264,0.381251842,0.922402263,9.96E-01
0.097601712,0.486601889,0.871422052,9.96E-01
0.097828168,0.585077167,0.808361948,9.96E-01
0.098054624,0.675291002,0.73420161,9.95E-01
0.09828108,0.755998194,0.65008086,9.94E-01
0.098507528,0.82612884,0.557293534,9.93E-01
0.098733984,0.884833992,0.457253039,9.92E-01
0.09896044,0.931522548,0.351423413,9.91E-01
