Frequency (GHz),Re( S21 ),Im( S21 ),S2
0,0.048500679,5.50E-05,2.35E-03
0.000226391,0.044206809,-0.019792931,2.35E-03
0.000452783,0.032074016,-0.036052942,2.33E-03
0.000679174,0.014321977,-0.045807615,2.30E-03
0.000905565,-0.005838511,-0.047346905,2.28E-03
0.001131957,-0.024811922,-0.040446237,2.25E-03
0.001358348,-0.039259363,-0.026361309,2.24E-03
0.001584739,-0.046658862,-0.007573894,2.23E-03
0.001811131,-0.045704667,0.012644399,2.25E-03
0.002037522,-0.036509465,0.030772382,2.28E-03
0.002263914,-0.020535754,0.043774344,2.34E-03
0.002490305,-0.000564805,0.048953772,2.40E-03
0.002716696,0.019931875,0.045418713,2.46E-03
0.002943088,0.037286017,0.033632796,2.52E-03
0.003169479,0.048296414,0.015566017,2.57E-03
0.00339587,0.050833684,-0.005544399,2.61E-03
0.003622262,0.044309795,-0.026010428,2.64E-03
0.003848653,0.02981481,-0.041909311,2.65E-03
0.004075044,0.009928905,-0.05048053,2.65E-03
0.004301436,-0.011835684,-0.050038163,2.64E-03
0.004527827,-0.031585842,-0.040586155,2.64E-03
0.004754219,-0.04578317,-0.023720197,2.66E-03
0.00498061,-0.051845465,-0.002330137,2.69E-03
0.005207001,-0.048568897,0.019893076,2.75E-03
0.005433393,-0.036327861,0.039060112,2.85E-03
0.005659784,-0.016965637,0.051872738,2.98E-03
0.005886175,0.006224309,0.055530727,3.12E-03
0.006112567,0.029252259,0.049238447,3.28E-03
0.006338958,0.047967389,0.033757106,3.44E-03
0.006565349,0.05883383,0.01154319,3.59E-03
0.006791741,0.05947654,-0.013449621,3.72E-03
0.007018132,0.04948391,-0.03695048,3.81E-03
0.007244523,0.030401619,-0.054300327,3.87E-03
0.007470915,0.005412614,-0.062357135,3.92E-03
0.007697306,-0.021084467,-0.05921917,3.95E-03
0.007923697,-0.044279683,-0.045098331,3.99E-03
0.008150089,-0.059831958,-0.022182539,4.07E-03
0.00837648,-0.064630233,0.005725449,4.21E-03
0.008602871,-0.057338655,0.033829734,4.43E-03
0.008829263,-0.038660307,0.057111818,4.76E-03
0.009055654,-0.011297597,0.071148321,5.19E-03
0.009282045,0.020611482,0.072999276,5.75E-03
0.009508437,0.051246889,0.06121134,6.37E-03
0.009734828,0.075179674,0.037204336,7.04E-03
0.009961219,0.087613247,0.004552242,7.70E-03
0.010187611,0.085250177,-0.03115111,8.24E-03
0.010414002,0.067844696,-0.06393189,8.69E-03
0.010640393,0.037389573,-0.087158389,8.99E-03
0.010866785,-0.001349554,-0.095644057,9.15E-03
0.011093176,-0.041626904,-0.086479463,9.21E-03
0.011319567,-0.075776212,-0.059712149,9.31E-03
0.011545959,-0.096464686,-0.018557822,9.65E-03
0.01177235,-0.097934455,0.030892111,1.05E-02
0.011998741,-0.077055104,0.0804125,1.24E-02
0.012225133,-0.034046993,0.120735012,1.57E-02
0.012451524,0.027221605,0.14286238,2.12E-02
0.012677915,0.099427156,0.139461711,2.93E-02
0.012904307,0.172498509,0.106157884,4.10E-02
0.013130698,0.234823555,0.042527411,5.70E-02
0.013357089,0.274807662,-0.047414735,7.78E-02
0.013583481,0.282620192,-0.155408815,1.04E-01
0.013809872,0.251778007,-0.269762725,1.36E-01
0.014036263,0.18022494,-0.376788437,1.74E-01
0.014262655,0.070794396,-0.462574482,2.19E-01
0.014489046,-0.069060549,-0.51474613,2.70E-01
0.014715438,-0.228171855,-0.523897886,3.27E-01
0.014941829,-0.392870516,-0.484493047,3.89E-01
0.01516822,-0.548258722,-0.395376444,4.57E-01
0.015394612,-0.679562628,-0.259949863,5.29E-01
0.015621003,-0.773427963,-0.085982941,6.06E-01
0.015847394,-0.818927228,0.114895001,6.84E-01
0.016073786,-0.808420897,0.328504264,7.61E-01
0.016300177,-0.739361763,0.53917706,8.37E-01
0.016526568,-0.614226699,0.730097473,9.10E-01
0.01675296,-0.44012621,0.8855744,9.78E-01
0.016979352,-0.22866419,0.992794096,1.04E+00
0.017205742,0.005112494,1.04316461,1.09E+00
0.017432134,0.24435845,1.03325212,1.13E+00
0.017658526,0.472355217,0.965023994,1.15E+00
0.017884916,0.67437005,0.84531337,1.17E+00
0.018111308,0.839111447,0.684607387,1.17E+00
0.0183377,0.959604442,0.495431364,1.17E+00
0.01856409,1.03346872,0.290996343,1.15E+00
0.018790482,1.06170642,0.083744481,1.13E+00
0.019016874,1.04905558,-0.116697595,1.11E+00
0.019243264,1.01415122,-0.291163504,1.11E+00
0.019469656,0.916914463,-0.453233719,1.05E+00
0.019696048,0.813252211,-0.594566107,1.01E+00
0.019922438,0.694530487,-0.710647404,9.87E-01
0.02014883,0.565461159,-0.802630961,9.64E-01
0.020375222,0.429992825,-0.872054458,9.45E-01
0.020601612,0.290949166,-0.920631289,9.32E-01
0.020828004,0.150181502,-0.949854374,9.25E-01
0.021054396,0.00889978,-0.960695684,9.23E-01
0.021280786,-0.131918341,-0.953473866,9.27E-01
0.021507178,-0.271102041,-0.927863359,9.34E-01
0.02173357,-0.406728148,-0.883056641,9.45E-01
0.02195996,-0.53570205,-0.818954706,9.58E-01
0.022186352,-0.667312264,-0.737324059,9.89E-01
0.022412744,-0.761507273,-0.636562049,9.85E-01
0.022639134,-0.856900036,-0.526687384,1.01E+00
0.022865526,-0.939864099,-0.391367853,1.04E+00
0.023091918,-0.995592177,-0.242405117,1.05E+00
0.023318308,-1.02537227,-0.086036503,1.06E+00
0.0235447,-1.02846348,0.073052503,1.06E+00
0.023771092,-1.00491369,0.229690433,1.06E+00
0.023997482,-0.956042051,0.378762782,1.06E+00
0.024223874,-0.884397268,0.515715003,1.05E+00
0.024450266,-0.793480277,0.636940241,1.04E+00
0.024676656,-0.687338352,0.739993155,1.02E+00
0.024903048,-0.570146441,0.823594868,1.00E+00
0.02512944,-0.445919782,0.887507021,9.87E-01
0.02535583,-0.318279207,0.932470858,9.71E-01
0.025582222,-0.190188095,0.959983349,9.58E-01
0.025808614,-0.064155087,0.972665012,9.50E-01
0.026035004,0.061996654,0.975017905,9.55E-01
0.026261396,0.191595763,0.961263597,9.61E-01
0.026487788,0.318483055,0.929991007,9.66E-01
0.026714178,0.44090566,0.882863402,9.74E-01
0.02694057,0.557532907,0.820036232,9.83E-01
0.027166962,0.666379333,0.741488218,9.94E-01
0.027393352,0.764938891,0.647593796,1.00E+00
0.027619744,0.850435972,0.539403796,1.01E+00
0.027846136,0.92012918,0.418771684,1.02E+00
0.028072526,0.971623898,0.288348407,1.03E+00
0.028298918,1.00316465,0.15146932,1.03E+00
0.02852531,1.01389861,0.011938802,1.03E+00
0.028751702,1.00407386,-0.126307756,1.02E+00
0.028978092,0.975189865,-0.259620845,1.02E+00
0.029204484,0.930236816,-0.385773778,1.01E+00
0.029430876,0.870433092,-0.505882323,1.01E+00
0.029657266,0.793373585,-0.616981447,1.01E+00
0.029883658,0.702115178,-0.714523494,1.00E+00
0.03011005,0.600231826,-0.797501743,9.96E-01
0.03033644,0.490170807,-0.865681231,9.90E-01
0.030562832,0.373899549,-0.918946922,9.84E-01
0.030789224,0.253129989,-0.957241476,9.80E-01
0.031015614,0.12941286,-0.980522215,9.78E-01
0.031242006,0.004229803,-0.988724828,9.78E-01
0.031468398,-0.120910875,-0.981771767,9.78E-01
0.031694788,-0.244383767,-0.959632337,9.81E-01
0.03192118,-0.364410937,-0.922452748,9.84E-01
0.032147572,-0.47912696,-0.870727837,9.88E-01
0.032373962,-0.586888015,-0.805494726,9.93E-01
0.032600354,-0.687201202,-0.727873385,1.00E+00
0.032826746,-0.779643357,-0.636549592,1.01E+00
0.033053136,-0.859808743,-0.530795693,1.02E+00
0.033279528,-0.924109995,-0.413805515,1.03E+00
0.03350592,-0.971160829,-0.288878322,1.03E+00
0.033732312,-1.00018895,-0.158946171,1.03E+00
0.033958704,-1.01085663,-0.026928304,1.02E+00
0.034185092,-1.0033561,0.104279585,1.02E+00
0.034411484,-0.978429854,0.231944963,1.01E+00
0.034637876,-0.93730408,0.353646249,1.00E+00
0.034864268,-0.881566942,0.467377961,9.96E-01
0.03509066,-0.813034356,0.571604729,9.88E-01
0.035317052,-0.733623743,0.665277183,9.81E-01
0.03554344,-0.645259142,0.747871637,9.76E-01
0.035769832,-0.549667239,0.819580019,9.74E-01
0.035996224,-0.447397918,0.881333649,9.77E-01
0.036222616,-0.337204158,0.932502925,9.83E-01
0.036449008,-0.219703197,0.970168173,9.89E-01
0.0366754,-0.097403526,0.992816925,9.95E-01
0.036901788,0.027588915,0.999961913,1.00E+00
0.03712818,0.153361425,0.991172791,1.01E+00
0.037354572,0.277814358,0.966112792,1.01E+00
0.037580964,0.398607016,0.92475462,1.01E+00
0.037807356,0.513258517,0.867536664,1.02E+00
0.038033748,0.619311631,0.795444548,1.02E+00
0.038260136,0.714520693,0.710014939,1.01E+00
0.038486528,0.797035933,0.613272071,1.01E+00
0.03871292,0.865578592,0.507597625,1.01E+00
0.038939312,0.919624865,0.395515323,1.00E+00
0.039165704,0.95956111,0.279185861,9.99E-01
0.039392096,0.986046195,0.15947099,9.98E-01
0.039618484,0.998102963,0.036727674,9.98E-01
0.039844876,0.994362772,-0.086731479,9.96E-01
0.040071268,0.975169003,-0.208147541,9.94E-01
0.04029766,0.941494524,-0.325636357,9.92E-01
0.040524052,0.894213796,-0.437785655,9.91E-01
0.040750444,0.834094286,-0.543303907,9.91E-01
0.040976832,0.761905551,-0.640898883,9.91E-01
0.041203224,0.678511322,-0.729252398,9.92E-01
0.041429616,0.584948599,-0.807043076,9.93E-01
0.041656008,0.482487023,-0.873007834,9.95E-01
0.0418824,0.372654676,-0.926039577,9.96E-01
0.042108792,0.257213026,-0.965327799,9.98E-01
0.04233518,0.13799122,-0.990528882,1.00E+00
0.042561572,0.016417194,-1.00175965,1.00E+00
0.042787964,-0.106841542,-0.998702347,1.01E+00
0.043014356,-0.230380356,-0.97980094,1.01E+00
0.043240748,-0.35104385,-0.94426465,1.01E+00
0.04346714,-0.465781957,-0.892979562,1.01E+00
0.043693528,-0.572368622,-0.827426016,1.01E+00
0.04391992,-0.669085503,-0.749206722,1.01E+00
0.044146312,-0.754545033,-0.660018682,1.00E+00
0.044372704,-0.827666759,-0.56164974,1.00E+00
0.044599096,-0.88768065,-0.455935538,9.96E-01
0.044825488,-0.934117258,-0.344705582,9.91E-01
0.04505188,-0.966786385,-0.229731932,9.87E-01
0.045278268,-0.985757887,-0.112683617,9.84E-01
0.04550466,-0.991356313,0.004936228,9.83E-01
0.045731052,-0.98413837,0.121957779,9.83E-01
0.045957444,-0.964567363,0.237831175,9.87E-01
0.046183836,-0.932126164,0.352302998,9.93E-01
0.046410228,-0.885515749,0.463857442,9.99E-01
0.046636616,-0.82451427,0.569773316,1.00E+00
0.046863008,-0.750065684,0.667646527,1.01E+00
0.0470894,-0.663450718,0.755598128,1.01E+00
0.047315792,-0.566108406,0.831995368,1.01E+00
0.047542184,-0.459706903,0.895390511,1.01E+00
0.047768576,-0.346176863,0.94459796,1.01E+00
0.047994964,-0.227664456,0.978790104,1.01E+00
0.048221356,-0.106434986,0.997571468,1.01E+00
0.048447748,0.015254188,1.00101304,1.00E+00
0.04867414,0.135299042,0.989650846,9.98E-01
0.048900532,0.251928002,0.96443665,9.94E-01
0.049126924,0.363943666,0.926559567,9.91E-01
0.049353312,0.470848382,0.876899898,9.91E-01
0.049579704,0.57210803,0.815387726,9.92E-01
0.049806096,0.666047692,0.741816342,9.94E-01
0.050032488,0.750602722,0.65708369,9.95E-01
0.05025888,0.824337363,0.562697709,9.96E-01
0.050485272,0.886279702,0.460130513,9.97E-01
0.05071166,0.93560046,0.350784153,9.98E-01
0.050938052,0.971529305,0.236119822,1.00E+00
0.051164444,0.993398786,0.11774268,1.00E+00
0.051390836,1.00072622,-0.0025763,1.00E+00
0.051617228,0.993300498,-0.122929007,1.00E+00
0.05184362,0.971254826,-0.241348282,1.00E+00
0.052070008,0.935112476,-0.355931461,1.00E+00
0.0522964,0.885762751,-0.465027153,1.00E+00
0.052522792,0.824249268,-0.567455888,1.00E+00
0.052749184,0.751241386,-0.662431777,1.00E+00
0.052975576,0.666864693,-0.748721242,1.01E+00
0.053201968,0.571797132,-0.824216008,1.01E+00
0.053428356,0.467859775,-0.887041152,1.01E+00
0.053654748,0.357241839,-0.936186671,1.00E+00
0.05388114,0.241976857,-0.971207678,1.00E+00
0.054107532,0.123917334,-0.99193716,9.99E-01
0.054333924,0.004801694,-0.99838686,9.97E-01
0.054560316,-0.113706864,-0.990731061,9.94E-01
0.054786704,-0.230013624,-0.969304562,9.92E-01
0.055013096,-0.342601538,-0.934609473,9.91E-01
0.055239488,-0.450058281,-0.887318909,9.90E-01
0.05546588,-0.551134408,-0.82827127,9.90E-01
0.055692272,-0.644844353,-0.758401394,9.91E-01
0.055918664,-0.730519772,-0.678492844,9.94E-01
0.056145052,-0.807470918,-0.588823557,9.99E-01
0.056371444,-0.874212623,-0.489480257,1.00E+00
0.056597836,-0.928619862,-0.381466627,1.01E+00
0.056824228,-0.969040275,-0.266801804,1.01E+00
0.05705062,-0.994611144,-0.147763938,1.01E+00
0.057277012,-1.00497544,-0.026551904,1.01E+00
0.057503404,-1.00010765,0.094715543,1.01E+00
0.057729792,-0.980288327,0.213987127,1.01E+00
0.057956184,-0.946106374,0.32931456,1.00E+00
0.058182576,-0.89844507,0.438916892,1.00E+00
0.058408968,-0.838441968,0.541247845,9.96E-01
0.05863536,-0.767424226,0.63506192,9.92E-01
0.058861752,-0.686807692,0.719476938,9.89E-01
0.05908814,-0.597920597,0.794016957,9.88E-01
0.059314532,-0.501698494,0.858501256,9.89E-01
0.059540924,-0.398511678,0.912506938,9.91E-01
0.059767316,-0.28878665,0.954809129,9.95E-01
0.059993708,-0.17385073,0.983904004,9.98E-01
0.0602201,-0.055663638,0.998863995,1.00E+00
0.060446488,0.063795969,0.99934411,1.00E+00
0.06067288,0.182660624,0.985292315,1.00E+00
0.060899272,0.299097568,0.956852794,1.01E+00
0.061125664,0.411268443,0.914394617,1.01E+00
0.061352056,0.517358005,0.858565927,1.00E+00
0.061578448,0.615648508,0.790320873,1.00E+00
0.061804836,0.704616606,0.71091187,1.00E+00
0.062031228,0.78303504,0.621833563,1.00E+00
0.06225762,0.850070655,0.524704218,9.98E-01
0.062484012,0.905314922,0.421039402,9.97E-01
0.062710404,0.948581338,0.311963826,9.97E-01
0.062936796,0.979355037,0.198243663,9.98E-01
0.063163184,0.996586084,0.081006333,1.00E+00
0.063389576,0.999422729,-0.037826691,1.00E+00
0.063615968,0.987755358,-0.156088039,1.00E+00
0.06384236,0.961984813,-0.271857679,9.99E-01
0.064068752,0.922713161,-0.383485496,9.98E-01
0.064295144,0.870637417,-0.489480793,9.98E-01
0.064521532,0.806559503,-0.5884431,9.97E-01
0.064747924,0.731416702,-0.679053307,9.96E-01
0.064974316,0.646305442,-0.760098398,9.95E-01
0.065200708,0.552483916,-0.830521047,9.95E-01
0.0654271,0.45133847,-0.88948667,9.95E-01
0.065653492,0.344286621,-0.936440229,9.95E-01
0.06587988,0.23259224,-0.971081138,9.97E-01
0.066106272,0.117209554,-0.993086576,1.00E+00
0.066332664,-0.000939068,-1.00168908,1.00E+00
0.066559056,-0.120269127,-0.995840073,1.01E+00
0.066785448,-0.238477588,-0.975025535,1.01E+00
0.06701184,-0.353206217,-0.939555824,1.01E+00
0.067238232,-0.462425768,-0.890251875,1.01E+00
0.067464624,-0.564431727,-0.828176796,1.00E+00
0.067691016,-0.657772422,-0.754541218,1.00E+00
0.067917408,-0.741217136,-0.670679331,9.99E-01
0.068143792,-0.813761294,-0.578028381,9.96E-01
0.068370184,-0.874638021,-0.478095591,9.94E-01
0.068596576,-0.923333108,-0.372412294,9.91E-01
0.068822968,-0.959593654,-0.262462795,9.90E-01
0.06904936,-0.983402789,-0.149573922,9.89E-01
0.069275752,-0.994839072,-0.034770727,9.91E-01
0.069502144,-0.993730605,0.081211038,9.94E-01
0.069728536,-0.97938621,0.197453901,9.98E-01
0.069954928,-0.951030493,0.312287003,1.00E+00
0.07018132,-0.908522904,0.423501581,1.00E+00
0.070407712,-0.852425456,0.528957129,1.01E+00
0.070634104,-0.783696055,0.626806796,1.01E+00
0.070860488,-0.703511238,0.71545434,1.01E+00
0.07108688,-0.61323148,0.793511331,1.01E+00
0.071313272,-0.514397144,0.859811485,1.00E+00
0.071539664,-0.408700675,0.913453937,1.00E+00
0.071766056,-0.297931433,0.953849792,9.99E-01
0.071992448,-0.183886409,0.980749726,9.96E-01
0.07221884,-0.068255022,0.994244158,9.93E-01
0.072445232,0.047532771,0.994687498,9.92E-01
0.072671624,0.162422866,0.982474685,9.92E-01
0.072898016,0.275600314,0.95768398,9.93E-01
0.073124408,0.385955721,0.919994533,9.95E-01
0.0733508,0.49175477,0.869247079,9.97E-01
0.073577184,0.591046154,0.805934668,9.99E-01
0.073803576,0.68213743,0.731055081,1.00E+00
0.074029968,0.763658643,0.645805776,1.00E+00
0.07425636,0.834453285,0.551466823,1.00E+00
0.074482752,0.893517137,0.449411333,1.00E+00
0.074709144,0.940002382,0.341132432,1.00E+00
0.074935536,0.973259091,0.228245214,9.99E-01
0.075161928,0.992888987,0.112454787,9.98E-01
0.07538832,0.998785615,-0.004515849,9.98E-01
0.075614712,0.991139174,-0.121036619,9.97E-01
0.075841104,0.970350862,-0.235707507,9.97E-01
0.076067496,0.93680203,-0.347415894,9.98E-01
0.07629388,0.890587032,-0.455095619,1.00E+00
0.076520272,0.831661344,-0.557252586,1.00E+00
0.076746664,0.760441303,-0.65192908,1.00E+00
0.076973056,0.678052425,-0.737246335,1.00E+00
0.077199448,0.586027503,-0.811774075,1.00E+00
0.07742584,0.485997081,-0.874503136,1.00E+00
0.077652232,0.379584163,-0.924713552,9.99E-01
0.077878624,0.268397391,-0.961899698,9.97E-01
0.078105016,0.154040739,-0.985746384,9.95E-01
0.078331408,0.038107563,-0.996132553,9.94E-01
0.0785578,-0.07784643,-0.993138015,9.92E-01
0.078784192,-0.192351654,-0.977044523,9.92E-01
0.079010584,-0.30409959,-0.9483006,9.92E-01
0.079236968,-0.412011832,-0.907399595,9.93E-01
0.07946336,-0.515177906,-0.854661465,9.96E-01
0.079689752,-0.612509668,-0.790113866,9.99E-01
0.079916144,-0.702373445,-0.713847756,1.00E+00
0.080142536,-0.782792211,-0.626585305,1.01E+00
0.080368928,-0.852012753,-0.529739141,1.01E+00
0.08059532,-0.908764482,-0.425068855,1.01E+00
0.080821712,-0.952199817,-0.314425021,1.01E+00
0.081048104,-0.981794536,-0.199669346,1.00E+00
0.081274496,-0.997305155,-0.082652904,1.00E+00
0.081500888,-0.998758733,0.034810104,9.99E-01
0.08172728,-0.986446738,0.150987729,9.96E-01
0.081953664,-0.960905433,0.264288187,9.93E-01
0.082180056,-0.922869563,0.373328418,9.91E-01
0.082406448,-0.873176634,0.4769997,9.90E-01
0.08263284,-0.812590659,0.57448107,9.90E-01
0.082859232,-0.741590261,0.665065229,9.92E-01
0.083085624,-0.660387278,0.747762442,9.95E-01
0.083312016,-0.569391012,0.821076334,9.98E-01
0.083538408,-0.469640702,0.883354425,1.00E+00
0.0837648,-0.362701923,0.933263779,1.00E+00
0.083991192,-0.250338972,0.969909489,1.00E+00
0.084217584,-0.134349734,0.992729247,1.00E+00
0.084443976,-0.016540274,1.00141668,1.00E+00
0.08467036,0.10127344,0.99590981,1.00E+00
0.084896752,0.217289776,0.976408184,1.00E+00
0.085123144,0.329775125,0.943388402,9.99E-01
0.085349536,0.437140614,0.89759165,9.97E-01
0.085575928,0.538028777,0.839972019,9.95E-01
0.08580232,0.631382465,0.77157861,9.94E-01
0.086028712,0.716422498,0.693359673,9.94E-01
0.086255104,0.792419434,0.606001139,9.95E-01
0.086481496,0.85833925,0.510073006,9.97E-01
0.086707888,0.912816703,0.406500489,9.98E-01
0.08693428,0.954597175,0.296792448,9.99E-01
0.087160672,0.982888937,0.182783395,9.99E-01
0.087387056,0.997338414,0.066321328,9.99E-01
0.087613448,0.997879148,-0.050839916,9.98E-01
0.08783984,0.984639347,-0.167029843,9.97E-01
0.088066232,0.957921565,-0.280635595,9.96E-01
0.088292624,0.918211579,-0.390103877,9.95E-01
0.088519016,0.866188109,-0.493970037,9.94E-01
0.088745408,0.802714288,-0.590910017,9.94E-01
0.0889718,0.728788555,-0.679802179,9.93E-01
0.089198192,0.645434201,-0.759761035,9.94E-01
0.089424584,0.553542078,-0.83006078,9.95E-01
0.089650976,0.453819752,-0.889878869,9.98E-01
0.089877368,0.347068757,-0.938051701,1.00E+00
0.09010376,0.234617591,-0.973252058,1.00E+00
0.090330144,0.118355356,-0.994481564,1.00E+00
0.090556536,0.000379204,-1.00131178,1.00E+00
0.090782928,-0.117296353,-0.993787467,1.00E+00
0.09100932,-0.232824758,-0.97226584,1.00E+00
0.091235712,-0.344523668,-0.937322259,9.97E-01
0.091462104,-0.450865209,-0.889712453,9.95E-01
0.091688496,-0.550484955,-0.830350161,9.93E-01
0.091914888,-0.642202914,-0.760279715,9.90E-01
0.09214128,-0.725052297,-0.680634439,9.89E-01
0.092367672,-0.798297822,-0.592558146,9.88E-01
0.092594064,-0.861404836,-0.49708885,9.89E-01
0.092820456,-0.91388154,-0.395046622,9.91E-01
0.09304684,-0.955001712,-0.287107915,9.94E-01
0.093273232,-0.983677089,-0.174181789,9.98E-01
0.093499624,-0.998779297,-0.057760883,1.00E+00
0.093726016,-0.999596119,0.060184974,1.00E+00
0.093952408,-0.985965014,0.177567154,1.00E+00
0.0941788,-0.958147883,0.292399317,1.00E+00
0.094405192,-0.916702092,0.402847171,1.00E+00
0.094631584,-0.862422645,0.507230818,1.00E+00
0.094857976,-0.796318233,0.604037523,9.99E-01
0.095084368,-0.719586253,0.6919595,9.97E-01
0.09531076,-0.633568823,0.769934058,9.94E-01
0.095537152,-0.539676905,0.837180972,9.92E-01
0.095763536,-0.439280808,0.893206537,9.91E-01
0.095989928,-0.333574027,0.93772608,9.91E-01
0.09621632,-0.223499998,0.970456064,9.92E-01
0.096442712,-0.10991393,0.990854502,9.94E-01
0.096669104,0.006026188,0.998119831,9.96E-01
0.096895496,0.122653507,0.991577864,9.98E-01
0.097121888,0.238016114,0.971028328,1.00E+00
0.09734828,0.35020119,0.936744034,1.00E+00
0.097574672,0.457466811,0.88930881,1.00E+00
0.097801064,0.558235526,0.829507768,1.00E+00
0.098027456,0.651071489,0.758296728,9.99E-01
0.098253848,0.734685004,0.676797092,9.98E-01
0.098480232,0.80796665,0.586289346,9.97E-01
0.098706624,0.870030403,0.488178849,9.95E-01
0.098933016,0.920251131,0.383924872,9.94E-01
