Frequency (GHz),Re( S21 ),Im( S21 ),S2
0,0.048406795,6.06E-05,2.34E-03
0.000226449,0.044124227,-0.019743519,2.34E-03
0.000452899,0.032022685,-0.035968982,2.32E-03
0.000679348,0.014315908,-0.045707349,2.29E-03
0.000905797,-0.005795273,-0.047253564,2.27E-03
0.001132247,-0.024726573,-0.040383104,2.24E-03
0.001358696,-0.039149996,-0.026346525,2.23E-03
0.001585145,-0.046550471,-0.007615201,2.22E-03
0.001811595,-0.045623988,0.012551859,2.24E-03
0.002038044,-0.036478657,0.030645341,2.27E-03
0.002264494,-0.020568609,0.043676745,2.33E-03
0.002490943,-0.000645516,0.048879068,2.39E-03
0.002717392,0.019817995,0.04538798,2.45E-03
0.002943842,0.037162248,0.033657566,2.51E-03
0.003170291,0.048189934,0.015645884,2.57E-03
0.00339674,0.05076883,-0.005422096,2.61E-03
0.00362319,0.044305164,-0.025867241,2.63E-03
0.003849639,0.029861633,-0.041851934,2.64E-03
0.004076088,0.009982703,-0.050444797,2.64E-03
0.004302538,-0.01166917,-0.049970791,2.63E-03
0.004528987,-0.031398986,-0.040601697,2.63E-03
0.004755436,-0.045614559,-0.023822678,2.65E-03
0.004981886,-0.051733442,-0.002506122,2.68E-03
0.005208335,-0.048543599,0.019673534,2.74E-03
0.005434784,-0.036407832,0.039039794,2.85E-03
0.005661234,-0.017143514,0.05173156,2.97E-03
0.005887683,0.005990572,0.055474863,3.11E-03
0.006114132,0.029004172,0.049288094,3.27E-03
0.006340582,0.047753263,0.033912271,3.43E-03
0.006567031,0.058699977,0.011782508,3.58E-03
0.00679348,0.059452631,-0.013167755,3.71E-03
0.00701993,0.049586359,-0.036677491,3.80E-03
0.007246379,0.030565551,-0.054203659,3.87E-03
0.007472829,0.005710007,-0.06222469,3.90E-03
0.007699278,-0.02074581,-0.059231356,3.94E-03
0.007925727,-0.043965705,-0.045265984,3.98E-03
0.008152177,-0.059610128,-0.022487074,4.06E-03
0.008378626,-0.064556748,0.005331091,4.20E-03
0.008605075,-0.057446282,0.033414792,4.42E-03
0.008831524,-0.038949672,0.056757312,4.74E-03
0.009057974,-0.011573286,0.071165994,5.20E-03
0.009284423,0.020108188,0.073014222,5.74E-03
0.009510872,0.05076747,0.061440405,6.35E-03
0.009737322,0.074817956,0.037627045,7.01E-03
0.009963771,0.087448932,0.005108738,7.67E-03
0.01019022,0.085406907,-0.030752484,8.24E-03
0.01041667,0.068158686,-0.063386351,8.66E-03
0.010643119,0.037928212,-0.0867915,8.97E-03
0.010869568,-0.000673481,-0.095551983,9.13E-03
0.011096018,-0.040939711,-0.086717844,9.20E-03
0.011322467,-0.075226419,-0.060281705,9.29E-03
0.011548916,-0.096198931,-0.019396028,9.63E-03
0.011775366,-0.098071829,0.029908888,1.05E-02
0.012001815,-0.077662438,0.079456963,1.23E-02
0.012228264,-0.035118673,0.120006464,1.56E-02
0.012454714,0.025773604,0.142556414,2.10E-02
0.012681163,0.098359577,0.139873013,2.92E-02
0.012907612,0.171458751,0.106997229,4.08E-02
0.013134062,0.233459398,0.044153601,5.65E-02
0.013360511,0.273968369,-0.04521225,7.71E-02
0.01358696,0.282513469,-0.152822271,1.03E-01
0.01381341,0.252539486,-0.267053574,1.35E-01
0.014039859,0.181893811,-0.374253422,1.73E-01
0.014266308,0.073305987,-0.46051228,2.17E-01
0.014492758,-0.065867156,-0.513424397,2.68E-01
0.014719207,-0.22453773,-0.523524642,3.24E-01
0.014945657,-0.389097214,-0.485195845,3.87E-01
0.015172106,-0.54468137,-0.397184461,4.54E-01
0.015398555,-0.676516831,-0.262784809,5.27E-01
0.015625005,-0.771212578,-0.089662537,6.03E-01
0.015851454,-0.81776768,0.110650793,6.81E-01
0.016077903,-0.808459878,0.324054748,7.59E-01
0.016304353,-0.74063319,0.534892976,8.35E-01
0.016530802,-0.616626382,0.72633785,9.08E-01
0.016757251,-0.443432331,0.882650077,9.76E-01
0.0169837,-0.232566312,0.990924716,1.04E+00
0.01721015,0.000974804,1.04245389,1.09E+00
0.0174366,0.240350038,1.03367579,1.13E+00
0.017663048,0.468800277,0.966441751,1.15E+00
0.017889498,0.671516478,0.847494066,1.17E+00
0.018115948,0.837108016,0.687264562,1.17E+00
0.018342396,0.958499432,0.49826619,1.17E+00
0.018568846,1.03320634,0.293744892,1.15E+00
0.018795296,1.06214893,0.086175978,1.14E+00
0.019021744,1.05006599,-0.114740856,1.12E+00
0.019248194,1.01406991,-0.28814432,1.11E+00
0.019474644,0.918090641,-0.452424943,1.05E+00
0.019701092,0.814367712,-0.594186485,1.02E+00
0.019927542,0.695427597,-0.710605741,9.89E-01
0.020153992,0.566067815,-0.802787066,9.65E-01
0.02038044,0.430302739,-0.872264326,9.46E-01
0.02060689,0.291010588,-0.920773208,9.33E-01
0.02083334,0.150080413,-0.949845433,9.25E-01
0.021059788,0.008738294,-0.960502267,9.23E-01
0.021286238,-0.132043689,-0.953107476,9.26E-01
0.021512688,-0.271117389,-0.927370787,9.34E-01
0.021739136,-0.406581759,-0.88250345,9.44E-01
0.021965586,-0.535379887,-0.818441808,9.56E-01
0.022192036,-0.66697526,-0.736967146,9.88E-01
0.022418484,-0.760932922,-0.63638252,9.84E-01
0.022644934,-0.856714666,-0.526730061,1.01E+00
0.022871384,-0.939605594,-0.391307175,1.04E+00
0.023097832,-0.995423138,-0.242411807,1.05E+00
0.023324282,-1.02534187,-0.086023696,1.06E+00
0.023550732,-1.02855563,0.073169686,1.06E+00
0.02377718,-1.00507188,0.229978144,1.06E+00
0.02400363,-0.956185043,0.379257709,1.06E+00
0.02423008,-0.884431601,0.516416848,1.05E+00
0.024456528,-0.793316901,0.637810409,1.04E+00
0.024682978,-0.686907709,0.740959048,1.02E+00
0.024909428,-0.569410801,0.824559212,1.00E+00
0.025135876,-0.444884509,0.888363481,9.87E-01
0.025362326,-0.316991717,0.93312639,9.71E-01
0.025588776,-0.188733235,0.960374057,9.58E-01
0.025815224,-0.062641121,0.972823739,9.50E-01
0.026041674,0.063706026,0.974958956,9.55E-01
0.026268124,0.19332093,0.960766673,9.60E-01
0.026494572,0.320067883,0.929162323,9.66E-01
0.026721022,0.442304075,0.881783545,9.73E-01
0.026947472,0.558722079,0.818772018,9.83E-01
0.02717392,0.66735661,0.740098774,9.93E-01
0.02740037,0.765718281,0.646126032,1.00E+00
0.02762682,0.851041973,0.537886858,1.01E+00
0.027853268,0.920586824,0.417216122,1.02E+00
0.028079718,0.971950531,0.286749274,1.03E+00
0.028306168,1.00336409,0.149813369,1.03E+00
0.028532616,1.01396048,0.010213484,1.03E+00
0.028759066,1.00397944,-0.128106982,1.02E+00
0.028985516,0.974927664,-0.261489689,1.02E+00
0.029211966,0.929815114,-0.387760341,1.01E+00
0.029438414,0.869675815,-0.508056462,1.01E+00
0.029664864,0.79216224,-0.619145691,1.01E+00
0.029891314,0.700488329,-0.716558278,1.00E+00
0.030117762,0.598215461,-0.799323201,9.97E-01
0.030344212,0.487803966,-0.867204309,9.90E-01
0.030570662,0.371245205,-0.920094013,9.84E-01
0.03079711,0.250272065,-0.957954645,9.80E-01
0.03102356,0.126448825,-0.980769575,9.78E-01
0.03125001,0.001258856,-0.988504708,9.77E-01
0.031476458,-0.12379735,-0.981108963,9.78E-01
0.031702908,-0.247110292,-0.958574712,9.80E-01
0.031929358,-0.366924256,-0.921064317,9.83E-01
0.032155806,-0.481400341,-0.869083107,9.87E-01
0.032382256,-0.588938117,-0.803673446,9.93E-01
0.032608706,-0.689117908,-0.725898445,1.00E+00
0.032835154,-0.78142935,-0.634307861,1.01E+00
0.033061604,-0.861355424,-0.528291821,1.02E+00
0.033288054,-0.925391018,-0.411087006,1.03E+00
0.033514502,-0.97215879,-0.285957366,1.03E+00
0.033740952,-1.00086761,-0.155830249,1.03E+00
0.0339674,-1.01116431,-0.023638081,1.02E+00
0.034193852,-1.00323701,0.107702062,1.02E+00
0.0344203,-0.977833867,0.235435322,1.01E+00
0.034646748,-0.936196923,0.357119828,1.00E+00
0.0348732,-0.879938662,0.470737278,9.96E-01
0.035099648,-0.810903311,0.57474798,9.88E-01
0.035326096,-0.731040478,0.668111384,9.81E-01
0.035552548,-0.6423015,0.750328839,9.76E-01
0.035778996,-0.546419621,0.821642339,9.74E-01
0.036005444,-0.443879038,0.883013725,9.77E-01
0.036231896,-0.333414286,0.933711469,9.83E-01
0.036458344,-0.215763494,0.97082907,9.89E-01
0.036684792,-0.093429036,0.992945313,9.95E-01
0.036911244,0.031526364,0.99959445,1.00E+00
0.037137692,0.157213613,0.990342021,1.01E+00
0.03736414,0.281544596,0.964845717,1.01E+00
0.037590592,0.402184904,0.923071146,1.01E+00
0.03781704,0.516653776,0.86545068,1.02E+00
0.038043488,0.622490466,0.792965651,1.02E+00
0.03826994,0.717442513,0.70715332,1.01E+00
0.038496388,0.799654424,0.610043287,1.01E+00
0.038722836,0.867846072,0.504028857,1.01E+00
0.038949288,0.921504259,0.391643316,1.00E+00
0.039175736,0.961034834,0.275031567,9.99E-01
0.039402184,0.987055421,0.155009642,9.98E-01
0.039628636,0.998502851,0.032005113,9.98E-01
0.039855084,0.99407053,-0.091563918,9.97E-01
0.040081532,0.974180877,-0.212948754,9.94E-01
0.040307984,0.939832747,-0.330288351,9.92E-01
0.040534432,0.891917884,-0.442182243,9.91E-01
0.04076088,0.831221342,-0.547351182,9.91E-01
0.040987332,0.758528113,-0.644519627,9.91E-01
0.04121378,0.67471236,-0.73238951,9.92E-01
0.041440228,0.580815315,-0.809660852,9.93E-01
0.04166668,0.478102624,-0.875090063,9.94E-01
0.041893128,0.368096113,-0.927588582,9.96E-01
0.042119576,0.25254485,-0.966362536,9.98E-01
0.042346028,0.133254379,-0.991084158,1.00E+00
0.042572476,0.011603844,-1.00186515,1.00E+00
0.042798924,-0.111766882,-0.998309314,1.01E+00
0.043025376,-0.235363066,-0.978807509,1.01E+00
0.043251824,-0.355970472,-0.942633331,1.02E+00
0.043478272,-0.470557421,-0.890713155,1.01E+00
0.043704724,-0.576906979,-0.824533761,1.01E+00
0.043931172,-0.673294604,-0.74570471,1.01E+00
0.04415762,-0.758328199,-0.655941427,1.01E+00
0.044384072,-0.830928624,-0.557053328,1.00E+00
0.04461052,-0.890335739,-0.450899959,9.96E-01
0.044836968,-0.936098754,-0.339330167,9.91E-01
0.04506342,-0.968053162,-0.224129722,9.87E-01
0.045289868,-0.986297429,-0.106971212,9.84E-01
0.045516316,-0.991190314,0.010651019,9.83E-01
0.045742768,-0.983312964,0.127597377,9.83E-01
0.045969216,-0.96311748,0.243367806,9.87E-01
0.046195664,-0.930022478,0.35770452,9.93E-01
0.046422116,-0.882734895,0.469016254,9.99E-01
0.046648564,-0.821101785,0.574578226,1.00E+00
0.046875012,-0.746086776,0.67202729,1.01E+00
0.047101464,-0.658961415,0.759503126,1.01E+00
0.047327912,-0.561157405,0.835374951,1.01E+00
0.04755436,-0.454345375,0.89819324,1.01E+00
0.047780812,-0.340462714,0.946769238,1.01E+00
0.04800726,-0.221667573,0.980277359,1.01E+00
0.048233708,-0.10023924,0.998329461,1.01E+00
0.04846016,0.021553014,1.0010097,1.00E+00
0.048686608,0.141597688,0.98887521,9.98E-01
0.048913056,0.258128345,0.962901235,9.94E-01
0.049139508,0.369970948,0.924291134,9.91E-01
0.049365956,0.476648659,0.873899341,9.91E-01
0.049592404,0.577581882,0.811623931,9.92E-01
0.049818856,0.671037972,0.73731482,9.94E-01
0.050045304,0.754979968,0.651943684,9.95E-01
0.050271752,0.828024209,0.557036221,9.96E-01
0.050498204,0.889229894,0.454058766,9.97E-01
0.050724652,0.937785268,0.344406456,9.98E-01
0.0509511,0.97293365,0.229534402,9.99E-01
0.051177552,0.994018734,0.111042462,1.00E+00
0.051404,1.00056684,-0.009303913,1.00E+00
0.051630448,0.992373407,-0.129602551,1.00E+00
0.0518569,0.969578743,-0.247891128,1.00E+00
0.052083348,0.932712734,-0.36227423,1.00E+00
0.052309796,0.882669151,-0.471114904,1.00E+00
0.052536248,0.820475578,-0.573251903,1.00E+00
0.052762696,0.746758521,-0.667889059,1.00E+00
0.052989144,0.661634266,-0.753717244,1.01E+00
0.053215596,0.565858841,-0.828585148,1.01E+00
0.053442044,0.461318046,-0.890650868,1.01E+00
0.053668492,0.350219756,-0.938945472,1.00E+00
0.053894944,0.234603837,-0.973049462,1.00E+00
0.054121392,0.116330169,-0.9928177,9.99E-01
0.05434784,-0.002856861,-0.998286843,9.97E-01
0.054574292,-0.1212942,-0.989657104,9.94E-01
0.05480074,-0.237394586,-0.967290461,9.92E-01
0.055027188,-0.349654585,-0.931712031,9.90E-01
0.05525364,-0.456682801,-0.883614004,9.89E-01
0.055480088,-0.557257235,-0.823845923,9.89E-01
0.055706536,-0.650425136,-0.753338099,9.91E-01
0.055932988,-0.735544384,-0.672842324,9.94E-01
0.056159436,-0.811901808,-0.582588136,9.99E-01
0.056385884,-0.877946436,-0.482673317,1.00E+00
0.056612336,-0.93154031,-0.374169081,1.01E+00
0.056838784,-0.971070528,-0.259129137,1.01E+00
0.057065232,-0.995702386,-0.139831886,1.01E+00
0.057291684,-1.00509,-0.018476859,1.01E+00
0.057518132,-0.999218404,0.102808669,1.01E+00
0.05774458,-0.978384435,0.221963689,1.01E+00
0.057971032,-0.943199635,0.337031722,1.00E+00
0.05819748,-0.894575894,0.446231425,9.99E-01
0.058423932,-0.833679736,0.548024893,9.95E-01
0.05865038,-0.76186502,0.641186118,9.92E-01
0.058876828,-0.680566251,0.724863648,9.89E-01
0.05910328,-0.591110647,0.798619807,9.87E-01
0.059329728,-0.494402975,0.86229533,9.88E-01
0.059556176,-0.390787244,0.915441871,9.91E-01
0.059782628,-0.280725896,0.956800103,9.94E-01
0.060009076,-0.165599555,0.984896839,9.97E-01
0.060235524,-0.047369074,0.998859704,1.00E+00
0.060461976,0.072011866,0.998370945,1.00E+00
0.060688424,0.190696612,0.983386517,1.00E+00
0.060914872,0.30686447,0.954050064,1.00E+00
0.061141324,0.418680578,0.910731196,1.00E+00
0.061367772,0.524330914,0.854081035,1.00E+00
0.06159422,0.622098505,0.785060108,1.00E+00
0.061820672,0.71046108,0.704930902,1.00E+00
0.06204712,0.788198709,0.615199089,1.00E+00
0.062273568,0.854491055,0.517489135,9.98E-01
0.06250002,0.908943355,0.413309038,9.97E-01
0.062726468,0.951357901,0.303763628,9.97E-01
0.062952916,0.981175184,0.189629704,9.99E-01
0.063179368,0.997329473,0.072106242,1.00E+00
0.063405816,0.999023318,-0.04682865,1.00E+00
0.063632264,0.98621136,-0.165005207,1.00E+00
0.063858716,0.95933485,-0.280524611,9.99E-01
0.064085164,0.919017613,-0.391757309,9.98E-01
0.064311612,0.865973771,-0.497231007,9.97E-01
0.064538064,0.801018178,-0.595564902,9.96E-01
0.064764512,0.725097239,-0.685459316,9.96E-01
0.06499096,0.639311731,-0.765720963,9.95E-01
0.065217412,0.544919312,-0.835313022,9.95E-01
0.06544386,0.443300039,-0.893418729,9.95E-01
0.065670308,0.335855991,-0.939499438,9.95E-01
0.06589676,0.223822698,-0.973255336,9.97E-01
0.066123208,0.10813003,-0.994329989,1.00E+00
0.066349656,-0.010271971,-1.00190055,1.00E+00
0.066576108,-0.12972182,-0.994913638,1.01E+00
0.066802556,-0.247870713,-0.972910106,1.01E+00
0.067029004,-0.362358868,-0.936251104,1.01E+00
0.067255456,-0.471166879,-0.885790229,1.01E+00
0.067481904,-0.572596669,-0.822615862,1.00E+00
0.067708352,-0.665205419,-0.747965991,1.00E+00
0.0679348,-0.747778118,-0.663203955,9.99E-01
0.068161248,-0.819333673,-0.569791555,9.96E-01
0.068387704,-0.87913686,-0.469255447,9.93E-01
0.068614152,-0.926711142,-0.363133967,9.91E-01
0.0688406,-0.961842,-0.252906024,9.89E-01
0.069067048,-0.984544992,-0.139872938,9.89E-01
0.069293496,-0.994907737,-0.025020471,9.90E-01
0.069519944,-0.992726922,0.090943299,9.94E-01
0.0697464,-0.977277219,0.207072631,9.98E-01
0.069972848,-0.94780302,0.321649283,1.00E+00
0.070199296,-0.904212952,0.432459831,1.00E+00
0.070425744,-0.847095966,0.537387192,1.01E+00
0.070652192,-0.777414501,0.634603679,1.01E+00
0.07087864,-0.696346283,0.722520113,1.01E+00
0.071105096,-0.605257809,0.799749017,1.01E+00
0.071331544,-0.505700946,0.865124643,1.00E+00
0.071557992,-0.399385095,0.917751551,1.00E+00
0.07178444,-0.288116038,0.957053542,9.99E-01
0.072010888,-0.173705131,0.982800663,9.96E-01
0.072237336,-0.057844799,0.995107412,9.94E-01
0.072463792,0.05804402,0.994348288,9.92E-01
0.07269024,0.172923848,0.98091805,9.92E-01
0.072916688,0.285971105,0.954870701,9.94E-01
0.073143136,0.396023512,0.915886283,9.96E-01
0.073369584,0.501306772,0.863865495,9.98E-01
0.073596032,0.599885345,0.79937005,9.99E-01
0.073822488,0.690108418,0.723434508,1.00E+00
0.074048936,0.770642042,0.637267947,1.00E+00
0.074275384,0.840356886,0.542154074,1.00E+00
0.074501832,0.898270309,0.439468324,1.00E+00
0.07472828,0.943551958,0.330704153,1.00E+00
0.074954728,0.975571275,0.217477068,9.99E-01
0.075181184,0.993947208,0.101489484,9.98E-01
0.075407632,0.998590708,-0.015541583,9.97E-01
0.07563408,0.989706099,-0.13199836,9.97E-01
0.075860528,0.967697322,-0.246500313,9.97E-01
0.076086976,0.932923436,-0.357945204,9.98E-01
0.076313424,0.8854509,-0.465236574,1.00E+00
0.07653988,0.825253785,-0.566817403,1.00E+00
0.076766328,0.752820194,-0.660701394,1.00E+00
0.076992776,0.669341624,-0.745034754,1.00E+00
0.077219224,0.576385438,-0.818429351,1.00E+00
0.077445672,0.475597501,-0.879913151,1.00E+00
0.077672128,0.368609548,-0.92879951,9.99E-01
0.077898576,0.257034957,-0.964614272,9.97E-01
0.078125024,0.142476976,-0.987073839,9.95E-01
0.078351472,0.026519978,-0.99608773,9.93E-01
0.07857792,-0.089295656,-0.991763592,9.92E-01
0.078804368,-0.203524351,-0.97440356,9.91E-01
0.079030824,-0.314889073,-0.944465578,9.91E-01
0.079257272,-0.422343671,-0.902430296,9.93E-01
0.07948372,-0.524986029,-0.848579764,9.96E-01
0.079710168,-0.621689379,-0.782910943,9.99E-01
0.079936616,-0.710764349,-0.705539286,1.00E+00
0.080163064,-0.790218949,-0.61724931,1.01E+00
0.08038952,-0.858325779,-0.519498885,1.01E+00
0.080615968,-0.913843155,-0.41406703,1.01E+00
0.080842416,-0.95594424,-0.302816749,1.01E+00
0.081068864,-0.984123409,-0.187624559,1.00E+00
0.081295312,-0.998160303,-0.070356026,1.00E+00
0.08152176,-0.99811089,0.047162406,9.98E-01
0.081748216,-0.984300971,0.163194314,9.95E-01
0.081974664,-0.957303107,0.276153862,9.93E-01
0.082201112,-0.917885125,0.384676874,9.90E-01
0.08242756,-0.866905034,0.487686366,9.89E-01
0.082654008,-0.80512321,0.584391475,9.90E-01
0.082880456,-0.732995689,0.674090743,9.92E-01
0.083106912,-0.650732994,0.755763471,9.95E-01
0.08333336,-0.558791399,0.827889502,9.98E-01
0.083559808,-0.458267868,0.888843,1.00E+00
0.083786256,-0.350750744,0.937344253,1.00E+00
0.084012704,-0.237999484,0.972539008,1.00E+00
0.084239152,-0.121800534,0.993890941,1.00E+00
0.084465608,-0.00395141,1.00111198,1.00E+00
0.084692056,0.113737293,0.994154394,1.00E+00
0.084918504,0.229468241,0.973233879,1.00E+00
0.085144952,0.341513604,0.938843846,9.98E-01
0.0853714,0.448295832,0.891744137,9.96E-01
0.085597848,0.548473239,0.832901359,9.95E-01
0.085824304,0.641009748,0.763367832,9.94E-01
0.086050752,0.725136518,0.684076309,9.94E-01
0.0862772,0.800103545,0.595696747,9.95E-01
0.086503648,0.864833474,0.498821259,9.97E-01
0.086730096,0.917949319,0.394443214,9.98E-01
0.086956544,0.958239257,0.284130394,9.99E-01
0.087183,0.984969378,0.169736877,9.99E-01
0.087409448,0.997832894,0.053105094,9.98E-01
0.087635896,0.996794641,-0.064023048,9.98E-01
0.087862344,0.982008219,-0.179988503,9.97E-01
0.088088792,0.953797281,-0.293191195,9.96E-01
0.08831524,0.9126665,-0.402091503,9.95E-01
0.088541696,0.859311819,-0.505241513,9.94E-01
0.088768144,0.794607937,-0.601337075,9.93E-01
0.088994592,0.719557047,-0.689279079,9.93E-01
0.08922104,0.635172784,-0.768200696,9.94E-01
0.089447488,0.542323411,-0.837374449,9.95E-01
0.089673936,0.441708207,-0.895942569,9.98E-01
0.089900392,0.334171236,-0.94269973,1.00E+00
0.09012684,0.22111626,-0.976324022,1.00E+00
0.090353288,0.10448508,-0.995871842,1.00E+00
0.090579736,-0.013611763,-1.00097585,1.00E+00
0.090806184,-0.131165534,-0.991729081,1.00E+00
0.091032632,-0.24634169,-0.968527317,9.99E-01
0.091259088,-0.357472688,-0.931980014,9.96E-01
0.091485536,-0.463051409,-0.882873237,9.94E-01
0.091711984,-0.561739385,-0.822146237,9.91E-01
0.091938432,-0.652389348,-0.750862896,9.89E-01
0.09216488,-0.734070301,-0.670162797,9.88E-01
0.092391328,-0.806082606,-0.581182003,9.88E-01
0.092617784,-0.867914438,-0.484931767,9.88E-01
0.092844232,-0.919068158,-0.38219887,9.91E-01
0.09307068,-0.958776534,-0.273651451,9.94E-01
0.093297128,-0.985918403,-0.160241961,9.98E-01
0.093523576,-0.999380469,-0.043523349,1.00E+00
0.093750024,-0.998499513,0.074502908,1.00E+00
0.09397648,-0.983157396,0.191745266,1.00E+00
0.094202928,-0.953645527,0.306222856,1.00E+00
0.094429376,-0.910547733,0.416103989,1.00E+00
0.094655824,-0.854686975,0.519710839,1.00E+00
0.094882272,-0.787103772,0.615538955,9.98E-01
0.09510872,-0.709029138,0.702295542,9.96E-01
0.095335176,-0.621834397,0.778944731,9.93E-01
0.095561624,-0.52695024,0.844741583,9.91E-01
0.095788072,-0.425750822,0.899230778,9.90E-01
0.09601452,-0.31941402,0.94215548,9.90E-01
0.096240968,-0.208865747,0.973232567,9.91E-01
0.096467416,-0.094973251,0.991899967,9.93E-01
0.096693872,0.021057788,0.99736315,9.95E-01
0.09692032,0.13752149,0.989000082,9.97E-01
0.097146768,0.25247094,0.966677189,9.98E-01
0.097373216,0.364024669,0.93070966,9.99E-01
0.097599664,0.470473021,0.881702423,9.99E-01
0.097826112,0.570263267,0.820450425,9.98E-01
0.098052568,0.661976814,0.747915506,9.98E-01
0.098279016,0.744338512,0.665226877,9.97E-01
0.098505464,0.816251636,0.573674023,9.95E-01
0.098731912,0.8768453,0.474670291,9.94E-01
0.09895836,0.925511539,0.369680256,9.93E-01
0.099184808,0.961895347,0.260108173,9.93E-01
