Frequency (GHz),Re( S21 ),Im( S21 ),S2
0.0,0.0381889455,0.0,0.0014583955584019704
0.000226380172,0.0341179557,-0.01654144,0.0014376541384207625
0.000452760344,0.023217123,-0.0290363934,0.0013821469420766926
0.0006791405,0.00862436742,-0.0351229198,0.0013079992086723895
0.000905520688,-0.00628666207,-0.0345408283,0.0012325909396324575
0.00113190088,-0.0189885329,-0.0284345914,0.0011690903697793363
0.001358281,-0.0280092712,-0.0184643492,0.0011254514645346902
0.00158466125,-0.0326595977,-0.00627363194,0.0011060077796444336
0.00181104138,-0.0326905102,0.00667114137,0.0011131735843148297
0.0020374215,-0.0280521587,0.0189851131,0.0011473581271497773
0.00226380175,-0.0189070646,0.0291495565,0.0012071737359352654
0.002490182,-0.00588232372,0.0354166813,0.0012889430466526445
0.002716562,0.00954347756,0.0359609984,0.001384271369863026
0.00294294225,0.0246936306,0.0294616185,0.0014777623568487986
0.0031693225,0.0358826667,0.0161231775,0.0015475226221997953
0.0033957025,0.039605435,-0.00111909828,0.001569842862499524
0.00362208275,0.0347952954,-0.0184561741,0.0015513429443827721
0.003848463,0.0228567217,-0.0310276058,0.0014851420485514446
0.004074843,0.00743636349,-0.0366352983,0.001397444583485388
0.0043012235,-0.00787445996,-0.0353220552,0.0013096547032134902
0.0045276035,-0.0205813982,-0.0285221543,0.0012371072377799718
0.0047539835,-0.0293711666,-0.0180516709,0.0011885282497268626
0.004980364,-0.0337283462,-0.00558295567,0.0011687707314002396
0.005206744,-0.0335581861,0.00749589223,0.0011823402546460074
0.005433124,-0.0288408268,0.0199815966,0.0012310574931927297
0.0056595045,-0.0196288675,0.0304944273,0.0013152025356875418
0.0058858845,-0.00632401789,0.0373478793,0.0014348572904804083
0.0061122645,0.00992590468,0.0385626368,0.0015856005406851602
0.006338645,0.0266804416,0.0322659835,0.0017529396551932827
0.006565025,0.0387013815,0.0180466678,0.001823479148692099
0.006791405,0.0442918055,-0.00153655082,0.0019641250228722732
0.0070177855,0.0389712378,-0.0216384437,0.0019869796214222186
0.0072441655,0.0247041546,-0.0361892469,0.0019199568456898608
0.0074705455,0.00630303007,-0.0419427454,0.0017989220797525456
0.007696926,-0.0113454508,-0.0391747504,0.001663380322757521
0.007923306,-0.0251431745,-0.0301737543,0.001542634672494219
0.008149686,-0.0338305645,-0.0175488442,0.0014524690271445339
0.0083760665,-0.0372489467,-0.00344147999,0.0013993278147810114
0.008602447,-0.0356865972,0.0105333244,0.0013844841426306834
0.008828827,-0.0297434069,0.0231335014,0.0014198291410427695
0.009055207,-0.0196320117,0.0334664732,0.0015054207118352552
0.009281587,-0.00581648108,0.0401081257,0.0016424931993209984
0.009507967,0.0106924837,0.0415107645,0.0018374727770492257
0.009734347,0.0277546402,0.0355074592,0.002031099711471121
0.009960728,0.0428852402,0.0214271378,0.0022982660613118846
0.010187108,0.0507550538,0.000253021397,0.002576139506068234
0.010413488,0.0471126251,-0.0237320866,0.0027828113782030492
0.010639868,0.031375818,-0.0433480777,0.0028634977954543612
0.010866248,0.00814975798,-0.0523792319,0.0028100024895665516
0.011092628,-0.0153982537,-0.0492612012,0.002663772160676445
0.011319009,-0.0336529464,-0.0367775224,0.0024851069552837748
0.011545389,-0.0441834778,-0.0192290768,0.0023219371050833913
0.011771769,-0.0469155908,-0.000326382782,0.0022011791858334304
0.011998149,-0.0428180173,0.0173552409,0.002134586992200132
0.012224529,-0.0331036858,0.0320993029,0.00212621926021107
0.012450909,-0.0190583803,0.0425680503,0.0021752607660027582
0.01267729,-0.00186769839,0.0480164625,0.0023090689682899153
0.01290367,0.0171734001,0.0470642038,0.002509964950322615
0.01313005,0.0359262899,0.0386172794,0.0027819925742365065
0.01335643,0.0513567552,0.0221828762,0.0031295963011772534
0.01358281,0.0592659228,-0.00101841462,0.00351348677367379
0.01380919,0.0561578199,-0.027853813,0.003929535634559805
0.014035571,0.0398769751,-0.0519535281,0.00428934222516351
0.014261951,0.0128704077,-0.0660661012,0.004530377122132861
0.014488331,-0.0180509612,-0.0655743927,0.0046258381782177185
0.014714711,-0.0448024683,-0.0509207547,0.004600184424990077
0.014941091,-0.0616473854,-0.0266760085,0.004512009556148205
0.015167471,-0.0664998367,0.00129315769,0.004423900537937873
0.015393852,-0.0600320101,0.0279435776,0.004384685765733723
0.015620232,-0.0442725122,0.0496703871,0.004427202691162995
0.015846612,-0.0217217822,0.064044401,0.004573521121393038
0.016072992,0.00491652405,0.0694098547,0.0048419001382093395
0.016299372,0.0327313356,0.064664647,0.005252856901794438
0.016525753,0.0582853965,0.0491427779,0.005812200064890941
0.016752133,0.0773138031,0.0232771486,0.0065192497967320505
0.016978512,0.0851162449,-0.0105774775,0.007356658176139783
0.017204894,0.0776177868,-0.0474561341,0.008276605491447438
0.017431274,0.0532150045,-0.0798320025,0.009204985327095027
0.017657654,0.0146367382,-0.0992217809,0.010059195910102944
0.017884034,-0.0306658205,-0.0992063433,0.010782291097895675
0.018110414,-0.0725435689,-0.0781995952,0.011377746078192908
0.018336794,-0.101587407,-0.0400294736,0.011922360017676747
0.018563174,-0.111774124,0.00784095097,0.01255493530808132
0.018789554,-0.101120465,0.0568495579,0.01345722067524168
0.019015934,-0.0708951354,0.0990974754,0.014846429854037939
0.019242314,-0.0245462954,0.127991199,0.016984267639321662
0.019468694,0.0329502523,0.138251379,0.020199162922035302
0.019695074,0.0952570736,0.125857875,0.024914114770351443
0.019921456,0.15445666,0.0882289857,0.0316412137360064
0.020147836,0.200797394,0.0252108965,0.04095518273952495
0.020374216,0.223428369,-0.059400931,0.053448706677666914
0.020600596,0.212309629,-0.156664163,0.06961903853460821
0.020826976,0.161174819,-0.252497494,0.08973230675596279
0.021053356,0.0705396086,-0.329798579,0.11374293909186042
0.021279736,-0.0509931929,-0.372481883,0.1413430588853623
0.021506116,-0.188296318,-0.369722247,0.17215004329908612
0.021732496,-0.323498875,-0.31825912,0.20594038958944005
0.021958876,-0.439914286,-0.221955106,0.24278864810636103
0.022185256,-0.524484396,-0.0901040584,0.2832026229876354
0.022411636,-0.569810927,0.0669805259,0.32917088337843997
0.022638018,-0.569399238,0.238317207,0.38101058338726157
0.022864398,-0.519816399,0.41173625,0.43973582823338975
0.023090778,-0.419834167,0.574385464,0.5061793890350792
0.023317158,-0.27086094,0.712227941,0.5806342887587831
0.023543538,-0.0781425536,0.810115933,0.6623940835835893
0.023769918,0.147686705,0.852968335,0.7493663433464294
0.023996298,0.389565259,0.828339636,0.8379076435883497
0.024222678,0.624636889,0.73002255,0.9231041666081008
0.024449058,0.827360034,0.561338663,0.9996257204391088
0.024675438,0.974660993,0.336212009,1.063002566271562
0.024901818,1.0511595,0.0768409893,1.1108408320768528
0.0251282,1.05205142,-0.191310227,1.1434117932788077
0.02535458,0.982481658,-0.444864511,1.163174641453698
0.02558096,0.854253173,-0.666031599,1.1733465744470648
0.02580734,0.681904554,-0.843331337,1.1762015647321464
0.02603372,0.479164392,-0.970720768,1.1718973239872394
0.0262601,0.258349687,-1.04725957,1.163497167729583
0.02648648,0.031402301,-1.07397151,1.1544009087997746
0.02671286,-0.191256806,-1.05257761,1.1444987909146336
0.02693924,-0.400204539,-0.986079276,1.1325160115928867
0.02716562,-0.586564243,-0.879114747,1.116900349559037
0.027392,-0.742323995,-0.738395035,1.0962721412654113
0.02761838,-0.861263156,-0.572836995,1.0699164467237103
0.027844762,-0.940104604,-0.392970532,1.0382225054823597
0.028071142,-0.979258597,-0.209531203,1.0028507248290355
0.028297522,-0.982616544,-0.0316012092,0.9665339089654061
0.028523902,-0.957123876,0.135342404,0.9344036803297626
0.028750282,-0.91048038,0.286303133,0.91094400633056
0.028976662,-0.84750849,0.421836495,0.896216669135965
0.029203042,-0.773373306,0.54228574,0.8921800942407172
0.029429422,-0.684881389,0.647337317,0.8881081189793277
0.029655802,-0.582173765,0.745011449,0.8939683517953547
0.029882182,-0.467027307,0.833175361,0.9122956876611527
0.030108562,-0.337364137,0.908658743,0.9394752721640949
0.030334942,-0.192141503,0.967166007,0.9723284422714231
0.030561324,-0.0324053094,1.00314355,1.0073470859839124
0.030787704,0.138033152,1.01076317,1.040695336879504
0.031014084,0.312496811,0.985374451,1.068617065568721
0.031240464,0.482183874,0.924949586,1.0880330249872192
0.031466844,0.637649834,0.830928266,1.0970390940379944
0.031693224,0.770426869,0.708068192,1.094918124999292
0.031919604,0.874037087,0.563946187,1.0819761312832847
0.032145984,0.959259629,0.405578673,1.0846730958216586
0.032372364,1.00800681,0.243788436,1.0755105305337018
0.032598744,1.03515911,0.0896067992,1.079583761478861
0.032825124,1.01491427,-0.0597681776,1.0336232105032581
0.033051506,0.982279599,-0.21158801,1.0096426965873608
0.033277886,0.932151437,-0.35296309,0.993489244403513
0.033504266,0.865068674,-0.483378023,0.9819981238555068
0.033730644,0.782276154,-0.601889133,0.9742265095405234
0.033957024,0.685000837,-0.707189023,0.9693424609423951
0.034183404,0.574650109,-0.797646999,0.9664634827874179
0.034409788,0.453057289,-0.871490598,0.964756769518427
0.034636168,0.322590977,-0.927096963,0.9635737172456379
0.034862548,0.18607372,-0.963267803,0.9625082895710853
0.035088928,0.0466245636,-0.979373574,0.961346447380424
0.035315308,-0.0924983472,-0.975511372,0.9601783811360541
0.035541688,-0.243747815,-0.962107897,0.9850646027870368
0.035768068,-0.382572263,-0.925557613,1.003018431399199
0.035994448,-0.442656755,-0.905905306,1.0166094261860836
0.036220828,-0.610493362,-0.801925361,1.0157864296610435
0.036447208,-0.724419892,-0.707150519,1.0248460364472611
0.036673588,-0.824609518,-0.597410321,1.0368799488135154
0.036899968,-0.908674002,-0.472394079,1.0488446077849545
0.037126348,-0.973205507,-0.333824933,1.0585680447475814
0.037352728,-1.01483643,-0.184983879,1.0641120151450312
0.037579108,-1.03101778,-0.0305803437,1.0639328200969385
0.037805488,-1.0207237,0.123675086,1.0571723986387973
0.038031868,-0.984874368,0.271837085,1.0438729215246965
0.038258248,-0.926295459,0.40862444,1.024997210329334
0.038484628,-0.849232912,0.530151784,1.0022574529023824
0.038711008,-0.758601367,0.634316683,0.9778336883463912
0.038937388,-0.659139872,0.720551193,0.9536593925938996
0.039163768,-0.556101918,0.788034976,0.9302484666025993
0.039390148,-0.467095912,0.853754044,0.9470745586534657
0.039616532,-0.344054371,0.913636744,0.9531055101911271
0.039842912,-0.221694171,0.951259732,0.9540433831800892
0.040069292,-0.0966531709,0.975737631,0.9614057599945168
0.040295672,0.0323575065,0.986317754,0.973869720082502
0.040522052,0.164973572,0.980956733,0.9894923914764724
0.040748432,0.299380779,0.957286119,1.0060255644647291
0.040974812,0.432357788,0.913357198,1.0211546279826642
0.041201192,0.559591353,0.848329782,1.032805901380538
0.041427572,0.676292896,0.762942374,1.0394531472248225
0.041653952,0.777965426,0.659614503,1.0403214966192984
0.041880332,0.861105561,0.542175472,1.0354570296235477
0.042106712,0.92363143,0.415327102,1.0255916201395634
0.042333092,0.964880884,0.28429687,1.0118198306004185
0.042559472,0.986619711,0.15652439,0.9979183387985956
0.042785852,1.0064652,0.0290962644,1.0138187914130747
0.043012232,1.00010347,-0.11208155,1.0127692245564435
0.043238612,0.971983969,-0.244696364,1.0046291465478134
0.043464992,0.928042531,-0.369845331,0.9980485082073856
0.043691372,0.869472802,-0.487272054,0.9934170080271101
0.043917752,0.797013819,-0.595881283,0.9903055311066908
0.044144132,0.71150136,-0.694166839,0.9881017856491014
0.044370512,0.614108562,-0.780426145,0.9861942937212688
0.044596892,0.506466389,-0.852994561,0.9841079242822821
0.044823272,0.390651345,-0.910486341,0.9815938504978774
0.045049656,0.269056708,-0.951978981,0.9786554923855956
0.045276036,0.144218951,-0.97710228,0.9755279714087388
0.045502416,0.0187069345,-0.986028314,0.97260178540807
0.045728796,-0.104626194,-0.979654849,0.9706702636401384
0.045955176,-0.222743183,-0.962540269,0.9760982950195639
0.046181556,-0.347770482,-0.93901962,1.0027021548954569
0.046407936,-0.47435835,-0.889413595,1.0160723871855464
0.046634316,-0.591030121,-0.821317792,1.0238795193850299
0.046860696,-0.697633445,-0.73764044,1.0308058423059616
0.047087076,-0.792365134,-0.639196575,1.0364147670705686
0.047313456,-0.872628629,-0.527348638,1.0395773101508747
0.047539836,-0.935777247,-0.404414833,1.0392304131533168
0.047766216,-0.979692936,-0.273668051,1.0346924509864386
0.047992596,-1.00324845,-0.139055789,1.0258439648818152
0.048218976,-1.00656855,-0.00472195726,1.0132025427294677
0.048445356,-0.991007805,0.125536323,0.9978558379632784
0.048671736,-0.958882153,0.248696357,0.9813048613269869
0.048898116,-0.913119793,0.362672716,0.9653192552991796
0.049124496,-0.857424438,0.466272324,0.9525865470079768
0.049350876,-0.797671258,0.56190747,0.9520194406811036
0.049577256,-0.728737831,0.659660578,0.9662109044978786
0.049803636,-0.642492712,0.74874872,0.9734215306747535
0.050030016,-0.545999229,0.825841486,0.9801293180672825
0.0502564,-0.440448523,0.891809642,0.9893193389770496
0.05048278,-0.325876474,0.945605636,1.0003654951416372
0.05070916,-0.202941552,0.985177875,1.0117607189176843
0.05093554,-0.0733280033,1.00818157,1.02180707415563
0.05116192,0.0602004603,1.0125879,1.028958350646742
0.0513883,0.194020927,0.997217178,1.032086220212223
0.05161468,0.324097753,0.962089717,1.0306559770567891
0.05184106,0.446530551,0.908520341,1.02479874298712
0.05206744,0.558045149,0.838972807,1.0152897592078916
0.05229382,0.656339645,0.756859541,1.0036180944014566
0.0525202,0.740754545,0.666701734,0.9932084980567639
0.05274658,0.815774918,0.572368264,0.9930941464722804
0.05297296,0.884004653,0.466181457,0.9987893773762933
0.05319934,0.935201108,0.349450946,0.9967170760647225
0.05342572,0.969818652,0.228971973,0.9929763821866097
0.0536521,0.989547908,0.106485844,0.9905442971995688
0.05387848,0.994716167,-0.0170675125,0.9897515528741095
0.05410486,0.985100985,-0.14050293,0.990165023986555
0.05433124,0.960396469,-0.262230635,0.9911262836001711
0.05455762,0.920521736,-0.380284995,0.9919769438706036
0.054784,0.865840495,-0.49247247,0.992208896489746
0.05501038,0.797268271,-0.596586525,0.991552177754905
0.05523676,0.716272891,-0.690633714,0.9900217812949317
0.055463144,0.6248191,-0.773026407,0.9879687336441396
0.055689524,0.525390685,-0.842828751,0.9863956753969891
0.055915904,0.420943826,-0.900783539,0.9886046887808827
0.056142284,0.311011285,-0.950951278,1.0010363525271846
0.056368664,0.189049259,-0.989481866,1.014813985471291
0.056595044,0.0604171529,-1.00869584,1.0211175299978474
0.056821424,-0.0693900883,-1.00958729,1.0240814804838259
0.057047804,-0.198088288,-0.99308908,1.0254648906580173
0.057274184,-0.323497832,-0.959469318,1.0252322194920853
0.057500564,-0.443105102,-0.909172058,1.0229359624663856
0.057726944,-0.554256678,-0.843215227,1.0182123841522572
0.057953324,-0.654480159,-0.763319075,1.0110002887835208
0.058179704,-0.741806984,-0.671824992,1.0016264213869763
0.058406084,-0.8150056,-0.571462274,0.9908032586366111
0.058632464,-0.873669088,-0.465046406,0.9795658350602686
0.058858844,-0.91818285,-0.355230987,0.9692488001591166
0.059085224,-0.949810088,-0.244380906,0.9618612304839486
0.059311604,-0.97143662,-0.133841172,0.9616025659993579
0.059537984,-0.985951304,-0.0200034417,0.9725001115391456
0.059764364,-0.987324893,0.100609317,0.9849326790046681
0.059990744,-0.971886873,0.222318918,0.9939897952104088
0.060217124,-0.941019654,0.342026532,1.0025001378062268
0.060443504,-0.895047665,0.458341271,1.0111870433238477
0.060669884,-0.833733678,0.569375753,1.0193005939357245
0.060896268,-0.757166147,0.672586083,1.0256726132081084
0.061122648,-0.666218579,0.765078187,1.029191827227986
0.061349028,-0.56272608,0.844050229,1.029081430187119
0.061575408,-0.449411541,0.907246292,1.0250665675317439
0.061801788,-0.329601854,0.953312218,1.0174415671483168
0.062028168,-0.206835225,0.981984675,1.0070747122356563
0.062254548,-0.084466584,0.994141579,0.9954520829092424
0.062480928,0.0347836688,0.991949975,0.9851746565176889
0.062707308,0.150345638,0.978983402,0.9810123122571206
0.062933688,0.265945435,0.956071913,0.9848004772248189
0.063160068,0.380850911,0.917970479,0.9877172167250192
0.063386448,0.489674181,0.864985168,0.9879801443980091
0.063612828,0.590801954,0.799690664,0.988552106938979
0.063839208,0.683733761,0.723197937,0.9905071120122613
0.064065588,0.767558575,0.635999084,0.9936410009048697
0.064291968,0.840888679,0.538666844,0.9972557392952853
0.064518348,0.902072549,0.432200551,1.000532199944061
0.064744728,0.949481964,0.31816715,1.0027463353004196
0.064971108,0.981806576,0.198680505,1.0034180957438987
0.065197488,0.998293817,0.0762498751,1.0024045885131951
0.065423868,0.998913705,-0.0464478694,0.9999859946086265
0.065650248,0.9844926,-0.166850567,0.9970647911629816
0.065876628,0.956923902,-0.283087641,0.9958419667058505
0.066103012,0.918509722,-0.395671189,1.000215799213191
0.066329392,0.867303193,-0.506880224,1.0091423900702854
0.066555772,0.799398541,-0.612641335,1.0143674327035108
0.066782152,0.717075825,-0.70783323,1.0152256202916634
0.067008532,0.623397887,-0.790884614,1.0141233981779938
0.067234912,0.520346344,-0.860979855,1.0120466284299874
0.067461288,0.409658104,-0.917221427,1.009114908320791
0.067687672,0.293239713,-0.958756387,1.0052033388936161
0.067914048,0.173236996,-0.984999418,1.000234910243443
0.068140432,0.0519392341,-0.995798171,0.9943116814058398
0.068366808,-0.0683933124,-0.99150902,0.9877677819224043
0.068593192,-0.185710818,-0.972977221,0.9811731805071119
0.068819576,-0.298322886,-0.941473067,0.9753680801977556
0.069045952,-0.405069828,-0.898664236,0.9716789746214134
0.069272336,-0.505868495,-0.846551776,0.9725528436823192
0.069498712,-0.602751195,-0.785953283,0.981031566132406
0.069725096,-0.696664333,-0.713222027,0.9940268526723236
0.069951472,-0.78266567,-0.626059294,1.0045157906003275
0.070177856,-0.856976271,-0.526999474,1.012136774653342
0.070404232,-0.918242037,-0.418353617,1.018188187370892
0.070630616,-0.965244949,-0.301816821,1.0227912050085588
0.070856992,-0.996627808,-0.179308176,1.0254184096593317
0.071083376,-1.01124167,-0.0532641299,1.025446782678393
0.071309752,-1.00850224,0.0734297186,1.0224686916586931
0.071536136,-0.988621652,0.197699487,1.0164578579632721
0.071762512,-0.952669859,0.316629678,1.0078342132374636
0.071988896,-0.902473629,0.42779392,0.997466289029396
0.072215272,-0.840416908,0.52952224,0.9866943819068981
0.072441656,-0.76920718,0.621174276,0.9775371669276764
0.072668032,-0.691328883,0.703695774,0.9731233668154868
0.072894416,-0.606877983,0.779576898,0.9760410261454506
0.073120792,-0.512674451,0.848314285,0.9824722188432125
0.073347176,-0.408870578,0.905704737,0.9874762201782933
0.073573552,-0.298333228,0.95008105,0.9916567164980025
0.073799936,-0.182833478,0.981238127,0.9962563425560447
0.07402632,-0.0635479763,0.998655081,1.0013503160989419
0.074252696,0.0581232682,1.00147331,1.0063271049486051
0.07447908,0.180280328,0.988866031,1.0103570239294806
0.074705456,0.300549746,0.960390925,1.0126808786430201
0.07493184,0.416287512,0.916241527,1.012793828446442
0.075158216,0.524874806,0.857364893,1.010568121722439
0.0753846,0.6240381,0.785436571,1.006334157315848
0.075610976,0.712159038,0.702726126,1.0009945035680534
0.07583736,0.788668215,0.611829698,0.9963331327060574
0.076063736,0.854537427,0.514775872,0.9952284125371407
0.07629012,0.911135316,0.410925955,0.9990277045550818
0.076516496,0.956032932,0.298574686,1.0031458101885151
0.07674288,0.985682189,0.180254593,1.0040610960094274
0.076969256,0.999717176,0.0595735982,1.00298344559191
0.07719564,0.998811901,-0.0612730607,1.0013796015467795
0.077422016,0.983419776,-0.180710092,0.9997705931785386
0.0776484,0.953845918,-0.297183663,0.9981401648393602
0.077874776,0.910489917,-0.409018904,0.9962883527880282
0.07810116,0.854021668,-0.514475346,0.9940378910553219
0.078327536,0.785459995,-0.611876726,0.9913405315658791
0.07855392,0.706174314,-0.699763,0.9883504179223705
0.078780296,0.617822647,-0.777036071,0.9854898787812036
0.07900668,0.522245944,-0.843128622,0.9836066992600702
0.079233064,0.421184212,-0.898280621,0.9843042145022065
