Frequency (GHz),Re( S21 ),Im( S21 ),S2
0.0,0.0377559029,0.0,0.0014255082037942283
0.000226443547,0.0337297395,-0.0163534712,0.0014051313470270898
0.000452887094,0.0229516849,-0.0287024733,0.001350611813286101
0.000679330625,0.00852866471,-0.0347139575,0.0012777969670474058
0.000905774188,-0.00620305398,-0.0341367833,0.0012037978527499528
0.00113221775,-0.0187492128,-0.0281064566,0.0011415058832273675
0.00135866125,-0.0276609138,-0.0182642899,0.0010987104378022724
0.00158510488,-0.03226161,-0.00623140857,0.0010796419325583696
0.00181154838,-0.0323072374,0.00654858537,0.0010866415587681367
0.00203799188,-0.0277476329,0.0187138822,0.0011201405185486393
0.0022644355,-0.0187378582,0.0287694149,0.0011787865636116493
0.002490879,-0.00588838942,0.034990523,0.0012590098297750971
0.0027173225,0.0093508726,0.0355693996,0.001352621006285911
0.002943766,0.02434282,0.0291889459,0.0014445674483055267
0.00317020975,0.035444025,0.0160333607,0.0015133475635369293
0.00339665325,0.0391726196,-0.00101217767,0.001535518629961951
0.00362309675,0.0344589651,-0.0181669146,0.0015174570618467112
0.00384954025,0.0226829182,-0.0306292605,0.0014526663768447516
0.00407598375,0.00744795194,-0.0362109095,0.00136670195491774
0.0043024275,-0.00769209536,-0.0349494405,0.0012806317222903735
0.004528871,-0.0202692132,-0.0282607023,0.0012095082982362796
0.0047553145,-0.0289847162,-0.0179378968,0.0011618819148019926
0.004981758,-0.0333285481,-0.00563106267,0.0011425009852474813
0.0052082015,-0.0332058556,0.00729140313,0.0011557934057322252
0.005434645,-0.0285937153,0.0196461696,0.0012035725346094181
0.0056610885,-0.019536376,0.0300742295,0.0012861292672320464
0.005887532,-0.0064187902,0.0369107537,0.0014036046063336796
0.006113976,0.00964071043,0.0381945148,0.00155176425840253
0.0063404195,0.0262475796,0.0320567898,0.0017165732071397202
0.006566863,0.0382201634,0.0180581827,0.0017868788527492787
0.0067933065,0.0438567214,-0.00130571797,0.0019251169113743988
0.00701975,0.0386920981,-0.0212354567,0.0019480230766375987
0.0072461935,0.0246373247,-0.0357160605,0.0018826347460128906
0.007472637,0.00644357456,-0.0415027812,0.0017640005004453526
0.0076990805,-0.0110440329,-0.0388462655,0.0016310030059927725
0.007925524,-0.0247466397,-0.0300015789,0.0015124909129345413
0.0081519675,-0.0334077626,-0.0175479166,0.0014240079789385144
0.008378411,-0.0368632004,-0.00360304513,0.0013718774779393765
0.008604855,-0.0353919119,0.0102359289,0.0013573616683832171
0.008831298,-0.0295813754,0.0227370802,0.0013920325865769572
0.009057742,-0.0196374487,0.0330230072,0.0014761483959763837
0.009284185,-0.00600729557,0.0396832228,0.0016108457718597815
0.009510629,0.0103192283,0.041178409,0.0018021478404788018
0.009737072,0.0272761323,0.0353498831,0.0019936016284307686
0.009963516,0.0423546471,0.0215200856,0.0022570302151968652
0.01018996,0.0503077731,0.000600228785,0.002531232308875426
0.010416403,0.0468767881,-0.0232013781,0.002735737208311461
0.010642847,0.0314186923,-0.0427700728,0.0028164133531593796
0.01086929,0.0084479684,-0.0518982634,0.002764797914023178
0.011095734,-0.0149340676,-0.0489744358,0.0026215217370096915
0.011322177,-0.0331320986,-0.0367190354,0.002446023518346575
0.011548621,-0.0437014103,-0.0193844847,0.0022855715092934803
0.011775064,-0.0465449207,-0.000652723131,0.002166855690455031
0.012001508,-0.0426065102,0.0169157144,0.0021014561050850715
0.012227952,-0.0330776423,0.0316115692,0.0020934217274131382
0.012454395,-0.0192213468,0.042099297,0.0021418109807000794
0.012680839,-0.00221048761,0.0476345643,0.0022739379715247983
0.012907282,0.0166870803,0.0468373857,0.0024721993481492126
0.013133726,0.0353611968,0.038606219,0.002740854384604291
0.013360169,0.0508085564,0.0224251244,0.0030843956078074565
0.013586613,0.058845222,-0.000528196455,0.003463039143724359
0.013813056,0.0559942238,-0.0271915607,0.0038747340722662706
0.0140395,0.0400438495,-0.0512640178,0.004231509403777367
0.014265943,0.0133489473,-0.0655230507,0.004471464567052948
0.014492387,-0.0173743423,-0.0653136969,0.0045677467731026385
0.014718831,-0.0440894626,-0.0509931594,0.004544183017950607
0.014945274,-0.0610488057,-0.0270471405,0.004458504486623093
0.015171718,-0.0661211982,0.000712709269,0.004372520805905801
0.015398161,-0.0599267446,0.0272651911,0.004334605364073148
0.015624605,-0.0444491729,0.049006436,0.00437735974091619
0.015851048,-0.0221523717,0.0634976253,0.004522675990674161
0.016077492,0.00429044012,0.0690676123,0.004788742945246416
0.016303935,0.0319938138,0.0645933226,0.005195901445976741
0.016530379,0.0575459637,0.0493826307,0.0057501821530143
0.016756822,0.0767034888,0.023827076,0.006451154744801501
0.016983266,0.0847713277,-0.00977585465,0.007281745334158714
0.01720971,0.0776519626,-0.0465295464,0.008194825983821551
0.017436154,0.0536784939,-0.0789673924,0.009117229769827914
0.017662596,0.0154791446,-0.0986281559,0.009967117053782414
0.01788904,-0.0296029001,-0.0990526825,0.010687765604776387
0.018115484,-0.071490176,-0.0785561725,0.011281917502360732
0.018341928,-0.100779817,-0.0408461988,0.01182498347096261
0.01856837,-0.111394711,0.00671353564,0.01245385319956307
0.018794814,-0.101267099,0.0556175672,0.013348339121122316
0.019021258,-0.0715768859,0.0979814753,0.014723620097106128
0.019247702,-0.0256929826,0.12719664,0.016839114582173503
0.019474144,0.0314747132,0.137948588,0.020020470502216
0.019700588,0.0936422572,0.126167595,0.024687134361594976
0.019927032,0.152934507,0.0892100707,0.031347400145632046
0.020153476,0.199629888,0.0268412791,0.04057254644661664
0.02037992,0.222880051,-0.0572453924,0.052952552084792576
0.020606362,0.212604538,-0.154220611,0.06898468643540677
0.020832806,0.162440822,-0.250103682,0.0889388724019928
0.02105925,0.0727564171,-0.327848107,0.11277787749271262
0.021285694,-0.0480172783,-0.371347994,0.14020499166316372
0.021512136,-0.184901178,-0.369674951,0.17084801502264008
0.02173858,-0.32010749,-0.319409609,0.20449130347563296
0.021965024,-0.436953366,-0.22424306,0.24121319401689356
0.022191468,-0.52231133,-0.093313165,0.2815164722086861
0.022417912,-0.568674803,0.0631348267,0.32737703790952777
0.022644354,-0.569451094,0.23418428,0.3791168254569153
0.022870798,-0.521096289,0.407682687,0.4377465156891115
0.023097242,-0.422280073,0.570768178,0.504096773070325
0.023323686,-0.274317354,0.70937413,0.5784616670188183
0.023550128,-0.0823671892,0.808304965,0.66014127030036
0.023776572,0.143015757,0.852410018,0.7470563455370434
0.024003016,0.384837061,0.829149067,0.8355877388260882
0.02422946,0.620281935,0.732188284,0.9208493621142089
0.024455904,0.823805094,0.5646981,0.9975387770439589
0.024682346,0.972263515,0.340447962,1.0612011574301086
0.02490879,1.05013978,0.0815165639,1.1094385077285114
0.025135234,1.05244899,-0.186679512,1.1424981167525785
0.025361678,0.984150171,-0.440722048,1.1627874826726436
0.02558812,0.856901109,-0.662708998,1.1734627266355941
0.025814564,0.68514967,-0.841005623,1.1767205282187272
0.026041008,0.482592583,-0.969451368,1.1727315560836833
0.026267452,0.26163885,-1.04699385,1.164651009767145
0.026493894,0.034311004,-1.07452524,1.1557817363925458
0.026720338,-0.188889086,-1.05371106,1.1459860847762389
0.026946782,-0.398441136,-0.987543046,1.1339966065599285
0.027173226,-0.58537972,-0.880684733,1.1182750155265597
0.02739967,-0.741625965,-0.739899457,1.097460278431076
0.027626112,-0.860924482,-0.574169874,1.0708620079161442
0.027852556,-0.939996362,-0.394090593,1.0389005560643267
0.028079,-0.979272187,-0.21044448,1.0032608953942332
0.028305444,-0.982678056,-0.0323335119,0.9667016177357266
0.028531886,-0.957275212,0.134726375,0.9345270276302856
0.02875833,-0.91061914,0.285715848,0.9108607639326988
0.028984774,-0.847679734,0.421253204,0.8960151933145762
0.029211218,-0.773569405,0.541561961,0.8916989819542196
0.029437662,-0.684921384,0.646670878,0.8873005267137664
0.029664104,-0.582308054,0.74442935,0.8932577268946893
0.029890548,-0.4672589,0.832629263,0.911602369233133
0.030116992,-0.337684512,0.908161879,0.9387888281134888
0.030343436,-0.192540362,0.966741264,0.9716604625194089
0.030569878,-0.0328657962,1.0028156,1.0067192881632199
0.030796322,0.137536973,1.01055408,1.040135967546649
0.031022766,0.312002957,0.985301197,1.0681642939863767
0.03124921,0.481743127,0.925014615,1.0877284783753365
0.031475652,0.637319326,0.831108212,1.096916783346931
0.031702096,0.770245969,0.708304107,1.0949735607538162
0.03192854,0.874008477,0.564190686,1.08220194803701
0.032154984,0.959628105,0.405836344,1.0855892380171772
0.032381428,1.0086453,0.243900776,1.076852929745492
0.03260787,1.0355792,0.0904536173,1.0806061363552946
0.032834314,1.01517045,-0.0604101345,1.0342204269035107
0.033060758,0.982530177,-0.212416887,1.010486482598422
0.033287202,0.932174742,-0.35396263,0.9942392930592834
0.033513644,0.864777386,-0.484458774,0.982540231042576
0.033740088,0.781642914,-0.602930427,0.9744907448088137
0.033966532,0.684055686,-0.708067596,0.9692919020541498
0.034192976,0.573472142,-0.798263669,0.9660951828954097
0.03441942,0.451758713,-0.871791899,0.9641070499334425
0.034645864,0.321289241,-0.927082837,0.9627093630423248
0.034872308,0.184866637,-0.962983847,0.961513563058609
0.035098748,0.0455769524,-0.978893876,0.9603104790603753
0.035325192,-0.0933615118,-0.974924207,0.9591935812801604
0.035551636,-0.244592965,-0.961725235,0.9847411461632963
0.03577808,-0.383573025,-0.925334394,1.0033720062269977
0.036004524,-0.461653799,-0.903328776,1.0291271076807906
0.036230968,-0.611469209,-0.801166058,1.015761646046345
0.036457412,-0.725369453,-0.706411362,1.0251778557082143
0.036683856,-0.825591683,-0.596509635,1.0374253716866058
0.0369103,-0.909635961,-0.471246064,1.0495104343798856
0.03713674,-0.974054933,-0.332392335,1.0592676768683869
0.037363184,-1.01546621,-0.183278471,1.064762621583862
0.037589628,-1.03133237,-0.028661225,1.0644679232283178
0.037816072,-1.02065837,0.125714272,1.0575475864355468
0.038042516,-0.984404087,0.2738868,1.0440653857165436
0.03826896,-0.925435424,0.410577387,1.0250045147098077
0.038495404,-0.848031342,0.531916142,1.0020919391344851
0.038721848,-0.757127702,0.635822117,0.9775121216021625
0.038948288,-0.657475233,0.72172749,0.9531642518301044
0.039174732,-0.554510951,0.788667798,0.9294792903810931
0.039401176,-0.465148091,0.856018066,0.9491296758793245
0.03962762,-0.341747165,0.914343953,0.9528159891732035
0.039854064,-0.219433859,0.951608717,0.953710368746018
0.040080508,-0.0943829864,0.975790083,0.9610744342029295
0.040306952,0.034629494,0.986073315,0.9735397844097852
0.040533396,0.167217091,0.980408669,0.9891627137728538
0.04075984,0.30155465,0.956433713,1.0057006542995888
0.04098628,0.434416264,0.912211657,1.0208475975944031
0.041212724,0.561492562,0.846913576,1.0325365023944315
0.041439168,0.678003907,0.761286855,1.0392469735030558
0.041665612,0.779463828,0.657753408,1.0402034048960282
0.041892056,0.862374127,0.540139198,1.0354394881350955
0.0421185,0.924650788,0.413148493,1.0256707570171921
0.042344944,0.965613723,0.282049865,1.0119619883924391
0.042571388,0.98723948,0.154571548,0.9985341543217866
0.042797832,1.00748754,0.0259742588,1.015705805375461
0.043024272,1.00010276,-0.115270205,1.01349275072036
0.043250716,0.971468925,-0.247849941,1.0051814654943592
0.04347716,0.927016854,-0.372946948,0.9984496736225721
0.043703604,0.867924511,-0.490230143,0.9936185499003897
0.043930048,0.794966042,-0.598580718,0.9902698838945413
0.044156492,0.709019542,-0.696496725,0.9878163988736154
0.044382936,0.611294508,-0.782302558,0.9856782677643054
0.04460938,0.503442943,-0.854374468,0.9834105284267844
0.044835824,0.387540191,-0.911371946,0.9807862235961434
0.045062264,0.265961945,-0.952411532,0.97782348247477
0.045288708,0.141214848,-0.977145672,0.9747552976039947
0.045515152,0.0158454813,-0.985753059,0.9719601726054862
0.045741596,-0.107268862,-0.979161799,0.9702644373756915
0.04596804,-0.225211024,-0.96231401,0.9767682591734088
0.046194484,-0.35111025,-0.938400447,1.0038738065848625
0.046420928,-0.477522135,-0.888092935,1.0167364506118723
0.046647372,-0.594051778,-0.81956929,1.0245913360560652
0.046873816,-0.700509608,-0.735437155,1.0315815198548075
0.047100256,-0.795010865,-0.636505723,1.0371818108798008
0.0473267,-0.874922276,-0.524177909,1.0402514693246325
0.047553144,-0.937593162,-0.4008241,1.0397408965699682
0.047779588,-0.980926931,-0.269764245,1.0349903918414987
0.048006032,-1.00383937,-0.134979188,1.0259128619551359
0.048232476,-1.00650597,-0.000622595311,1.0130546552705624
0.04845892,-0.990329087,0.129518703,0.9975267949850558
0.048685364,-0.957662642,0.252445698,0.9808465663211272
0.048911808,-0.911469221,0.366094977,0.9648016730149774
0.049138248,-0.855548024,0.469306946,0.9522114309341514
0.049364692,-0.795884371,0.56495744,0.9526088410134192
0.049591136,-0.726144075,0.662862301,0.9666716477446202
0.04981758,-0.639389753,0.751425087,0.9734589176143585
0.050044024,-0.54260385,0.828085124,0.9801439106249179
0.050270468,-0.436784655,0.893646181,0.9893843316593539
0.050496912,-0.32196039,0.947004318,1.000475671039597
0.050723356,-0.198810622,0.986087382,1.0118939883596407
0.050949796,-0.0690449998,1.00854945,1.0219392050926848
0.05117624,0.0645503476,1.0123775,1.0290749498815308
0.051402684,0.198339999,0.996414781,1.032181170998598
0.051629128,0.328286886,0.960708439,1.0307329842853938
0.051855572,0.450498015,0.906598628,1.0248695338104226
0.052082016,0.561710119,0.836570919,1.0153691603034987
0.05230846,0.659637988,0.754077792,1.0037555916002834
0.052534904,0.743723571,0.663729966,0.9936622178273532
0.052761348,0.81885463,0.569101155,0.994399029694771
0.052987788,0.886699796,0.462003291,0.9996835691212723
0.053214232,0.937131763,0.344842196,0.9971320813655906
0.053440676,0.9710536,0.224130303,0.9931794867958317
0.05366712,0.990090847,0.101501711,0.9905824826491051
0.053893564,0.994551659,-0.0220921356,0.989621064875021
0.054120008,0.984231114,-0.145451248,0.9898669513104383
0.054346452,0.958851397,-0.266983092,0.990675972942732
0.054572896,0.918364644,-0.38473478,0.991414470290895
0.05479934,0.86315769,-0.496537685,0.9915908704312953
0.05502578,0.794157267,-0.600217283,0.9909465515408113
0.055252224,0.712829947,-0.69381088,0.9895000705463973
0.055478668,0.621136129,-0.775754392,0.9876049674563943
0.055705112,0.521570981,-0.845147789,0.9863110734728908
0.055931556,0.417078346,-0.902887285,0.9891597961167671
0.056158,0.30667457,-0.953091383,1.0024324762335375
0.056384444,0.184015572,-0.990996182,1.0159351634770641
0.056610888,0.0551043414,-1.00943196,1.0219893703105691
0.056837332,-0.0748528838,-1.0095849,1.024864624521186
0.057063772,-0.203611434,-0.992314279,1.0261452443628263
0.057290216,-0.328953266,-0.957881331,1.0257468954903983
0.05751666,-0.448333889,-0.906765521,1.0232269861002656
0.057743104,-0.559091926,-0.840037167,1.0182462236597754
0.057969548,-0.658773243,-0.759468198,1.0107741294661041
0.058195992,-0.745449424,-0.667441726,1.0011733013477908
0.058422436,-0.817940235,-0.566707611,0.9901837443971826
0.05864888,-0.875892818,-0.460081995,0.9788636707471611
0.058875324,-0.919743419,-0.350207448,0.9685732134284823
0.059101764,-0.95083195,-0.239431545,0.9614088618818895
0.059328208,-0.972195506,-0.128949597,0.9617921004530585
0.059554652,-0.986425817,-0.014711258,0.97325231355606
0.059781096,-0.98699981,0.10616646,0.9854399421689678
0.06000754,-0.970816731,0.227825791,0.9943897162343021
0.060233984,-0.93928057,0.347421825,1.0029499136658555
0.060460428,-0.89263463,0.463576674,1.011699915352139
0.060686872,-0.830627203,0.574365675,1.019837478981809
0.060913316,-0.753367066,0.67721349,1.0261800471714284
0.061139756,-0.661766171,0.769212484,1.0296223106214515
0.0613662,-0.557702124,0.847567677,1.0294026262092877
0.061592644,-0.443933457,0.910048723,1.0252655924779015
0.061819088,-0.323811471,0.955340207,1.0175287798619865
0.062045532,-0.200883761,0.983221769,1.0070793324689946
0.062271976,-0.078504473,0.994627297,0.9954464122185338
0.06249842,0.0406442992,0.991816163,0.9853512602455016
0.062724864,0.156226471,0.978422105,0.9817165257937449
0.062951304,0.272111893,0.954787135,0.9856633554735517
0.063177748,0.386898816,0.915660024,0.9881239733738825
0.063404192,0.495320827,0.861828327,0.9880907868795828
0.063630636,0.595968366,0.795822859,0.988512316179644
0.06385708,0.688355982,0.71869874,0.9903618368327719
0.064083524,0.771564662,0.630944371,0.9934028269437598
0.064309968,0.844208181,0.533147454,0.9969336605740108
0.064536412,0.904650688,0.426324308,1.0001452828905522
0.064762856,0.951288283,0.31205219,1.0023259666568842
0.064989296,0.982838571,0.192445651,1.003006985234136
0.06521574,0.998576403,0.0700063035,1.0020557151581524
0.065442184,0.998495817,-0.052603364,0.999761010470614
0.065668628,0.983460009,-0.172842503,0.9970681201455851
0.065895072,0.955416501,-0.288921505,0.996296326434548
0.066121516,0.916563332,-0.401590228,1.001363052792034
0.06634796,0.864473462,-0.51293993,1.0104217382906704
0.066574404,0.795555294,-0.618376315,1.0152974927644056
0.066800848,0.712404251,-0.713019431,1.0159165258264347
0.067027288,0.618017137,-0.795425117,1.0146462983801405
0.067253736,0.514352858,-0.864774585,1.0123939453946904
0.067480176,0.403171301,-0.920170426,1.009260710835054
0.067706624,0.286410362,-0.960782528,1.0051339615710417
0.067933064,0.166236222,-0.986065984,0.9999606063067216
0.068159504,0.0449402668,-0.995917559,0.9938714119045736
0.068385952,-0.0752346292,-0.990740001,0.9872259990123416
0.068612392,-0.192270517,-0.971415997,0.9806169909349514
0.06883884,-0.304518253,-0.939241469,0.97490590349945
0.06906528,-0.410876215,-0.895910978,0.9714757445536426
0.069291728,-0.511392355,-0.843427062,0.9728913496663978
0.069518168,-0.608258128,-0.782353938,0.9820556345821723
0.069744616,-0.702018201,-0.70874685,0.9951516519201989
0.069971056,-0.787474811,-0.620745778,1.005441898864311
0.070197496,-0.861111164,-0.521020532,1.0129748315309979
0.070423944,-0.921632588,-0.411801666,1.0189872393839534
0.070650384,-0.96779722,-0.294774145,1.0235232556002094
0.070876832,-0.998238921,-0.171890602,1.0260273224551666
0.071103272,-1.01183021,-0.0456281118,1.0258822984550775
0.07132972,-1.00803101,0.0810980871,1.0227034168528994
0.07155616,-0.987107337,0.205206662,1.0164906688884137
0.071782608,-0.950185001,0.323795944,1.0076953494762213
0.072009048,-0.899137974,0.434475303,0.9972178852057664
0.072235488,-0.836387396,0.535625935,0.986439018432285
0.072461936,-0.76466459,0.626692355,0.9774552430153141
0.072688376,-0.686395764,0.708773553,0.9734990942693875
0.072914824,-0.601362765,0.784371078,0.9768751631313274
0.073141264,-0.506358445,0.852527499,0.9832020113740131
0.073367712,-0.401961565,0.909056664,0.987957118100058
0.073594152,-0.291034639,0.952539146,0.9920319857602696
0.0738206,-0.175255403,0.98279655,0.9966035149725948
0.07404704,-0.0557844751,0.999283016,1.0016784537282388
0.07427348,0.0659612939,1.00113356,1.0066192972512358
0.074499928,0.188059136,0.987535298,1.0105922034290151
0.074726368,0.308120847,0.958075464,1.0128470510748127
0.074952816,0.423501819,0.912984252,1.0128940350963083
0.075179256,0.531597614,0.853245556,1.010624002044242
0.075405704,0.630162001,0.780566931,1.0063888812750827
0.075632144,0.717623651,0.697245538,1.0011350447354794
0.075858592,0.793497682,0.60588026,0.9967294607970407
0.076085032,0.858869731,0.508376837,0.9961042232261369
0.076311472,0.914944887,0.403826863,1.0002002815278634
0.07653792,0.958912551,0.290749013,1.0040482690258017
0.07676436,0.987425745,0.172018588,1.0045999965063188
0.076990808,1.00032997,0.0511712953,1.0032785503428805
0.077217248,0.998319805,-0.0696760938,1.0014971911024644
0.077443696,0.981847346,-0.188962951,0.9997312076978722
0.077670136,0.951234996,-0.305134922,0.9979553382390662
0.077896576,0.90691191,-0.416523635,0.9959811510134614
0.078123024,0.849576473,-0.521407068,0.9936455140354765
0.078349464,0.780270994,-0.618139684,0.9909194930133678
0.078575912,0.700376689,-0.705299079,0.987974297332851
0.078802352,0.611552596,-0.781827867,0.9852513912921088
0.0790288,0.515629649,-0.847208738,0.9836365806714157
0.07925524,0.41429773,-0.901757717,0.9848095892522049
