Frequency (GHz),Re( S21 ),Im( S21 ),S2
0.0,0.0389028005,0.0,0.0015134278867428004
0.000226615938,0.0347463265,-0.0168735627,0.0014920243234354336
0.000453231875,0.0236159302,-0.0296147559,0.0014347459262278569
0.000679847813,0.00871517975,-0.0358086452,0.0013582134291342932
0.00090646375,-0.00650725234,-0.0351858102,0.0012803855724468596
0.00113307975,-0.0194638893,-0.0289143454,0.0012148823565931556
0.00135969563,-0.0286442786,-0.0186938923,0.0011699563058384173
0.00158631163,-0.0333396085,-0.00621115463,0.0011501079367710427
0.0018129275,-0.0332940146,0.00702472357,0.0011578381494199265
0.0020395435,-0.0284604989,0.0195839014,0.0011935291916818232
0.0022661595,-0.0190190226,0.0298994407,0.0012556997748321272
0.00249277525,-0.00563613372,0.0361751392,0.0013404066994490975
0.00271939125,0.0101387789,0.0365510881,0.0014387768788770466
0.00294600725,0.0255307704,0.0297133047,0.0015347007134125581
0.00317262325,0.0367604643,0.0159388799,0.0016053796280181983
0.00339923925,0.0403109156,-0.00170160457,0.001627865374622968
0.003625855,0.035135299,-0.0192887541,0.001606545270549668
0.003852471,0.0227857083,-0.0319054164,0.0015371440983900776
0.004079087,0.00700254925,-0.0373788998,0.0014462178462571155
0.004305703,-0.0085663842,-0.0358100943,0.001355745792036902
0.004532319,-0.0214066152,-0.0286899805,0.0012813581554112514
0.004758935,-0.0302038882,-0.0178803131,0.0012319804589521308
0.0049855505,-0.0344482996,-0.00508954562,0.0012125888199494214
0.0052121665,-0.034051884,0.00826486014,0.0012278387170832166
0.0054387825,-0.0289986692,0.0209405553,0.0012794296716433866
0.0056653985,-0.0193634871,0.0315075181,0.0013676683294936939
0.0058920145,-0.00559550012,0.0382246561,0.001492433955556187
0.0061186305,0.0110636419,0.0390676297,0.001648683862467758
0.0063452465,0.0280278362,0.0321709327,0.00182052851284196
0.0065718625,0.0399115458,0.0173099078,0.0018925643961899988
0.0067984785,0.0449946597,-0.00283004879,0.0020325285776725847
0.007025094,0.0389428064,-0.0231077,0.002050507969597881
0.00725171,0.0240047928,-0.0374305695,0.001977277610465262
0.007478326,0.00517712161,-0.0427047201,0.0018504957069840732
0.007704942,-0.0126241688,-0.0393869877,0.0017107044379708449
0.007931558,-0.0263568908,-0.0298776235,0.001587358078650877
0.008158174,-0.0348252356,-0.0168327037,0.0014961369484475008
0.00838479,-0.037914589,-0.0024107059,0.0014433275619752156
0.008611406,-0.0359407961,0.0117565766,0.0014299579176534425
0.008838022,-0.0295408405,0.0244387146,0.0014699120287466933
0.009064638,-0.0189115871,0.0346881263,0.0015609142328456378
0.009291254,-0.00457926001,0.041042421,0.0017054499437804264
0.00951787,0.0123564238,0.041925665,0.0019104425948174317
0.009744485,0.0295970924,0.0350998864,0.002107989903827043
0.009971101,0.0445133373,0.0201006141,0.00238547188478069
0.010197717,0.0516148135,-0.00186476519,0.002667566321853618
0.010424333,0.0467815325,-0.026120523,0.002870793504842085
0.010650949,0.0298718214,-0.0452728793,0.0029419593138658665
0.010877565,0.0059536905,-0.0533059053,0.002876965970422358
0.011104181,-0.0176628642,-0.049085591,0.0027213720155669224
0.011330797,-0.0355209596,-0.0357112885,0.0025370346972350645
0.011557413,-0.0454131141,-0.0175853204,0.0023715944258302746
0.011784029,-0.047419589,0.00160134817,0.002251181736890483
0.012010645,-0.0425890349,0.019316975,0.002186971416864043
0.012237261,-0.0321770199,0.0338725746,0.002182711919677561
0.012463877,-0.0175296534,0.0439599752,0.0022397681679087464
0.012690493,0.000190278137,0.0488018021,0.0023816520939769848
0.012917109,0.0195542108,0.0470178351,0.002593043977501629
0.013143725,0.0383088365,0.0375466794,0.002877320087950116
0.013370341,0.0532710589,0.0200187787,0.003238557216966843
0.013596957,0.0601317026,-0.00407371018,0.0036324167722054826
0.013823572,0.0554726012,-0.0312502421,0.004053787115202854
0.014050188,0.0375158489,-0.0547989123,0.004410359707950723
0.014276804,0.00930764806,-0.0674807653,0.004640285997882505
0.01450342,-0.0218886416,-0.0651321933,0.004721315235161816
0.014730036,-0.0479747988,-0.0488042906,0.00468344010086973
0.014956652,-0.0635449514,-0.0234646071,0.004588548634785732
0.015183268,-0.0668992922,0.0049270764,0.004499791378712419
0.015409884,-0.058981508,0.0314081386,0.004465289456270874
0.0156365,-0.0419721045,0.0524922125,0.0045170899293040774
0.015863116,-0.0184620656,0.0658481196,0.004676822721074609
0.016089732,0.00876607746,0.0699023604,0.004963184103526209
0.016316348,0.0367209129,0.0636238754,0.005396422965124112
0.016542964,0.061823491,0.0464582071,0.005980509046373572
0.01676958,0.0796865821,0.0190727897,0.006713722673720467
0.016996196,0.0855847821,-0.0158234164,0.007575135433672271
0.017222812,0.0756356567,-0.0528351068,0.00851230107500766
0.017449428,0.0487325378,-0.0840971172,0.009447185361778965
0.017676044,0.00832487922,-0.101129837,0.010296547545674157
0.01790266,-0.0374893062,-0.0979944468,0.011008359682995388
0.018129276,-0.0783223286,-0.0738996416,0.01159554418593483
0.018355892,-0.10501828,-0.033420559,0.012145772898030883
0.018582508,-0.112096399,0.0155444946,0.012807233981136631
0.018809124,-0.0981425419,0.0643268153,0.013769897697233571
0.01903574,-0.0648826435,0.105119213,0.015259806369287462
0.019262356,-0.0161093958,0.131493583,0.017550075003218944
0.01948897,0.0429105088,0.13836138,0.02098518324097928
0.019715586,0.105557285,0.121926375,0.026008381337211853
0.019942202,0.163587347,0.079924807,0.033148794872485655
0.020168818,0.206960142,0.0127512002,0.04299509348320065
0.020395434,0.224754572,-0.0750122368,0.056141453304642465
0.02062205,0.207269624,-0.173503652,0.0730642142904385
0.020848666,0.149110749,-0.267863393,0.09398481277681345
0.021075282,0.0520904437,-0.340718746,0.1188026782006754
0.021301898,-0.0738540664,-0.376447886,0.14716743399768462
0.021528514,-0.212688535,-0.365307391,0.1786859028396731
0.02175513,-0.346306205,-0.305338115,0.21315935209325526
0.021981746,-0.458348572,-0.201520711,0.2506940104163847
0.022208362,-0.536604702,-0.0640006959,0.2920406952841931
0.022434978,-0.574111044,0.0969815552,0.3390089128917806
0.022661594,-0.564903378,0.269967943,0.39199851672346214
0.02288821,-0.506037951,0.442662954,0.45202489869628454
0.023114826,-0.396775603,0.60203284,0.5198744195744792
0.023341442,-0.239150226,0.733845711,0.5957223581489466
0.023568058,-0.0392664969,0.822874248,0.6786638858003632
0.023794674,0.191150919,0.854285896,0.7663430659390674
0.02402129,0.433896244,0.816440463,0.8548409801809619
0.024247906,0.665285707,0.704583645,0.939043184739976
0.024474522,0.859704494,0.523934543,1.0135992223524148
0.024701138,0.994993746,0.29024142,1.074252636462729
0.024927754,1.0574913,0.0268552173,1.11900905227192
0.02515437,1.04437006,-0.240599409,1.1485968978355532
0.025380986,0.962409496,-0.489455432,1.1657986579052808
0.025607602,0.824377775,-0.703081608,1.1739224634218162
0.025834218,0.645096183,-0.871130288,1.1750170639921325
0.026060834,0.438046992,-0.988591373,1.1691980699702733
0.02628745,0.215398312,-1.05530703,1.1600693603798702
0.026514066,-0.0111859944,-1.07258618,1.1505662399977095
0.026740682,-0.231603488,-1.04241776,1.1402749620171837
0.026967298,-0.436647356,-0.968068838,1.127818188608461
0.027193914,-0.617645442,-0.854474247,1.1116121308095923
0.027420528,-0.766876876,-0.708670914,1.0903146072931147
0.027647144,-0.878571093,-0.539854765,1.06333033274842
0.02787376,-0.950046122,-0.358660638,1.031225087177806
0.028100376,-0.982335269,-0.175649211,0.9958352260462249
0.028326992,-0.979807854,0.00057617639,0.9600237627393178
0.028553608,-0.949938953,0.165072069,0.929632802390677
0.028780224,-0.899757087,0.313267499,0.9076993415364406
0.02900684,-0.834225416,0.44630906,0.8951238217384566
0.029233456,-0.757962704,0.564049721,0.8926595484151694
0.029460072,-0.666331828,0.667323947,0.8893193552454803
0.029686688,-0.561078846,0.763466537,0.8976906245474642
0.029913304,-0.442992598,0.849521458,0.9179291494852354
0.03013992,-0.31005165,0.922129095,0.9464540935132414
0.030366536,-0.161546692,0.976685703,0.9800122961407471
0.030593152,0.000968890847,1.00746644,1.0149895664757471
0.030819768,0.17308107,1.00872982,1.0474929065495775
0.031046384,0.347564489,0.97622776,1.0738217134084487
0.031273,0.515301406,0.90859431,1.091079159189953
0.031499616,0.666878045,0.80802387,1.097628901392799
0.031726232,0.794161916,0.67992413,1.0929899713810478
0.031952848,0.89129734,0.532435834,1.0778988656183515
0.032179464,0.97083205,0.372238994,1.0810767379613344
0.03240608,1.01399219,0.210140646,1.0723392524822932
0.032632696,1.03452229,0.0612976179,1.0739937664670585
0.032859312,1.00900626,-0.0914320275,1.0264534483719483
0.033085928,0.972871006,-0.24101384,1.0045656653869977
0.033312544,0.919353187,-0.380098253,0.989684964380709
0.03353916,0.849210143,-0.508172512,0.9793971689264704
0.033765776,0.763594985,-0.62425071,0.9727662500526544
0.033992392,0.663666427,-0.726935685,0.9688886164533657
0.034219008,0.550838709,-0.814491332,0.9668194132359209
0.034445624,0.427026182,-0.885066926,0.9656948236125866
0.03467224,0.294721305,-0.937020659,0.9648683630136973
0.034898856,0.156877413,-0.969197512,0.9639543399765628
0.035125472,0.0167346131,-0.981072605,0.9627835035570929
0.035352088,-0.122391075,-0.972910821,0.9615350408585498
0.035578704,-0.274090379,-0.955776572,0.9886343914444348
0.03580532,-0.413224965,-0.915388227,1.0086904778294548
0.036031936,-0.504278421,-0.8754493,1.0207082027567431
0.036258552,-0.636675179,-0.782214224,1.0172143757826042
0.036485168,-0.747615874,-0.684081733,1.026897312481067
0.036711784,-0.844392002,-0.570822239,1.038835881578541
0.0369384,-0.924337804,-0.442628473,1.0503203410138542
0.037165016,-0.984025419,-0.301526219,1.0592240859825615
0.037391632,-1.02020895,-0.151086614,1.0636534665900874
0.037618248,-1.03060865,0.00374238216,1.062168194879054
0.037844864,-1.01458216,0.15713948,1.054069775564936
0.03807148,-0.9734689,0.303230911,1.0395906846531
0.038298096,-0.910446227,0.436984658,1.0198679235859125
0.038524712,-0.829969645,0.554883897,0.9967457507713327
0.038751328,-0.73697567,0.655217946,0.9724436949324078
0.03897794,-0.636102438,0.737632275,0.9487276847512194
0.039204556,-0.53351903,0.800982594,0.9262156712631098
0.039431172,-0.440178543,0.870914757,0.9522496636779718
0.039657788,-0.316578776,0.923587441,0.9532358825865866
0.039884404,-0.193562567,0.958324969,0.9558532135524803
0.04011102,-0.0673866794,0.97985667,0.9646600583040473
0.040337636,0.062825501,0.987008095,0.97813202317143
0.040564252,0.196369126,0.977578521,0.9942205983665513
0.040790868,0.331064999,0.949216247,1.0106155171316349
0.041017484,0.463356227,0.900172353,1.0250092582052321
0.0412441,0.588711858,0.829964936,1.0354234467392962
0.041470716,0.702309728,0.739772499,1.040502304320139
0.041697332,0.799821317,0.632435024,1.039688198709495
0.041923948,0.878072739,0.512089372,1.0332472598903166
0.042150564,0.93537873,0.383594155,1.022077844286577
0.04237718,0.971466899,0.25234592,1.0074263991933226
0.042603796,0.989907801,0.126568586,0.995937061442695
0.042830412,1.00693905,-0.00522663957,1.0139535681760972
0.043057028,0.994305074,-0.144468978,1.00951386578651
0.043283644,0.962352872,-0.275209993,1.0018635904937083
0.04351026,0.914999187,-0.398588717,0.9960964775303671
0.043736876,0.853198647,-0.514128625,0.9922761742870213
0.043963492,0.777626932,-0.620616496,0.9898684804790506
0.044190108,0.689132869,-0.716446221,0.9881992987213519
0.044416724,0.588964641,-0.799844027,0.9866298158758358
0.04464334,0.478870273,-0.869124711,0.984694501633928
0.044869956,0.361051023,-0.922943175,0.9821819454884272
0.045096572,0.238007098,-0.960471988,0.9791538184310538
0.045323188,0.112346217,-0.981468976,0.9759030233246998
0.045549804,-0.0132962605,-0.986261368,0.9728882765525153
0.04577642,-0.135900587,-0.976122439,0.9712839854662532
0.046003036,-0.253619164,-0.957381964,0.9809029053405561
0.046229652,-0.38106823,-0.928150296,1.0066759678802206
0.046456268,-0.505228937,-0.87309736,1.0175552788211197
0.046682884,-0.619371414,-0.800820708,1.0249347548419807
0.0469095,-0.723065257,-0.713227451,1.0315167627404334
0.047136116,-0.814271986,-0.611187339,1.0365888305382849
0.047362732,-0.890345991,-0.496264905,1.038994839624431
0.047589348,-0.948728442,-0.371007025,1.037731869259098
0.047815964,-0.987504065,-0.238874137,1.032225131719019
0.04804258,-1.00583351,-0.10390608,1.0224975232998865
0.048269196,-1.00415301,0.0297918692,1.00921082296249
0.048495812,-0.984083116,0.158582255,0.9935679107971545
0.048722428,-0.948115587,0.279676467,0.9771420925059566
0.048949044,-0.899298787,0.391218781,0.9617904429067973
0.04917566,-0.841687679,0.492355824,0.950852406407126
0.049402276,-0.780875623,0.587767601,0.9552374913809334
0.049628892,-0.707064033,0.68469578,0.9687478579120334
0.049855508,-0.617636681,0.770682275,0.9754262387158714
0.050082124,-0.518525183,0.844982386,0.9828635980554364
0.05030874,-0.41030696,0.907941878,0.9927102552506085
0.050535356,-0.293129951,0.958166957,1.0040090856599022
0.050761972,-0.167923629,0.993457854,1.015156852850815
0.050988588,-0.0366938226,1.01149058,1.0244596300457367
0.051215204,0.0974998325,1.01042354,1.0304619475236594
0.05144182,0.230842322,0.989392698,1.0321860884820708
0.051668436,0.359261066,0.948803484,1.0292965647939947
0.051895052,0.478980452,0.89034152,1.0221302956340348
0.052121668,0.586980402,0.816770375,1.0116598378097224
0.052348284,0.681319594,0.731765747,0.9996774976507927
0.0525749,0.762176156,0.64011848,0.9906641612124467
0.052801516,0.835554123,0.543709219,0.993770407287889
0.053028132,0.899703443,0.43392399,0.9977563144435744
0.053254748,0.946178913,0.315876305,0.9950323754663146
0.053481364,0.976705968,0.194720209,0.9918705077198207
0.05370798,0.99252224,0.0717414096,0.9902472267460125
0.053934596,0.99371022,-0.0520970374,0.9901741026383054
0.054161212,0.979946315,-0.175491348,0.9910919935049363
0.054387828,0.950923979,-0.296704739,0.9922901159822506
0.05461444,0.906651676,-0.413638502,0.9931140719304129
0.054841056,0.847648561,-0.524016857,0.9931017493855292
0.055067672,0.775021136,-0.625625372,0.9920648673368689
0.055294288,0.690428376,-0.716541171,0.9901225921240486
0.055520904,0.596019268,-0.795322597,0.9877770011260802
0.05574752,0.494472682,-0.861338496,0.9864072379358152
0.055974136,0.388588548,-0.91620785,0.9904378840383709
0.056200752,0.275602609,-0.963697255,1.004669197382142
0.056427368,0.150924549,-0.996706665,1.0162023955462758
0.056653984,0.0216756761,-1.01031327,1.0212027384724849
0.0568806,-0.107961148,-1.00600278,1.0236972028452065
0.057107216,-0.235887438,-0.984433055,1.024751323182837
0.057333832,-0.359849244,-0.945854008,1.0241312828570355
0.057560448,-0.477275699,-0.890826285,1.02136356290284
0.057787064,-0.585527956,-0.820542514,1.016133004538978
0.05801368,-0.682232022,-0.736899137,1.008460869953553
0.058240296,-0.76559186,-0.642371178,0.9987716264233673
0.058466912,-0.834589541,-0.539747119,0.9878666544153909
0.058693528,-0.889035642,-0.431824267,0.9768565703164394
0.058920144,-0.929531813,-0.321194559,0.9671953361102714
0.05914676,-0.957676589,-0.210094735,0.9612842467933951
0.059373376,-0.976869702,-0.0990245268,0.9640802715935327
0.059599992,-0.988165498,0.0170872118,0.976763024244686
0.059826608,-0.984305441,0.138756439,0.9881105505461651
0.060053224,-0.963908494,0.260189116,0.9968179608902095
0.06027984,-0.928236365,0.379145861,1.0053743332218443
0.060506456,-0.877352595,0.494155318,1.0139370542609152
0.060733072,-0.811066866,0.603108406,1.0215692105109229
0.060959688,-0.729687274,0.703308284,1.0270860601805758
0.061186304,-0.634389699,0.791835785,1.0294542006038767
0.06141292,-0.527319193,0.866011858,1.0280420695027834
0.061639536,-0.411439866,0.923836052,1.0227558143090445
0.061866152,-0.290200174,0.964295626,1.014082195312362
0.062092768,-0.167121828,0.987494588,1.0030752667233513
0.062319384,-0.0454146788,0.9946931,0.9914768562381172
0.062546,0.0726060197,0.988511622,0.9824268609257476
0.062772616,0.187628672,0.972509384,0.980979020524543
0.062999232,0.303474158,0.945256412,0.9856062490009228
0.063225848,0.416902959,0.902165294,0.9877102949210621
0.063452464,0.523475766,0.845039725,0.9881190144173625
0.06367908,0.622215092,0.776002944,0.9893321898092357
0.063905696,0.712513685,0.695865214,0.9919041473675451
0.064132312,0.793264508,0.605092108,0.9954050388163659
0.064358928,0.86293143,0.504378676,0.9990485016853579
0.064585544,0.919809341,0.394928277,1.002017567765043
0.06481216,0.962325275,0.278533697,1.0036509552683135
0.065038776,0.989329875,0.157502368,1.0035805974931231
0.065265392,1.00031209,0.0344631337,1.0018119849845921
0.065492008,0.995535314,-0.0878867209,0.998814637131633
0.065718624,0.976178885,-0.207107484,0.9958187254486536
0.06594524,0.944485962,-0.321838111,0.9956335021071138
0.066171856,0.902117014,-0.433635712,1.001855037670023
0.066398472,0.845448673,-0.543551803,1.0102320212220117
0.066625088,0.772366226,-0.646019638,1.0138909597471342
0.066851704,0.686007023,-0.737213314,1.0140891059441852
0.06707832,0.589009583,-0.816029072,1.012835735215015
0.067304936,0.483178347,-0.881630182,1.0107330928230056
0.067531552,0.37026453,-0.933090448,1.0077536063249615
0.067758168,0.252247661,-0.969591856,1.0037372497014956
0.067984784,0.131344661,-0.990646124,0.9986311629694282
0.0682114,0.00987927523,-0.996239603,0.9925909466646677
0.068438016,-0.109906569,-0.986884415,0.986020302479244
0.068664632,-0.226033956,-0.963576496,0.9795710129086478
0.068891248,-0.336936206,-0.927729726,0.9742084514177095
0.069117864,-0.441692561,-0.881163001,0.9715405527740647
0.06934448,-0.540808499,-0.825832307,0.9744728318755753
0.069571096,-0.636715591,-0.761334658,0.9850372052944563
0.069797712,-0.728405058,-0.683359087,0.997553570305457
0.070024328,-0.810474634,-0.591585279,1.0068422746869419
0.070250944,-0.880245209,-0.4888376,1.0137938271412137
0.07047756,-0.936544657,-0.377129197,1.0193423257851124
0.070704176,-0.978093505,-0.258170485,1.0233189038483204
0.070930792,-1.00356781,-0.134047508,1.0251170836692063
0.071157408,-1.01197982,-0.00736998301,1.0241574727368004
0.071384024,-1.00300252,0.118874498,1.020145201401102
0.07161064,-0.977147639,0.241623312,1.0131993333051237
0.071837256,-0.935769975,0.358093381,1.0038963156275118
0.072063872,-0.880917609,0.466094255,0.993259688390282
0.072290488,-0.815115035,0.564276755,0.9828207765163812
0.072517104,-0.741092384,0.652463734,0.9749268458080262
0.07274372,-0.660869181,0.732262492,0.9729564315856609
0.072970336,-0.573144197,0.805855989,0.9778981455619429
0.073196952,-0.475106061,0.870895326,0.9841844380475819
0.073423568,-0.368433148,0.923633516,0.988841856423712
0.073650184,-0.255755395,0.963210642,0.993185562933658
0.0738768,-0.138534769,0.989366293,0.9980375439464453
0.074103416,-0.0179928672,1.00141859,1.0031629356676652
0.074330032,0.104277007,0.998477995,1.007832000688098
0.074556648,0.22616452,0.979827642,1.0112125981341107
0.074783264,0.34514612,0.945251942,1.0126270780058257
0.07500988,0.458537102,0.895240366,1.0117115868263724
0.075236496,0.563806772,0.83104378,1.0085118404297484
0.075463112,0.658896506,0.754601181,1.0035675479856028
0.075689728,0.742536247,0.668360829,0.9980662758504123
0.075916344,0.814686596,0.574884415,0.9942063403119594
0.07614296,0.876815081,0.475498796,0.9949037912664862
0.076369576,0.929374516,0.368561596,0.9995746410363014
0.076596192,0.968755007,0.253580719,1.002789444636127
0.076822808,0.992497325,0.134040281,1.0030177370627145
0.077049424,1.00086915,0.0130285043,1.0019087973460177
0.07727604,0.994469881,-0.107589059,1.0005457498326595
0.077502656,0.973642051,-0.22626926,0.9991766214964343
0.077729272,0.938678443,-0.341389,0.9976636686739043
0.07795588,0.890052736,-0.451200813,0.9957760465129466
0.078182496,0.828568518,-0.553931236,0.993365603237204
0.078409112,0.755403638,-0.647933781,0.990452840864591
0.078635728,0.672080934,-0.731847286,0.9872932318718783
0.078862344,0.580381989,-0.804746032,0.9844594291753411
0.07908896,0.482198536,-0.866334796,0.9830514068809049
0.079315576,0.379062474,-0.917248666,0.9850334744737802
0.079542192,0.270789623,-0.958667397,0.9923701979952377
