Frequency (GHz),Re( S21 ),Im( S21 ),S2
0,0.03786885,0,0.00143405
0.000226557,0.033826903,-0.016410489,0.001413563
0.000453114,0.02300702,-0.028800063,0.001358767
0.000679672,0.008529244,-0.03482591,0.001285592
0.000906229,-0.006255986,-0.034235768,0.001211225
0.001132786,-0.018843329,-0.028170845,0.001148668
0.001359343,-0.027777052,-0.018279975,0.001105722
0.0015859,-0.032377459,-0.006192369,0.001086645
0.001812458,-0.032399733,0.006639767,0.001093829
0.002039015,-0.027793689,0.018845981,0.00112766
0.002265572,-0.018718576,0.028920418,0.001186776
0.002492129,-0.005794241,0.03512783,0.001267538
0.002718686,0.00951214,0.035653487,0.001361652
0.002945244,0.024539452,0.029184353,0.001453911
0.003171801,0.035622735,0.015926074,0.001522619
0.003398358,0.039284684,-0.00120028,0.001544727
0.003624915,0.034464393,-0.018383628,0.001525752
0.003851472,0.02258949,-0.030821564,0.001460254
0.00407803,0.00728351,-0.036341131,0.001373727
0.004304587,-0.007892543,-0.035000298,0.001287313
0.004531144,-0.020473246,-0.028229494,0.001216058
0.004757701,-0.029165162,-0.017830577,0.001168536
0.004984258,-0.033461623,-0.005458519,0.001149476
0.005210816,-0.033270169,0.007514256,0.001163368
0.005437373,-0.028566951,0.019896423,0.001211938
0.00566393,-0.019401198,0.030316617,0.001295504
0.005890487,-0.006170001,0.037095442,0.001414141
0.006117044,0.009982107,0.038259741,0.00156345
0.006343602,0.026619317,0.031943664,0.001728986
0.006570159,0.038521126,0.017771844,0.001799716
0.006796716,0.043972742,-0.00173071,0.001936597
0.007023273,0.038576022,-0.021665387,0.001957498
0.00724983,0.024335519,-0.036027476,0.001890197
0.007476387,0.006053337,-0.041636571,0.001770247
0.007702945,-0.011432039,-0.038806092,0.001636604
0.007929502,-0.025072841,-0.029822517,0.00151803
0.008156059,-0.033639465,-0.01727009,0.00142987
0.008382616,-0.036982302,-0.003263475,0.001378341
0.008609173,-0.035386741,0.010601516,0.001364614
0.00883573,-0.029449457,0.023101019,0.001400928
0.009062288,-0.019365141,0.033341806,0.001486685
0.009288845,-0.005598592,0.039901421,0.001623468
0.009515402,0.010833549,0.041231159,0.001817374
0.009741959,0.027828125,0.03514434,0.002009529
0.009968516,0.042811845,0.021039575,0.002275518
0.010195073,0.050495744,-0.000107603,0.002549832
0.010421631,0.046668381,-0.02395642,0.002751848
0.010648188,0.030842254,-0.043326046,0.002828391
0.010874745,0.007688253,-0.052091744,0.002772659
0.011101302,-0.015658405,-0.048800677,0.002626692
0.011327859,-0.033675864,-0.036278624,0.002450202
0.011554417,-0.044007953,-0.018798463,0.002290082
0.011780974,-0.046609446,-2.02E-05,0.002172441
0.012007531,-0.042446148,0.017520316,0.002108637
0.012234088,-0.032715365,0.032128334,0.002102525
0.012460645,-0.018695589,0.042480514,0.002154119
0.012687203,-0.001538783,0.047817327,0.002288865
0.01291376,0.017440962,0.046757408,0.002490442
0.013140317,0.036099732,0.038204953,0.002762809
0.013366874,0.051383458,0.021681329,0.00311034
0.013593431,0.059279133,-0.001774719,0.003517165
0.013819988,0.055693984,-0.028298043,0.003902599
0.014046546,0.039192617,-0.052158698,0.004256591
0.014273103,0.012120268,-0.065911174,0.004491184
0.01449966,-0.018652467,-0.065065764,0.004581468
0.014726217,-0.045096517,-0.050196789,0.004553413
0.014952774,-0.061594281,-0.02592116,0.004465762
0.015179332,-0.066155762,0.00193197,0.004380317
0.015405889,-0.059491109,0.028384909,0.004344895
0.015632446,-0.043625992,0.049883723,0.004391613
0.015859003,-0.021043377,0.064026058,0.00454216
0.01608556,0.005566296,0.069164902,0.004814767
0.016312118,0.033297475,0.064194806,0.005229695
0.016538675,0.058691494,0.048451796,0.005792268
0.016765232,0.077458993,0.022400595,0.006501682
0.01699179,0.08488974,-0.011544514,0.007339544
0.017218346,0.076944478,-0.048337784,0.008256994
0.017444904,0.052123979,-0.080390342,0.009179516
0.01767146,0.013308186,-0.099237725,0.010025234
0.017898018,-0.031932257,-0.098588623,0.010739386
0.018124576,-0.073439248,-0.077039614,0.011328425
0.018351132,-0.101906374,-0.038558684,0.011871681
0.01857769,-0.111453727,0.009347435,0.012509308
0.018804246,-0.100211382,0.058149789,0.013423719
0.019030804,-0.069508374,0.100006729,0.01483276
0.01925736,-0.0228187,0.128369957,0.016999539
0.019483918,0.0348607,0.137985304,0.020255213
0.019710476,0.097156234,0.124846771,0.02502605
0.019937032,0.156077951,0.086403705,0.031825927
0.02016359,0.201791778,0.02259855,0.041230616
0.020390146,0.223407134,-0.062605195,0.053830158
0.020616704,0.210944518,-0.160049096,0.070113303
0.020843262,0.158338591,-0.25546506,0.090333506
0.021069818,0.066416107,-0.331696481,0.114433655
0.021296376,-0.055912852,-0.372796744,0.142103659
0.021522932,-0.193345651,-0.368223727,0.172971254
0.02174949,-0.32801789,-0.315021068,0.206834009
0.021976048,-0.443374038,-0.217268661,0.243786209
0.022202604,-0.526597559,-0.084400773,0.28442848
0.022429162,-0.570327878,0.073420949,0.330664524
0.022655718,-0.568131149,0.245104581,0.382849258
0.022882276,-0.516608298,0.418462366,0.441994885
0.023108834,-0.414570272,0.580556512,0.508914374
0.02333539,-0.263527423,0.717221618,0.583853552
0.023561948,-0.068934307,0.813191473,0.66603231
0.023788504,0.158252493,0.853359163,0.753265713
0.024015062,0.400593191,0.825437546,0.841822047
0.02424162,0.634926736,0.7236045,0.926735433
0.024468176,0.835637689,0.551730931,1.002697367
0.024694734,0.979889929,0.324279398,1.065341401
0.02492129,1.05279052,0.063778788,1.112435613
0.025147848,1.05008733,-0.204278588,1.144413142
0.025374406,0.977345049,-0.45673129,1.163806816
0.025600962,0.846571267,-0.676101685,1.173796399
0.02582752,0.672299325,-0.851161957,1.176463059
0.026054076,0.468110412,-0.976132035,1.171961108
0.026280634,0.246380791,-1.0502367,1.16370062
0.026507192,0.019042976,-1.0744276,1.154757303
0.026733748,-0.203503802,-1.0504477,1.144854168
0.026960306,-0.411789775,-0.981379032,1.132675623
0.027186862,-0.596891344,-0.872004569,1.116671245
0.02741342,-0.750810862,-0.729232728,1.095497322
0.027639976,-0.867450297,-0.56218636,1.068523521
0.027866534,-0.943761706,-0.381533206,1.036253745
0.028093092,-0.980435848,-0.198012799,1.000463521
0.028319648,-0.981611013,-0.020546028,0.96398232
0.028546206,-0.95461154,0.14554888,0.932467669
0.028772762,-0.906676114,0.295428574,0.909339618
0.02899932,-0.842884779,0.429977536,0.895335432
0.029225878,-0.768097281,0.549186349,0.891579079
0.029452434,-0.678298295,0.653688908,0.887397765
0.029678992,-0.574854434,0.750996351,0.89445314
0.029905548,-0.458796918,0.838535905,0.913637076
0.030132106,-0.328038603,0.913138747,0.941431696
0.030358664,-0.181656435,0.97038883,0.974653542
0.03058522,-0.020884497,1.00464916,1.009756097
0.030811778,0.150235772,1.01010621,1.042885343
0.031038334,0.324814796,0.982247233,1.070314278
0.031264892,0.493927181,0.919280529,1.089040751
0.03149145,0.648132801,0.822911143,1.097258877
0.031718006,0.779060543,0.698115647,1.094300786
0.031944564,0.880428374,0.552725613,1.080659725
0.03217112,0.96407032,0.393716753,1.084444463
0.032397678,1.01110148,0.23166509,1.075994917
0.032624236,1.03539252,0.08068417,1.078547606
0.032850792,1.01300871,-0.072067887,1.031380427
0.03307735,0.97915113,-0.223252475,1.008578603
0.033303906,0.927548528,-0.363969862,0.992820332
0.033530464,0.859005332,-0.493616164,0.981547078
0.03375702,0.77480495,-0.611191034,0.973877191
0.03398358,0.676217616,-0.715348661,0.968993971
0.034210136,0.564712465,-0.804446399,0.966034177
0.034436692,0.442192435,-0.876736224,0.964200556
0.034663248,0.311079592,-0.930654228,0.962887805
0.034889808,0.174219564,-0.965075135,0.961722473
0.035116364,0.034734812,-0.979442537,0.96051419
0.03534292,-0.104147032,-0.973934531,0.959395075
0.03556948,-0.25558731,-0.959572434,0.986104129
0.035796036,-0.394829065,-0.92194742,1.005877036
0.036022592,-0.484668702,-0.888232231,1.023860247
0.036249152,-0.621127367,-0.794089079,1.016376671
0.036475708,-0.73399961,-0.698176086,1.026205275
0.036702264,-0.833062887,-0.586952507,1.038507019
0.03692882,-0.915667534,-0.460438609,1.050450745
0.03715538,-0.978334546,-0.320540726,1.059884841
0.037381936,-1.01771879,-0.170723036,1.064897891
0.037608492,-1.0313853,-0.015857201,1.064007088
0.037835052,-1.01849687,0.138249502,1.056448799
0.038061608,-0.980194569,0.285652041,1.042378482
0.038288164,-0.91950047,0.421166986,1.022862744
0.03851472,-0.840791702,0.541074812,0.999692638
0.03874128,-0.749022901,0.643461704,0.975078271
0.038967836,-0.648907542,0.727844,0.950837886
0.039194392,-0.546327472,0.793048143,0.927399064
0.039420952,-0.455062002,0.862889051,0.95165894
0.039647508,-0.331634909,0.917974234,0.952658407
0.039874064,-0.209183306,0.954213381,0.954280832
0.040100624,-0.083736487,0.977382064,0.962287498
0.04032718,0.045743331,0.986470819,0.975217129
0.040553736,0.1787294,0.979354382,0.991079204
0.040780292,0.313245177,0.953667045,1.007603374
0.041006852,0.44592461,0.907543063,1.022483169
0.041233408,0.572362006,0.84029299,1.033690575
0.041459964,0.687756598,0.752838016,1.039774216
0.041686524,0.787681282,0.647770166,1.04004799
0.04191308,0.868764758,0.529043853,1.034639603
0.042139636,0.929074943,0.401430815,1.024326949
0.042366196,0.96807915,0.270292491,1.010235271
0.042592752,0.988578081,0.143822297,0.997971475
0.042819308,1.00804698,0.012978183,1.016327147
0.043045864,0.998041928,-0.127442837,1.012329367
0.043272424,0.967952967,-0.259280324,1.004159233
0.04349898,0.922212899,-0.383708686,0.997708987
0.043725536,0.861896336,-0.50028193,0.993147303
0.043952096,0.787757933,-0.607826948,0.99001616
0.044178652,0.700688303,-0.704802454,0.987710597
0.044405208,0.601932526,-0.789510369,0.985649389
0.044631768,0.493189067,-0.860327423,0.983398731
0.044858324,0.376579911,-0.915937901,0.980754668
0.04508488,0.254514396,-0.955501378,0.977760461
0.045311436,0.129518613,-0.978722572,0.974672944
0.045537996,0.004161153,-0.985838413,0.971894692
0.045764552,-0.118595116,-0.977935433,0.970422513
0.045991108,-0.236364558,-0.960853577,0.979107801
0.046217668,-0.363664627,-0.934708953,1.005932788
0.046444224,-0.489134967,-0.882246971,1.017612734
0.04667078,-0.604758382,-0.812146783,1.025315098
0.046897336,-0.710190237,-0.726507127,1.032182778
0.047123896,-0.803417027,-0.626156092,1.037550371
0.047350452,-0.881768048,-0.512588024,1.040261373
0.047577008,-0.942620456,-0.388281673,1.039295982
0.047803568,-0.983961761,-0.25664857,1.034049236
0.048030124,-1.00483274,-0.121717952,1.024504095
0.04825668,-1.0055474,0.012366801,1.011278511
0.04848324,-0.987629652,0.141885132,0.99554372
0.048709796,-0.953515351,0.263938934,0.978855285
0.048936352,-0.906226754,0.376563966,0.96304735
0.049162908,-0.849743962,0.478746146,0.951262673
0.049389468,-0.789980114,0.574488997,0.954106188
0.049616024,-0.718210459,0.672271371,0.96777506
0.04984258,-0.630261421,0.759613216,0.974241697
0.05006914,-0.532540321,0.835264742,0.981266383
0.050295696,-0.42572993,0.899772406,0.990836356
0.050522252,-0.309897482,0.951865494,1.002084368
0.050748812,-0.185834885,0.989394844,1.013436762
0.050975368,-0.055388983,1.01001287,1.023193937
0.051201924,0.078525066,1.01177406,1.029852935
0.05142848,0.212184474,0.993649185,1.032360954
0.05165504,0.341528893,0.955844462,1.03028062
0.051881596,0.46271044,0.899855137,1.023840219
0.052108152,0.572565556,0.828297615,1.013908255
0.052334712,0.66895479,0.744747341,1.002149113
0.052561268,0.751699626,0.653969347,0.992728235
0.052787824,0.82647413,0.558592081,0.995084601
0.053014384,0.892763197,0.449899226,0.999435439
0.05324094,0.941315413,0.332236528,0.996455817
0.053467496,0.973671198,0.211301893,0.992684092
0.053694052,0.9912377,0.088510469,0.990386281
0.053920612,0.994211018,-0.035177231,0.989692986
0.054147168,0.982342362,-0.158512086,0.990122598
0.054373724,0.955353796,-0.279843241,0.991013115
0.054600284,0.913232148,-0.39716652,0.991734201
0.05482684,0.856425166,-0.508284271,0.991816965
0.055053396,0.785933197,-0.611021519,0.991038287
0.055279952,0.70329529,-0.703445792,0.989460247
0.055506512,0.610543966,-0.784050524,0.987499159
0.055733068,0.510262489,-0.85206449,0.986381703
0.055959624,0.405333072,-0.908801436,0.990214949
0.056186184,0.293619007,-0.958269656,1.004492855
0.05641274,0.169711009,-0.99403441,1.016906235
0.056639296,0.040510934,-1.01028788,1.022322736
0.056865856,-0.089425176,-1.00844336,1.024954873
0.057092412,-0.217933863,-0.989215851,1.026043169
0.057318968,-0.342753857,-0.952853382,1.025409774
0.057545524,-0.461306781,-0.899887681,1.022601785
0.057772084,-0.570933402,-0.831471443,1.01730971
0.05799864,-0.669222713,-0.749459267,1.009548232
0.058225196,-0.754325569,-0.656296968,0.999732774
0.058451756,-0.825162113,-0.554760695,0.988651941
0.058678312,-0.881478786,-0.447656214,0.977400936
0.058904868,-0.923812687,-0.337597698,0.967402086
0.059131428,-0.95366317,-0.226875961,0.960946143
0.059357984,-0.974337041,-0.116282597,0.962854312
0.05958454,-0.987538993,-0.001002831,0.975234268
0.059811096,-0.986097634,0.120383196,0.986880658
0.060037656,-0.968053281,0.241964176,0.995673817
0.060264212,-0.934734523,0.361329973,1.004287978
0.060490768,-0.886241794,0.477066576,1.013017035
0.060717328,-0.822331011,0.587142289,1.020964359
0.060943884,-0.743200243,0.688903451,1.026934566
0.06117044,-0.649891913,0.779421091,1.029856736
0.061396996,-0.54442066,0.855945885,1.029037213
0.061623556,-0.429653674,0.91635251,1.024304202
0.061850112,-0.308999896,0.959470987,1.016065511
0.062076668,-0.186005443,0.98524183,1.005299488
0.062303228,-0.063966811,0.994770348,0.993659798
0.062529784,0.054610867,0.99053514,0.98414221
0.06275634,0.170001447,0.976186097,0.981839788
0.0629829,0.286151946,0.950941682,0.986173019
0.063209456,0.400394022,0.909860611,0.988161704
0.063436012,0.507938087,0.854485571,0.988146691
0.063662568,0.607694387,0.787119627,0.988849775
0.063889128,0.699130654,0.708664656,0.990989266
0.064115684,0.781237364,0.619585931,0.994218545
0.06434224,0.852560282,0.520516694,0.997796663
0.0645688,0.91143322,0.412553608,1.000910994
0.064795356,0.956268966,0.297366917,1.002877419
0.065021912,0.985845208,0.177152216,1.003273682
0.065248472,0.999532044,0.054462399,1.00203046
0.065475028,0.99744451,-0.068026677,0.999523179
0.065701584,0.980598092,-0.187821522,0.996849542
0.06592814,0.951109231,-0.303363115,0.996637949
0.0661547,0.910869718,-0.41591996,1.002673056
0.066381256,0.856590867,-0.526983917,1.011459962
0.066607812,0.785565555,-0.631188035,1.015511577
0.066834372,0.7008183,-0.724289954,1.015742227
0.067060928,0.605136395,-0.805069029,1.014326198
0.067287488,0.500394166,-0.872692049,1.011985734
0.06751404,0.388358831,-0.926246881,1.008755866
0.0677406,0.271001399,-0.964921534,1.004515325
0.06796716,0.150517315,-0.988216758,0.999227823
0.068193712,0.029207554,-0.996093392,0.993055127
0.068420272,-0.090700328,-0.989021838,0.986390746
0.068646824,-0.207227066,-0.967948198,0.979866771
0.068873384,-0.318783611,-0.934227526,0.974404061
0.069099944,-0.424380571,-0.889619768,0.971522201
0.069326496,-0.524350643,-0.836107373,0.974019136
0.069553056,-0.621103823,-0.773649871,0.984304082
0.069779616,-0.714213848,-0.69793576,0.997215746
0.070006168,-0.798238158,-0.608081341,1.006947074
0.070232728,-0.870198369,-0.506888151,1.014180799
0.070459288,-0.928876698,-0.396430075,1.019968724
0.07068584,-0.972987652,-0.278395325,1.024208928
0.0709124,-1.00116897,-0.154815376,1.026307107
0.07113896,-1.01235807,-0.028251423,1.025667005
0.071365512,-1.00612712,0.098328576,1.02196029
0.071592072,-0.982876897,0.221842691,1.015261174
0.071818632,-0.943861961,0.339446336,1.006099216
0.072045184,-0.891057849,0.44885236,0.995452531
0.072271744,-0.826953411,0.54858768,0.984800387
0.072498304,-0.754297078,0.638313532,0.976408247
0.072724856,-0.675299704,0.719456732,0.973647679
0.072951416,-0.589045882,0.794389725,0.978030086
0.073177968,-0.492492229,0.861228704,0.984263476
0.073404528,-0.386975408,0.916013658,0.988830988
0.073631088,-0.275229126,0.957726359,0.992990851
0.07385764,-0.158766583,0.986154556,0.997707636
0.0740842,-0.038759273,1.00066543,1.002833584
0.07431076,0.08329086,1.00036597,1.007669441
0.074537312,0.205365375,0.984480023,1.011375853
0.074763872,0.32500425,0.952685416,1.013237264
0.074990432,0.439536691,0.90533644,1.012826572
0.075216984,0.546389759,0.843548238,1.010115399
0.075443544,0.643404245,0.769144833,1.005552797
0.075670104,0.729158878,0.684507966,1.000223825
0.075896656,0.803413689,0.592228234,0.996207837
0.076123216,0.867499352,0.49387759,0.9964702
0.076349776,0.922172606,0.388038069,1.000975858
0.076576328,0.964015663,0.273828775,1.004308397
0.076802888,0.990224242,0.154606432,1.004447198
0.07702944,1.00095642,0.033646703,1.003045855
0.077256,0.996867418,-0.087099269,1.001330932
0.07748256,0.978354335,-0.206092447,0.999651302
0.077709112,0.945726633,-0.321752071,0.99792326
0.077935672,0.899439991,-0.432382345,0.99594679
0.078162232,0.840242505,-0.536249697,0.993571205
0.078388784,0.769236922,-0.631722152,0.990798319
0.078615344,0.687861145,-0.717417955,0.987841477
0.078841904,0.597821534,-0.792350948,0.985210611
0.079068456,0.500966311,-0.856119633,0.983908071
0.079295016,0.398885787,-0.909222186,0.985794855
0.079521576,0.29161942,-0.952854574,0.992973725
0.079748128,0.177142486,-0.986043334,1.003660917
0.079974688,0.056035336,-1.0045985,1.012358105
0.080201248,-0.067795038,-1.00642383,1.017485093
0.0804278,-0.191111073,-0.991753995,1.020099429
0.08065436,-0.311572999,-0.961125553,1.020840062
0.08088092,-0.426986903,-0.915112019,1.019747823
0.081107472,-0.535125256,-0.854588211,1.01668005
0.081334032,-0.633858681,-0.780905187,1.011589739
0.081560584,-0.721378207,-0.695906639,1.004672568
0.081787144,-0.796398222,-0.601807952,0.996422939
0.082013704,-0.858285785,-0.50099504,0.987650519
0.082240256,-0.90711534,-0.395789802,0.979507807
0.082466816,-0.943720162,-0.28817144,0.973650523
0.082693376,-0.969697356,-0.179184079,0.972419896
0.082919928,-0.986403584,-0.067846991,0.977595245
0.083146488,-0.992140532,0.04768176,0.986616385
0.083373048,-0.983561635,0.165854737,0.994901284
0.0835996,-0.959850967,0.28335771,1.001605471
0.08382616,-0.921485424,0.397907853,1.007466046
0.08405272,-0.8688187,0.507714152,1.012619594
0.084279272,-0.80219698,0.610819459,1.016620406
0.084505832,-0.72233355,0.705032349,1.018836371
0.084732392,-0.630535126,0.788138151,1.01873629
0.084958944,-0.52874589,0.85819751,1.016075182
0.085185504,-0.419426709,0.913826585,1.010997792
0.085412056,-0.305313766,0.954400957,1.004097682
0.085638616,-0.189106271,0.980171025,0.99649642
0.085865176,-0.073026389,0.992308319,0.990008653
0.086091728,0.041961532,0.992649257,0.987113318
0.086318288,0.156789005,0.982081413,0.989066694
0.086544848,0.271852255,0.958634675,0.992884089
0.0867714,0.384353608,0.920584202,0.995202969
0.08699796,0.491334438,0.86879003,0.996205646
0.08722452,0.591225266,0.804653704,0.997014899
0.087451072,0.682931483,0.729172707,0.998088247
0.087677632,0.765265942,0.643173397,0.999303981
0.087904192,0.836887419,0.54763329,1.000282772
0.088130744,0.896441758,0.443864137,1.000623198
0.088357304,0.94275707,0.333558291,1.000052027
0.088583864,0.975035548,0.218724251,0.998534618
0.088810416,0.993005514,0.101534016,0.996369107
0.089036976,0.997033656,-0.015916111,0.994329434
0.089263536,0.988148987,-0.132029846,0.993870301
0.089490088,0.967554867,-0.246424392,0.996887402
0.089716648,0.934859335,-0.359793216,1.003413135
0.0899432,0.887661755,-0.470911235,1.009700783
0.09016976,0.825324714,-0.575960636,1.012891538
0.09039632,0.749593139,-0.67191577,1.013360676
0.090622872,0.662488043,-0.757131755,1.012138902
0.090849432,0.565770745,-0.830459356,1.009759278
0.091075992,0.461169511,-0.890904725,1.006388547
0.091302544,0.350543946,-0.937660873,1.002088971
0.091529104,0.23589915,-0.970227957,0.996990698
0.091755664,0.119296797,-0.98850745,0.991378704
0.091982216,0.002716809,-0.992841482,0.985741589
0.092208776,-0.11209733,-0.98399955,0.980820926
0.092435336,-0.22383526,-0.963133812,0.977728963
0.092661888,-0.331964672,-0.931604505,0.978087497
0.092888448,-0.437114984,-0.890173912,0.983479103
0.093115008,-0.540004909,-0.837487459,0.992990546
0.09334156,-0.638641059,-0.771198392,1.002609362
