Unnamed: 0,Frequency (GHz),Re( S21 ),Im( S21 ),S2
0,0.0,0.0390882418,0.0,0.0015278906470152
1,0.000226630844,0.0349087641,-0.0169601161,0.0015062673491149
2,0.000453261688,0.0237176474,-0.0297634806,0.0014483915756173
3,0.0006798925,0.00873797666,-0.0359822251,0.0013710727592577
4,0.000906523375,-0.00656117126,-0.0353467911,0.00129244460937
5,0.00113315425,-0.0195781738,-0.0290337987,0.0012262663562951
6,0.001359785,-0.0287952162,-0.0187539998,0.0011808769845031
7,0.00158641588,-0.0335010812,-0.00620408822,0.0011608131522105
8,0.00181304675,-0.0334398188,0.00709729036,0.0011685930118309
9,0.0020396775,-0.0285661481,0.0197126735,0.0012046143137887
10,0.0022663085,-0.019063158,0.0300658718,0.0012673606400269
11,0.00249293925,-0.00560398586,0.0363520533,0.0013528764366451
12,0.00271957,0.0102502927,0.036703106,0.0014521864904829
13,0.002946201,0.0257067215,0.029802585,0.0015490296029607
14,0.00317283175,0.0369652994,0.0159362014,0.001620395874793
15,0.0033994625,0.0404944271,-0.00180187891,0.0016430453937635
16,0.0036260935,0.0352506563,-0.019463785,0.0016214476961069
17,0.00385272425,0.0228070132,-0.0321116,0.0015513147056649
18,0.004079355,0.00693079876,-0.0375687741,0.0014594487588284
19,0.004305986,-0.00870988984,-0.0359468982,0.001368041671226
20,0.004532617,-0.0215907134,-0.0287530553,0.0012928970942057
21,0.0047592475,-0.030395586,-0.0178631805,0.0012429848658589
22,0.0049858785,-0.0346176773,-0.00499704573,0.0012233540476746
23,0.0052125095,-0.0341731608,0.00841935817,0.0012386905110574
24,0.00543914,-0.0290503521,0.0211367141,0.0012906836400791
25,0.005665771,-0.0193302538,0.0317175239,0.0013796600343194
26,0.005892402,-0.00547176739,0.0384127386,0.0015054787251221
27,0.0061190325,0.0112687945,0.0391928218,0.0016630630101297
28,0.0063456635,0.0282839108,0.0321932472,0.0018363847754226
29,0.0065722945,0.0401597656,0.0172125623,0.0019090790739783
30,0.006798925,0.0451745763,-0.00304518733,0.0020500155097593
31,0.007025556,0.0389997289,-0.0233874582,0.0020679520553302
32,0.007252187,0.0239246283,-0.0377030522,0.001993907984489
33,0.0074788175,0.00498640258,-0.0429070182,0.0018658764215049
34,0.0077054485,-0.0128769493,-0.0394833386,0.001724749850277
35,0.0079320795,-0.0266201217,-0.0298603214,0.0016002696734341
36,0.00815871,-0.0350551195,-0.0167132374,0.001508193707548
37,0.008385341,-0.0380784608,-0.00221202685,0.0014548622396822
38,0.008611972,-0.0360164344,0.0120049072,0.0014413013437701
39,0.008838603,-0.029516235,0.0247040708,0.0014814992426666
40,0.009065234,-0.0187815428,0.0349341445,0.0015731408018951
41,0.009291864,-0.00435077166,0.0412285104,0.0017187192838403
42,0.009518495,0.0126600517,0.0420105122,0.001925160044353
43,0.009745126,0.0299330447,0.0350455381,0.0021241769057307
44,0.009971757,0.0448120907,0.0198889766,0.0024036948631003
45,0.010198388,0.0517956726,-0.0022130874,0.0026876894559264
46,0.010425019,0.0467769653,-0.0265333038,0.0028921006932204
47,0.010651649,0.029666489,-0.0456431657,0.0029633991447047
48,0.01087828,0.00559849571,-0.0535369627,0.002897549529356
49,0.011104911,-0.0180770308,-0.0491296463,0.0027405011881072
50,0.011331542,-0.0359037817,-0.0355743542,0.0025546162171083
51,0.011558173,-0.045697365,-0.0173079111,0.0023878129545887
52,0.011784804,-0.0475664921,0.00196386129,0.0022664279218657
53,0.012011434,-0.0425829329,0.0197067391,0.0022016617403213
54,0.012238065,-0.0320203118,0.0342337936,0.0021972529920166
55,0.012464696,-0.0172411092,0.0442416966,0.0022545835644927
56,0.012691327,0.000580893189,0.0489582941,0.0023972519980791
57,0.012917958,0.0199984275,0.04700974,0.0026098527573403
58,0.013144589,0.0384855792,0.0373544767,0.0028764967358903
59,0.01337122,0.053364493,0.0197506156,0.003237855929726
60,0.01359785,0.0603056662,-0.00461312616,0.0036580543087938
61,0.013824481,0.0553843789,-0.0318492092,0.0040818015528041
62,0.014051112,0.0371467546,-0.0553196706,0.0044401473326051
63,0.014277743,0.00872049015,-0.0677856505,0.0046709413621643
64,0.014504374,-0.0225625392,-0.065136537,0.0047518366275039
65,0.014731005,-0.0485835783,-0.0485064685,0.0047132415667737
66,0.014957635,-0.0639647022,-0.0229329448,0.0046174030847345
67,0.015184266,-0.0670574829,0.0055854395,0.0045279031472919
68,0.015410897,-0.0588568747,0.0320774354,0.0044930935612926
69,0.015637528,-0.0415852889,0.0530644767,0.0045451749403413
70,0.015864159,-0.0178663284,0.066231519,0.004705819799544
71,0.01609079,0.0094906548,0.0700267553,0.0049938189863788
72,0.01631742,0.0374719724,0.0634446591,0.0054293734838615
73,0.016544051,0.062477883,0.0459666364,0.0060164175260914
74,0.016770682,0.0801116154,0.0183096584,0.0067531145127222
75,0.016997312,0.08565934,-0.0167557988,0.0076182793226616
76,0.017223944,0.0752838254,-0.0537720248,0.0085590850179495
77,0.017450574,0.0479619689,-0.0848340765,0.0094971709963724
78,0.017677206,0.00725032995,-0.101472512,0.010349237975974
79,0.017903836,-0.0386610478,-0.0978202447,0.0110634768901617
80,0.018130468,-0.0793429539,-0.0732000694,0.0116535544937423
81,0.018357098,-0.105663277,-0.0323027149,0.0122081934962894
82,0.018583728,-0.112212338,0.0168894194,0.0128768612870953
83,0.01881036,-0.0976667777,0.0656671748,0.0138509773125149
84,0.01903699,-0.0638419092,0.106218301,0.0153581168376276
85,0.019263622,-0.0146112936,0.132135734,0.0176733421003841
86,0.019490252,0.04468688,0.138371542,0.0211436008795921
87,0.019716884,0.107370101,0.121188022,0.0262148752650226
88,0.019943514,0.165142357,0.0784039721,0.033419180916573
89,0.020170144,0.207934752,0.0105261197,0.0433476602852402
90,0.020396776,0.224842727,-0.0777265951,0.0565956754706358
91,0.020623406,0.206246868,-0.17635411,0.0736385426737015
92,0.020850038,0.146904901,-0.270393461,0.0946936736893783
93,0.021076668,0.0488299318,-0.342447221,0.1196544614102155
94,0.021303298,-0.0778407678,-0.3769674,0.1481636057944535
95,0.02152993,-0.216928467,-0.364369273,0.1798229269015186
96,0.02175656,-0.350268245,-0.302890867,0.2144307207673917
97,0.021983192,-0.46152541,-0.197702378,0.252091934342523
98,0.022209822,-0.538582027,-0.059101183,0.2935635496394282
99,0.022436454,-0.574569583,0.102584064,0.34065369589555
100,0.022663084,-0.563639641,0.275811225,0.3937614767426095
101,0.022889714,-0.502975464,0.448235661,0.4538995251781222
102,0.023116346,-0.391976893,0.606797218,0.521848748418473
103,0.023342976,-0.232833833,0.737267733,0.5977753039124313
104,0.023569608,-0.0318224803,0.824468017,0.6807601813083562
105,0.023796238,0.199160159,0.853678644,0.7684319961545841
106,0.024022868,0.441767305,0.813448548,0.8568568920102714
107,0.0242495,0.672251165,0.699279785,0.9409138465535034
108,0.02447613,0.865046084,0.516672015,1.0152546985278954
109,0.024702762,0.998163462,0.281614274,1.0756368961923723
110,0.024929392,1.05819702,0.017600527,1.120090711687558
111,0.025156024,1.04259562,-0.249725908,1.1493686559696088
112,0.025382654,0.958373666,-0.497783512,1.1662685085013336
113,0.025609284,0.818462372,-0.710087836,1.1741053892150295
114,0.025835916,0.637769938,-0.876452684,1.1749198011073276
115,0.026062546,0.429805577,-0.992022753,1.1688419764900018
116,0.026289178,0.206735358,-1.05677223,1.159507054346561
117,0.026515808,-0.0198085029,-1.07211709,1.1498274314572074
118,0.02674244,-0.239768445,-1.0401423,1.1393849114670085
119,0.02696907,-0.443993509,-0.964198291,1.1268085804014538
120,0.0271957,-0.623884261,-0.849289358,1.1105239847355683
121,0.027422332,-0.771808445,-0.702502251,1.089197688433385
122,0.027648962,-0.882098198,-0.533053875,1.0622436645673627
123,0.027875594,-0.952173829,-0.351562172,1.030230961413879
124,0.028102224,-0.983151972,-0.168535247,0.99499192952884
125,0.028328854,-0.979451358,0.00750165666,0.9593812375406888
126,0.028555486,-0.948570967,0.17167908,0.9292605859449616
127,0.028782116,-0.897491515,0.319491714,0.9075659748116532
128,0.029008748,-0.831160069,0.452121437,0.8952408540950296
129,0.029235378,-0.754142523,0.569394827,0.8929414140111653
130,0.02946201,-0.66174072,0.672184527,0.8897328188443321
131,0.02968864,-0.555746138,0.767738163,0.8982756568285295
132,0.02991527,-0.436919153,0.853061557,0.9186123662895016
133,0.030141902,-0.303283006,0.924765229,0.9471713104958186
134,0.030368532,-0.154193282,0.978224635,0.9806990047348147
135,0.030595164,0.00871843565,1.00772262,1.0155808899798475
136,0.030821794,0.180959806,1.00756371,1.0479310810965217
137,0.031048424,0.3552486,0.973582208,1.0740638835361151
138,0.031275056,0.522447288,0.904515862,1.091100113348158
139,0.031501686,0.673167288,0.802664638,1.097424718728946
140,0.031728318,0.79933691,0.673523128,1.0925728996392523
141,0.031954948,0.895194173,0.525297165,1.0773097189301912
142,0.03218158,0.973432004,0.364571214,1.0804820364888896
143,0.03240821,1.01530457,0.202254623,1.071750302387757
144,0.03263484,1.03444457,0.0536170937,1.0729503611393196
145,0.032861472,1.00787973,-0.0990930945,1.0256409915224587
146,0.033088102,0.970687091,-0.248284861,1.0038788008358317
147,0.033314734,0.916198671,-0.386888921,0.9891030419347104
148,0.033541364,0.845178008,-0.514399648,0.978932863069372
149,0.033767996,0.758771539,-0.629838705,0.9724310427125056
150,0.033994624,0.658133745,-0.73181206,0.9686889174691686
151,0.034221256,0.544679701,-0.818582714,0.9667536363410552
152,0.034447888,0.420329869,-0.888298571,0.9657515500141992
153,0.03467452,0.287589788,-0.939320147,0.9650302247219864
154,0.034901148,0.149427459,-0.970498145,0.9641952149516376
155,0.03512778,0.00910145137,-0.981319785,0.9630713568494867
156,0.035354412,-0.13005805,-0.972072124,0.9618393106276738
157,0.03558104,-0.281763822,-0.953777492,0.9890823556338576
158,0.035807672,-0.420748562,-0.912268996,1.009264073487916
159,0.036034304,-0.512051046,-0.87092942,1.0207143283312303
160,0.036260936,-0.643158436,-0.776995718,1.0173751195883016
161,0.036487564,-0.753289104,-0.677894711,1.0269857134068965
162,0.036714196,-0.849107027,-0.563767552,1.0388165959888511
163,0.036940828,-0.927941501,-0.43485862,1.0501774486664373
164,0.037167456,-0.986389041,-0.293236911,1.0589512261777216
165,0.037394088,-1.02124965,-0.142509311,1.0632597513468172
166,0.03762072,-1.03030133,0.0123579986,1.0616735507291664
167,0.037847352,-1.01296663,0.165547609,1.0535074043391737
168,0.03807398,-0.970643044,0.311212718,1.0390012747105335
169,0.038300612,-0.906550825,0.444366932,1.0192963685632732
170,0.038527244,-0.825166464,0.56154716,0.996234906214329
171,0.038753872,-0.731424689,0.661093116,0.9720261837013362
172,0.038980504,-0.629951596,0.74268198,0.9484155367196676
173,0.039207136,-0.526995778,0.80516988,0.9260230856890396
174,0.039433768,-0.432865858,0.87475723,0.9525730624593493
175,0.039660396,-0.308849663,0.926294148,0.9534089629542596
176,0.039887028,-0.185488969,0.960065246,0.9561314341977236
177,0.04011366,-0.0590279028,0.980575264,0.9650121416776358
178,0.040340288,0.0713692531,0.986620605,0.978513788498618
179,0.04056692,0.204953685,0.976001918,0.994585756934758
180,0.040793552,0.339502394,0.946391344,1.0109184515298577
181,0.04102018,0.471425682,0.896086395,1.0252130009532612
182,0.041246812,0.596178234,0.824665189,1.0355011606437643
183,0.041473444,0.708949804,0.733370423,1.040442001922837
184,0.041700076,0.805446863,0.62509954,1.0394940840247524
185,0.041926704,0.882548273,0.504028022,1.032935701136515
186,0.042153336,0.938628256,0.375034124,1.0216735971260489
187,0.042379968,0.973476827,0.243526742,1.0069624067751226
188,0.042606596,0.990859866,0.117752783,0.995668991953783
189,0.042833228,1.00674355,-0.0144386487,1.0137410500428845
190,0.04305986,0.99277252,-0.153473452,1.0091513769359468
191,0.043286492,0.95966512,-0.283881694,1.001545958732924
192,0.04351312,0.911231041,-0.406824738,0.9958483775307124
193,0.043739752,0.848413706,-0.521822572,0.9921046131773495
194,0.043966384,0.771891534,-0.627659917,0.98977351166932
195,0.044193012,0.682522178,-0.722729325,0.9881742006768192
196,0.044419644,0.581569016,-0.805259049,0.9866646563675928
197,0.044646276,0.47079733,-0.873571277,0.9847769019345396
198,0.044872908,0.352425516,-0.926332891,0.9822963692762844
199,0.045099536,0.228968933,-0.96273452,0.979284528278789
200,0.045326168,0.103046879,-0.982556283,0.9760355085344168
201,0.0455528,-0.0226959735,-0.986151099,0.9730090972720205
202,0.045779428,-0.145228833,-0.974841237,0.971406851290232
203,0.04600606,-0.262848139,-0.955090642,0.9812872786117356
204,0.046232692,-0.390230387,-0.924464643,1.0069146310952872
205,0.046459324,-0.51383549,-0.868092895,1.017612185133021
206,0.046685952,-0.627264142,-0.794639945,1.0249129460285993
207,0.046912584,-0.730084896,-0.705973804,1.0314229673015611
208,0.047139216,-0.820259452,-0.60299015,1.0364226895923627
209,0.047365844,-0.895160258,-0.487286925,1.0387604347785822
210,0.047592476,-0.952259481,-0.361441255,1.0374378999703644
211,0.047819108,-0.989686012,-0.228934035,1.0318891947298452
212,0.048045736,-1.00665033,-0.0938093662,1.0221450840759547
213,0.048272368,-1.00363362,0.0398400947,1.0088676763400093
214,0.048499,-0.982293904,0.16840291,0.9932608539320296
215,0.048725632,-0.945147038,0.289122254,0.976894601198214
216,0.04895226,-0.895257115,0.400174648,0.9616250508600472
217,0.049178892,-0.836708188,0.500754118,0.9508352785602012
218,0.049405524,-0.775013864,0.595734239,0.9555457729091196
219,0.049632152,-0.700059712,0.692026436,0.968984188488385
220,0.049858784,-0.609677434,0.777117431,0.975618075092864
221,0.050085416,-0.509728551,0.850432754,0.983059064780584
222,0.050312048,-0.400767207,0.912291825,0.9928907281684114
223,0.050538676,-0.282969087,0.961286962,1.004144127508803
224,0.050765308,-0.157304272,0.995224774,1.015216984772801
225,0.05099194,-0.0258194506,1.01180816,1.0244223966718713
226,0.051218568,0.108394958,1.00923991,1.0303146628566298
227,0.0514452,0.241510853,0.98671335,1.0319307271850102
228,0.051671832,0.369463205,0.94469291,1.0289477540531402
229,0.051898464,0.488504529,0.884915829,1.021712699268269
230,0.052125092,0.595656157,0.81018579,1.0112072716899327
231,0.052351724,0.689031422,0.724206567,0.9992394521892676
232,0.052578356,0.768906057,0.631779134,0.9903613986490772
233,0.052804984,0.841375351,0.534578204,0.9936863374622388
234,0.053031616,0.9043262,0.424008012,0.997588670246632
235,0.053258248,0.949505806,0.305450618,0.9948613556642916
236,0.05348488,0.978733122,0.183948904,0.991755723382668
237,0.053711508,0.993227541,0.0607596077,0.9901926781287644
238,0.05393814,0.993065834,-0.0631488115,0.990167523051978
239,0.054164772,0.97792989,-0.186457634,0.99111331903229
240,0.0543914,0.947529674,-0.307413995,0.9923158474324064
241,0.054618032,0.901900709,-0.423907995,0.9931228771196228
242,0.054844664,0.841594875,-0.533660531,0.9930754959734676
243,0.055071292,0.767753124,-0.6344648,0.9919904418507992
244,0.055297924,0.682067037,-0.724415183,0.9899928003228828
245,0.055524556,0.586713731,-0.802097917,0.9875940705996792
246,0.055751188,0.484395117,-0.866927743,0.9862023409565176
247,0.055977816,0.377881199,-0.920610189,0.9903173206482934
248,0.056204448,0.264226705,-0.966836274,1.0045881323573602
249,0.05643108,0.13907972,-0.998293638,1.0159333561865536
250,0.056657708,0.00967410393,-1.0103097,1.0208192782009389
251,0.05688434,-0.119894326,-1.00442743,1.0232491115433993
252,0.057110972,-0.247542933,-0.981315076,1.0242567820631283
253,0.057337604,-0.371019363,-0.94124651,1.023600360308106
254,0.057564232,-0.487760067,-0.884814262,1.0208061611984491
255,0.057790864,-0.59514302,-0.813244462,1.0155617692283898
256,0.058017496,-0.69082129,-0.728462815,1.0078921275549884
257,0.058244124,-0.773032606,-0.63296324,0.9982218731304487
258,0.058470756,-0.840796173,-0.529542148,0.9873530910398998
259,0.058697388,-0.893957198,-0.420995682,0.9763968361186562
260,0.05892402,-0.933148265,-0.309905648,0.9668071951348102
261,0.059150648,-0.960007489,-0.198487476,0.9610116570649356
262,0.05937728,-0.977964163,-0.0871497393,0.9640089811723483
263,0.059603912,-0.98787874,0.0292543396,0.9767602213294196
264,0.05983054,-0.982458174,0.150965199,0.988014554968524
265,0.060057172,-0.960509896,0.272190541,0.9966669509238036
266,0.060283804,-0.923308492,0.390742481,1.0051782578573494
267,0.060510436,-0.870927393,0.505141795,1.0136827569335984
268,0.060737064,-0.803207994,0.61326611,1.021238403300036
269,0.060963696,-0.720503867,0.712417662,1.0266647474915
270,0.061190328,-0.624041259,0.799694121,1.0289381800962678
271,0.061416956,-0.516009808,0.87245214,1.0274388585427765
272,0.061643588,-0.39940384,0.928741157,1.0220835641124444
273,0.06187022,-0.277684122,0.967605352,1.0133685888299548
274,0.062096848,-0.154365048,0.98920536,1.002355812296772
275,0.06232348,-0.0326314047,0.994853795,0.9907988819985972
276,0.062550112,0.0852573887,0.987219036,0.9818702473687124
277,0.062776744,0.200110376,0.96983403,0.9806222083289023
278,0.063003372,0.315701395,0.941080332,0.9852995620821762
279,0.063230004,0.428599745,0.896479309,0.9873728928791824
280,0.063456636,0.534451306,0.837951779,0.9878013824143704
281,0.063683264,0.632325351,0.767603457,0.989050416715624
282,0.063909896,0.721611679,0.686238587,0.9916468135569556
283,0.064136528,0.801193058,0.594337761,0.9951476903378844
284,0.06436316,0.869532466,0.492625386,0.99876648035969
285,0.064589788,0.924933195,0.382339209,1.0016846859516535
286,0.06481642,0.965846717,0.265306115,1.0032472153960714
287,0.065043052,0.991159022,0.143860683,1.003092103005223
288,0.06526968,1.00040281,0.0206469093,1.0012320771195384
289,0.065496312,0.99389106,-0.101636261,0.9981493686979838
290,0.065722944,0.972851932,-0.220567808,0.9950910395220576
291,0.065949576,0.939567208,-0.334844291,0.994907237564208
292,0.066176204,0.895623863,-0.446097612,1.0011451834071452
293,0.066402836,0.837306499,-0.555228472,1.009360829387092
294,0.066629468,0.762701392,-0.65658319,1.0128148987493135
295,0.066856096,0.675029397,-0.746454537,1.012859062622068
296,0.067082728,0.576922119,-0.82379353,1.011474911461311
297,0.06730936,0.470192939,-0.887789309,1.009251257060155
298,0.067535992,0.356608301,-0.937543213,1.00615675658447
299,0.067762624,0.238162041,-0.972273529,1.0020369729673997
300,0.067989248,0.117077418,-0.991531909,0.9968426483707308
301,0.06821588,-0.00432673004,-0.995348334,0.9907370265894144
302,0.068442512,-0.123824738,-0.984274387,0.9841286346449946
303,0.068669144,-0.23946318,-0.959339142,0.9776742039490086
304,0.068895776,-0.349707067,-0.921980381,0.9723428556586478
305,0.069122408,-0.453680396,-0.874032915,0.969759438218114
306,0.06934904,-0.551954985,-0.817431986,0.9728493572022544
307,0.069575664,-0.646966577,-0.751653731,0.9835490830813174
308,0.069802296,-0.737525761,-0.672387898,0.9960497335154874
309,0.070028928,-0.818231583,-0.57949096,1.0053126961404075
310,0.07025556,-0.886498392,-0.475815773,1.0122800488541732
311,0.070482192,-0.941181779,-0.363368422,1.017859751228375
312,0.070708824,-0.981015086,-0.243873313,1.0218647917531831
313,0.070935456,-1.00469851,-0.119439863,1.0236849768696792
314,0.07116208,-1.01128018,0.00730320485,1.0227409392619131
315,0.071388712,-1.00047994,0.133358374,1.0187445662583274
316,0.071615344,-0.972857058,0.255670398,1.0118182077138935
317,0.071841976,-0.929811716,0.371477634,1.0025454597731027
318,0.072068608,-0.873426497,0.47862348,0.9919542812690012
319,0.07229524,-0.806249082,0.575802684,0.9815863131274466
320,0.072521872,-0.731012166,0.662894964,0.9738085201365728
321,0.072748496,-0.649680853,0.74156636,0.9720058770384572
322,0.072975128,-0.56084615,0.813938797,0.97704476923163
323,0.07320176,-0.461786032,0.87752229,0.9832917087971492
324,0.073428392,-0.354307503,0.928641737,0.9879092823804722
325,0.073655024,-0.241032317,0.966510832,0.9922397662117208
326,0.073881656,-0.123412542,0.990884721,0.9970831858341496
327,0.074108288,-0.00268276897,1.00109231,1.0021930103904826
328,0.074334912,0.11954356,0.996264935,1.0068344834480278
329,0.074561544,0.241137668,0.975720882,1.010178614499336
330,0.074788176,0.359568387,0.939289153,1.0115535378732392
331,0.075014808,0.472157449,0.887505054,1.0105978775217306
332,0.07524144,0.576394796,0.821665466,1.0073650988728788
333,0.075468072,0.670255661,0.743745267,1.002399673287448
