Frequency (GHz),Re( S21 ),Im( S21 ),S2
0,0.038704954,0,0.001498073
0.000226632,0.034571718,-0.016784193,0.001476913
0.000453263,0.023502568,-0.029459752,0.001420248
0.000679895,0.008682286,-0.03562532,0.001344546
0.000906527,-0.00646063,-0.035011664,0.001267556
0.001133159,-0.0193526,-0.028779151,0.001202763
0.00135979,-0.028491298,-0.018616872,0.001158342
0.001586422,-0.033170521,-0.006201254,0.001138739
0.001813054,-0.033134576,0.006966879,0.001146438
0.002039686,-0.02833526,0.019466003,0.001181812
0.002266318,-0.018950051,0.029736908,0.001243388
0.002492949,-0.005640297,0.035992399,0.001327266
0.002719581,0.010054276,0.036380753,0.001424648
0.002946213,0.025374275,0.029592566,0.001519574
0.003172844,0.036560364,0.015900768,0.001589495
0.003399476,0.040113427,-0.001644342,0.001611791
0.003626108,0.034986224,-0.019145763,0.001590596
0.00385274,0.02271937,-0.031713642,0.001521925
0.004079371,0.007027575,-0.0371833,0.001431985
0.004306003,-0.008463248,-0.035649769,0.001342533
0.004532635,-0.021251133,-0.028590309,0.001269016
0.004759267,-0.030025926,-0.01785286,0.001220281
0.004985898,-0.03427672,-0.005134141,0.001201253
0.00521253,-0.033911511,0.008156917,0.001216526
0.005439162,-0.028910438,0.020784507,0.001267809
0.005665794,-0.019343158,0.031324722,0.001355396
0.005892425,-0.005652525,0.03804224,0.001479163
0.006119057,0.010930511,0.038917963,0.001634084
0.006345689,0.027833395,0.032088276,0.001804355
0.006572321,0.03969577,0.017320605,0.001875757
0.006798952,0.044797722,-0.002714673,0.002014205
0.007025584,0.038819607,-0.02290877,0.002031774
0.007252216,0.023988962,-0.037196972,0.001959085
0.007478848,0.00526867,-0.042494055,0.001833504
0.007705479,-0.012453818,-0.039243527,0.001695152
0.007932111,-0.026148954,-0.029822998,0.001573179
0.008158743,-0.034619734,-0.016868005,0.001483056
0.008385375,-0.037744552,-0.002523161,0.001431018
0.008612006,-0.035830017,0.011587976,0.001418071
0.008838638,-0.02950435,0.024240866,0.001458126
0.00906527,-0.018955335,0.034488522,0.001548763
0.009291901,-0.00470113,0.040870875,0.001692529
0.009518533,0.01216933,0.041813068,0.001896425
0.009745165,0.0293706,0.035068534,0.002092434
0.009971796,0.044284858,0.020173086,0.002368102
0.010198428,0.051430106,-0.001690086,0.002647912
0.01042506,0.046689659,-0.025868675,0.002849113
0.010651692,0.029907113,-0.044996325,0.002919105
0.010878323,0.006116768,-0.053073082,0.002854167
0.011104955,-0.01741094,-0.048954446,0.002699679
0.011331587,-0.035241332,-0.035707656,0.002516988
0.011558219,-0.045165002,-0.017701391,0.002353217
0.01178485,-0.047246967,0.001395625,0.002234224
0.012011482,-0.042517129,0.019062137,0.002171071
0.012238114,-0.032213483,0.033611476,0.00216744
0.012464746,-0.017668655,0.04373458,0.002224895
0.012691377,-3.01E-05,0.048646513,0.002366484
0.012918009,0.019282801,0.046961647,0.002577223
0.013144641,0.038028397,0.037606657,0.00286042
0.013371273,0.052780435,0.020311512,0.003198332
0.013597904,0.059996951,-0.003808047,0.003614135
0.013824536,0.055462744,-0.030937824,0.004033265
0.014051168,0.037647694,-0.054499146,0.004387506
0.0142778,0.009568425,-0.067260228,0.004615493
0.014504431,-0.021545405,-0.065047175,0.004695339
0.014731063,-0.047620982,-0.048882749,0.004657281
0.014957695,-0.063257337,-0.02369429,0.00456291
0.015184326,-0.066737942,0.004591735,0.004475037
0.015410958,-0.058978096,0.031032518,0.004441433
0.01563759,-0.04212812,0.052145023,0.004493882
0.015864222,-0.018752832,0.065591306,0.004653888
0.016090853,0.00838571,0.069784448,0.004940189
0.016317485,0.036312752,0.063672975,0.005372864
0.016544117,0.061457317,0.04667851,0.005955885
0.016770749,0.079432808,0.01944048,0.006687503
0.01699738,0.085503101,-0.015361881,0.007546768
0.017224012,0.075761057,-0.052358337,0.008481133
0.017450644,0.049064312,-0.083697885,0.009412643
0.017677276,0.008820476,-0.100898102,0.010258228
0.017903908,-0.036912795,-0.097997993,0.010966161
0.01813054,-0.077775605,-0.074165188,0.01154952
0.01835717,-0.104619324,-0.033921741,0.012095887
0.018583802,-0.111943491,0.014885656,0.012752928
0.018810434,-0.098293483,0.063626275,0.013709912
0.019037066,-0.065342553,0.104509071,0.015191795
0.019263698,-0.016830705,0.131101221,0.017470803
0.01949033,0.04202361,0.138291091,0.02089041
0.019716962,0.1046388,0.122242741,0.025892566
0.019943592,0.162794724,0.080639601,0.033004867
0.020170224,0.206454933,0.013815282,0.042814501
0.020396856,0.224679485,-0.073711298,0.055914226
0.020623488,0.20772244,-0.172134101,0.072778761
0.02085012,0.150123626,-0.266631186,0.093629292
0.021076752,0.053615451,-0.33984077,0.118366366
0.021303384,-0.071947455,-0.376120776,0.146643274
0.021530016,-0.210603803,-0.365676373,0.178073172
0.021756646,-0.344297081,-0.306468606,0.212463486
0.021983278,-0.456683815,-0.203383803,0.249925078
0.02220991,-0.535546184,-0.066480219,0.291229335
0.022436542,-0.573853314,0.094102196,0.338162849
0.022663174,-0.565574229,0.26695177,0.391137456
0.022889806,-0.50767678,0.43981123,0.451169631
0.023116438,-0.399324626,0.599655032,0.519046314
0.02334307,-0.242452919,0.732226908,0.594939663
0.0235697,-0.043075699,0.82224232,0.677937949
0.023796332,0.187151179,0.85478133,0.765676686
0.024022964,0.43005541,0.818094492,0.854226254
0.024249596,0.661945879,0.707313716,0.93846504
0.024476228,0.857162058,0.527557433,1.013043639
0.02470286,0.993471563,0.294496864,1.073714149
0.024929492,1.05712581,0.031435683,1.11850318
0.025156122,1.04520392,-0.236021042,1.148157167
0.025382754,0.964391053,-0.485196918,1.165466152
0.025609386,0.827368975,-0.699424088,1.173733476
0.025836018,0.64888376,-0.868292093,1.174981293
0.02606265,0.442359596,-0.98672837,1.169314888
0.026289282,0.219961032,-1.05450559,1.160364895
0.026515914,-0.006639033,-1.07284021,1.151030193
0.026742546,-0.22731705,-1.04364514,1.140868219
0.026969176,-0.432821721,-0.970130801,1.128488413
0.027195808,-0.614420652,-0.857194185,1.112294608
0.02742244,-0.764327586,-0.711861432,1.090943357
0.027649072,-0.876713157,-0.543341756,1.063846223
0.027875704,-0.948853374,-0.362301558,1.031585144
0.028102336,-0.981762767,-0.179338828,0.996020546
0.028328968,-0.979811668,-0.00308596,0.960040428
0.0285556,-0.950512469,0.161482587,0.92955058
0.02878223,-0.900859237,0.309782952,0.907512842
0.029008862,-0.835859656,0.442978472,0.894891291
0.029235494,-0.760111213,0.560880899,0.892356439
0.029462126,-0.668905973,0.664466679,0.888951168
0.029688758,-0.564131141,0.761022985,0.897399928
0.02991539,-0.446483225,0.847567022,0.917717127
0.030142022,-0.313908637,0.920753896,0.946326369
0.030368652,-0.165669084,0.975973368,0.97997026
0.030595284,-0.003291946,1.00747764,1.015022032
0.030821916,0.168825313,1.00949407,1.047580264
0.031048548,0.343463123,0.97773838,1.073939257
0.03127518,0.511497974,0.910809457,1.091204044
0.031501812,0.663500428,0.810869753,1.097742574
0.031728444,0.791313291,0.683301568,1.093077757
0.031955076,0.88905555,0.536236167,1.077968998
0.032181706,0.969328761,0.376405478,1.081279331
0.032408338,1.01323056,0.21450974,1.072650596
0.03263497,1.03422177,0.066064544,1.073979194
0.032861602,1.00942862,-0.087116502,1.026535424
0.033088234,0.97397548,-0.236860365,1.004731068
0.033314866,0.921056628,-0.376190156,0.989864345
0.033541498,0.851446271,-0.504577637,0.979559344
0.033768128,0.766300678,-0.621021628,0.972884592
0.03399476,0.666783869,-0.724113405,0.968940951
0.034221392,0.554315269,-0.81210959,0.966787404
0.034448024,0.430814296,-0.883159459,0.965571588
0.034674656,0.298773974,-0.935623646,0.964657494
0.034901288,0.161142439,-0.968352139,0.963672751
0.03512792,0.021149609,-0.980820537,0.962456232
0.035354552,-0.117903583,-0.973291039,0.961196701
0.035581184,-0.269629121,-0.956954777,0.988462308
0.035807816,-0.408973604,-0.917319655,1.008734758
0.036034448,-0.500624478,-0.877184868,1.020078161
0.03626108,-0.6329301,-0.785226703,1.017181487
0.036487708,-0.744364023,-0.687711954,1.02702553
0.03671434,-0.841737032,-0.574947476,1.039085831
0.036940972,-0.9223544,-0.447126478,1.050659727
0.037167604,-0.982758164,-0.306266934,1.059613044
0.037394236,-1.01967132,-0.155940011,1.064046888
0.037620868,-1.0307852,-0.001102948,1.062519345
0.0378475,-1.01543665,0.152406394,1.054339299
0.038074132,-0.974952936,0.298694074,1.039751377
0.038300764,-0.912507951,0.43271035,1.019909008
0.038527396,-0.832560003,0.550924361,0.99667381
0.038754028,-0.740048647,0.651616216,0.972275693
0.03898066,-0.63961792,0.73441875,0.948481984
0.039207292,-0.537520945,0.798137546,0.925952309
0.039433924,-0.444333315,0.868818998,0.952278546
0.039660556,-0.321163565,0.921898365,0.953042631
0.039887184,-0.198424175,0.957260728,0.955720255
0.040113816,-0.072422795,0.979464829,0.964596412
0.040340448,0.05771406,0.987323463,0.978138533
0.04056708,0.191289812,0.978620648,0.994290165
0.040793712,0.326131016,0.950985491,1.010734844
0.041020344,0.458682448,0.902646422,1.025160151
0.041246976,0.584407568,0.833099842,1.035587552
0.041473608,0.698473632,0.743504167,1.040663861
0.04170024,0.796537459,0.636683941,1.039838364
0.041926872,0.875406921,0.516764402,1.033382725
0.042153504,0.933376312,0.388599277,1.022200738
0.042380136,0.970149338,0.257597983,1.007546459
0.042606768,0.989378631,0.132057771,0.99630933
0.0428334,1.00714159,6.60E-05,1.014334187
0.043060032,0.995168388,-0.139172271,1.009729041
0.043286664,0.963920832,-0.27006045,1.002076017
0.043513292,0.917231023,-0.393687516,0.99630261
0.043739924,0.85604614,-0.509554505,0.992460787
0.043966556,0.781040013,-0.616435945,0.990016776
0.044193188,0.69305855,-0.712717652,0.988296605
0.04441982,0.593349636,-0.796621561,0.986669702
0.044646452,0.483659327,-0.866460264,0.984679734
0.044873084,0.366183788,-0.920886576,0.982122652
0.045099716,0.24341549,-0.959070981,0.979068247
0.045326348,0.117953636,-0.980766773,0.975816523
0.04555298,-0.007572083,-0.98629266,0.972830548
0.045779612,-0.130134061,-0.97692281,0.971313051
0.046006244,-0.24795863,-0.959076405,0.981311033
0.046232876,-0.375728697,-0.930515766,1.007031645
0.046459508,-0.500173032,-0.87619108,1.017883871
0.04668614,-0.614759326,-0.804616511,1.025336759
0.046912768,-0.719011903,-0.717639983,1.031985262
0.0471394,-0.810861588,-0.616115034,1.03709425
0.047366032,-0.88763833,-0.501597822,1.03950218
0.047592664,-0.946758211,-0.37663281,1.038203384
0.047819296,-0.986285925,-0.244685411,1.032630876
0.048045928,-1.00536573,-0.109804116,1.022817195
0.04827256,-1.00442266,0.023895644,1.009435882
0.048499192,-0.985073268,0.152766973,0.993707091
0.048725824,-0.949805021,0.274012595,0.97721248
0.048952456,-0.901671052,0.385768473,0.961828001
0.049179088,-0.844751716,0.487180114,0.950949925
0.04940572,-0.784629643,0.583048284,0.955588978
0.049632352,-0.711320102,0.680438042,0.968972217
0.049858984,-0.622450709,0.766921759,0.97561387
0.050085616,-0.52384305,0.841834903,0.983097545
0.050312244,-0.416041076,0.905488789,0.993000124
0.050538876,-0.299180955,0.956469893,1.0043439
0.050765508,-0.17418319,0.992561102,1.015517325
0.05099214,-0.043047626,1.01141918,1.024821856
0.051218772,0.09116777,1.01118147,1.030799528
0.051445404,0.224644661,0.990967453,1.032481717
0.051672036,0.353303641,0.951165199,1.029538699
0.051898668,0.473359883,0.893446624,1.022316449
0.0521253,0.581781089,0.820567727,1.01180063
0.052351932,0.676614285,0.736204445,0.999803876
0.052578564,0.758054972,0.645165682,0.990886098
0.052805196,0.83216238,0.549228907,0.994146619
0.053031828,0.89697367,0.439789355,0.997976441
0.05325846,0.944168031,0.3220779,0.995187444
0.053485092,0.975478113,0.201162636,0.992023955
0.053711724,0.992106199,0.078319483,0.990408651
0.053938352,0.994118631,-0.045486774,0.990340899
0.054164984,0.981179535,-0.168950915,0.991257692
0.054391616,0.95297122,-0.290334731,0.992448402
0.054618248,0.909490466,-0.407538444,0.993260491
0.05484488,0.851245522,-0.518283963,0.993237205
0.055071512,0.779330552,-0.620352924,0.99219386
0.055298144,0.695394337,-0.711817443,0.990257356
0.055524776,0.601575971,-0.791227162,0.987934071
0.055751408,0.500555634,-0.857948422,0.986631438
0.05597804,0.395120651,-0.91363132,0.990842518
0.056204672,0.282388806,-0.9620049,1.005196865
0.056431304,0.157880917,-0.995840967,1.016625616
0.056657936,0.028728573,-1.01032877,1.021589554
0.056884568,-0.100942738,-1.00691903,1.024075369
0.0571112,-0.229029983,-0.986233294,1.025110843
0.057337828,-0.353265882,-0.94850111,1.024451139
0.05756446,-0.471067458,-0.894269347,1.021622215
0.057791092,-0.579782844,-0.82472223,1.016314903
0.058017724,-0.677026927,-0.741751194,1.008560294
0.058244356,-0.760994256,-0.647827685,0.998792967
0.058470988,-0.830660939,-0.545738459,0.987828061
0.05869762,-0.885831654,-0.438278854,0.976786073
0.058924252,-0.927104652,-0.328040272,0.967133456
0.059150884,-0.956087291,-0.217259675,0.961304674
0.059377516,-0.976205766,-0.106397048,0.964298029
0.059604148,-0.988418996,0.009682671,0.977065866
0.05983078,-0.985451698,0.131374687,0.988374357
0.060057412,-0.965989113,0.252936244,0.99711171
0.060284044,-0.93124634,0.372162968,1.005725021
0.060510676,-0.881251991,0.487576663,1.014336074
0.060737304,-0.815792739,0.597055554,1.021993128
0.060963936,-0.735158026,0.697888434,1.02750559
0.061190568,-0.640510917,0.787138581,1.02984138
0.0614172,-0.533988118,0.862109423,1.028375967
0.061643832,-0.418548971,0.920783341,1.023025202
0.061870464,-0.297641784,0.962131858,1.014288344
0.062097096,-0.174790546,0.98624599,1.003232888
0.062323728,-0.053211674,0.994380355,0.991623773
0.06255036,0.064782113,0.989163935,0.982642012
0.062776992,0.179929733,0.974149346,0.981341657
0.063003624,0.296034396,0.947804034,0.98596885
0.063230256,0.409771919,0.905592859,0.988011452
0.063456888,0.516764998,0.849343061,0.988429698
0.06368352,0.616047084,0.781135321,0.989686399
0.063910152,0.706999123,0.701755702,0.992308825
0.064136784,0.788499415,0.611653388,0.995851195
0.064363412,0.859000444,0.51151216,0.999526453
0.064590044,0.916780293,0.402524114,1.002511768
0.064816676,0.960251391,0.286474824,1.004150559
0.065043308,0.988247335,0.165667191,1.004078413
0.06526994,1.00024045,0.04272851,1.002306683
0.065496572,0.996480882,-0.07964161,0.999316934
0.065723204,0.978140116,-0.198999852,0.996359028
0.065949836,0.947464824,-0.313997656,0.996284121
0.066176468,0.906070054,-0.426233381,1.002637838
0.0664031,0.850259244,-0.536687434,1.010974184
0.066629732,0.777987719,-0.639756262,1.014552966
0.066856364,0.69238174,-0.731660903,1.014720151
0.067082996,0.596042573,-0.811287284,1.013453806
0.067309624,0.490760475,-0.877777696,1.011339527
0.067536256,0.37827912,-0.930186749,1.008342481
0.067762888,0.260574698,-0.967680573,1.004304865
0.06798952,0.139863089,-0.989754975,0.999176594
0.068216152,0.018467316,-0.996384025,0.993122167
0.068442784,-0.101370059,-0.988066018,0.986550345
0.068669416,-0.217668161,-0.965785027,0.980120147
0.068896048,-0.328856915,-0.930945277,0.974805979
0.06912268,-0.43401593,-0.885363281,0.972237967
0.069349312,-0.533672929,-0.830987215,0.975346547
0.069575944,-0.630273759,-0.767347634,0.986067403
0.069802576,-0.722723603,-0.690110743,0.998582244
0.070029208,-0.805627525,-0.599009693,1.007848321
0.07025584,-0.876330316,-0.496837288,1.014802113
0.070482472,-0.93363893,-0.385577023,1.020351292
0.070709104,-0.976246119,-0.26692912,1.02430764
0.070935736,-1.00280511,-0.142977878,1.026060762
0.071162368,-1.01230788,-0.016335782,1.025034102
0.071389,-1.00441062,0.110003695,1.020941506
0.071615632,-0.979611278,0.232971787,1.01391411
0.071842264,-0.939254045,0.349778265,1.004542996
0.072068896,-0.88537842,0.458226115,0.993866119
0.072295528,-0.820504308,0.55696094,0.983432808
0.07252216,-0.74736011,0.645809352,0.975616853
0.072748792,-0.66794467,0.726401448,0.973809146
0.072975416,-0.580892026,0.800896823,0.978871267
0.073202048,-0.483413666,0.866877794,0.985165882
0.07342868,-0.377214491,0.920629323,0.989849123
0.073655312,-0.26488471,0.961295784,0.994253494
0.073881944,-0.14786467,0.988588512,0.999171207
0.074108576,-0.027370261,1.00179708,1.004346521
0.074335208,0.095003471,1.00000536,1.009036379
0.07456184,0.217139468,0.982475698,1.012408046
0.074788472,0.336503893,0.948973179,1.013784964
0.075015104,0.450399101,0.899971902,1.012808775
0.075241736,0.556281149,0.836713493,1.009538186
0.075468368,0.652079523,0.761131108,1.004528268
0.075695,0.736515343,0.675672352,0.998987978
0.075921632,0.809555471,0.58289808,0.995150232
0.076148264,0.872678578,0.484102517,0.995923147
0.076374896,0.926284373,0.377602309,1.000586243
0.076601528,0.966726303,0.262957186,1.003706227
0.07682816,0.991584361,0.143654555,1.003876176
0.077054792,1.00111961,0.022746947,1.002757897
0.077281424,0.995905101,-0.097915351,1.001414386
0.077508056,0.976258755,-0.216792122,1.000079981
0.077734688,0.942450464,-0.332259506,0.998609256
0.07796132,0.894934475,-0.44256562,0.996772043
0.078187952,0.834492266,-0.545930147,0.994417067
0.078414584,0.762283444,-0.640695572,0.991566865
0.078641216,0.679814696,-0.725486755,0.988479053
0.078867848,0.588856995,-0.799362004,0.985732174
0.07909448,0.491294771,-0.862014472,0.984439502
0.079321112,0.388648748,-0.914078474,0.986587306
0.079547744,0.280692488,-0.95671761,0.994096858
0.079774368,0.165427536,-0.988525212,1.004548364
0.080001,0.043947656,-1.00535107,1.01266217
0.080227632,-0.079829335,-1.00549102,1.017384914
0.080454264,-0.202845693,-0.989259481,1.019780696
0.080680896,-0.322823197,-0.957166076,1.020381714
0.080907528,-0.437573642,-0.909781158,1.019172448
0.08113416,-0.544870794,-0.848003447,1.015994028
0.081360792,-0.642600656,-0.773221195,1.010806619
0.081587424,-0.728991091,-0.687314808,1.003829656
0.081814056,-0.802810669,-0.592523694,0.995589298
0.082040688,-0.863491058,-0.491236478,0.986930085
0.08226732,-0.911180615,-0.38575241,0.979055035
0.082493952,-0.946795166,-0.277983665,0.973696004
0.082720584,-0.971980155,-0.168794677,0.973237065
0.082947216,-0.987861097,-0.056962416,0.979114264
0.083173848,-0.992332518,0.059111696,0.988218019
0.08340048,-0.982240736,0.177468896,0.996292073
0.083627112,-0.957031667,0.294872016,1.002859117
0.083853744,-0.91717869,0.40913555,1.008608648
0.084080376,-0.863010824,0.518447757,1.013575759
0.084307008,-0.794908106,0.620801747,1.017273706
0.08453364,-0.713660598,0.713977098,1.019074746
0.084760272,-0.620670974,0.795772493,1.018486319
0.084986904,-0.517974079,0.864310324,1.015329483
0.085213536,-0.408089101,0.918306708,1.009823924
0.085440168,-0.293766767,0.95726192,1.002649297
0.0856668,-0.177660525,0.981559575,0.995022461
0.085893432,-0.0618647,0.992489755,0.988863155
0.086120064,0.052908104,0.991891742,0.986648495
0.086346696,0.167750105,0.980334818,0.989196453
0.086573328,0.282713503,0.95561707,0.993130909
0.086799952,0.394809186,0.916311204,0.995500516
0.087026584,0.501263618,0.863402843,0.996729684
0.087253216,0.600590825,0.798203886,0.997838783
0.087479848,0.691656172,0.721643746,0.999157956
0.08770648,0.773201942,0.634547293,1.00049151
0.087933112,0.843830526,0.5379408,1.001430261
0.088159744,0.902166605,0.433215559,1.001580304
0.088386376,0.947061241,0.322151214,1.000706399
0.088613008,0.97778219,0.206826806,0.998835339
0.08883964,0.994158864,0.08945059,0.996353255
0.089066272,0.996677399,-0.027903874,0.994144464
0.089292904,0.986467302,-0.143757775,0.993784036
0.089519536,0.964670777,-0.257937044,0.997121227
0.089746168,0.930586219,-0.371111274,1.003714289
0.0899728,0.881833136,-0.481666088,1.0096319
0.090199432,0.818144202,-0.585776389,1.012493913
0.090426064,0.741336644,-0.680655181,1.012871495
0.090652696,0.653347135,-0.764755607,1.011713617
0.090879328,0.555879116,-0.836932302,1.00945727
0.09110596,0.450646073,-0.89617461,1.006210815
0.091332592,0.339518845,-0.941668689,1.002012966
0.091559224,0.224522516,-0.972922564,0.996988676
0.091785856,0.107737526,-0.989863932,0.991437978
0.092012488,-0.008849897,-0.992875159,0.985879402
0.09223912,-0.12351203,-0.982775331,0.981102573
0.092465752,-0.234992981,-0.960766554,0.978294072
0.092692384,-0.342884123,-0.928208411,0.979140376
0.092919016,-0.447930932,-0.885677993,0.985067627
0.093145648,-0.550626814,-0.831549764,0.994664898
0.09337228,-0.648605764,-0.763677061,1.003892091
