Frequency (GHz),Re( S21 ),Im( S21 ),S2
0.0,0.0387581326,0.0,0.0015021928426391829
0.000226536719,0.0346186385,-0.0168057904,0.0014808847225624144
0.000453073438,0.0235348511,-0.0294956248,0.001423881098641546
0.000679610187,0.00869795866,-0.0356658399,0.001347706620623501
0.000906146875,-0.00645782193,-0.0350506715,0.0012702530366805011
0.00113268363,-0.0193585642,-0.0288149789,0.0012050570168929669
0.00135922037,-0.0285038669,-0.018650502,0.0011603116531049198
0.00158575713,-0.0331904329,-0.00623407587,0.0011404685380423185
0.00181229375,-0.0331650488,0.00693524722,0.001148018115908899
0.0020388305,-0.0283805132,0.019439809,0.001183359703451855
0.00226536725,-0.0190118905,0.0297250189,0.0012450287289893474
0.002491904,-0.00571461255,0.0360068716,0.0013291515990155039
0.00271844075,0.00998141989,0.0364330672,0.0014269971286202036
0.0029449775,0.0253266264,0.0296846479,0.0015226163257521515
0.00317151425,0.0365633443,0.0160159655,0.001593389297297533
0.003398051,0.0401691385,-0.00153872196,0.0016159273531023684
0.0036245875,0.0350900739,-0.0190823693,0.0015954501044090435
0.00385112425,0.0228367541,-0.0317057222,0.0015267701580474397
0.004077661,0.00713053625,-0.0372235849,0.0014364398200200723
0.004304198,-0.008388808,-0.0357212685,0.0013463811229099563
0.0045307345,-0.0212081205,-0.0286777876,0.001272199876773234
0.004757271,-0.0300120078,-0.0179463997,0.001222793874379421
0.004983808,-0.0342896469,-0.00522878673,0.0012031200951945036
0.0052103445,-0.0339527279,0.00806348119,0.0012178074607529221
0.0054368815,-0.0289858039,0.0206984449,0.0012686024490075913
0.005663418,-0.0194582939,0.0312598459,0.0013558031671905238
0.005889955,-0.00580658996,0.0380215943,0.0014793581200773654
0.0061164915,0.0107544148,0.0389714018,0.0016344275959475022
0.0063430285,0.0276793428,0.0322395042,0.0018055316489017292
0.006569565,0.0396185368,0.0175442044,0.0018774275662019335
0.006796102,0.0448569357,-0.00246522645,0.0020182220218437144
0.0070226385,0.0390066579,-0.022724377,0.002037916670565761
0.007249175,0.0242355,-0.0371354781,0.00196640319396558
0.007475712,0.00549733639,-0.0425521918,0.0018409097343688055
0.0077022485,-0.0122887483,-0.0393805504,0.001701841084587693
0.0079287855,-0.0260578636,-0.0299955364,0.0015787444593199302
0.008155322,-0.0345947072,-0.0170469731,0.0014873930581258553
0.008381859,-0.0377743319,-0.00269333902,0.001434154225568012
0.008608396,-0.0359075926,0.0114362398,0.0014201427870906792
0.008834932,-0.0296233315,0.0241045486,0.0014585710323686543
0.009061469,-0.0191266239,0.0343828201,0.0015480060598410154
0.009288006,-0.00492667174,0.0408189259,0.0016904568060634052
0.009514542,0.0119011626,0.0418453962,0.0018926748543666135
0.009741079,0.0291065667,0.035249617,0.0020897277237082374
0.009967616,0.0440963842,0.0204995386,0.0023647221823268993
0.010194153,0.0514281802,-0.00126092543,0.0026464476516236926
0.010420689,0.0469352044,-0.0254693925,0.0028516033663888354
0.010647226,0.0303408448,-0.0447844267,0.0029262117380253593
0.010873763,0.00658374513,-0.0531170033,0.0028647617395090095
0.0111003,-0.017051328,-0.0492019914,0.002711583744289258
0.011326836,-0.0350478664,-0.0360549726,0.002528313988379
0.011553373,-0.0451293997,-0.0180612765,0.0023628724260918127
0.01177991,-0.0473348685,0.00107288663,0.0022417408616331254
0.012006446,-0.0426963307,0.0187985897,0.0021763636299527087
0.012232983,-0.0324619822,0.0334179476,0.0021705395101494626
0.01245952,-0.0179650243,0.0436138324,0.0022249084747148797
0.012686057,-0.000378676486,0.0486227982,0.0023643199006789725
0.012912593,0.0189062692,0.0470659062,0.002572646541490067
0.01313913,0.0376692377,0.0378749743,0.0028534851471247614
0.013365667,0.0527713895,0.0206460953,0.0032110808008973925
0.013592204,0.0601383299,-0.00343605038,0.0036284251653751322
0.01381874,0.0558032058,-0.030617388,0.004051422225499698
0.014045277,0.0382248983,-0.0540029518,0.004377461653158466
0.014271814,0.0103489794,-0.0671160221,0.004611661797149314
0.01449835,-0.0207950585,-0.0653090701,0.004697709095345137
0.014724887,-0.0471000113,-0.0494513251,0.004663844618606017
0.014951424,-0.0630517527,-0.0244010109,0.004570932851483876
0.015177961,-0.0668350607,0.00389698101,0.004482111799764986
0.015404497,-0.059319213,0.0304477904,0.004445836971181702
0.015631034,-0.0426479615,0.0517263785,0.004494466852830744
0.015857571,-0.0193927009,0.0653736293,0.00464978825605068
0.016084108,0.00768197421,0.0697951838,0.004930380409438886
0.016310644,0.0356052071,0.0639442429,0.0053565969726880915
0.016537181,0.0608404316,0.0472385883,0.005933042341851175
0.016763718,0.0790382177,0.0202796757,0.006658305103689763
0.016990254,0.0854835138,-0.0143264383,0.007512677965958496
0.017216792,0.0762382895,-0.0513118953,0.008445187385163973
0.017443328,0.0500481874,-0.0829110146,0.009379057404026931
0.017669864,0.0101486808,-0.10063871,0.010231145672444389
0.017896402,-0.0355492234,-0.0984074995,0.010947783242185606
0.018122938,-0.0767173693,-0.0751879588,0.01153878390082308
0.018349474,-0.104112573,-0.0353405029,0.012088379001905238
0.018576012,-0.112087965,0.0133513045,0.012741969229692946
0.018802548,-0.0990650132,0.0622361153,0.013687210887951067
0.019029084,-0.0666447282,0.103470042,0.01514756938833364
0.019255622,-0.0185306482,0.130573556,0.0173928384491973
0.019482158,0.0400850177,0.138404965,0.020762742980660536
0.019708696,0.102657355,0.123109855,0.02569456893371705
0.019935232,0.161036566,0.0823399723,0.03271264662743712
0.020161768,0.205267981,0.0163353793,0.042401788640691225
0.020388306,0.224453583,-0.0705485418,0.05535650767164424
0.020614842,0.208793342,-0.168718234,0.07206050214760772
0.020841378,0.152635291,-0.263538778,0.09275021956838796
0.021067916,0.0574097224,-0.337707072,0.11734194270485825
0.021294452,-0.0673313811,-0.375451773,0.14549754872967696
0.021520988,-0.205803066,-0.366701394,0.1768248143365436
0.021747526,-0.339944005,-0.309116334,0.21111483448103957
0.021974062,-0.45328027,-0.207364053,0.2484628536478597
0.0222006,-0.533328891,-0.0713637173,0.2895324861221642
0.022427136,-0.573022723,0.0885890722,0.33620306478759154
0.022653672,-0.56624788,0.261161119,0.3888417916818266
0.02288021,-0.50993818,0.434081286,0.4484635102771262
0.023106746,-0.403234482,0.594366908,0.5158700687992889
0.023333282,-0.248007327,0.727850735,0.5912743266857251
0.02355982,-0.050123468,0.819344461,0.6738377078157276
0.023786356,0.179007351,0.853958249,0.761288322747183
0.024012892,0.421518236,0.819829166,0.8497974847048072
0.02423943,0.653973341,0.711781681,0.9343142921458882
0.024465966,0.850779235,0.534478545,1.0094926217725022
0.024692504,0.989500761,0.303135395,1.071002823721385
0.02491904,1.05596185,0.0407784209,1.1167183082665202
0.025145576,1.04675436,-0.22699213,1.1472201172609466
0.025372114,0.968190253,-0.477277488,1.165186166555794
0.02559865,0.832780361,-0.693092048,1.1738997166681244
0.025825186,0.655295074,-0.863757789,1.175489152066834
0.026051724,0.44931972,-0.983966827,1.1700789274173264
0.02627826,0.227077007,-1.05334961,1.16110936799523
0.026504796,0.000319899758,-1.07315946,1.151671328923347
0.026731334,-0.220756024,-1.04533017,1.1414483864445173
0.02695787,-0.426889241,-0.973070323,1.1291002775848802
0.027184408,-0.609363079,-0.861239672,1.1130571346750278
0.027410944,-0.760386646,-0.716783881,1.0919669834765515
0.02763748,-0.874070704,-0.548814356,1.0651967929427504
0.027864018,-0.947565615,-0.367928654,1.03325208916458
0.028090554,-0.981724024,-0.184733674,0.9979085896082909
0.02831709,-0.980775714,-0.00797376968,0.9619845821751194
0.028543628,-0.952029884,0.157261312,0.9310920202810148
0.028770164,-0.902727664,0.306260377,0.9087126538710791
0.0289967,-0.83778286,0.440005839,0.8954852588638735
0.029223238,-0.761997104,0.558518708,0.892582733690376
0.029449774,-0.671169162,0.662215531,0.8889974535173941
0.029676312,-0.566536486,0.758699179,0.8965880341845021
0.029902848,-0.449205995,0.845244586,0.9162244361062514
0.030129384,-0.317143351,0.918551505,0.9443167724212743
0.030355922,-0.169543818,0.974112511,0.9776402903087421
0.030582458,-0.00781208556,1.00625765,1.0126154868643191
0.030808994,0.16381675,1.00922441,1.0453698373204108
0.031035532,0.338280201,0.978648126,1.0721856489119121
0.031262068,0.506553531,0.912969112,1.0901090792346364
0.031488604,0.659211755,0.814160347,1.0974172085573404
0.031715142,0.788021445,0.687441528,1.093553652198863
0.031941678,0.886937022,0.540792167,1.0791134488827843
0.032168216,0.967959106,0.380999655,1.0821055679984384
0.032394752,1.01254916,0.218889311,1.0731683318867604
0.032621288,1.03515744,0.0682751909,1.0762124272797853
0.032847826,1.01071525,-0.083337836,1.0284905114917253
0.033074362,0.975409567,-0.233545989,1.0059675523731157
0.033300898,0.922698617,-0.373239249,0.9906802748077967
0.033527436,0.853287876,-0.501908541,0.9800123828573402
0.033753972,0.768360734,-0.618587971,0.9730292954189156
0.033980508,0.669097126,-0.721915305,0.9688526716147029
0.034207044,0.556905925,-0.810191989,0.9665552683398818
0.034433584,0.433673263,-0.881594479,0.9652813244443486
0.03466012,0.30185017,-0.934486985,0.9643794502634192
0.034886656,0.164348096,-0.967700481,0.9634545175864565
0.035113192,0.0243707281,-0.980674088,0.9623155992627559
0.035339728,-0.114779055,-0.973621249,0.9611125679710131
0.035566264,-0.266328663,-0.957382023,0.9875112946989401
0.035792804,-0.405280113,-0.917926013,1.0068401353353689
0.03601934,-0.493382603,-0.882889926,1.022921014375341
0.036245876,-0.630028546,-0.787266672,1.0167247816168299
0.036472412,-0.7417202,-0.689964712,1.026200158893283
0.036698948,-0.839356422,-0.577601373,1.0381425492441272
0.036925488,-0.920350611,-0.450230062,1.0497523558965973
0.037152024,-0.981286228,-0.309789985,1.0588924960687682
0.03737856,-1.01888812,-0.159767359,1.0636586100789693
0.037605096,-1.03080225,-0.0050380379,1.0625786604309444
0.037831632,-1.01627779,0.148611873,1.0549060352438522
0.038058168,-0.976531506,0.295289189,1.0408094873509057
0.038284708,-0.914639056,0.429889739,1.0213697904580592
0.038511244,-0.834996462,0.548788428,0.9983878302592287
0.03873778,-0.74253577,0.650160074,0.9740674915531784
0.038964316,-0.641924083,0.733595312,0.9502286101237684
0.039190852,-0.538965583,0.798053741,0.927373673182625
0.039417392,-0.447116941,0.866774261,0.9512111784612935
0.039643928,-0.323376417,0.92120409,0.9531892825044861
0.039870464,-0.200489908,0.956597984,0.9552759062027126
0.040097,-0.0746086538,0.978808343,0.9636322235482538
0.040323536,0.0552643798,0.986780405,0.9767897193666426
0.040550072,0.188525736,0.978361905,0.9927339702895707
0.040776612,0.323105663,0.951198041,1.0091749826649072
0.041003148,0.45554778,0.903481603,1.023802786822378
0.041229684,0.581385076,0.834625423,1.0346082033134547
0.04145622,0.695804119,0.745678961,1.0401804848954057
0.041682756,0.794425428,0.639360785,1.0398939740487996
0.041909296,0.873975158,0.519720078,1.0339415362774511
0.042135832,0.932652891,0.391574442,1.0231719587182693
0.042362368,0.970070839,0.260263652,1.0087746012305412
0.042588904,0.989138722,0.133784845,0.9962937961114673
0.04281544,1.00702012,0.00335607259,1.0141007853080437
0.043041976,0.995918632,-0.136533409,1.0104952933379128
0.043268516,0.964857936,-0.267793357,1.0026641187155096
0.043495052,0.918292403,-0.391628772,0.9966340324657426
0.043721588,0.85724467,-0.507632077,0.9925587498427428
0.043948124,0.782411218,-0.614629507,0.9899367449273065
0.04417466,0.69463706,-0.711048961,0.9881112700646233
0.0444012,0.595148027,-0.79514271,0.986453103308137
0.044627736,0.485656172,-0.865233183,0.9844903783660051
0.044854272,0.368324637,-0.919964194,0.9819971564632514
0.045080808,0.245621949,-0.958480537,0.979015081638367
0.045307344,0.120135106,-0.980501771,0.9758161666277677
0.04553388,-0.00552024553,-0.986308455,0.9728348415151984
0.04576042,-0.128376827,-0.977046371,0.9711002207948577
0.045986956,-0.246096939,-0.958490252,0.9792672665641933
0.046213492,-0.372863173,-0.930901647,1.0056048221669407
0.046440028,-0.497698605,-0.877179921,1.017148515224512
0.046666564,-0.612483323,-0.80591768,1.0246391278897047
0.046893104,-0.716905951,-0.719283938,1.0313235260440021
0.04711964,-0.808999538,-0.618129134,1.0365638787838034
0.047346176,-0.886136055,-0.503959417,1.039212201953943
0.047572712,-0.94573313,-0.379254878,1.0382454156663918
0.047799248,-0.985817552,-0.247421905,1.0330538449051017
0.048025784,-1.00546694,-0.112474546,1.0236142909308699
0.048252324,-1.00502634,0.0214686599,1.0105388474516974
0.04847886,-0.986041248,0.150720075,0.9949938837654031
0.048705396,-0.95095396,0.272420228,0.9785262146632535
0.048931932,-0.902777731,0.384644717,0.9629591899055185
0.049158468,-0.845448911,0.486423552,0.9513917330513826
0.049385008,-0.784757018,0.581680954,0.9541963095466024
0.049611544,-0.712213099,0.678824365,0.9680500169048369
0.04983808,-0.623477757,0.765547931,0.9747881481321318
0.050064616,-0.524954855,0.840453446,0.9819395946813461
0.050291152,-0.417379379,0.904062212,0.9915340291807586
0.050517688,-0.300863802,0.955086827,1.0027098744628231
0.050744228,-0.176257655,0.991376817,1.0138947542311505
0.050970764,-0.0454717949,1.01060784,1.0233958904008935
0.0511973,0.0885227472,1.01088595,1.0297266806792378
0.051423836,0.221968561,0.991259813,1.0318660589412056
0.051650372,0.350804657,0.952024221,1.0294140247435444
0.051876912,0.471220136,0.894758701,1.022641549587066
0.052103448,0.580121517,0.822141707,1.0124579608752553
0.052329984,0.675460339,0.737768829,1.0005495146060261
0.05255652,0.757135987,0.64635545,0.9910302705551667
0.052783056,0.83075279,0.55050689,0.9932080340302561
0.053009592,0.895969272,0.441635907,0.9978032107199226
0.053236132,0.943584681,0.323852122,0.9952322471417747
0.053462668,0.975058973,0.202832147,0.9918808806844444
0.053689204,0.991773665,0.0799720809,0.9900105363110083
0.05391574,0.993884861,-0.0437771827,0.9897235586501384
0.054142276,0.981100082,-0.167150617,0.9904966996638874
0.054368816,0.953114688,-0.288456708,0.9916348808715345
0.054595352,0.909911275,-0.405637532,0.9924803357391767
0.054821888,0.851964176,-0.516442001,0.9925552975842429
0.055048424,0.780324697,-0.618657708,0.991643992415955
0.05527496,0.696597397,-0.710340917,0.9898321518715765
0.055501496,0.602877557,-0.790004551,0.9875685393349999
0.055728036,0.501788139,-0.85692066,0.9861043539759189
0.055954572,0.396211416,-0.912421882,0.9894971769211469
0.056181108,0.284119487,-0.960496724,1.0032778397078752
0.056407644,0.160127208,-0.99493283,1.0155320589536843
0.05663418,0.0310084689,-1.00991642,1.0208927005291384
0.05686072,-0.0986740962,-1.00686729,1.0235183169328308
0.057087256,-0.226786375,-0.986532271,1.024677981610058
0.057313792,-0.351102203,-0.949167371,1.0241914551225049
0.057540328,-0.469072044,-0.895300329,1.0215912615698461
0.057766864,-0.578055084,-0.826073468,1.0165450546717942
0.0579934,-0.675650537,-0.743331254,1.0090450013216008
0.05821994,-0.760012388,-0.649510682,0.9994829559455676
0.058446476,-0.830060244,-0.547383308,0.9886284945463624
0.058673012,-0.885541022,-0.439754575,0.977566987878235
0.058899548,-0.926990032,-0.329234481,0.9677058629067004
0.059126084,-0.955896974,-0.218104988,0.9613088106928367
0.059352624,-0.975516379,-0.107169919,0.9631175972357382
0.05957916,-0.987572193,0.00826483034,0.9753671438073782
0.059805696,-0.985003352,0.12967886,0.9870482101821355
0.060032232,-0.965780795,0.251173228,0.995820534454772
0.060258768,-0.931251705,0.370281816,1.004338361325665
0.060485304,-0.881558836,0.485570669,1.0129248559227824
0.060711844,-0.816500545,0.595001936,1.0207004438290452
0.06093838,-0.736320198,0.695927024,1.0264818567162557
0.061164916,-0.642107606,0.785436809,1.0292131586151538
0.061391452,-0.535917521,0.860818088,1.0282153699427612
0.061617988,-0.420644581,0.919997692,1.0233376168099926
0.061844528,-0.299703926,0.961864114,1.0150050170608185
0.062071064,-0.176623404,0.98641479,1.0042099647712912
0.0622976,-0.0546584688,0.994796336,0.9926072983305854
0.062524136,0.0637403652,0.989490449,0.9831541828180511
0.062750672,0.178851187,0.974110782,0.9808795626999605
0.062977208,0.294593424,0.947945058,0.985385118450667
0.063203748,0.408434033,0.906053245,0.987750842087675
0.063430284,0.515574992,0.849874198,0.9881037248019432
0.06365682,0.614884913,0.781691372,0.98912485729426
0.063883356,0.705799282,0.702399433,0.9915175899504369
0.064109892,0.787271738,0.612470806,0.9949172776558304
0.064336432,0.857812345,0.512565792,0.9985657103629864
0.064562968,0.915731251,0.403828114,1.001640869714822
0.064789504,0.959440291,0.287986904,1.00346212886967
0.06501604,0.987743437,0.167295605,1.003624916788889
0.065242576,1.00005937,0.0443514399,1.0020857937460002
0.065469112,0.996567965,-0.0781501532,0.9992551553094247
0.065695652,0.978343904,-0.19772543,0.9962521401626462
0.065922188,0.947535753,-0.312839061,0.9956922813006388
0.066148724,0.906068027,-0.424739778,1.0013631485671621
0.06637526,0.850773215,-0.534968197,1.010006035162867
0.066601796,0.778918087,-0.638291776,1.0141297775649738
0.066828332,0.693474829,-0.730478823,1.0145066493080446
0.067054872,0.597218156,-0.810321569,1.013290571042662
0.067281408,0.492002845,-0.877000272,1.011196276576168
0.067507944,0.379573882,-0.929601789,1.0082358180085504
0.06773448,0.261889756,-0.96730125,1.004257952549302
0.067961016,0.141147748,-0.989583194,0.9991975846127132
0.068187552,0.0196626019,-0.996396422,0.9931924476878801
0.068414088,-0.100315273,-0.988209665,0.9866214959964766
0.068640624,-0.216784075,-0.965978682,0.9801101492520629
0.068867168,-0.328137189,-0.931077659,0.9745796218937419
0.069093704,-0.433375329,-0.885284424,0.97154268716287
0.06932024,-0.532810032,-0.830592334,0.9737701554994085
0.069546776,-0.628803849,-0.767022491,0.9837177822170597
0.069773312,-0.720995188,-0.690360963,0.9964323203534428
0.069999848,-0.804002762,-0.599691629,1.0060504911963022
0.070226384,-0.874838591,-0.497823924,1.0131712196096232
0.07045292,-0.932308435,-0.386860192,1.0188598261264261
0.070679456,-0.975162029,-0.268499881,1.023033168900411
0.070905992,-1.00207067,-0.144775286,1.0251055111106306
0.071132528,-1.01200175,-0.0182419363,1.0244803102430358
0.071359072,-1.00455523,0.108144581,1.0208264605200184
0.071585608,-0.980156064,0.231320083,1.014214890595099
0.071812144,-0.940075397,0.348463118,1.0051682966509896
0.07203868,-0.886297405,0.457313299,0.9946585435519975
0.072265216,-0.821304858,0.556423247,0.9841484995764231
0.072491752,-0.747826576,0.64546895,0.9758747531859864
0.072718288,-0.668054044,0.725855827,0.9731628872946079
0.072944824,-0.581117153,0.799935043,0.9775932185302372
0.07317136,-0.483981878,0.865892053,0.9840075056809617
0.073397896,-0.377922922,0.919752538,0.9887704661304596
0.073624432,-0.265688837,0.960450709,0.9930561225250152
0.073850976,-0.148829907,0.98776263,0.9978253544421455
0.074077512,-0.0285526384,1.00105953,1.002935435763422
0.074304048,0.0936052278,0.999463439,1.0076891045691967
0.074530584,0.215592518,0.982229829,1.0112555707949495
0.07475712,0.33492592,0.949081242,1.012930575804109
0.074983656,0.448929876,0.900426388,1.0123057137721019
0.075210192,0.555047393,0.837435782,1.009376297450048
0.075436728,0.651155293,0.76197809,1.004613825241964
0.075663264,0.735880435,0.676457226,0.9991143932234043
0.0758898,0.809022784,0.583462894,0.9949468137059659
0.076116336,0.871926665,0.484570533,0.9950647105899264
0.07634288,0.925399125,0.37840113,0.9995509557360425
0.076569416,0.966113985,0.264019698,1.0030826329445914
0.076795952,0.991247356,0.144704103,1.0035105982020254
0.077022488,1.00092471,0.0237163752,1.0024127415412114
0.077249024,0.995784879,-0.0969946459,1.000995486578311
0.07747556,0.976205587,-0.215885296,0.9995838091190223
0.077702096,0.942482889,-0.33135727,0.9980716364396393
0.077928632,0.895068884,-0.441685468,0.9962343597473844
0.078155168,0.83472681,-0.545105755,0.9939091314668962
0.078381704,0.762589455,-0.639959991,0.991091466957917
0.07860824,0.680137396,-0.724855721,0.9880026937040906
0.078834784,0.589120388,-0.798812091,0.9851635882850627
0.07906132,0.49142313,-0.86144805,0.9835894355477994
0.079287856,0.388663828,-0.913277864,0.9851360280680161
