Unnamed: 0,Frequency (GHz),Re( S21 ),Im( S21 ),S2
0,0.0,0.0392783545,0.0,0.0015427891322276
1,0.000226625469,0.0350795649,-0.0170426145,0.0015210265825689
2,0.000453250938,0.0238349643,-0.0299107805,0.0014627603133014
3,0.000679876375,0.0087802466,-0.0361637212,0.0013849074613881
4,0.000906501875,-0.00659963954,-0.0355269872,0.0013057220615668
5,0.00113312738,-0.019687634,-0.0291799568,0.0012390728113678
6,0.00135975275,-0.0289547089,-0.0188411493,0.0011933640744286
7,0.00158637825,-0.0336827934,-0.00621774374,0.0011731909084433
8,0.00181300375,-0.0336127058,0.00716070645,0.0011810897080604
9,0.00203962913,-0.028699249,0.0198447611,0.00121746143628
10,0.00226625475,-0.0191293489,0.0302462019,0.0012807647187134
11,0.00249288,-0.00558516616,0.0365480036,0.0013669506481804
12,0.0027195055,0.0103562111,0.0368744619,0.0014669770487623
13,0.002946131,0.025880551,0.0299093034,0.0015643693499368
14,0.0031727565,0.0371680036,0.0159524139,0.0016359400008465
15,0.003399382,0.0406828932,-0.00187445385,0.0016586113763583
16,0.0036260075,0.0353832357,-0.0196104273,0.0016365422274903
17,0.003852633,0.022862535,-0.0322957672,0.0015657120856628
18,0.00407925825,0.00690518506,-0.0377546772,0.001473097231189
19,0.004305884,-0.00880712084,-0.0361036994,0.0013810424878559
20,0.0045325095,-0.0217414089,-0.028856907,0.0013054099425636
21,0.004759135,-0.0305756088,-0.0178991016,0.0012552456915777
22,0.00498576,-0.0348000079,-0.0049583544,0.001235625828196
23,0.0052123855,-0.034329582,0.0085308291,0.0012512952454281
24,0.005439011,-0.0291521139,0.0213090554,0.0013039215868788
25,0.0056656365,-0.0193518084,0.0319266729,0.0013938049308139
26,0.005892262,-0.0053967298,0.038622003,0.0015207838082662
27,0.0061188875,0.0114389155,0.0393542536,0.0016796060642292
28,0.006345513,0.0285187792,0.0322581492,0.0018539089568678
29,0.0065721385,0.0404003151,0.0171580911,0.0019265855503751
30,0.006798764,0.0453613549,-0.0032071718,0.0020679384693184
31,0.0070253895,0.0390847661,-0.0236120224,0.0020851465429098
32,0.007252015,0.023900127,-0.0379297137,0.00200987925198
33,0.0074786405,0.00487428624,-0.0430911966,0.0018806098907693
34,0.007705266,-0.0130453892,-0.039601393,0.0017384525069199
35,0.0079318915,-0.0268148147,-0.0299028829,0.0016132166931264
36,0.0081585165,-0.035249006,-0.0166797917,0.0015207078751434
37,0.008385142,-0.0382467844,-0.00210833922,0.0014672616112066
38,0.008611768,-0.0361366943,0.0121664423,0.0014538829931708
39,0.008838393,-0.0295703392,0.024910491,0.0014949375222641
40,0.009065019,-0.01874898,0.0351593122,0.0015877014854174
41,0.009291644,-0.00422030175,0.0414373539,0.0017348652450948
42,0.00951827,0.012887069,0.0421615951,0.0019436766487871
43,0.009744895,0.0302099958,0.0350816138,0.0021433634730483
44,0.00997152,0.0450986959,0.0197761077,0.0024249868076426
45,0.010198146,0.0520006642,-0.00246760575,0.0027101581553785
46,0.010424771,0.0468263477,-0.0268632621,0.0029143416895745
47,0.010651397,0.0295462757,-0.0459469222,0.0029841020673932
48,0.010878022,0.00536093814,-0.0537352003,0.002916211409022
49,0.011104648,-0.0183577742,-0.0491962023,0.0027572741943207
50,0.011331273,-0.0361683704,-0.0355225429,0.0025700020714739
51,0.011557899,-0.04591031,-0.0171651095,0.002402397548443
52,0.011784524,-0.0477074124,0.00216951733,0.0022807040033488
53,0.01201115,-0.0426394641,0.0199484993,0.0022160665230572
54,0.012237775,-0.0319849774,0.0344840623,0.0022121893319887
55,0.012464401,-0.0171152018,0.0444736034,0.0022708315320352
56,0.012691026,0.000798581517,0.0491367653,0.0024150594365865
57,0.012917651,0.0202901512,0.0470959991,0.002629723366946
58,0.013144277,0.0390687436,0.0373051241,0.0029180390105989
59,0.013370902,0.053910166,0.0194347538,0.0032840156534141
60,0.013597528,0.0604872219,-0.0049478393,0.0036831851269184
61,0.013824153,0.0553850383,-0.0322597921,0.0041081966538276
62,0.014050779,0.0369360298,-0.0556961186,0.0044663279244917
63,0.014277404,0.00834527519,-0.0680132508,0.0046954459023805
64,0.01450403,-0.0229955483,-0.0651548877,0.0047739546328172
65,0.014730655,-0.0489636809,-0.0483288281,0.0047331176727963
66,0.014957281,-0.0642193332,-0.0226200856,0.0046357910292039
67,0.015183906,-0.0671578869,0.00596251758,0.004545733388765
68,0.015410532,-0.0588033013,0.0324567333,0.0045112677802859
69,0.015637157,-0.0413925946,0.0533958897,0.0045644679245745
70,0.015863783,-0.0175582841,0.0664734021,0.0047270065272845
71,0.016090408,0.00988205429,0.0701435506,0.0050177726877652
72,0.016317033,0.0379055142,0.0634043366,0.0054569379064525
73,0.016543659,0.0628929958,0.0457450449,0.0060481380536018
74,0.016770284,0.0804280713,0.0179062989,0.006789310193334
75,0.01699691,0.0857871994,-0.0173010956,0.0076587714898557
76,0.017223536,0.0751482174,-0.0543659739,0.0086029136964931
77,0.01745016,0.0475416146,-0.0853368714,0.009542586739115
78,0.017676786,0.00660828827,-0.101737447,0.0103941775959372
79,0.017903412,-0.0393823572,-0.0977520943,0.0111064419986644
80,0.018130038,-0.0799704418,-0.0727947801,0.0116943515714945
81,0.018356662,-0.106051587,-0.031642478,0.012248185519199
82,0.018583288,-0.112278663,0.0176742449,0.0129188770978527
83,0.018809914,-0.0973916873,0.0664373413,0.0138990610741536
84,0.01903654,-0.0632536039,0.106848016,0.0154175169294743
85,0.019263164,-0.0137710078,0.132518992,0.0177509238965237
86,0.01948979,0.0456921756,0.138421997,0.0212484241645292
87,0.019716416,0.108428828,0.120838948,0.0263588620952002
88,0.01994304,0.166110367,0.0776140764,0.0336165988802997
89,0.020169666,0.208634242,0.0093044024,0.0436148188389356
90,0.020396292,0.225081369,-0.0792938843,0.0569491427582959
91,0.020622918,0.205859095,-0.178084373,0.0740920109010221
92,0.020849542,0.145809889,-0.272018701,0.0952546974239197
93,0.021076168,0.0470809415,-0.343664944,0.1203222087870495
94,0.021302794,-0.0800499097,-0.377521455,0.1489304370282951
95,0.02152942,-0.2193093,-0.364117861,0.1806783857657053
96,0.021756044,-0.352512866,-0.301830262,0.2153668277545226
97,0.02198267,-0.463368118,-0.195943609,0.2531039106868068
98,0.022209296,-0.539865732,-0.0568396226,0.2946857512852062
99,0.02243592,-0.575176239,0.105187975,0.3418922159947858
100,0.022662546,-0.563507736,0.278561115,0.3951372633218889
101,0.022889172,-0.502082467,0.450942039,0.4554355262062837
102,0.023115798,-0.390330434,0.609266996,0.5235641201214924
103,0.023342422,-0.230479002,0.739294231,0.5996765303527973
104,0.023569048,-0.0288625006,0.825830936,0.6828297787955211
105,0.023795674,0.202536121,0.854163885,0.7706168227480198
106,0.0240223,0.445268542,0.81289506,0.8590624530672094
107,0.024248924,0.675502658,0.697644234,0.9430113181985116
108,0.02447555,0.867654145,0.514080048,1.0171020110873634
109,0.024702176,0.999812543,0.278363645,1.0771114399978128
110,0.024928802,1.05873477,0.0140984189,1.1211180786224328
111,0.025155426,1.04206407,-0.253064245,1.1499390380823846
112,0.025382052,0.956973314,-0.500629365,1.1664276848084456
113,0.025608678,0.816478789,-0.712246656,1.173932911870089
114,0.025835302,0.635499179,-0.877860069,1.1744975072543586
115,0.026061928,0.427492648,-0.992714345,1.168231734862831
116,0.026288554,0.204559416,-1.05685699,1.158791251986121
117,0.02651518,-0.0217270702,-1.07172859,1.1490742362028636
118,0.026741804,-0.241364583,-1.03941131,1.1386327332826798
119,0.02696843,-0.445241749,-0.963242531,1.126076388579865
120,0.027195056,-0.624782443,-0.848210394,1.1098139735706831
121,0.027421682,-0.772370756,-0.701390803,1.0885056432569964
122,0.027648306,-0.882353365,-0.531993866,1.061564934188449
123,0.027874932,-0.952170968,-0.350629956,1.0295709183466188
124,0.028101558,-0.982963622,-0.167789936,0.994370944798243
125,0.028328184,-0.979166269,0.0080314083,0.9588310858666618
126,0.028554808,-0.948283792,0.172012657,0.9288305043380988
127,0.028781434,-0.897283256,0.319667667,0.9073046588231845
128,0.02900806,-0.831079364,0.452213645,0.8951900899908306
129,0.029234684,-0.754217684,0.569462895,0.8931323036401049
130,0.02946131,-0.661895871,0.672284305,0.8900723307961818
131,0.029687936,-0.555944681,0.767950594,0.8988226031571447
132,0.029914562,-0.437102318,0.853399873,0.9193497796373892
133,0.030141186,-0.303383708,0.92521131,0.9480576424317454
134,0.030367812,-0.154157087,0.978728831,0.981674532102952
135,0.030594438,0.00891571958,1.00820959,1.0165660674235977
136,0.030821064,0.181300282,1.00795019,1.0488333777743155
137,0.031047688,0.355668724,0.973801017,1.0747886619420224
138,0.031274314,0.522851706,0.904541552,1.091569325761679
139,0.03150094,0.673456252,0.802526474,1.0975920648287605
140,0.031727566,0.799437046,0.673301339,1.0924342836163992
141,0.03195419,0.895083904,0.52509886,1.0769040079731809
142,0.032180816,0.97314918,0.364484966,1.0798686169746934
143,0.032407442,1.01493001,0.202362299,1.0710334252551654
144,0.032634066,1.03413236,0.0541149974,1.0723581709427716
145,0.032860692,1.00754726,-0.0984760597,1.0248490154675454
146,0.033087318,0.970554948,-0.247504249,1.0032352603603367
147,0.033313944,0.916314185,-0.386014819,0.9886391261198167
148,0.033540568,0.845559001,-0.513523996,0.978676918639926
149,0.033767196,0.759399056,-0.629050791,0.9723918239114168
150,0.03399382,0.658957839,-0.731182635,0.9688534793050932
151,0.034220444,0.545631886,-0.818153381,0.967089109861648
152,0.034447072,0.421338975,-0.888078272,0.9662095490525566
153,0.034673696,0.288596451,-0.939290345,0.9655542637400144
154,0.03490032,0.15039441,-0.970625222,0.9647318001417976
155,0.035126948,0.010013924,-0.981567442,0.9635749218683012
156,0.035353572,-0.12919724,-0.97241199,0.9622770051193776
157,0.035580196,-0.280957609,-0.954206049,0.9894463620031873
158,0.035806824,-0.419995487,-0.912763357,1.0095331549822766
159,0.036033448,-0.51111865,-0.871206164,1.020242454569417
160,0.036260076,-0.642386198,-0.777669549,1.0174299548227586
161,0.0364867,-0.752578139,-0.678699195,1.0270064525943514
162,0.036713324,-0.848471582,-0.564698935,1.038788912651717
163,0.036939952,-0.927404583,-0.435912281,1.0500987772960269
164,0.037166576,-0.985974252,-0.294402897,1.058818291368952
165,0.0373932,-1.02097726,-0.143773526,1.0630653922155804
166,0.037619828,-1.0301888,0.011010333,1.0614101910782108
167,0.037846452,-1.01303315,0.16413106,1.053175167855646
168,0.03807308,-0.970910728,0.309745222,1.0386097442973192
169,0.038299704,-0.907045662,0.442874402,1.018869568899876
170,0.038526328,-0.825912535,0.560068727,0.9958084944335268
171,0.038752956,-0.73243767,0.659680724,0.9716435980521932
172,0.03897958,-0.631232738,0.741396129,0.9481229896191612
173,0.039206204,-0.528544784,0.804091334,0.9259224621075062
174,0.039432832,-0.434517831,0.873841524,0.9524047545235872
175,0.039659456,-0.310746521,0.9256953,0.9534751887556936
176,0.03988608,-0.187479854,0.959806263,0.9563767581498864
177,0.040112708,-0.061032135,0.980651796,0.9654028665006836
178,0.040339332,0.0694220588,0.987011373,0.9790108726793756
179,0.04056596,0.203119501,0.976666749,0.995135470288718
180,0.040792584,0.337815017,0.947280169,1.0114587042913787
181,0.041019208,0.469894588,0.897147954,1.0256753751980758
182,0.041245836,0.594792187,0.825861096,1.0358242956025645
183,0.04147246,0.707686424,0.734683573,1.040580027149954
184,0.041699084,0.80428797,0.626536489,1.039427110735168
185,0.041925712,0.881491542,0.505611539,1.0326703669874864
186,0.042152336,0.937694371,0.376792103,1.0212430222882485
187,0.04237896,0.972712457,0.245479628,1.0064297717659951
188,0.042605588,0.990344286,0.119877554,0.9951524327658728
189,0.042832212,1.00642693,-0.0121362396,1.0130424537408536
190,0.04305884,0.992841542,-0.151004881,1.008536801606762
191,0.043285464,0.960153401,-0.281364381,1.00106046834738
192,0.043512088,0.912148833,-0.404354572,0.9955181134405652
193,0.043738716,0.849746525,-0.519494653,0.9919438512451662
194,0.04396534,0.773597419,-0.625560224,0.9897785605343918
195,0.044191964,0.684537828,-0.720924735,0.9883245114977776
196,0.044418592,0.583818972,-0.803790927,0.9869244463946562
197,0.044645216,0.473205537,-0.872454703,0.9851006890342766
198,0.04487184,0.354926705,-0.925561428,0.982636922923556
199,0.045098468,0.231513649,-0.962289095,0.9795988720292144
200,0.045325092,0.105602093,-0.982415557,0.976292128681601
201,0.04555172,-0.0201495606,-0.986297667,0.973189092722016
202,0.045778344,-0.142706901,-0.975269914,0.9715166647465912
203,0.046004968,-0.260386139,-0.955787361,0.9813304208306716
204,0.046231596,-0.387770653,-0.925418854,1.0067661346667198
205,0.04645822,-0.511441767,-0.869383931,1.017401100513095
206,0.046684844,-0.62499845,-0.796258688,1.0246509607178838
207,0.046911472,-0.727997124,-0.70791018,1.031116635499904
208,0.047138096,-0.818399847,-0.60522604,1.036076869063705
209,0.047364724,-0.89357686,-0.489793986,1.0383777534492278
210,0.047591348,-0.95099479,-0.364182293,1.0370198331418818
211,0.047817972,-0.988775551,-0.231865168,1.031438546387022
212,0.0480446,-1.00612175,-0.0968830064,1.0216672927521648
213,0.048271224,-1.00350881,0.0366747193,1.00837496678335
214,0.048497848,-0.982589006,0.165199175,0.9927719221327486
215,0.048724476,-0.945871532,0.285937458,0.9764331849355288
216,0.0489511,-0.896412194,0.397069722,0.961219185681051
217,0.049177724,-0.838284373,0.49779442,0.9505199745991396
218,0.049404352,-0.77696991,0.592972279,0.955298364707862
219,0.049630976,-0.702412844,0.689482331,0.968769688177362
220,0.049857604,-0.612405837,0.774899125,0.9755095631174362
221,0.050084228,-0.512761056,0.848601699,0.9830487440959216
222,0.050310852,-0.40403375,0.910884738,0.9929542770603912
223,0.05053748,-0.286399692,0.960325241,1.0042493520794031
224,0.050764104,-0.160831884,0.994715691,1.015326200832597
225,0.050990728,-0.0293836985,1.01174676,1.0244949081080366
226,0.051217356,0.104844399,1.00961375,1.0303122721907336
227,0.05144398,0.238014892,0.987510502,1.0318280803740636
228,0.051670604,0.366056681,0.945904255,1.0287323533318409
229,0.051897232,0.485223532,0.886537969,1.0213914464852
230,0.052123856,0.59254241,0.812218964,1.0108061531298411
231,0.052350484,0.686136246,0.726647675,0.998799791657878
232,0.052577108,0.766289473,0.634612918,0.9899331121230924
233,0.052803732,0.839077711,0.537778795,0.9932574374486516
234,0.05303036,0.902424455,0.427587539,0.9972010004901236
235,0.053256984,0.948107421,0.309338093,0.994597737536148
236,0.053483608,0.977894723,0.188044503,0.9916388243797638
237,0.053710236,0.992978513,0.0649604499,0.9902261873309016
238,0.05393686,0.993410587,-0.0589464232,0.990339275171758
239,0.054163488,0.978848398,-0.182351843,0.9913963809126632
240,0.054390112,0.948981881,-0.303489357,0.9926724002785716
241,0.054616736,0.90383333,-0.420229942,0.9935078925722124
242,0.054843364,0.843951106,-0.53027457,0.993444588907308
243,0.055069988,0.770480573,-0.631399572,0.9923057328921914
244,0.055296612,0.685122967,-0.721690059,0.9902300211703066
245,0.05552324,0.590064526,-0.799729109,0.9877427926255388
246,0.055749864,0.488013953,-0.864935279,0.986270655181494
247,0.055976488,0.3817406,-0.919016361,0.9903169574740422
248,0.056203116,0.268316418,-0.965658963,1.004490932990586
249,0.05642974,0.143389046,-0.997609138,1.0157844107338931
250,0.056656368,0.0141242826,-1.01018727,1.0206778158290175
251,0.056882992,-0.115393922,-1.00490153,1.0231428422308828
252,0.057109616,-0.243087634,-0.982400715,1.0242027626362291
253,0.057336244,-0.366707832,-0.942939162,1.0236088972834023
254,0.057562868,-0.483689517,-0.887087643,1.0208800352189886
255,0.057789492,-0.591400921,-0.816051722,1.0156954623388137
256,0.05801612,-0.687479913,-0.731740773,1.008073189649125
257,0.058242744,-0.770147502,-0.636641502,0.998439576905656
258,0.058469368,-0.838405073,-0.533546627,0.9875950696152124
259,0.058695996,-0.89208281,-0.425254434,0.9766530735341564
260,0.05892262,-0.931802869,-0.314351887,0.967073695537092
261,0.059149248,-0.959195018,-0.203060493,0.9612886463734232
262,0.059375872,-0.977680624,-0.0917972401,0.9642861358350064
263,0.059602496,-0.988127947,0.024559224,0.976999995125917
264,0.059829124,-0.983281195,0.146275535,0.9882384405801642
265,0.060055748,-0.961916387,0.267591923,0.9968885728339718
266,0.060282372,-0.925287127,0.386312366,1.005393511516432
267,0.060509,-0.873457551,0.500952244,1.013881244167553
268,0.060735624,-0.806261361,0.6093871,1.0214100198879823
269,0.060962248,-0.724042475,0.70891571,1.0267989894889296
270,0.061188876,-0.628018439,0.79663074,1.0290276956369444
271,0.0614155,-0.520371556,0.869882584,1.0274822662403782
272,0.061642128,-0.404089987,0.926714599,1.0220886655933907
273,0.061868752,-0.282627791,0.966163933,1.0133512136755682
274,0.062095376,-0.159493431,0.988384306,1.0023416908792535
275,0.062322004,-0.0378657766,0.994678736,0.9908196048880789
276,0.062548628,0.0800007582,0.987703621,0.9819585642490865
277,0.062775252,0.194909021,0.970978677,0.9807891176558488
278,0.06300188,0.310627669,0.94289726,0.9855447916638812
279,0.063228504,0.423767388,0.898974657,0.9877342330606104
280,0.063455132,0.529977262,0.841079712,0.9882909801750196
281,0.063681756,0.628300309,0.77129215,0.989652858941118
282,0.06390838,0.71810478,0.690404952,0.9923334728049706
283,0.064135008,0.798251688,0.598893404,0.9958790667495568
284,0.064361632,0.867183745,0.497482896,0.9994968794047716
285,0.064588256,0.923187256,0.387417585,1.0023670948080416
286,0.064814884,0.964702964,0.270535946,1.0038415068285005
287,0.065041508,0.990612864,0.149184614,1.0035698953766117
288,0.065268132,1.00045216,0.0260161106,1.001581362459417
289,0.06549476,0.99453944,-0.0962670296,0.998376038703521
290,0.065721384,0.974110007,-0.215246394,0.9952213158675434
291,0.065948012,0.94144702,-0.329624593,0.9949748637772962
292,0.066174636,0.898141503,-0.441036701,1.0011715310400624
293,0.06640126,0.840497613,-0.550407708,1.009384882484511
294,0.066627888,0.766569555,-0.652133465,1.0129069388258043
295,0.066854512,0.67952472,-0.742506027,1.0130690452224032
296,0.067081136,0.58196342,-0.820458114,1.0118329390465337
297,0.06730776,0.47567448,-0.885157585,1.0097701612063026
298,0.067534392,0.362405628,-0.93567878,1.006832618548363
299,0.067761016,0.244141489,-0.971207976,1.0028499992971536
300,0.06798764,0.123106949,-0.991264522,0.9977606734679773
301,0.068214264,0.00163367786,-0.995849669,0.99171923215076
302,0.068440888,-0.118032418,-0.985493898,0.9851298746941612
303,0.068667512,-0.23391445,-0.96121645,0.9786530336694048
304,0.068894144,-0.344455093,-0.924453497,0.9732635792091676
305,0.069120768,-0.448759645,-0.877046883,0.9705964539605416
306,0.069347392,-0.547385991,-0.820943952,0.9735803954684304
307,0.069574016,-0.64276433,-0.755645275,0.9841457655501746
308,0.06980064,-0.733732462,-0.676863551,0.9965075924649108
309,0.070027272,-0.814919174,-0.584431887,1.005653890695223
310,0.070253896,-0.883735538,-0.481181651,1.0125242823832352
311,0.07048052,-0.939033151,-0.369107991,1.0180239676970448
312,0.070707144,-0.979545355,-0.24992387,1.0219710432978528
313,0.070933768,-1.00396788,-0.12572208,1.0237575454712209
314,0.071160392,-1.01133931,0.000884412497,1.022807982136741
315,0.071387024,-1.00136268,0.126912668,1.0188340421956603
316,0.071613648,-0.974578798,0.249316841,1.011962720717344
317,0.071840272,-0.932363749,0.365339488,1.002775101941437
318,0.072066896,-0.876778722,0.472822756,0.9923022859433888
319,0.07229352,-0.810347259,0.570453167,0.982079495909143
320,0.072520152,-0.735784292,0.658095658,0.9744684194323944
321,0.072746776,-0.655045688,0.737397969,0.9728406180527184
322,0.0729734,-0.566726446,0.810472071,0.97804384246682
323,0.073200024,-0.468090117,0.874839365,0.984452272186677
324,0.073426648,-0.36090675,0.926805198,0.9892215572353816
325,0.073653272,-0.247789308,0.965541303,0.9936695489580566
326,0.073879904,-0.130200505,0.99077338,0.9985840620188796
327,0.074106528,-0.00939024426,1.00180852,1.003708487431853
328,0.074333152,0.113010235,0.997765303,1.008306913085437
329,0.074559776,0.234854743,0.977956474,1.011555615348109
330,0.0747864,0.353595912,0.942210317,1.0127903504443525
331,0.075013032,0.466544241,0.891070008,1.0116692879673863
332,0.075239656,0.571186125,0.825840354,1.008265879687361
333,0.07546628,0.665499806,0.748503864,1.0031480262089685
