Frequency (GHz),Re( S21 ),Im( S21 ),S2
0.0,0.0385187641,0.0,0.0014836951877914488
0.000226501094,0.0344032422,-0.0167004317,0.0014624874928382261
0.000453002188,0.0233873446,-0.0293053444,0.0014057710978417604
0.000679503313,0.00864951592,-0.0354289711,0.0013300261188549686
0.000906004375,-0.00639679888,-0.0348154753,0.0012530363562760795
0.0011325055,-0.0191997141,-0.0286287758,0.0011882358253284045
0.00135900663,-0.0282769315,-0.0185505319,0.00114370708882861
0.00158550762,-0.0329377055,-0.00624257652,0.0011238622052127853
0.00181200875,-0.0329350084,0.00681413058,0.0011311471538693618
0.00203850987,-0.0282220487,0.0192224979,0.001165988458340676
0.002265011,-0.0189657491,0.0294491965,0.001226954813419763
0.002491512,-0.0058032847,0.0357299037,0.001310304131720528
0.00271801325,0.0097664576,0.0362232029,0.0014075041223871663
0.00294451425,0.0250321962,0.0296008866,0.0015028233341013541
0.00317101525,0.0362661406,0.0160827152,0.0015738866822232796
0.0033975165,0.039934393,-0.00134832424,0.0015965737225346205
0.0036240175,0.0349746905,-0.01881391,0.0015771921850588904
0.00385051875,0.0228470601,-0.0314238109,0.001509444046691971
0.00407701975,0.00725198537,-0.0369763188,0.0014198394438059273
0.004303521,-0.00818118267,-0.0355434529,0.0013302687939344268
0.004530022,-0.0209451113,-0.0285938028,0.0012563032459346755
0.004756523,-0.0297295209,-0.0179713778,0.0012068148329738696
0.004983024,-0.0340276733,-0.00536738196,0.0011866913393160663
0.0052095255,-0.0337550864,0.00781765673,0.0012005216146195794
0.0054360265,-0.0288995262,0.0203701239,0.0012501245622858377
0.0056625275,-0.0195235778,0.0308968052,0.0013357826616793998
0.0058890285,-0.00604509003,0.0376968756,0.0014575975434726806
0.0061155295,0.0103601459,0.0387779102,0.001611058942548551
0.0063420305,0.0272094049,0.03226538,0.0017814064615565442
0.006568532,0.0392026715,0.0178039148,0.0018538288349425713
0.006795033,0.0446247496,-0.00202736701,0.0019954784938559364
0.007021534,0.0390241258,-0.0222411938,0.0020175530961033836
0.007248035,0.0244652387,-0.0367416777,0.0019484987848586552
0.007474536,0.00584920449,-0.0423151068,0.0018247814566612426
0.0077010375,-0.011897644,-0.0393079929,0.0016866722385771862
0.0079275385,-0.0256839786,-0.0300700106,0.0015638722942093704
0.0081540395,-0.0342765972,-0.0172460489,0.0014723113182722393
0.0083805405,-0.0375428237,-0.00299435202,0.0014184297553889596
0.008607042,-0.0357920527,0.0110622589,0.0014034446084502065
0.008833543,-0.0296451356,0.0236803517,0.0014395931213780804
0.009060044,-0.0193216614,0.0339608081,0.0015266630860612757
0.009286545,-0.00530939223,0.040469598,0.0016659780081335887
0.009513046,0.011345176,0.0416538529,0.0018637564798858147
0.009739547,0.0284867343,0.0353406109,0.0020604528098639953
0.009966048,0.0435226858,0.0209254138,0.002332097121946752
0.010192549,0.0511177778,-0.000545790477,0.002613325094454957
0.010419051,0.0470450781,-0.0246598311,0.0028213466433156266
0.010645552,0.0308529306,-0.0441496931,0.0029010987274326037
0.010872053,0.00731007662,-0.0528341644,0.002844886148036498
0.011098554,-0.0163303707,-0.0492812805,0.0026953256149190993
0.011325055,-0.0344740748,-0.0364035033,0.0025136768858291057
0.011551556,-0.0447596312,-0.0185707025,0.002348295576503519
0.011778057,-0.0471805558,0.000488397025,0.002226243377250943
0.012004558,-0.042752903,0.0182038266,0.0021591900178102768
0.012231059,-0.0327225327,0.0328693129,0.002151155876820676
0.01245756,-0.0184064005,0.043160148,0.0022015939547483047
0.012684061,-0.00100053265,0.0483365506,0.0023374231894900763
0.012910563,0.0181562677,0.0470270663,0.0025411950215786594
0.013137064,0.0368852317,0.0381638929,0.0028170030388453555
0.013363565,0.0521081686,0.0213085394,0.003169315086207378
0.013590066,0.0595945083,-0.00221635052,0.0035564176291462734
0.013816567,0.0559016354,-0.0291704331,0.003975907007636109
0.014043068,0.0389941894,-0.0530737936,0.004337374374058473
0.014269569,0.0115160821,-0.0666738376,0.004578020767245113
0.01449607,-0.0195600651,-0.0654901788,0.004671559665972208
0.014722571,-0.0461164564,-0.0501689427,0.004643650362528983
0.014949072,-0.0625032037,-0.0254390091,0.0045537936567535756
0.015175574,-0.0667640865,0.00276496285,0.004465088265741363
0.015402075,-0.059684027,0.0293996353,0.004426521634709735
0.015628576,-0.0433725864,0.0508899204,0.004470965249343801
0.015855077,-0.0203887634,0.0648443401,0.004620490115985647
0.016081578,0.00651590666,0.0696491748,0.004893464589922788
0.016308079,0.0343871638,0.064248167,0.005310303997067919
0.01653458,0.0597379506,0.0480408259,0.005876543695042151
0.016761081,0.078270413,0.0215640012,0.00659126369894417
0.016987582,0.0852945969,-0.0126886535,0.0074361701879765525
0.017214084,0.0768263191,-0.0495997034,0.008362413883822997
0.017440584,0.0514523685,-0.0815338194,0.009295109930211608
0.017667086,0.0121594863,-0.100019239,0.010151701277219009
0.017893586,-0.0333722495,-0.09880694,0.01087651842885385
0.018120088,-0.0748973563,-0.0765885413,0.011475418639190955
0.018346588,-0.103074402,-0.037466187,0.01202804751597657
0.01857309,-0.11205741,0.0109127583,0.012675951429622318
0.018799592,-0.100072473,0.0599100143,0.013603709665761932
0.019026092,-0.0685801506,0.101628989,0.015031688461480803
0.019252594,-0.0211931113,0.12952356,0.017225500561647792
0.019479094,0.0369652696,0.138392434,0.020518896945045044
0.019705596,0.0994199142,0.124324746,0.025340961807499878
0.019932096,0.158118248,0.0849001557,0.03220941678847374
0.020158598,0.203211859,0.0202097613,0.04170349409003885
0.020385098,0.22385183,-0.0656291693,0.05441682965735697
0.0206116,0.210159749,-0.163322836,0.07084146885882589
0.020838102,0.156221628,-0.258508712,0.09123195123486932
0.021064602,0.0630476922,-0.333995312,0.11552787992972327
0.021291104,-0.0602564141,-0.373869568,0.1434092893166973
0.021517604,-0.198206976,-0.36769861,0.17448827313099666
0.021744106,-0.332805663,-0.312706649,0.20854505765367876
0.021970606,-0.447443932,-0.213200107,0.24566035790843205
0.022197108,-0.52931267,-0.0788248479,0.28638525926898706
0.022423608,-0.57120645,0.0799898282,0.332675181137068
0.02265011,-0.56686002,0.252047509,0.3848582290675055
0.02287661,-0.513091028,0.425064862,0.4439425399211758
0.023103112,-0.408948153,0.586091757,0.5107421394654585
0.023329614,-0.256177932,0.721031368,0.5855133664837481
0.023556114,-0.0604405813,0.814764977,0.6674950316136923
0.023782616,0.167162448,0.852401257,0.7545311869565328
0.024009116,0.409133792,0.82190609,0.8429200805353875
0.024235618,0.642350852,0.717708409,0.9277199774144371
0.024462118,0.841312766,0.5438869,1.0036201302261807
0.02468862,0.983344257,0.315054208,1.0662250817533894
0.02491512,1.05373287,0.053833738,1.1132510326654894
0.025141622,1.04841745,-0.214239016,1.1450775054411508
0.025368122,0.973163128,-0.466013581,1.164215131375188
0.025594624,0.840173721,-0.684085131,1.173864347914273
0.025821126,0.664162636,-0.857365668,1.1761878957235548
0.026047626,0.458859652,-0.980210006,1.171363836096081
0.026274128,0.236631975,-1.05199754,1.162693515758452
0.026500628,0.00938057434,-1.07391346,1.1533781147441198
0.02672713,-0.212552994,-1.04787469,1.1432201412009602
0.02695363,-0.419815481,-0.977084935,1.1309400082912158
0.027180132,-0.603633225,-0.866392732,1.1150094363863245
0.027406632,-0.756160438,-0.722706497,1.0940832888023628
0.027633134,-0.871422231,-0.555091381,1.0675031459415045
0.027859636,-0.946439624,-0.374123961,1.035716700071591
0.028086136,-0.981914341,-0.190456346,1.000429392793136
0.028312638,-0.981951892,-0.0129605122,0.964397493078866
0.028539138,-0.953742087,0.153096989,0.9330626565559816
0.02876564,-0.904665351,0.30289042,0.9101620038277296
0.02899214,-0.83966279,0.437217802,0.8961930072962953
0.029218642,-0.763676643,0.556204021,0.8925649280403178
0.029445142,-0.672970831,0.660047531,0.8885524825560265
0.029671644,-0.568420827,0.756408155,0.895255533517868
0.029898144,-0.451369286,0.842842698,0.9141180459160689
0.030124646,-0.319814116,0.916143179,0.9415993932210874
0.030351148,-0.172890201,0.971926093,0.9745313518560651
0.030577648,-0.0118741961,1.00461686,1.009396031929281
0.03080415,0.15917401,1.0084784,1.04236504872604
0.03103065,0.333373845,0.979074061,1.069724137453116
0.031257152,0.501828671,0.914676607,1.0884653104306588
0.031483652,0.655139029,0.817041814,1.0967644731434734
0.031710154,0.784988701,0.69118619,1.0939456099443834
0.031936654,0.885144711,0.544931889,1.0804319230603818
0.032163156,0.967183769,0.385127127,1.0837673469683196
0.032389658,1.01264369,0.222635567,1.0750138385902275
0.032616158,1.03603828,0.0702983215,1.078317171631076
0.03284266,1.01234543,-0.0809270516,1.0313924573225544
0.03306916,0.977009118,-0.231810048,1.0082827150089002
0.033295662,0.924163699,-0.372043103,0.9924946130392311
0.033522162,0.85452491,-0.501064956,0.98127891194179
0.033748664,0.769358933,-0.617914081,0.9737309792849731
0.033975164,0.669917524,-0.721268535,0.9690177885433369
0.034201664,0.557652652,-0.809496284,0.9662607140924417
0.034428168,0.434453726,-0.880842865,0.9646341928566913
0.034654668,0.302743077,-0.933728456,0.9635022002155719
0.034881168,0.165384725,-0.967011988,0.9624642921990377
0.035107672,0.0255306885,-0.980131269,0.9613091205268345
0.035334172,-0.113550976,-0.973271728,0.9601516806746585
0.035560672,-0.264886826,-0.957082927,0.9861727597432416
0.035787172,-0.40356347,-0.917770982,1.0051670497196852
0.036013676,-0.488973796,-0.887466908,1.0266928859697302
0.036240176,-0.628764272,-0.787882507,1.0161033545802949
0.036466676,-0.740573704,-0.690652668,1.025450518871798
0.036693176,-0.83835119,-0.578462958,1.037452111552526
0.03691968,-0.91955018,-0.451275378,1.0492220003270754
0.03714618,-0.980770588,-0.310984641,1.0586223932237646
0.03737268,-1.01873398,-0.161026523,1.0637484631161098
0.037599184,-1.0310514,-0.00622678176,1.0631057622530466
0.037825684,-1.01690602,0.147657931,1.055900718099441
0.038052184,-0.977433622,0.29472667,1.0422402954253278
0.038278684,-0.915635943,0.429821432,1.0231356435200298
0.038505188,-0.835867822,0.549229324,1.0003278661965207
0.038731688,-0.743069828,0.651028454,0.9759908172015797
0.038958188,-0.641951799,0.734750926,0.9519610354971939
0.039184688,-0.538150847,0.799393475,0.9286362619993931
0.039411192,-0.446769446,0.866813362,0.95096834242089
0.039637692,-0.322294772,0.921650708,0.9533139476154333
0.039864192,-0.199149832,0.956562996,0.9546734209021244
0.040090696,-0.073307544,0.978271723,0.9623895600287006
0.040317196,0.0563117824,0.985836625,0.9750448680284557
0.040543696,0.189182878,0.977182448,0.9906756980076356
0.040770196,0.323335558,0.949993372,1.0070332899111016
0.0409967,0.455422163,0.902450383,1.0218260403284454
0.0412232,0.581065357,0.833900392,1.0330268128832911
0.0414497,0.695496619,0.745289981,1.0391727028194115
0.041676204,0.794321537,0.639225364,1.0395557701229747
0.041902704,0.874198854,0.519667208,1.0342776434054286
0.042129204,0.933229685,0.391385287,1.0241000878452717
0.042355704,0.970922291,0.259688735,1.010128334246589
0.042582208,0.989785194,0.132470459,0.9972231527692882
0.042808708,1.00752521,0.00255517894,1.0151135777249596
0.043035208,0.99649626,-0.13803038,1.012057181996932
0.043261708,0.965011239,-0.269681215,1.0039746491201913
0.043488212,0.917929292,-0.393681139,0.9975790243159586
0.043714712,0.856354594,-0.509659231,0.9930957224084163
0.043941212,0.781045377,-0.616470516,0.9900677780303784
0.044167716,0.692892492,-0.712587059,0.9878803221242396
0.044394216,0.593142867,-0.79631424,0.9859348294997572
0.044620716,0.48350358,-0.866026342,0.9837773369107173
0.044847216,0.366112798,-0.920403898,0.9811819163129832
0.04507372,0.243404776,-0.958608747,0.9781766148045201
0.04530022,0.117932677,-0.980358183,0.9750102832794478
0.04552672,-0.00772026414,-0.985912979,0.9720840046390457
0.04575322,-0.130631089,-0.976347029,0.9703180024504529
0.045979724,-0.248205125,-0.9571141,0.9776731844950756
0.046206224,-0.374361783,-0.929703057,1.0044945187660843
0.046432724,-0.499302804,-0.875917256,1.016534329440832
0.046659228,-0.6140154,-0.804438293,1.024135878681914
0.046885728,-0.718299389,-0.717618167,1.0309298458462133
0.047112228,-0.81024152,-0.616310477,1.036329924791878
0.047338728,-0.88723594,-0.502002597,1.039194220622428
0.047565232,-0.946703851,-0.377149701,1.0384900784626196
0.047791732,-0.986656725,-0.245133281,1.0335818184415506
0.048018232,-1.00613964,-0.109954655,1.0244070013354984
0.048244732,-1.00545728,0.0242583528,1.0115328095855673
0.048471236,-0.986120105,0.153787196,0.9960833631387535
0.048697736,-0.950553775,0.275724828,0.9795766599423803
0.048924236,-0.901766717,0.388100326,0.9638050749302642
0.04915074,-0.843651593,0.48987636,0.9517268584582874
0.04937724,-0.782113016,0.584561706,0.9534131579182468
0.04960374,-0.70942986,0.681213737,0.9673428817371248
0.04983024,-0.620274544,0.76758194,0.9739225445485716
0.050056744,-0.521424472,0.841908932,0.9806941297818594
0.050283244,-0.413721919,0.904879332,0.9899724317418088
0.050509744,-0.297260702,0.955309212,1.0009796154855937
0.050736244,-0.172837868,0.99111551,1.0121828827773456
0.050962748,-0.0422903448,1.01000452,1.0218976036837335
0.051189248,0.0914893821,1.01007473,1.0286212672216126
0.051415748,0.224807009,0.990326107,1.0312839895013015
0.051642252,0.353630781,0.950980067,1.0294178171019945
0.051868752,0.474137515,0.893537462,1.0232155791277766
0.052095252,0.583183765,0.820609331,1.013502977883843
0.052321752,0.678640902,0.735740125,1.0018670054023893
0.052548256,0.760234952,0.643608153,0.9921886368505137
0.052774756,0.833316267,0.547221601,0.9938674814478186
0.053001256,0.898310006,0.438043535,0.9988430054350163
0.05322776,0.945535123,0.319665372,0.9962226188825235
0.05345426,0.976342022,0.198159948,0.9925111089144112
0.05368076,0.992254674,0.0750188753,0.9901971697261233
0.05390726,0.993523836,-0.0487968996,0.9894707501107274
0.054133764,0.979932725,-0.172039777,0.9898658303961353
0.054360264,0.951231122,-0.293058664,0.9907240280068439
0.054586764,0.907432318,-0.409850836,0.991411119520752
0.054813264,0.849012673,-0.520221591,0.9914530226571763
0.055039768,0.77700007,-0.622002959,0.9906167897847606
0.055266268,0.692960322,-0.713274598,0.9889546600184054
0.055492768,0.598942935,-0.792549312,0.9868670513380875
0.055719272,0.497518688,-0.859056175,0.9855023567148719
0.055945772,0.3915914,-0.913971126,0.9886870437156678
0.056172272,0.279527128,-0.961370111,1.0023679056120807
0.056398772,0.155515924,-0.995521009,1.0152472819779519
0.056625276,0.026179824,-1.01007736,1.0209416563692404
0.056851776,-0.103654847,-1.00646305,1.023712198321896
0.057078276,-0.231821641,-0.985505283,1.024961936056843
0.057304776,-0.356099039,-0.947494149,1.0245516879659575
0.05753128,-0.473942906,-0.892973006,1.0220226675924007
0.05775778,-0.582715392,-0.823091328,1.017036562302517
0.05798428,-0.680013001,-0.739698768,1.0095719489097439
0.058210784,-0.763981283,-0.645238578,1.0000002233137881
0.058437284,-0.833529532,-0.542495668,0.9890730305149054
0.058663784,-0.888394296,-0.43429336,0.9778551477054251
0.058890284,-0.929102957,-0.323263109,0.9677313423464897
0.059116788,-0.957113147,-0.211712554,0.9608877816814467
0.059343288,-0.975617945,-0.100596301,0.9619499903809057
0.059569788,-0.98669821,0.014561045,0.9737853816486961
0.059796288,-0.983427286,0.135755062,0.9855586637079495
0.060022792,-0.963437796,0.257001668,0.9942622441161199
0.060249292,-0.928184092,0.375712663,1.002685713780416
0.060475792,-0.877885103,0.490504235,1.011276658622256
0.060702296,-0.812349379,0.599404037,1.019196713133583
0.060928796,-0.731796145,0.699816465,1.0252686825219572
0.061155296,-0.637266874,0.788861513,1.028411555390381
0.061381796,-0.530761719,0.863823891,1.027899717018215
0.0616083,-0.415129751,0.92259711,1.0235181375456741
0.0618348,-0.293762982,0.964013457,1.015618634870623
0.0620613,-0.170198068,0.988004923,1.0051211102231685
0.0622878,-0.0477291532,0.995651245,0.993599473735239
0.062514304,0.0711011887,0.9893592,0.983887005659193
0.062740804,0.186330169,0.972763062,0.9809869066711843
0.062967304,0.301872194,0.945543408,0.9851791579226282
0.063193808,0.415532559,0.902608395,0.9873692223135646
0.063420308,0.522268653,0.845267832,0.9872422537204146
0.063646808,0.620872915,0.775984526,0.9876351611720419
0.063873308,0.710839808,0.695769966,0.989389078225118
0.064099812,0.791205227,0.605155051,0.992218346982934
0.064326312,0.860564411,0.504818439,0.9954127618341737
0.064552812,0.917307675,0.395891488,0.9981834408847597
0.064779316,0.959905088,0.280061632,0.9998522956867911
0.065005816,0.987192988,0.159528226,0.9999992504470752
0.065232316,0.99859345,0.0368334353,0.9985455803389017
0.065458816,0.994261682,-0.0853699073,0.9958443133658796
0.06568532,0.97522074,-0.204614401,0.9929225448227365
0.06591182,0.943556011,-0.319303155,0.992252450687186
0.06613832,0.901301742,-0.43052426,0.9976959685807821
0.06636482,0.845542789,-0.540050924,1.0065976085431523
0.066591324,0.773224175,-0.642830193,1.011106281836848
0.066817824,0.687260032,-0.734395564,1.011663196007519
0.067044324,0.590538025,-0.813501716,1.0105202009058452
0.067270824,0.484961152,-0.879365265,1.0084705882376874
0.067497328,0.372287601,-0.931108534,1.0055611599459644
0.067723832,0.254473269,-0.967934787,1.0016543965202818
0.067950328,0.13370496,-0.989348292,0.9966870592119188
0.068176832,0.0122846384,-0.995307446,0.9907878244036616
0.068403328,-0.107549027,-0.986282289,0.9843195468037264
0.068629832,-0.223800108,-0.963223159,0.9778853423747509
0.068856336,-0.334859192,-0.927492499,0.9723730141681578
0.069082832,-0.439701438,-0.880847096,0.9692289611109011
0.069309336,-0.538546681,-0.825291693,0.9711389061509221
0.06953584,-0.63370204,-0.761058927,0.9807889658665528
0.069762336,-0.725132525,-0.684015632,0.9936945636332352
0.06998884,-0.807464778,-0.592945218,1.003583399259657
0.070215344,-0.877543271,-0.490690947,1.0108597979451361
0.07044184,-0.934189081,-0.379438162,1.0166825578415628
0.070668344,-0.976196945,-0.260898501,1.02102850325138
0.07089484,-1.00226641,-0.137088984,1.0233313461484406
0.071121344,-1.01137424,-0.010541901,1.0229889850122715
0.071347848,-1.00311112,0.115805686,1.019642875977585
0.071574344,-0.977883041,0.238895535,1.0133263185183439
0.071800848,-0.936940312,0.355895668,1.0045188747518237
0.072027352,-0.882251441,0.464520723,0.9941471072430192
0.072253848,-0.816293597,0.563284218,0.9836243467510699
0.072480352,-0.741804659,0.651796997,0.9751134774123245
0.072706856,-0.661067963,0.731365919,0.9719069591796841
0.072933352,-0.573454201,0.804412484,0.9759291650595987
0.073159856,-0.475852817,0.869411767,0.9823127240448978
0.073386352,-0.369353205,0.922281682,0.9870252909965211
0.073612856,-0.256807506,0.961878419,0.9911601880758797
0.07383936,-0.139828697,0.988047004,0.9957889466180938
0.074065856,-0.0196139123,1.0002296,1.000843958271872
0.07429236,0.10234008,0.997590899,1.0056610937420345
0.074518864,0.224029511,0.979399562,1.009412723844691
0.07474536,0.343013018,0.945365071,1.0113730479843035
0.074971864,0.456638962,0.895864069,1.0110915717416742
0.075198368,0.562348127,0.83202666,1.0085037788911637
0.075424864,0.657990098,0.755686343,1.0040128180627632
0.075651368,0.742136061,0.669227481,0.998631354362201
0.075877864,0.814495504,0.575258434,0.9943251919243464
0.076104368,0.876328349,0.475493014,0.99404498162387
0.076330872,0.928595304,0.368734628,0.9982544644971507
0.076557368,0.968128681,0.253880054,1.0017282247938428
0.076783872,0.991934419,0.134160429,1.0019329123063316
0.077010376,1.00012398,0.012990661,1.0004167326442572
0.077236872,0.993436933,-0.107609205,0.9984966808491785
0.077463376,0.972349346,-0.226094276,0.9965818723065919
0.07768988,0.937234938,-0.340898365,0.9946210242675371
0.077916376,0.88860029,-0.450350583,0.992426122996524
0.07814288,0.827236474,-0.552748144,0.9898506946113975
0.078369376,0.754279435,-0.646494627,0.9868927688037885
0.07859588,0.671190321,-0.730245352,0.9837547211216868
0.078822384,0.579685628,-0.803046942,0.9809198183653058
0.07904888,0.481615782,-0.864513695,0.9793376903140245
0.079275384,0.37860173,-0.915116131,0.9807768031754021
