Unnamed: 0,Frequency (GHz),Re( S21 ),Im( S21 ),S2
0,0.0,0.037010882,0.0,0.0013698053864179
1,0.000226483172,0.0330639184,-0.0160262883,0.0013500646166365
2,0.000452966344,0.0225013737,-0.0281240623,0.0012972746986413
3,0.0006794495,0.00837439392,-0.0340103097,0.0012268316394172
4,0.000905932688,-0.00604790961,-0.0334470421,0.0011552818358899
5,0.00113241588,-0.0183283966,-0.0275528822,0.0010950914394539
6,0.001358899,-0.027056776,-0.0179351401,0.0010537383779208
7,0.00158538225,-0.0315774977,-0.00617572619,0.0010352779549673
8,0.00181186538,-0.0316548571,0.00632066885,0.0010419808327327
9,0.00203834863,-0.0272371713,0.0182318743,0.0010742647409165
10,0.00226483175,-0.0184668005,0.0281038992,0.0011308518709505
11,0.002491315,-0.00592545187,0.0342529267,0.0012083739673792
12,0.002717798,0.00898826402,0.0349030383,0.0012990109726644
13,0.00294428125,0.0237095058,0.0287428908,0.0013882944368209
14,0.0031707645,0.0346708558,0.0159182604,0.0014554592560666
15,0.00339724775,0.0384280086,-0.000777557143,0.0014773164400723
16,0.00362373075,0.0339073949,-0.0176254865,0.0014603692032662
17,0.003850214,0.0224293489,-0.0299173426,0.0013981230803237
18,0.00407669725,0.00751983188,-0.0354773961,0.0013151935055397
19,0.0043031805,-0.00733082322,-0.0343266875,0.0012320624438055
20,0.0045296635,-0.0196965002,-0.0278453249,0.0011633142389151
21,0.0047561465,-0.0282997061,-0.0177863762,0.0011172285436743
22,0.00498263,-0.0326368287,-0.00576233352,0.0010983670751888
23,0.005209113,-0.0326122232,0.00689094374,0.0011110422076744
24,0.005435596,-0.0281981453,0.0190241747,0.001157054621376
25,0.0056620795,-0.0194245111,0.0293154996,0.0012367101482716
26,0.0058885625,-0.0066461619,0.0361397713,0.0013502545376173
27,0.006115046,0.00907311775,0.0375699475,0.0014938224208581
28,0.006341529,0.0254262779,0.031744644,0.0016542180305347
29,0.006568012,0.0373374969,0.0181592628,0.0017238475001969
30,0.0067944955,0.0431044288,-0.000797481684,0.0018586277592105
31,0.0070209785,0.038268432,-0.0204414167,0.0018823244044416
32,0.0072474615,0.0246211477,-0.0348430052,0.0018202359254324
33,0.007473945,0.00679559959,-0.0407407023,0.0017059849976848
34,0.007700428,-0.0104301805,-0.0383221172,0.0015773733319531
35,0.007926911,-0.023997888,-0.0297765341,0.001462540611469
36,0.0081533945,-0.0326465219,-0.0176320225,0.0013766836096076
37,0.0083798775,-0.0361973904,-0.003970508,0.001326016005548
38,0.008606361,-0.0349123068,0.00963983033,0.0013117954948885
39,0.008832844,-0.0293551181,0.0219801906,0.0013448517374772
40,0.009059327,-0.0197258797,0.0322021209,0.001426086920397
41,0.00928581,-0.00643908046,0.0389207341,0.0015562853000532
42,0.009512293,0.00955822319,0.0406141728,0.0017408706627781
43,0.009738777,0.0263214447,0.0351511203,0.0019284197094402
44,0.00996526,0.0413410366,0.021812845,0.0021848815141565
45,0.010191743,0.0495089665,0.00138219516,0.0024530482273584
46,0.010418226,0.0465457439,-0.0220979713,0.00265482661078
47,0.010644709,0.0316618383,-0.0416459441,0.0027368566645156
48,0.010871192,0.00917054061,-0.0510449931,0.0026896901356587
49,0.011097676,-0.0139490385,-0.0485548712,0.002552151192323
50,0.011324159,-0.0321093984,-0.0367572978,0.0023821124071678
51,0.011550642,-0.0428172164,-0.0198179483,0.0022260650950659
52,0.011777125,-0.0459172018,-0.00137920887,0.002110291638249
53,0.012003608,-0.0423070677,0.0160132274,0.0020463114291364
54,0.012230092,-0.0331414491,0.0306566078,0.0020381832502509
55,0.012456575,-0.0196422674,0.0412144735,0.0020844514944953
56,0.012683058,-0.00297057186,0.0469491035,0.0022130426166291
57,0.012909541,0.0156648122,0.0464824736,0.0024060066932359
58,0.013136024,0.0342099071,0.038699843,0.0026679955920152
59,0.013362507,0.0497278608,0.0230389088,0.0030036514584388
60,0.013588991,0.058082968,0.000575965329,0.0033739629077492
61,0.013815474,0.0558061972,-0.0257719159,0.0037785232950819
62,0.014041957,0.0405661166,-0.0498566628,0.0041312966415576
63,0.01426844,0.0145021388,-0.0645055324,0.0043712757399819
64,0.014494923,-0.0158758089,-0.0649526268,0.0044708850364493
65,0.014721406,-0.0426105745,-0.0513476729,0.0044522445714654
66,0.01494789,-0.0598968901,-0.0279930774,0.0043712498259738
67,0.015174373,-0.0654842928,-0.000605646521,0.0042885594112245
68,0.015400856,-0.0598792396,0.0258153155,0.0042519538494387
69,0.015627339,-0.0449793898,0.0476511903,0.0042937814437871
70,0.015853822,-0.0231846739,0.0624367967,0.0044358826860064
71,0.016080306,0.00288577471,0.0684677958,0.0046961667573873
72,0.016306789,0.0303933602,0.064583458,0.0050947793914847
73,0.016533272,0.0559835173,0.0500423461,0.0056383906124715
74,0.016759755,0.0754623786,0.0251476131,0.006326973028597
75,0.016986238,0.0841514692,-0.00793227553,0.0071443907636023
76,0.017212722,0.0779012516,-0.0444587767,0.0080451878265069
77,0.017439204,0.054891903,-0.0771037862,0.0089581148613367
78,0.017665688,0.0175094958,-0.097447373,0.0098025729477713
79,0.01789217,-0.0271518808,-0.0989153683,0.010521474716902
80,0.018118654,-0.0691590309,-0.0795759633,0.0111153054901501
81,0.018345138,-0.0990911722,-0.0428588986,0.0116559455971751
82,0.01857162,-0.110723324,0.00407921709,0.0122762944896763
83,0.018798104,-0.101789504,0.0528321154,0.0131523355422049
84,0.019024586,-0.0732800364,0.0955262408,0.0144952264161649
85,0.01925107,-0.0284045208,0.125510678,0.0165597470938973
86,0.019477554,0.0280607995,0.137398034,0.0196656282156443
87,0.019704036,0.0899462625,0.127021089,0.0242246871884648
88,0.01993052,0.149483174,0.0916102082,0.0307376495555616
89,0.020157002,0.197038129,0.0307458881,0.0397693339148783
90,0.020383486,0.221785158,-0.0521286428,0.0519060517092549
91,0.02060997,0.213550135,-0.148472697,0.067647801912972
92,0.020836452,0.165723085,-0.244565174,0.0872762652355675
93,0.021062936,0.0782859027,-0.323488355,0.1107733983821599
94,0.021289418,-0.0407622159,-0.369055986,0.1378638790475104
95,0.021515902,-0.176787347,-0.370051175,0.168191638178179
96,0.021742384,-0.312161863,-0.322648793,0.2015472723359876
97,0.021968868,-0.430168062,-0.230139256,0.2380086387170694
98,0.022195352,-0.51747036,-0.101312786,0.2780398540856114
99,0.022421834,-0.566338003,0.0536603555,0.3236181673944144
100,0.022648318,-0.569978178,0.224029317,0.3750642582716861
101,0.0228748,-0.524624288,0.397682309,0.4333818624510784
102,0.023101284,-0.428740531,0.561771333,0.4994054735027589
103,0.023327768,-0.283428848,0.702221453,0.5734468809320383
104,0.02355425,-0.0936096534,0.803790987,0.6548427179921023
105,0.023780734,0.130427763,0.851210713,0.7415710792871525
106,0.024007216,0.371952087,0.83170712,0.8300850884823501
107,0.0242337,0.608338952,0.738574922,0.9155691959277644
108,0.024460184,0.814068675,0.574503779,0.9927623997015366
109,0.024686666,0.965789139,0.352778256,1.0572011589167627
110,0.02491315,1.04755735,0.0951281413,1.1064257648062152
111,0.025139632,1.05385065,-0.173137084,1.1405776423614455
112,0.025366116,0.989128709,-0.42845434,1.1619487244328424
113,0.025592598,0.864696681,-0.652603209,1.1735912985295134
114,0.025819082,0.69482857,-0.833572745,1.17763026289508
115,0.026045566,0.493211806,-0.964889228,1.1742691078882177
116,0.026272048,0.272401154,-1.04522777,1.1667034798797042
117,0.026498532,0.0445655026,-1.07525992,1.1581699795803968
118,0.026725014,-0.179637179,-1.05653965,1.1485455481012004
119,0.026951498,-0.390526503,-0.992008448,1.1365917104487775
120,0.027177982,-0.57899195,-0.886321247,1.1207970310484376
121,0.027404464,-0.736828685,-0.746260941,1.0998219031010348
122,0.027630948,-0.857674837,-0.58085233,1.0729955552894055
123,0.02785743,-0.938162327,-0.400750995,1.040749911795545
124,0.028083914,-0.978655815,-0.216819599,1.004777942743835
125,0.028310398,-0.983049512,-0.0382492505,0.96784934820725
126,0.02853688,-0.958468854,0.129305482,0.9353824517633256
127,0.028763364,-0.912371337,0.280750632,0.9112423739475668
128,0.028989846,-0.849896848,0.416676164,0.89594367788609
129,0.02921633,-0.776150525,0.537211716,0.8910060652654402
130,0.029442812,-0.68778199,0.642701805,0.886109675918618
131,0.029669296,-0.585681558,0.74081254,0.8918261068025589
132,0.02989578,-0.471199751,0.829384208,0.9099073698222492
133,0.030122262,-0.34223184,0.905413389,0.936896037290251
134,0.030348746,-0.197685346,0.964674294,0.9696759895275384
135,0.030575228,-0.0385192558,1.00164545,1.0047773405730884
136,0.030801712,0.131565332,1.01048601,1.0383914129899905
137,0.031028196,0.306002736,0.986478865,1.066778225531174
138,0.031254678,0.476073802,0.927468598,1.0868442652268209
139,0.031481162,0.632350385,0.834720254,1.096624911847473
140,0.031707644,0.766277313,0.712810397,1.0952795824897976
141,0.031934128,0.871204913,0.569256186,1.0830506057346043
142,0.032160612,0.958215892,0.41123578,1.087292562433564
143,0.032387094,1.00845468,0.249197394,1.0790801827902938
144,0.032613578,1.03585255,0.0959782302,1.0822023260138267
145,0.03284006,1.01629913,-0.0563662536,1.0360410761836565
146,0.033066544,0.984190226,-0.20893918,1.0122859818930032
147,0.033293026,0.934070706,-0.351041734,0.995718382817065
148,0.03351951,0.866747081,-0.481987536,0.9835624872813716
149,0.033745992,0.783616543,-0.600767195,0.9749761090514388
150,0.033972476,0.686048806,-0.706083596,0.9692170087543168
151,0.03419896,0.57556361,-0.796379089,0.965493122552702
152,0.034425444,0.454054952,-0.869997978,0.9630623811598108
153,0.034651924,0.323883891,-0.925443769,0.9613469444302252
154,0.034878408,0.187804997,-0.961616695,0.959977385000893
155,0.035104892,0.0488418415,-0.977933764,0.9587399722523188
156,0.035331376,-0.0898491815,-0.974497616,0.9577184790059032
157,0.03555786,-0.241002962,-0.962167442,0.9838486141375968
158,0.03578434,-0.380184799,-0.926603973,1.003135404170055
159,0.036010824,-0.465747029,-0.902363539,1.0311802515389314
160,0.036237308,-0.608684897,-0.803164244,1.015570106675992
161,0.036463792,-0.723010778,-0.708936632,1.0253357332956687
162,0.036690276,-0.823787272,-0.599356472,1.0378536500374889
163,0.036916756,-0.908417761,-0.474256486,1.0501420430133217
164,0.03714324,-0.973408163,-0.33542791,1.0600353346020026
165,0.037369724,-1.01534617,-0.186223432,1.0656070115595273
166,0.037596208,-1.03167188,-0.0314232968,1.0653342915645152
167,0.037822692,-1.02137756,0.123202845,1.0583910610876477
168,0.038049172,-0.985413849,0.271668524,1.0448442407333334
169,0.038275656,-0.926643312,0.408665627,1.0256754223656326
170,0.03850214,-0.849351406,0.530292749,1.0026082105161538
171,0.038728624,-0.758493304,0.634440005,0.9778262121572364
172,0.038955108,-0.658846796,0.720499873,0.9531991675924816
173,0.039181588,-0.556006193,0.787344277,0.929053897179006
174,0.039408072,-0.466555685,0.856128454,0.9506301369542494
175,0.039634556,-0.34300375,0.913671196,0.952446626914133
176,0.03986104,-0.22084412,0.950938106,0.9530554067814416
177,0.040087524,-0.0959427431,0.975196898,0.9602139998223748
178,0.040314004,0.0329009816,0.985620737,0.9725307117946668
179,0.040540488,0.16531983,0.980177224,0.988078036639575
180,0.040766972,0.299525946,0.956512511,1.00463197602672
181,0.040993456,0.432337135,0.912676632,1.0198940328988717
182,0.04121994,0.559482515,0.847808361,1.0317997015722316
183,0.04144642,0.676201582,0.762599885,1.038807164101316
184,0.041672904,0.777998447,0.65941453,1.0401091059095326
185,0.041899388,0.861336052,0.542028904,1.035695127246388
186,0.042125872,0.924067199,0.415124148,1.0262282465204315
187,0.042352352,0.965431869,0.284006,1.0127181017168332
188,0.042578836,0.987496674,0.156685606,0.9997000602886494
189,0.04280532,1.00855637,0.0271033682,1.0179205440353618
190,0.043031804,1.00085151,-0.114436515,1.0147994610346254
191,0.043258288,0.972144067,-0.247237429,1.0061904333018306
192,0.043484768,0.927558064,-0.372516364,0.9991324035392086
193,0.043711252,0.868291914,-0.489880711,0.9939139589276492
194,0.043937736,0.795176208,-0.59820056,0.9901491117535728
195,0.04416422,0.709141314,-0.695996881,0.9872930615833748
196,0.044390704,0.611431897,-0.781641245,0.9848120005541686
197,0.044617184,0.503706396,-0.853567958,0.9822983922955986
198,0.044843668,0.38801834,-0.910488307,0.979547189360082
199,0.045070152,0.266700685,-0.951552629,0.976581661136281
200,0.045296636,0.142210841,-0.976420701,0.9736213086392588
201,0.04552312,0.0170594398,-0.985254943,0.9710183271922233
202,0.0457496,-0.105861425,-0.978975236,0.9695991540042864
203,0.045976084,-0.223697349,-0.962809622,0.9770428721654106
204,0.046202568,-0.350359201,-0.939102888,1.004665803975299
205,0.046429052,-0.476876289,-0.8887375,1.0172653389166617
206,0.046655536,-0.593589187,-0.820287764,1.0252201386914406
207,0.046882016,-0.700271845,-0.736153841,1.0323031345187572
208,0.0471085,-0.794972658,-0.637138844,1.0379274335012414
209,0.047334984,-0.875022113,-0.524671674,1.040944063736947
210,0.047561468,-0.937757611,-0.401158422,1.0403174165299574
211,0.047787952,-0.981088042,-0.269951522,1.0354075703855103
212,0.048014432,-1.00394619,-0.135054305,1.0261476177145492
213,0.048240916,-1.00652874,-0.000633359188,1.0131005055898488
214,0.0484674,-0.990261137,0.129520506,0.9973926809270288
215,0.048693884,-0.957515538,0.252409488,0.9805465551438516
216,0.048920368,-0.911281109,0.365966588,0.9643648031526316
217,0.049146848,-0.855437994,0.469032884,0.9517660078521014
218,0.049373332,-0.796092153,0.564831853,0.9527977382315892
219,0.049599816,-0.726013422,0.662995219,0.966658149341008
220,0.0498263,-0.63913995,0.751351655,0.9730291851572416
221,0.05005278,-0.54239893,0.827893019,0.9796034501740792
222,0.050279264,-0.436652571,0.893396974,0.9888236209132666
223,0.050505748,-0.321908623,0.94673878,0.9999394791176446
224,0.050732232,-0.198836654,0.985841572,1.0114196200573469
225,0.050958716,-0.0691346526,1.00835812,1.021565698360057
226,0.051185196,0.0644262061,1.01226902,1.0288393048842002
227,0.05141168,0.198223487,0.996403575,1.0321126350712198
228,0.051638164,0.328226119,0.960788727,1.0308473631240826
229,0.051864648,0.450534075,0.90674156,1.0251612093673392
230,0.052091132,0.561863422,0.836733341,1.0158131889225723
231,0.052317612,0.659898698,0.754229784,1.0043288586947818
232,0.052544096,0.744116008,0.663922846,0.9945021788025956
233,0.05277058,0.819693863,0.569187582,0.9958725325428696
234,0.052997064,0.88758558,0.461475283,1.0007675986438664
235,0.053223548,0.937748969,0.344008803,0.9977151854020558
236,0.053450028,0.97140336,0.223129347,0.993411193311936
237,0.053676512,0.99015224,0.100418285,0.9904852903393588
238,0.053902996,0.994318366,-0.0231606737,0.9892054297711478
239,0.05412948,0.98373282,-0.146406025,0.9891649853014528
240,0.054355964,0.958157599,-0.26774472,0.9897532196093232
241,0.054582444,0.917570412,-0.385260731,0.9903612918285042
242,0.054808928,0.862364173,-0.496831536,0.9905135420380932
243,0.055035412,0.793450236,-0.600324988,0.9899533682256558
244,0.055261896,0.712264001,-0.69380635,0.9886872584208504
245,0.05548838,0.620733082,-0.775720358,0.987051632904867
246,0.05571486,0.521341562,-0.845170677,0.9861104975292384
247,0.055941344,0.417022347,-0.903148413,0.989584693801807
248,0.056167828,0.306396693,-0.953802049,1.0036172821579346
249,0.056394312,0.183277875,-0.991673052,1.0170062215275104
250,0.056620796,0.0541309491,-1.00994599,1.0229210623675469
251,0.056847276,-0.0760216862,-1.00992298,1.0257237223047715
252,0.05707376,-0.204943657,-0.992414296,1.0268880374497091
253,0.057300244,-0.33037889,-0.957681835,1.0263047080465997
254,0.057526728,-0.449753851,-0.906235099,1.02354058114887
255,0.057753208,-0.560400605,-0.83918798,1.0182853038608464
256,0.057979692,-0.65987885,-0.758354306,1.010541350106064
257,0.058206176,-0.746290505,-0.666145504,1.0006993503525692
258,0.05843266,-0.81849283,-0.565324426,0.9895222193936384
259,0.058659144,-0.876169384,-0.458706021,0.978084003160592
260,0.058885624,-0.91978991,-0.348926038,0.9677628585321856
261,0.059112108,-0.950748324,-0.238323644,0.9607205348782476
262,0.059338592,-0.972202897,-0.127986014,0.9615588927148008
263,0.059565076,-0.986522377,-0.0135282213,0.973409413093272
264,0.05979156,-0.986833632,0.107490957,0.9853949230830872
265,0.06001804,-0.970444024,0.229105771,0.994251058022817
266,0.060244524,-0.938767612,0.348651767,1.002842683972405
267,0.060471008,-0.891988754,0.464769006,1.0116541662007006
268,0.060697492,-0.829836965,0.575515568,1.019847557490774
269,0.060923976,-0.752422094,0.678300619,1.026230737275128
270,0.061150456,-0.660665035,0.77020812,1.0296988365854856
271,0.06137694,-0.556454122,0.848442495,1.0294958572126158
272,0.061603424,-0.442556322,0.910775781,1.0253686213983275
273,0.061829908,-0.322330058,0.955897689,1.017637058125824
274,0.062056392,-0.199331164,0.983594954,1.007191946475857
275,0.062282872,-0.0769259557,0.994820595,0.9955856188965124
276,0.062509356,0.0422104076,0.991890132,0.9856277524687356
277,0.06273584,0.157900661,0.978485942,0.9823673574358645
278,0.062962324,0.274103224,0.954585433,0.9863659263029916
279,0.063188808,0.388914406,0.91495806,0.9884026667532964
280,0.063415288,0.497160912,0.860743225,0.9880478718040724
281,0.063641772,0.597579002,0.794454157,0.9882580712058966
282,0.063868256,0.689706028,0.717117012,0.9899512139593448
283,0.06409474,0.772634804,0.629218102,0.9928799602366006
284,0.064321224,0.844999015,0.531345904,0.9963518050485474
285,0.064547704,0.905183852,0.424508423,0.9995652071195048
286,0.064774188,0.951604068,0.310266495,1.0018156001537335
287,0.065000672,0.98298496,0.190710753,1.0026300228960288
288,0.065227156,0.998597205,0.0683195144,1.001863933881664
289,0.065453636,0.998426259,-0.0542584285,0.9997989717240248
290,0.06568012,0.983332157,-0.174489185,0.9973886066722368
291,0.065906604,0.955289602,-0.290625304,0.9970412910144107
292,0.066133088,0.916405678,-0.40357852,1.00267498847603
293,0.066359572,0.863892615,-0.515268326,1.0118118980303803
294,0.066586052,0.794407368,-0.620707333,1.0163606595726602
295,0.066812536,0.710777164,-0.715176225,1.0166812096691336
296,0.06703902,0.615972936,-0.797310889,1.0151273116024304
297,0.067265504,0.511958778,-0.866295338,1.0125694030117875
298,0.067491984,0.40052411,-0.921244681,1.0091113249620838
299,0.067718472,0.28363356,-0.961363792,1.0046683369268927
300,0.067944952,0.163462907,-0.98615396,0.9992197547885722
301,0.06817144,0.0422915816,-0.995558977,0.992926254559516
302,0.06839792,-0.0776674822,-0.990019023,0.986169903693162
303,0.0686244,-0.194436759,-0.970438123,0.9795558038221872
304,0.068850888,-0.30640921,-0.938120365,0.9739564232005572
305,0.069077368,-0.412531763,-0.894766033,0.9707887092944454
306,0.069303848,-0.512952566,-0.84236753,0.9727033905642852
307,0.069530336,-0.609981,-0.781281888,0.9824782088778444
308,0.069756816,-0.703848302,-0.707340121,0.9957324790045778
309,0.069983304,-0.789180636,-0.618997037,1.0059634080521438
310,0.070209784,-0.862635493,-0.519001961,1.0135030293051983
311,0.070436264,-0.92294544,-0.409527391,1.0195409691960606
312,0.070662752,-0.968842387,-0.292252302,1.024066978872157
313,0.070889232,-0.998947203,-0.169154629,1.0265088028936509
314,0.07111572,-1.01213992,-0.0427421033,1.0262541050521146
315,0.0713422,-1.00790381,0.0840471387,1.022934011736173
316,0.07156868,-0.986536026,0.208121121,1.0165677316021693
317,0.071795168,-0.949195445,0.326582432,1.0076280776997826
318,0.072021648,-0.897785664,0.437055051,0.9970362160885335
319,0.072248136,-0.834754765,0.537946522,0.9862019782221018
320,0.072474616,-0.76286,0.628754556,0.977287671290757
321,0.072701096,-0.684491217,0.710689664,0.973608024666574
322,0.072927584,-0.599201381,0.786258519,0.9772447536923804
323,0.073154064,-0.503784955,0.854169488,0.9834047951145342
324,0.073380552,-0.399130881,0.910274625,0.9879053530867268
325,0.073607032,-0.288088322,0.953338087,0.9918483893975952
326,0.073833512,-0.17226243,0.983208239,0.996372786026986
327,0.07406,-0.0527889356,0.999328613,1.0014443484822848
328,0.07428648,0.0689208433,1.00082934,1.0064094504460186
329,0.074512968,0.190947041,0.986900091,1.010432562082464
330,0.074739448,0.31090647,0.957129717,1.012760128252361
331,0.074965928,0.426160634,0.911750674,1.0129021775107363
332,0.075192416,0.534110665,0.851746976,1.0107471135918868
