Unnamed: 0,Frequency (GHz),Re( S21 ),Im( S21 ),S2
0,0.0,0.0376155861,0.0,0.0014149323176465
1,0.000226647594,0.0335918106,-0.0163115077,0.0013944750228334
2,0.000453295188,0.0228275247,-0.0286129043,0.00133979417641
3,0.000679942813,0.00843979139,-0.0345776156,0.001266841579288
4,0.000906590375,-0.00623453595,-0.0339692608,0.0011927801178102
5,0.001133238,-0.0187119078,-0.0279350299,0.0011305013890295
6,0.00135988563,-0.0275581013,-0.0181188881,0.0010877430532413
7,0.00158653325,-0.0321093127,-0.00613635778,0.0010686628488705
8,0.00181318075,-0.0321304426,0.00657824287,0.0010756386209286
9,0.00203982838,-0.0275733471,0.0186754856,0.0011090632326928
10,0.002266476,-0.0185907241,0.0286705997,0.0011676183097199
11,0.0024931235,-0.00578652183,0.0348469131,0.001247791187488
12,0.00271977125,0.0093982378,0.0353997424,0.0013414686357317
13,0.00294641875,0.0243326388,0.0290094409,0.0014336249723018
14,0.0031730665,0.0353735089,0.0158565231,0.0015027144567192
15,0.003399714,0.0390337072,-0.00117466552,0.0015250101368592
16,0.0036263615,0.0342518017,-0.0182595551,0.001506597272146
17,0.00385300925,0.0224414524,-0.0306288321,0.0014417441416314
18,0.00407965675,0.00721990969,-0.0361053757,0.0013557252503699
19,0.0043063045,-0.00785887986,-0.0347553603,0.0012696970622367
20,0.004532952,-0.0203435887,-0.0280144475,0.001198670869925
21,0.0047595995,-0.0289567634,-0.0176823325,0.0011511590292441
22,0.004986247,-0.0332054421,-0.00540539203,0.0011318196480544
23,0.005212895,-0.0330073982,0.00745595992,0.001145079674262
24,0.0054395425,-0.0283462331,0.0197290014,0.0011927424272007
25,0.00566619,-0.0192694794,0.0300632976,0.0012751146989331
26,0.0058928375,-0.00616363017,0.0368025787,0.0013924201358422
27,0.006119485,0.00985264219,0.0379932635,0.0015405626295046
28,0.006346133,0.0263870806,0.031772498,0.0017057696517509
29,0.0065727805,0.0382531919,0.0177380964,0.0017779467544339
30,0.006799428,0.0437214673,-0.00165880367,0.0019143183324805
31,0.0070260755,0.0383916087,-0.0215075258,0.0019364892846115
32,0.007252723,0.024230931,-0.0358282141,0.0018707989427221
33,0.007479371,0.00602506893,-0.0414219834,0.0017520821644011
34,0.0077060185,-0.0113843251,-0.0385961011,0.0016192618781039
35,0.007932666,-0.0249508452,-0.0296408553,0.0015011249791099
36,0.0081593135,-0.0334541798,-0.017143691,0.0014130882871942
37,0.008385961,-0.0367562287,-0.0032154806,0.0013613596637356
38,0.008612609,-0.0351514108,0.0105585624,0.001347104921185
39,0.008839256,-0.0292386226,0.0229567531,0.0013819095644395
40,0.009065904,-0.0192257781,0.0331113152,0.0014659897378241
41,0.009292552,-0.00557084288,0.0396158807,0.0016004522940302
42,0.009519199,0.0107167521,0.040934965,0.001790520135124
43,0.009745847,0.0276294108,0.0349229015,0.0019829933903338
44,0.009972494,0.0425152555,0.0209645461,0.0022470591434093
45,0.010199142,0.0502072647,-2.09803038e-05,0.002520769868829
46,0.01042579,0.0464765169,-0.0237537213,0.002724305898754
47,0.010652437,0.030774489,-0.0430920757,0.0028039961613456
48,0.010879085,0.00771178445,-0.0518856756,0.0027515949518716
49,0.011105732,-0.0155826984,-0.0486340411,0.0026080904431418
50,0.01133238,-0.0335627273,-0.0361456387,0.0024329638608451
51,0.011559028,-0.0438580476,-0.0187028553,0.0022733251356566
52,0.011785675,-0.0464278646,2.31927988e-05,0.0021555471492218
53,0.012012323,-0.0422492623,0.0174949784,0.0020910744341106
54,0.01223897,-0.0325308703,0.0320251584,0.0020838682930205
55,0.012465618,-0.0185494572,0.0422971845,0.0021331341790416
56,0.012692266,-0.00147814804,0.0475753956,0.0022656031881246
57,0.012918913,0.0171699226,0.0463936664,0.0024471785241244
58,0.013145561,0.0356759951,0.0379727371,0.0027147053892409
59,0.013372208,0.0508709215,0.0216604564,0.0030570260257154
60,0.013598856,0.0587916374,-0.00154064421,0.0034588302127548
61,0.013825504,0.0554694273,-0.028160356,0.0038698630150367
62,0.014052151,0.0390787423,-0.051944904,0.004225421151319
63,0.014278799,0.012122429,-0.0657036677,0.004463925234092
64,0.014505446,-0.0185822267,-0.064914003,0.0045591269346142
65,0.014732094,-0.0450076088,-0.0500974767,0.0045354420216008
66,0.014958742,-0.0615022965,-0.0258487072,0.0044506881386852
67,0.015185389,-0.066049464,0.00198995462,0.0043664916140769
68,0.015412037,-0.0593577474,0.0284176003,0.0043309021832127
69,0.015638684,-0.043468222,0.0498682484,0.0043763285223253
70,0.015865332,-0.0208829436,0.0639408678,0.0045245319084178
71,0.01609198,0.00569400704,0.0690019056,0.0047936846926028
72,0.016318627,0.0333474725,0.0639672726,0.0052038658860209
73,0.016545275,0.0586302206,0.0482032858,0.0057610595295211
74,0.016771922,0.0772805065,0.0221923273,0.0064647760758868
75,0.01699857,0.0846251175,-0.0116516585,0.0072971716576894
76,0.017225218,0.0766593814,-0.0483105853,0.0082105734086592
77,0.017451866,0.0518930219,-0.08024434,0.0091320398239494
78,0.017678512,0.0131748309,-0.0990304723,0.0099806106132046
79,0.01790516,-0.0319749005,-0.0983813107,0.0107012765570348
80,0.018131808,-0.0734274536,-0.0768596232,0.0112989926206261
81,0.018358456,-0.101866595,-0.0383967981,0.0118511172812261
82,0.018585104,-0.111380577,0.00950783864,0.0124960319284572
83,0.01881175,-0.100079246,0.0583029389,0.0134150881643056
84,0.019038398,-0.0692981556,0.100115567,0.0148253611252933
85,0.019265046,-0.0225408543,0.128378391,0.0169891013883227
86,0.019491694,0.0351569243,0.137840077,0.0202358961536018
87,0.019718342,0.0973841697,0.124521844,0.0249893661413187
88,0.019944988,0.156134188,0.08592695,0.0317613253987218
89,0.020171636,0.20159249,0.0220543519,0.0411259264621291
90,0.020398284,0.222916424,-0.0630935729,0.0536725310302353
91,0.020624932,0.210190028,-0.160352364,0.0698927285110292
92,0.02085158,0.157400221,-0.255483896,0.0900468506861876
93,0.021078226,0.0653920621,-0.331379086,0.1140882204238856
94,0.021304874,-0.0569359958,-0.372121543,0.1417161503824384
95,0.021531522,-0.19429262,-0.367168516,0.1725623413281066
96,0.02175817,-0.328796655,-0.313550979,0.2064214567710474
97,0.021984818,-0.443850189,-0.215356231,0.243381296505861
98,0.022211464,-0.526555717,-0.0820238218,0.2839888304480623
99,0.022438112,-0.569543302,0.0760945976,0.3301699606369692
100,0.02266476,-0.566415727,0.247862235,0.3822624633321337
101,0.022891408,-0.513845742,0.420983642,0.4412646734031147
102,0.023118056,-0.410768956,0.582452893,0.5079825077773994
103,0.023344702,-0.258853167,0.718094528,0.5826647132094726
104,0.02357135,-0.0637135357,0.812706351,0.6645510275871304
105,0.023797998,0.163568571,0.851319373,0.7514993522640953
106,0.024024646,0.405505776,0.82183224,0.8398431650727798
107,0.024251294,0.638984203,0.718603551,0.9246918751933548
108,0.02447794,0.838504493,0.545621693,1.0007928166533733
109,0.024704588,0.981357932,0.317384332,1.0637962048984029
110,0.024931236,1.05273414,0.0564018711,1.1114303405851207
111,0.025157884,1.04840982,-0.211846605,1.1440421347224583
112,0.025384532,0.973957241,-0.464170724,1.1640471683150162
113,0.025611178,0.841418445,-0.683028817,1.1745133644386374
114,0.025837826,0.665396214,-0.857129216,1.1774226145263085
115,0.026064474,0.459596068,-0.980712295,1.1730251512852277
116,0.026291122,0.236603066,-1.05302036,1.16483288941513
117,0.02651777,0.00847002119,-1.07505095,1.1558062863548615
118,0.026744416,-0.214314878,-1.04869378,1.1456895111428431
119,0.026971064,-0.422230303,-0.977214396,1.133226404521117
120,0.027197712,-0.606369495,-0.865587473,1.116925637881081
121,0.02742436,-0.758824646,-0.720890462,1.0954979015795985
122,0.027651008,-0.873643458,-0.552358806,1.0683531422719432
123,0.027877654,-0.947942317,-0.370697379,1.0360111831567982
124,0.028104302,-0.982554257,-0.186611757,1.000236815799449
125,0.02833095,-0.981713951,-0.00893509295,0.9638421174740556
126,0.028557598,-0.952885926,0.157017797,0.9326461765436108
127,0.028784246,-0.903098822,0.306513935,0.909538274646972
128,0.029010892,-0.837593913,0.440465748,0.895573638255851
129,0.02923754,-0.761080027,0.558717787,0.8914083730084981
130,0.029464188,-0.66949892,0.662371933,0.8869653815073228
131,0.029690836,-0.564615369,0.758471191,0.8940690624879646
132,0.029917484,-0.447211295,0.8444556,0.9131032027469368
133,0.03014413,-0.315297484,0.91720438,0.9406763781079148
134,0.030370778,-0.168055743,0.972325325,0.9736592703916378
135,0.030597426,-0.00681639323,1.00424397,1.008552414498027
136,0.030824074,0.164309591,1.00724888,1.0415479479558414
137,0.031050722,0.33841148,0.976954401,1.0689622314290592
138,0.031277368,0.506593883,0.911687553,1.0878115565881454
139,0.031504016,0.659482181,0.813238204,1.0962731235016625
140,0.031730664,0.788757503,0.686626971,1.09359499584343
141,0.031957312,0.888199031,0.53978169,1.080261791528595
142,0.03218396,0.970079422,0.37956956,1.0851271358664476
143,0.032410606,1.01510918,0.216629803,1.0773751188680911
144,0.032637254,1.03598428,0.0660047904,1.0776200607628663
145,0.032863902,1.0119288,-0.0883433074,1.0318044362318108
146,0.03309055,0.975696564,-0.239283696,1.0092404721728268
147,0.033317198,0.921602905,-0.379451066,0.9933350259929752
148,0.033543844,0.850627124,-0.508150935,0.9817838768258856
149,0.033770492,0.764155149,-0.624371767,0.9737731951699145
150,0.03399714,0.663550794,-0.726799726,0.9685374979317056
151,0.034223788,0.550362408,-0.813859224,0.9652656166294408
152,0.034450436,0.426540762,-0.883891463,0.963201140011821
153,0.034677084,0.294518352,-0.935426772,0.9617643054391358
154,0.034903732,0.157121062,-0.967414498,0.9605778390645998
155,0.035130376,0.0174462479,-0.979349613,0.959430036049038
156,0.035357024,-0.121310063,-0.971452594,0.9584362737743928
157,0.035583672,-0.272738576,-0.954869092,0.9861613136954124
158,0.03581032,-0.411854744,-0.915109992,1.0070506276135456
159,0.036036968,-0.505392015,-0.875909626,1.02263876174522
160,0.036263616,-0.636047125,-0.782182395,1.0163652442687017
161,0.036490264,-0.747207105,-0.684126258,1.0263471946475635
162,0.036716912,-0.844270885,-0.570822418,1.03863156015005
163,0.03694356,-0.924482882,-0.442477793,1.0504551964091768
164,0.037170208,-0.98438853,-0.301137358,1.0597044863787812
165,0.037396852,-1.0207324,-0.15038003,1.0645087858325608
166,0.0376235,-1.03121507,0.00485055614,1.063428048489972
167,0.037850148,-1.01515532,0.158734456,1.0557369512459185
168,0.038076796,-0.973834813,0.305372834,1.0416068107559364
169,0.038303444,-0.910379529,0.439667791,1.022098653265081
170,0.038530092,-0.829229414,0.558000326,0.9989857848588898
171,0.03875674,-0.735357642,0.65855056,0.9744397017241138
172,0.038983388,-0.633480668,0.740862191,0.9501745427830466
173,0.039210036,-0.529927969,0.803522527,0.9264721037249308
174,0.039436684,-0.436047971,0.873874724,0.953794866259293
175,0.039663328,-0.311403334,0.925083399,0.9527513315317088
176,0.039889976,-0.188071862,0.958590269,0.9542663290976392
177,0.040116624,-0.0619379357,0.978935659,0.9621513323405416
178,0.040343272,0.0679069087,0.985033572,0.9749024862162692
179,0.04056992,0.200841069,0.974787831,0.9905484504627472
180,0.040796568,0.334816009,0.945910573,1.0068485719958764
181,0.041023216,0.466427654,0.896646798,1.0215302367795966
182,0.041249864,0.591276348,0.826429188,1.0325929224825563
183,0.041476512,0.704608679,0.736292064,1.0385993940315053
184,0.04170316,0.802074969,0.628915846,1.0388593972462463
185,0.041929804,0.880393803,0.508314371,1.0334767481259286
186,0.042156452,0.937720239,0.379300207,1.02318789366046
187,0.0423831,0.973596811,0.247333154,1.0090644394569577
188,0.042609748,0.991550624,0.1210595,0.9978280424950394
189,0.042836396,1.00841486,-0.0121161779,1.017047331635724
190,0.043063044,0.994228065,-0.152191937,1.0116518309214564
191,0.043289692,0.960684359,-0.283252627,1.003146488329642
192,0.04351634,0.91166389,-0.406517655,0.9963876521566312
193,0.043742988,0.848256648,-0.52148515,0.9914861025467184
194,0.043969636,0.771296084,-0.626988947,0.988012788853904
195,0.04419628,0.681755602,-0.721537054,0.9854064211533812
196,0.044422928,0.580945075,-0.803512692,0.9831298263718424
197,0.044649576,0.470597178,-0.87139076,0.9807835605549414
198,0.044876224,0.352831185,-0.923951089,0.9781754599727902
199,0.045102872,0.230028078,-0.960431457,0.9753415002635168
200,0.04532952,0.104676262,-0.980588853,0.9725116184541482
201,0.045556168,-0.0206738003,-0.984692752,0.9700472218601776
202,0.045782816,-0.1429995,-0.973945618,0.969018923821652
203,0.046009464,-0.260445893,-0.954927325,0.9797182592122232
204,0.046236112,-0.388417035,-0.925015926,1.0065222564318288
205,0.046462756,-0.512490392,-0.868855178,1.0175557222297251
206,0.046689404,-0.626369834,-0.795521975,1.0251943816530882
207,0.046916052,-0.729632914,-0.70683229,1.0319760753787754
208,0.0471427,-0.820191443,-0.603689671,1.0371552220425106
209,0.047369348,-0.895385206,-0.487724304,1.039589663835947
210,0.047595996,-0.952669084,-0.361546606,1.0382943319195184
211,0.047822644,-0.990163505,-0.228666902,1.0327123187041627
212,0.048049292,-1.00706899,-0.0931567252,1.0228661260696086
213,0.04827594,-1.0038594,0.0408572704,1.009403011512899
214,0.048502588,-0.982192695,0.169718727,0.9935069364058634
215,0.048729232,-0.944602013,0.290618718,0.9767322022156156
216,0.04895588,-0.894192338,0.401678681,0.960925700107806
217,0.049182528,-0.835141301,0.502026796,0.949491896537998
218,0.049409176,-0.773225367,0.596681297,0.9539060383618868
219,0.049635824,-0.697856247,0.692749977,0.9669058721104256
220,0.049862472,-0.60719651,0.777240932,0.9727910681324086
221,0.05008912,-0.507275164,0.849913716,0.9796814166561556
222,0.050315768,-0.398581862,0.911217988,0.9891857223701552
223,0.050542416,-0.281226337,0.959831595,1.0003649433826816
224,0.050769064,-0.15608561,0.993620753,1.011644918441359
225,0.050995708,-0.0250891261,1.01030433,1.0213443034652108
226,0.051222356,0.10879197,1.00804198,1.0279843261788013
227,0.051449004,0.241816506,0.985926807,1.0305268913352634
228,0.051675652,0.369948387,0.944286704,1.0285391883950854
229,0.0519023,0.489395529,0.884722292,1.022241517766923
230,0.052128948,0.59706831,0.809937775,1.0124897661782069
231,0.052355596,0.69092536,0.723611593,1.0009915906151274
232,0.052582244,0.771106541,0.63064754,0.9923216172810364
233,0.052808892,0.843849599,0.532787621,0.9959447948233004
234,0.05303554,0.906706035,0.421164095,0.9994950288225904
235,0.053262184,0.9512586,0.301714122,0.9959243354881908
236,0.053488832,0.979581416,0.179618806,0.9918426660414308
237,0.05371548,0.99302721,0.0561786704,0.989259082808296
238,0.053942128,0.99181211,-0.0676190779,0.9882636012386984
239,0.054168776,0.975759089,-0.190495133,0.9883941954627976
240,0.054395424,0.944686949,-0.310793608,0.9890260983845864
241,0.054622072,0.898683071,-0.426537693,0.9895656656517532
242,0.05484872,0.838282406,-0.535585463,0.9895691803860732
243,0.055075368,0.764549315,-0.635837018,0.9888243685261016
244,0.055302016,0.67906338,-0.725438416,0.9873879694656136
245,0.05552866,0.583889723,-0.80296278,0.985676434690345
246,0.055755308,0.481659591,-0.867762804,0.98500824560823
247,0.055981956,0.375145614,-0.921514213,0.9899226764644464
248,0.056208604,0.261209339,-0.967950106,1.005157726486228
249,0.056435252,0.135467991,-0.99930346,1.0169589817535478
250,0.0566619,0.0055212751,-1.01092529,1.022000426440314
251,0.056888548,-0.124497563,-1.00445759,1.024434693301547
252,0.057115196,-0.252458513,-0.980595171,1.0253021901746904
253,0.057341844,-0.376057029,-0.939662397,1.0243843093960925
254,0.057568492,-0.492701501,-0.882322729,1.0212481671976603
255,0.057795136,-0.599773705,-0.80987376,1.0156240043459646
256,0.058021784,-0.694954693,-0.724299848,1.0075722951355472
257,0.058248432,-0.776524484,-0.628133774,0.9975423122909494
258,0.05847508,-0.843545318,-0.524190962,0.9863448681622068
259,0.058701728,-0.895900846,-0.415273994,0.9750908159562276
260,0.058928376,-0.934256256,-0.303967595,0.9652310506852216
261,0.059155024,-0.96028924,-0.192498043,0.9592109210186076
262,0.059381672,-0.977533221,-0.08124654,0.9621721984206064
263,0.05960832,-0.986804783,0.0351513326,0.9750192959352328
264,0.059834968,-0.980584085,0.15676713,0.9861210808037242
265,0.060061612,-0.957876921,0.277693421,0.9946418318511234
266,0.06028826,-0.920030117,0.395839691,1.0031444771580094
267,0.060514908,-0.867112398,0.509783924,1.011763559934148
268,0.060741556,-0.798949957,0.617442846,1.0195567018668816
269,0.060968204,-0.715868354,0.716147125,1.0253342049044352
270,0.061194852,-0.619055867,0.803007126,1.0280506108739016
271,0.0614215,-0.510657609,0.87536788,1.0270401189652911
272,0.061648148,-0.39363569,0.931240499,1.0221579234195453
273,0.061874796,-0.271444023,0.969612479,1.01383021705495
274,0.062101444,-0.147626773,0.990585625,1.0030535445630342
275,0.062328088,-0.0254352856,0.995435774,0.9915393339125328
276,0.062554736,0.0927881822,0.986851752,0.9824860271814498
277,0.062781384,0.207858399,0.968444645,0.9810901444640192
278,0.063008032,0.323582619,0.938457012,0.9854072746908672
279,0.06323468,0.43622148,0.892436683,0.986732412777433
280,0.063461328,0.541403592,0.832594097,0.9863307797897478
281,0.063687976,0.638315201,0.761158586,0.9868086888691898
282,0.063914624,0.726452112,0.678995728,0.9887678696715104
283,0.064141272,0.804811001,0.586612165,0.9918345794566092
284,0.06436792,0.871969402,0.484710574,0.995274978571647
285,0.064594564,0.926322758,0.374461383,0.9982951793469992
286,0.064821212,0.966371715,0.257591069,1.000227450380604
287,0.06504786,0.99099499,0.136327639,1.0006562953604143
288,0.065274508,0.999667823,0.0132317869,0.9995108365261264
289,0.065501156,0.992615342,-0.109036259,0.997174122950492
290,0.065727804,0.970980883,-0.228039175,0.9948057404861402
291,0.065954452,0.937003613,-0.342432737,0.9952359501443652
292,0.0661811,0.892213821,-0.453871429,1.0020447764459222
293,0.066407748,0.83268863,-0.56311053,1.0104638235281578
294,0.066634396,0.756649315,-0.664179206,1.0136522035727595
295,0.06686104,0.667548776,-0.753355384,1.0131657029408856
296,0.067087688,0.568141401,-0.829630017,1.011070616637663
297,0.067314336,0.460347891,-0.89224124,1.0080146111048855
298,0.067540984,0.346027017,-0.940374851,1.0040395568871905
299,0.067767632,0.227227643,-0.973363757,0.9990694051844904
300,0.06799428,0.106179357,-0.990884781,0.9931267050703514
301,0.068220928,-0.0148396511,-0.993080437,0.9864289695968808
302,0.068447576,-0.13367869,-0.980583489,0.9794139710595292
303,0.068674224,-0.248474494,-0.954464793,0.9727426152450888
304,0.068900872,-0.357779086,-0.916169405,0.9673722530370494
305,0.06912752,-0.4607898,-0.867518723,0.9649159745395908
306,0.069354168,-0.558162391,-0.81042248,0.9683298508161872
307,0.069580816,-0.652426779,-0.744227588,0.9795354046966124
308,0.069807464,-0.742249906,-0.664465487,0.992449306371156
309,0.070034112,-0.822117031,-0.571115434,1.0020492516132633
310,0.070260752,-0.889509261,-0.467082769,1.0093930385014735
311,0.0704874,-0.943306625,-0.354349494,1.015390952666947
312,0.070714048,-0.982239008,-0.234627441,1.0198435049070325
313,0.070940696,-1.00499761,-0.110022299,1.0221251023829574
314,0.071167344,-1.01062417,0.0168342181,1.021644603887227
315,0.071393992,-0.998828053,0.142940357,1.0180894251190582
316,0.07162064,-0.970159829,0.265228033,1.0115560032943582
317,0.071847288,-0.926011622,0.380912811,1.0025920936629926
318,0.072073936,-0.868470848,0.487806559,0.9921968528292594
319,0.072300584,-0.800107956,0.584569335,0.98189404867684
320,0.072527232,-0.723703504,0.671065331,0.9740754401720176
321,0.07275388,-0.641257286,0.748996317,0.9722063897276504
322,0.072980528,-0.551288486,0.820486009,0.9771162857609204
323,0.073207176,-0.451123893,0.882869601,0.9829714992053746
324,0.073433824,-0.342794955,0.932500958,0.98706641784437
325,0.073660472,-0.228989542,0.968746006,0.9909050344863218
326,0.07388712,-0.111147024,0.991462588,0.9953517243477142
327,0.074113768,0.00952836778,1.00005412,1.000199032721525
328,0.074340416,0.131470203,0.993707776,1.0047395583597274
329,0.074567064,0.252609402,0.971773922,1.0081560654580597
330,0.074793704,0.370474964,0.934079528,1.009756263579504
331,0.075020352,0.482432604,0.881135225,1.009140502138021
332,0.075247,0.585989952,0.814196229,1.0062997231627828
