Frequency (GHz),Re( S21 ),Im( S21 ),S2
0,0.038269039,0,0.001464519
0.000226499,0.034185179,-0.016584525,0.001443673
0.000452998,0.023251116,-0.02910821,0.001387902
0.000679497,0.008616798,-0.035201874,0.001313421
0.000905997,-0.006332449,-0.034606386,0.001237702
0.001132496,-0.019061338,-0.028471416,0.001173956
0.001358995,-0.028093953,-0.018464113,0.001130194
0.001585494,-0.032739718,-0.00623387,0.00111075
0.001811993,-0.032749653,0.006747016,0.001118062
0.002038492,-0.02807454,0.019087931,0.001152529
0.002264991,-0.018879548,0.029262517,0.001212732
0.00249149,-0.005798501,0.035515238,0.001294955
0.00271799,0.009677066,0.036015037,0.001390729
0.002944489,0.024851585,0.029443573,0.001484525
0.003170988,0.036021724,0.016022332,0.00155428
0.003397487,0.039685249,-0.00128518,0.001576571
0.003623986,0.034782466,-0.018639773,0.001557261
0.003850485,0.022760272,-0.031183759,0.001490457
0.004076984,0.007283335,-0.036731444,0.001402246
0.004303483,-0.008051139,-0.035345778,0.001314145
0.004529983,-0.020752367,-0.02847494,0.001241483
0.004756482,-0.029513482,-0.017942429,0.001192976
0.004982981,-0.033823855,-0.00542429,0.001173476
0.00520948,-0.033591729,0.007688954,0.001187524
0.005435979,-0.02879722,0.02018914,0.001236881
0.005662478,-0.019497139,0.030687194,0.001321842
0.005888977,-0.006102826,0.037486129,0.001442454
0.006115476,0.010217481,0.03859761,0.001594172
0.006341976,0.026990211,0.032151137,0.001762167
0.006568475,0.038945947,0.017790645,0.001833294
0.006794974,0.04437393,-0.001908262,0.001972687
0.007021473,0.038852248,-0.022007491,0.001993827
0.007247972,0.024426214,-0.036449444,0.001925202
0.007474471,0.005952612,-0.042042807,0.001803031
0.00770097,-0.011686903,-0.039119922,0.001666952
0.007927469,-0.025422415,-0.029997287,0.001546136
0.008153968,-0.034019273,-0.017289639,0.001456243
0.008380468,-0.03733347,-0.003134995,0.001403616
0.008606966,-0.035659619,0.010854074,0.001389419
0.008833466,-0.029606285,0.023442974,0.001426105
0.009059965,-0.019377243,0.033727519,0.001513023
0.009286464,-0.005451448,0.040274635,0.001651765
0.009512963,0.011136922,0.041529976,0.00184877
0.009739462,0.028226374,0.035302728,0.002043011
0.009965961,0.043263093,0.020993857,0.002312437
0.01019246,0.050894767,-0.000366391,0.002590412
0.010418959,0.046909753,-0.024382543,0.002795033
0.010645459,0.030857906,-0.043818936,0.002872309
0.010871958,0.007477888,-0.052530777,0.002815401
0.011098457,-0.016033204,-0.049090438,0.002666935
0.011324956,-0.034123786,-0.036373418,0.002487458
0.011551455,-0.044439431,-0.01869983,0.002324547
0.011777954,-0.046953924,0.000238106,0.002204728
0.012004453,-0.042655535,0.017887581,0.00213946
0.012230952,-0.032764096,0.032545514,0.002132696
0.012457451,-0.018578354,0.042885974,0.002184362
0.012683951,-0.001267782,0.048153013,0.00232032
0.01291045,0.017834572,0.046966221,0.002523898
0.013136949,0.036561299,0.038238838,0.002798937
0.013363448,0.051836878,0.021511743,0.003149817
0.013589947,0.059633445,-0.002140928,0.003560731
0.013816446,0.055955455,-0.029123839,0.003979211
0.014042945,0.039104842,-0.052685134,0.004304912
0.014269444,0.01179458,-0.066350251,0.004541468
0.014495944,-0.019147148,-0.065310463,0.00463207
0.014722443,-0.045647133,-0.050192624,0.00460296
0.014948942,-0.062082071,-0.025676841,0.004513484
0.015175441,-0.066487499,0.002357482,0.004426145
0.01540194,-0.059612759,0.028906532,0.004389269
0.015628439,-0.043522336,0.050408982,0.004435259
0.015854938,-0.020733288,0.064467967,0.004585988
0.016081437,0.00603614,0.069450125,0.004859755
0.016307936,0.033857621,0.064270139,0.005276989
0.016534436,0.059254415,0.048288934,0.005842907
0.016760935,0.077925377,0.022004381,0.006556557
0.016987434,0.085161172,-0.012126836,0.007399485
0.017213932,0.076942518,-0.049013577,0.008322482
0.017440432,0.051814262,-0.08102905,0.009250425
0.017666932,0.012722075,-0.099694595,0.010100863
0.01789343,-0.032691587,-0.098741606,0.010818645
0.01811993,-0.074214838,-0.076827727,0.011410342
0.018346428,-0.102527462,-0.038002752,0.01195609
0.018572928,-0.111777015,0.010150398,0.012597132
0.018799426,-0.100151412,0.059051942,0.013517437
0.019025926,-0.069047563,0.100840554,0.014936383
0.019252426,-0.022004932,0.128974885,0.017118738
0.019478924,0.035923336,0.138227805,0.020397412
0.019705424,0.098319925,0.12463706,0.025201204
0.019931922,0.157166064,0.085705653,0.032046631
0.020158422,0.202613994,0.02144023,0.041512114
0.02038492,0.223780692,-0.064123988,0.054189684
0.02061142,0.210723102,-0.161756873,0.070569512
0.020837918,0.157442212,-0.257129461,0.09090361
0.021064418,0.064859338,-0.33305186,0.115130275
0.021290918,-0.058005557,-0.373586118,0.142931232
0.021517416,-0.19574739,-0.368249089,0.173924432
0.021743916,-0.330433011,-0.314186335,0.207899028
0.021970414,-0.445489168,-0.215598658,0.24494338
0.022196914,-0.528127253,-0.082035042,0.285648144
0.022423412,-0.571071446,0.076253623,0.331937211
0.022649912,-0.567969143,0.248129278,0.384157086
0.02287641,-0.515516996,0.421382755,0.443321199
0.02310291,-0.412619293,0.583087385,0.51024558
0.02332941,-0.260869503,0.719115674,0.58518025
0.023555908,-0.065789171,0.814261854,0.667350582
0.023782408,0.161620498,0.853493392,0.754572156
0.024008906,0.403898895,0.824607134,0.843111243
0.024235406,0.637888134,0.721865416,0.92799095
0.024461904,0.837997556,0.549220741,1.003883326
0.024688404,0.981439173,0.321212083,1.066400053
0.024914902,1.05339479,0.060430642,1.113292446
0.025141402,1.04971039,-0.207599223,1.14498934
0.025367902,0.976062894,-0.459727436,1.164048088
0.0255944,0.844561577,-0.678534329,1.173693093
0.0258209,0.669822335,-0.852888703,1.1760811
0.026047398,0.465476245,-0.977079213,1.171351923
0.026273898,0.243832633,-1.05041349,1.162822853
0.026500396,0.016773427,-1.07396233,1.153676434
0.026726896,-0.205359057,-1.04952455,1.143674123
0.026953396,-0.413175464,-0.980198622,1.131503303
0.027179894,-0.597831964,-0.870748878,1.115606666
0.027406394,-0.75139153,-0.72803688,1.09462693
0.027632892,-0.867784321,-0.561120749,1.067906123
0.027859392,-0.943955839,-0.380606264,1.035913754
0.02808589,-0.980563641,-0.197192058,1.000389762
0.02831239,-0.981701732,-0.019794634,0.964130118
0.028538888,-0.954576552,0.146296173,0.932618964
0.028765388,-0.90657115,0.296222836,0.909619219
0.028991888,-0.842635274,0.430811256,0.895632543
0.029218386,-0.767715454,0.550173521,0.892077922
0.029444886,-0.677967846,0.654559731,0.888088842
0.029671384,-0.574355066,0.751705229,0.894944493
0.029897884,-0.458160669,0.839104533,0.914007616
0.030124382,-0.327314109,0.913549721,0.941707619
0.030350882,-0.180891991,0.970632136,0.974848656
0.03057738,-0.020124514,1.0047307,1.009888776
0.03080388,0.150956258,1.01004124,1.042971098
0.03103038,0.325470269,0.982055247,1.070363404
0.031256878,0.494496703,0.918980956,1.089052987
0.031483378,0.648596823,0.822528183,1.097230451
0.031709876,0.779413164,0.697685122,1.09424941
0.031936376,0.880673945,0.552253008,1.080569982
0.032162874,0.963944018,0.393165976,1.083767555
0.032389374,1.01069319,0.231149644,1.074930882
0.032615872,1.03546119,0.079278208,1.07846491
0.032842372,1.01288199,-0.072069347,1.031123916
0.033068872,0.97891748,-0.223141074,1.008071372
0.03329537,0.927384853,-0.363731444,0.992343229
0.03352187,0.858984709,-0.493295282,0.981194966
0.033748368,0.774957597,-0.610860884,0.973710297
0.033974868,0.676533103,-0.715089619,0.969050203
0.034201368,0.565141976,-0.804324925,0.966324038
0.034427864,0.442661077,-0.876788139,0.96470627
0.034654364,0.311505467,-0.930875063,0.963564039
0.034880864,0.17453441,-0.965424657,0.962507029
0.035107364,0.034895062,-0.979856193,0.961335824
0.035333864,-0.104151182,-0.97433579,0.9601777
0.03556036,-0.255565703,-0.959639907,0.98622258
0.03578686,-0.394568145,-0.921725929,1.005262709
0.03601336,-0.479878426,-0.891466498,1.024995821
0.03623986,-0.620890439,-0.79422766,1.016302513
0.03646636,-0.73369652,-0.698206007,1.025802212
0.036692856,-0.832639873,-0.587051034,1.037918075
0.036919356,-0.915165484,-0.460698485,1.049770957
0.037145856,-0.977835298,-0.321009874,1.059209209
0.037372356,-1.01731801,-0.171401769,1.0643145
0.037598852,-1.03116894,-0.016698338,1.063588217
0.037825352,-1.01852012,0.137326837,1.056241895
0.038051852,-0.980470061,0.284742981,1.042400106
0.038278352,-0.919999421,0.420360208,1.023101639
0.038504852,-0.841454089,0.5404374,1.000117567
0.038731348,-0.749771833,0.643031657,0.975647513
0.038957848,-0.649660766,0.727660835,0.951549402
0.039184348,-0.54675442,0.793311596,0.928283684
0.039410848,-0.456110775,0.861621141,0.95042803
0.039637344,-0.33256954,0.917804003,0.952966687
0.039863844,-0.210001469,0.954157531,0.954517211
0.040090344,-0.084534586,0.977386892,0.962431233
0.040316844,0.044929527,0.986543357,0.975286458
0.040543344,0.177889407,0.97951746,0.991099096
0.04076984,0.312388986,0.953946233,1.007600294
0.04099634,0.445078045,0.907956243,1.022479005
0.04122284,0.571559012,0.840844333,1.033698897
0.04144934,0.687030673,0.753516734,1.039798614
0.041675836,0.787058234,0.648553491,1.040082294
0.041902336,0.868261456,0.529901981,1.034674065
0.042128836,0.928704441,0.402327716,1.02435953
0.042355336,0.967861652,0.271140963,1.010273599
0.042581836,0.988204777,0.144236699,0.997352907
0.042808332,1.00735724,0.014601049,1.0149818
0.043034832,0.998028874,-0.12591593,1.011916455
0.043261332,0.968193769,-0.257804662,1.003862418
0.043487832,0.92270577,-0.382261813,0.997510032
0.043714328,0.862656176,-0.498909205,0.993086073
0.043940828,0.788776159,-0.606596172,0.990126745
0.044167328,0.701924682,-0.703781784,0.988007059
0.044393828,0.603319764,-0.788750708,0.986122417
0.044620328,0.494644374,-0.859849513,0.984014242
0.044846824,0.378020287,-0.915727913,0.981456948
0.045073324,0.255872041,-0.955516934,0.978483113
0.045299824,0.130748764,-0.978903115,0.975346548
0.045526324,0.005233681,-0.986118555,0.972457196
0.04575282,-0.117745377,-0.97820574,0.970750444
0.04597932,-0.235567227,-0.960575044,0.978196334
0.04620582,-0.36203748,-0.934811175,1.00494307
0.04643232,-0.487647861,-0.882751286,1.017050269
0.04665882,-0.603310883,-0.812853575,1.024714956
0.046885316,-0.708765447,-0.727460861,1.031547763
0.047111816,-0.802074134,-0.627401233,1.036955224
0.047338316,-0.880601525,-0.514132619,1.039791396
0.047564816,-0.94172895,-0.390085489,1.039020104
0.047791312,-0.983424127,-0.258628875,1.034011909
0.048017812,-1.00468802,-0.123763934,1.024715529
0.048244312,-1.00578725,0.010371702,1.011715564
0.048470812,-0.988203347,0.140043437,0.996158019
0.048697312,-0.954338372,0.262327105,0.979577238
0.048923808,-0.907184482,0.375234932,0.963784939
0.049150308,-0.850616753,0.477708012,0.951753805
0.049376808,-0.790540814,0.573203146,0.953516625
0.049603308,-0.719374776,0.670809746,0.967485784
0.049829804,-0.631642461,0.758461714,0.97423637
0.050056304,-0.53401041,0.834286809,0.981201598
0.050282804,-0.427315265,0.89892745,0.990668896
0.050509304,-0.311625779,0.951173484,1.001841623
0.050735804,-0.187710732,0.988903582,1.013165613
0.0509623,-0.057387747,1.00977719,1.022943327
0.0511888,0.076455951,1.01183832,1.029662298
0.0514153,0.210115612,0.994035721,1.032255585
0.0516418,0.339536041,0.956546903,1.030266701
0.0518683,0.460863411,0.900839686,1.023907223
0.052094796,0.570921421,0.82950455,1.014029067
0.052321296,0.667548239,0.746073782,1.00224674
0.052547796,0.750430703,0.655223548,0.992464138
0.052774296,0.824874759,0.56001085,0.99403052
0.053000792,0.891427219,0.451965958,0.998915714
0.053227292,0.940442502,0.334493548,0.996318033
0.053453792,0.973160326,0.213634446,0.992680697
0.053680292,0.991066277,0.090885371,0.990472516
0.053906792,0.994382918,-0.032803826,0.989873479
0.054133288,0.98285538,-0.156197891,0.990402479
0.054359788,0.956189513,-0.277651191,0.991388569
0.054586288,0.914350986,-0.395153493,0.992184009
0.054812788,0.857771218,-0.506491303,0.992304902
0.055039284,0.787442744,-0.609468102,0.991517442
0.055265784,0.704904377,-0.702129483,0.989875992
0.055492284,0.612188339,-0.782950878,0.98778664
0.055718784,0.511859417,-0.851122022,0.986408759
0.055945284,0.406835079,-0.907777846,0.989575399
0.05617178,0.2955468,-0.956992626,1.003182797
0.05639828,0.172145367,-0.993154705,1.015990295
0.05662478,0.043106578,-1.00984609,1.021647303
0.05685128,-0.086732499,-1.00839341,1.024379796
0.057077776,-0.215190008,-0.989585102,1.025585414
0.057304276,-0.340039939,-0.953675389,1.025123908
0.057530776,-0.458731055,-0.901168108,1.02253814
0.057757276,-0.568609715,-0.833172321,1.017493124
0.057983776,-0.667248011,-0.751501262,1.009974055
0.058210272,-0.752760112,-0.658568323,1.000360022
0.058436772,-0.824020505,-0.557138324,0.989412905
0.058663272,-0.880730033,-0.450021207,0.978204478
0.058889772,-0.92338115,-0.339844823,0.968127252
0.059116268,-0.953396618,-0.228921384,0.961370111
0.059342768,-0.97394222,-0.118235856,0.962543166
0.059569268,-0.987146378,-0.003354386,0.974469224
0.059795768,-0.986143649,0.117831387,0.986363532
0.060022268,-0.968446791,0.239420012,0.995211129
0.060248764,-0.935429275,0.358792782,1.003760189
0.060475264,-0.887268722,0.474544406,1.012438178
0.060701764,-0.82373327,0.584686697,1.020395034
0.060928264,-0.745000064,0.686601341,1.026446497
0.06115476,-0.652073085,0.777374744,1.029510801
0.06138126,-0.546924472,0.854251206,1.028871501
0.06160776,-0.432386935,0.915080726,1.024331197
0.06183426,-0.311847419,0.95865339,1.016265135
0.06206076,-0.188845709,0.984863997,1.005619794
0.062287256,-0.066685647,0.994760156,0.993994743
0.062513756,0.052071068,0.990723193,0.984243841
0.062740256,0.167424202,0.976387262,0.981362949
0.062966756,0.283298254,0.951506138,0.985621831
0.063193252,0.397637188,0.910972118,0.987985533
0.063419752,0.505426109,0.855959833,0.988122787
0.063646252,0.605419219,0.788862646,0.988836705
0.063872752,0.697087765,0.710644007,0.990946257
0.064099252,0.779440641,0.621782839,0.994141612
0.064325748,0.851033807,0.522906065,0.997689293
0.064552248,0.910201311,0.415100694,1.000775013
0.064778748,0.955347061,0.300027162,1.002704305
0.065005248,0.985236466,0.179877028,1.003046639
0.065231744,0.999224007,0.057204109,1.001720926
0.065458244,0.997406542,-0.065310977,0.999085334
0.065684744,0.980764151,-0.18515946,0.996182346
0.065911244,0.951358795,-0.300690562,0.995498371
0.066137744,0.911249459,-0.41294077,1.000895656
0.06636424,0.857576489,-0.523718596,1.009718602
0.06659074,0.787213743,-0.628048658,1.014150594
0.06681724,0.702980697,-0.721419156,1.014627459
0.06704374,0.607742369,-0.802526355,1.013399338
0.06727024,0.503389657,-0.870551348,1.011260796
0.067496736,0.39166683,-0.92458421,1.008258867
0.06772324,0.274516582,-0.963795424,1.004260973
0.067949736,0.154115826,-0.987649739,0.999203695
0.068176232,0.03276518,-0.996065915,0.993220864
0.068402736,-0.087290384,-0.989475131,0.986680646
0.068629232,-0.204041615,-0.968792021,0.980190961
0.068855728,-0.31586048,-0.935349107,0.974645795
0.069082232,-0.421696037,-0.890880167,0.97149502
0.069308728,-0.521736145,-0.837385476,0.97342304
0.069535232,-0.618277967,-0.775131583,0.983096615
0.069761728,-0.711364925,-0.699993432,0.996030861
0.069988224,-0.79566586,-0.610638916,1.005964047
0.070214728,-0.867961347,-0.509826303,1.013279759
0.070441224,-0.92701143,-0.399711102,1.019119156
0.070667728,-0.971562922,-0.281984657,1.023449858
0.070894224,-1.00026584,-0.158646226,1.025700376
0.07112072,-1.01204169,-0.032218736,1.025266429
0.071347224,-1.00642526,0.094356492,1.021794952
0.07157372,-0.983769655,0.218004391,1.015328649
0.071800224,-0.945281148,0.33586517,1.006361861
0.07202672,-0.892895877,0.445618719,0.99583909
0.072253216,-0.829069614,0.545740068,0.985188647
0.07247972,-0.756534696,0.635801256,0.976587983
0.072706216,-0.677593112,0.717075288,0.973329394
0.07293272,-0.591659904,0.791999042,0.977323925
0.073159216,-0.495595515,0.859129786,0.983718904
0.073385712,-0.390376866,0.914382637,0.988489704
0.073612216,-0.278802425,0.956543565,0.992706384
0.073838712,-0.162469804,0.985405326,0.997420094
0.074065208,-0.04255968,1.0003686,1.002548662
0.074291712,0.079445705,1.00055194,1.007415805
0.074518208,0.201550573,0.985172093,1.011186686
0.074744712,0.321310252,0.953883171,1.013133382
0.074971208,0.436056405,0.907008588,1.012809767
0.075197704,0.543203175,0.845632374,1.010163801
0.075424208,0.640564501,0.771550477,1.005613019
0.075650704,0.726671457,0.687123477,1.000190079
0.075877208,0.801193237,0.594951391,0.995877761
0.076103704,0.865362883,0.496767014,0.995630385
0.0763302,0.920178294,0.391389966,0.999914198
0.076556704,0.962521434,0.277632445,1.003527285
0.0767832,0.989333808,0.158614501,1.003939944
0.077009704,1.00063002,0.037719663,1.00268321
0.0772362,0.997074962,-0.083035186,1.001053322
0.077462696,0.979080856,-0.202103019,0.999444953
0.0776892,0.946952581,-0.317908913,0.997785268
0.077915696,0.901130617,-0.428757936,0.995869757
0.078142192,0.842344046,-0.532907009,0.993533372
0.078368696,0.771680892,-0.628706992,0.990763881
0.078595192,0.690570116,-0.714751601,0.987756936
0.078821696,0.600715458,-0.790024579,0.984997897
0.079048192,0.503973365,-0.854080379,0.983442446
0.079274688,0.401992708,-0.90734303,0.984869511
0.079501192,0.295017183,-0.951018095,0.991470555
0.079727688,0.181098685,-0.9844805,1.001998589
0.079954192,0.060421001,-1.00365949,1.010983069
0.080180688,-0.063223042,-1.00618422,1.016403838
0.080407184,-0.186496466,-0.99220401,1.019249729
0.080633688,-0.307031482,-0.962263644,1.020219652
0.080860184,-0.422645658,-0.91692692,1.019384329
0.081086688,-0.531119049,-0.857033968,1.016594667
0.081313184,-0.630310476,-0.783893287,1.011779982
0.08153968,-0.718379259,-0.699310362,1.005103742
0.081766184,-0.793991983,-0.605478048,0.997026936
0.08199268,-0.85645932,-0.504778743,0.988324146
0.082219176,-0.905797064,-0.399551064,0.980109374
0.08244568,-0.942771614,-0.291820288,0.973977397
0.082672176,-0.968922734,-0.182753921,0.97221026
0.08289868,-0.985723734,-0.071586594,0.97677592
0.083125176,-0.99181962,0.043608099,0.985607825
0.083351672,-0.983805895,0.161625221,0.993996751
0.083578176,-0.960645199,0.279130936,1.000753278
0.083804672,-0.922803938,0.393744707,1.006602002
0.084031176,-0.870672643,0.50366956,1.011753877
0.084257672,-0.804600954,0.606975496,1.015801948
0.084484168,-0.725277543,0.701495826,1.018123908
0.084710672,-0.633969486,0.785021842,1.018176602
0.084937168,-0.532580495,0.855597913,1.015689772
0.085163672,-0.423538893,0.911804616,1.010772852
0.085390168,-0.309566915,0.952968717,1.00398105
0.085616664,-0.193370849,0.979279697,0.99638101
0.085843168,-0.077224404,0.991840243,0.989710676
0.086069664,0.03776608,0.99246186,0.98640682
0.08629616,0.152393386,0.982230067,0.987999649
0.086522664,0.267288536,0.959404945,0.99190101
0.08674916,0.379890859,0.922048032,0.994489638
0.086975664,0.487127841,0.870842516,0.995660221
0.08720216,0.587328732,0.807207167,0.99653845
0.087428656,0.679382622,0.732176006,0.997642451
0.08765516,0.762110829,0.646585047,0.998885139
0.087881656,0.834178209,0.551402092,0.999897551
0.08810816,0.894225419,0.447923243,1.000274332
0.088334656,0.941064358,0.337826014,0.999728542
0.088561152,0.973873198,0.223111629,0.998207805
0.088787656,0.992349207,0.105954282,0.995983259
0.089014152,0.996819973,-0.011528585,0.993782967
0.089240656,0.988278329,-0.127674684,0.992994881
0.089467152,0.967976987,-0.241965383,0.995526694
0.089693648,0.935778558,-0.355082184,1.001764867
0.089920152,0.889365554,-0.466129601,1.008247894
0.090146648,0.827816308,-0.571417987,1.011798356
0.090373152,0.752745867,-0.667780042,1.012556525
0.090599648,0.66619277,-0.753490925,1.011561381
0.090826144,0.569930613,-0.827384889,1.009386658
0.091052648,0.4656775,-0.888456762,1.006210952
0.091279144,0.355277777,-0.935877204,1.00208844
0.09150564,0.240728989,-0.969112098,0.997128705
0.091732144,0.124098882,-0.988024533,0.99159301
0.09195864,0.007389351,-0.99292028,0.985945285
0.092185144,-0.107620478,-0.984538913,0.980899038
0.09241164,-0.219564214,-0.964008749,0.977521312
0.092638136,-0.327810973,-0.932697475,0.977384614
0.09286464,-0.432873666,-0.891501307,0.982154191
0.093091136,-0.535582781,-0.839325666,0.991316489
