Unnamed: 0,Frequency (GHz),Re( S21 ),Im( S21 ),S2
0,0.0,0.038686119,0.0,0.0014966158032821
1,0.000226577266,0.0345539078,-0.0167750921,0.0014753762592143
2,0.000453154531,0.0234898217,-0.0294408351,0.0014185344948831
3,0.000679731813,0.00868066959,-0.0355983227,0.001342594603584
4,0.000906309063,-0.00644578179,-0.0349834524,0.0012653900447073
5,0.00113288638,-0.0193208028,-0.0287595354,0.0012004042972603
6,0.00135946363,-0.0284476839,-0.0186155215,0.0011558083599912
7,0.00158604088,-0.033125598,-0.00622448931,0.0011360495100279
8,0.00181261813,-0.0331016481,0.00691852113,0.0011435850415624
9,0.00203919537,-0.0283287652,0.0193990245,0.0011788410893083
10,0.00226577275,-0.0189803038,0.0296660364,0.0012403256480264
11,0.00249235,-0.00570949353,0.0359390564,0.0013242140912914
12,0.00271892725,0.00995767489,0.0363677181,0.001421766209016
13,0.0029455045,0.0252767392,0.0296342224,0.0015171006818374
14,0.00317208175,0.0364957042,0.0159909893,0.0015876481638466
15,0.003398659,0.0400974117,-0.00153351098,0.001610154080965
16,0.00362523625,0.0350272879,-0.0190445706,0.0015896065669678
17,0.0038518135,0.0227970164,-0.0316449739,0.0015211083298735
18,0.00407839075,0.0071212016,-0.0371529199,0.0014310509693236
19,0.004304968,-0.00836786814,-0.0356548429,0.0013412890394321
20,0.0045315455,-0.021162726,-0.0286273845,0.0012673881150619
21,0.0047581225,-0.0299515575,-0.0179193709,0.0012181996501275
22,0.0049847,-0.0342245698,-0.00522803329,0.0011986535100764
23,0.005211277,-0.0338933207,0.0080387909,0.0012133793472069
24,0.0054378545,-0.0289409012,0.0206525195,0.001264102323966
25,0.0056644315,-0.0194349177,0.0311994683,0.0013511228482084
26,0.005891009,-0.0058090277,0.0379560925,0.0014744097606879
27,0.006117586,0.0107252374,0.0389113091,0.0016291206931621
28,0.0063441635,0.0276277028,0.0321953297,0.0017998292164968
29,0.0065707405,0.039554555,0.0175272413,0.0018717670088364
30,0.006797318,0.0447866619,-0.00245404406,0.0020118674163933
31,0.0070238955,0.0389464833,-0.0226815846,0.0020312828414041
32,0.0072504725,0.0242007654,-0.0370695889,0.0019598314671608
33,0.00747705,0.00549588772,-0.0424787551,0.0018346494166766
34,0.007703627,-0.0122584701,-0.0393159129,0.0016960110963529
35,0.0079302045,-0.0260048006,-0.0299518015,0.0015733600673411
36,0.0081567815,-0.0345308483,-0.0170299374,0.0014823982521655
37,0.008383359,-0.0377114527,-0.00270327227,0.00142946134571
38,0.008609936,-0.0358550996,0.0114031639,0.0014156203142561
39,0.008836513,-0.02958888,0.0240551978,0.0014541543608515
40,0.009063091,-0.0191138703,0.0343246795,0.0015435236606229
41,0.009289668,-0.00493724132,0.0407603905,0.0016857857855644
42,0.009516245,0.0118672289,0.0417947657,0.0018876335616828
43,0.009742822,0.0290614907,0.0352103449,0.0020843386296831
44,0.0099694,0.0440376848,0.0204839744,0.002358910889764
45,0.010195977,0.0513645448,-0.0012506661,0.0026398806282048
46,0.010422554,0.0468774065,-0.0254308376,0.0028442187412038
47,0.010649132,0.0303041041,-0.0447200425,0.0029182209265054
48,0.010875709,0.00658149365,-0.0530399866,0.0028565562371931
49,0.011102286,-0.0170166437,-0.0491330214,0.0027036199547056
50,0.011328863,-0.034986522,-0.0360114798,0.0025208833990422
51,0.011555441,-0.0450579561,-0.0180506948,0.0023560469906722
52,0.011782018,-0.0472696759,0.00105219288,0.0022355293695477
53,0.012008595,-0.0426482819,0.0187546499,0.0021706128418934
54,0.012235172,-0.0324374847,0.0333609842,0.0021651456804553
55,0.01246175,-0.0179660283,0.0435554497,0.0022198553714456
56,0.012688327,-0.000400809629,0.0485709719,0.0023592999596692
57,0.012914904,0.0188678764,0.0470274538,0.0025675781707568
58,0.013141481,0.0376215465,0.0378534384,0.0028482635597542
59,0.013368059,0.052465301,0.0207556635,0.0031834053763458
60,0.013594636,0.0598975159,-0.0031982332,0.0035979411065923
61,0.013821213,0.0556843132,-0.0302853044,0.0040179423991563
62,0.014047791,0.0382028297,-0.0540019795,0.0043756699870056
63,0.014274368,0.0103271743,-0.0670992583,0.0046089609934327
64,0.014500945,-0.0208037347,-0.0652794242,0.0046941986013515
65,0.014727522,-0.0470891856,-0.0494211651,0.0046598429603127
66,0.0149541,-0.0630261078,-0.0243829433,0.0045668181883882
67,0.015180677,-0.0668055713,0.00389785669,0.0044781776434951
68,0.015407254,-0.0592961423,0.0304339714,0.0044422591068378
69,0.015633831,-0.0426367298,0.0517053977,0.0044913388793533
70,0.015860409,-0.0193932746,0.0653532892,0.0046471515089698
71,0.016086986,0.00767351408,0.0697808489,0.0049282496915405
72,0.016313563,0.0355953239,0.0639370158,0.0053549690729553
73,0.01654014,0.0608330481,0.0472351983,0.0059318236995772
74,0.016766718,0.0790337026,0.0202754661,0.0066574206722374
75,0.016993294,0.0854773521,-0.0143342419,0.007511848212875
76,0.017219872,0.0762247443,-0.0513206571,0.0084440214887761
77,0.01744645,0.0500254892,-0.0829125568,0.0093770416448125
78,0.017673026,0.0101237409,-0.100625008,0.0102278823648103
79,0.017899604,-0.0355635695,-0.0983786061,0.0109431176137602
80,0.018126182,-0.0767120719,-0.0751545653,0.0115329506606227
81,0.018352758,-0.104089037,-0.0353170559,0.012081822061031
82,0.018579336,-0.112057269,0.0133558596,0.0127352105213932
83,0.018805914,-0.0990401804,0.0622226745,0.0136806185555974
84,0.01903249,-0.0666340292,0.103447221,0.0151414213800492
85,0.019259068,-0.018534828,0.13055186,0.0173873279984491
86,0.019485644,0.0400720239,0.138391599,0.0207580017732189
87,0.019712222,0.102644078,0.123104304,0.0256904764117944
88,0.0199388,0.161026776,0.0823350325,0.0327086801657302
89,0.020165376,0.205256954,0.0163233057,0.0423968674743337
90,0.020391954,0.224429235,-0.070569016,0.0553484675418934
91,0.020618532,0.208743215,-0.16873543,0.0720453751458211
92,0.020845108,0.152557492,-0.263530433,0.0927220774824975
93,0.021071686,0.0573207177,-0.337651163,0.1172939725528956
94,0.021298264,-0.0674011633,-0.375341237,0.1454239610068834
95,0.02152484,-0.205823451,-0.366551518,0.1767233083296537
96,0.021751418,-0.33990097,-0.308957905,0.2109876564689299
97,0.021977994,-0.453179985,-0.207228243,0.2483156435014673
98,0.022204572,-0.533203781,-0.0712733939,0.2893861687507205
99,0.02243115,-0.572889984,0.0886484236,0.3360614767742853
100,0.022657726,-0.566117764,0.261202991,0.3887163252237058
101,0.022884304,-0.509805262,0.434124559,0.4483655378898331
102,0.023110882,-0.403077275,0.594420433,0.5158069407893331
103,0.023337458,-0.247797295,0.72790426,0.5912481111354646
104,0.023564036,-0.0498394221,0.819363475,0.6738404721593375
105,0.023790612,0.179362968,0.853891492,0.7613017543997552
106,0.02401719,0.421908677,0.819626868,0.8497951344753796
107,0.024243768,0.654332161,0.711418688,0.9342671265545712
108,0.024470344,0.851031065,0.533971548,1.0093794876685505
109,0.024696922,0.989590585,0.302540213,1.0708201064027274
110,0.0249235,1.0558759,0.0401680656,1.1164873896948555
111,0.025150076,1.04651773,-0.227556065,1.146981121922637
112,0.025376654,0.967847705,-0.477761418,1.1649851526031376
113,0.025603232,0.832370758,-0.693489134,1.1737682577495647
114,0.025829808,0.654832184,-0.864069998,1.1754221506459297
115,0.026056386,0.448783964,-0.984209299,1.1700749905816246
116,0.026282962,0.226461738,-1.05353332,1.161217375128203
117,0.02650954,-0.000376808923,-1.07325721,1.1518811808019485
118,0.026736118,-0.221528009,-1.04529977,1.141726267933557
119,0.026962694,-0.427708447,-0.972866476,1.1294036957598104
120,0.027189272,-0.610175788,-0.860829234,1.1133414623704478
121,0.02741585,-0.761122346,-0.71615994,1.0921922852413473
122,0.027642426,-0.874658048,-0.548003435,1.0653344657029695
123,0.027869004,-0.947951615,-0.366986275,1.033291190419484
124,0.028095582,-0.981886446,-0.183729142,0.997857390458567
125,0.028322158,-0.980723023,-0.0069660428,0.96186617359455
126,0.028548736,-0.951834917,0.15821515,0.9310217429099192
127,0.028775312,-0.902390838,0.307122082,0.9086331977583568
128,0.02900189,-0.837359905,0.440773875,0.8954532193841247
129,0.029228468,-0.761497498,0.559127569,0.8925020778761098
130,0.029455044,-0.670492649,0.662785232,0.888844656120331
131,0.029681622,-0.565788984,0.759239912,0.89656241838952
132,0.0299082,-0.448371261,0.845719218,0.9162777833852618
133,0.030134776,-0.31620425,0.918932498,0.9444220635985824
134,0.030361354,-0.1684964,0.974361718,0.9777717943168716
135,0.03058793,-0.00667209411,1.00633025,1.012745088904875
136,0.030814508,0.165009707,1.00907922,1.0454690756400344
137,0.031041086,0.339466691,0.97826153,1.0722332553764304
138,0.031267662,0.507665694,0.912342131,1.0900926208621229
139,0.03149424,0.660187662,0.813320637,1.097338207627112
140,0.031720818,0.788811505,0.686434031,1.093415269335274
141,0.031947394,0.887513399,0.539687693,1.0789428393801956
142,0.032173972,0.968457282,0.379861593,1.0822043368953251
143,0.03240055,1.01294994,0.217729524,1.07347372656727
144,0.032627126,1.03510368,0.0676329359,1.076013842367996
145,0.032853704,1.0105902,-0.0846221,1.02845345214445
146,0.03308028,0.975187302,-0.23481515,1.0061284286515615
147,0.033306858,0.922311664,-0.374500215,0.990909216585495
148,0.033533436,0.85270822,-0.503143072,0.9802642593571655
149,0.033760012,0.767571449,-0.619759738,0.973268062165788
150,0.033986588,0.668096244,-0.722975552,0.9690462400366122
151,0.034213168,0.555710971,-0.811088204,0.9666787579577084
152,0.034439744,0.432321191,-0.882279754,0.965319176505959
153,0.03466632,0.300393134,-0.93492955,0.9643292984175444
154,0.0348929,0.162845269,-0.967886806,0.963323450864564
155,0.035119476,0.0228814632,-0.980611145,0.962121779056384
156,0.035346052,-0.11620526,-0.973333836,0.9608824187541424
157,0.035572632,-0.267765939,-0.957007051,0.9875610937522684
158,0.035799208,-0.406789094,-0.917456985,1.007204686322631
159,0.036025784,-0.496478856,-0.880726576,1.0221705561277523
160,0.036252364,-0.631255925,-0.786266983,1.016699811403528
161,0.03647894,-0.742819965,-0.688865423,1.0263170714075702
162,0.036705516,-0.84033519,-0.576345682,1.0383375767123812
163,0.036932096,-0.921175003,-0.448803037,1.0499875521724733
164,0.037158672,-0.981908143,-0.308199823,1.0591307321869396
165,0.037385248,-1.01925766,-0.158046037,1.0638647272800812
166,0.037611828,-1.0308789,-0.00324035413,1.0627218063600978
167,0.037838404,-1.01604235,0.150415167,1.0549667794571602
168,0.03806498,-0.975992322,0.297024041,1.0407842935349214
169,0.03829156,-0.913828552,0.4314906,1.0212667603387768
170,0.038518136,-0.833964705,0.550207138,0.998225023891888
171,0.038744712,-0.741341054,0.651369333,0.973868566318696
172,0.038971288,-0.640625238,0.734570563,0.9499946075886936
173,0.039197868,-0.537764907,0.798702836,0.9271173154351616
174,0.039424444,-0.445419431,0.868037403,0.951887402519348
175,0.03965102,-0.32168141,0.92181766,0.9532267278274638
176,0.0398776,-0.198767319,0.957004845,0.955366720455922
177,0.040104176,-0.0728227124,0.979011834,0.9637673185533367
178,0.040330752,0.0571104698,0.986753285,0.976943651219068
179,0.040557332,0.190405816,0.978071451,0.9928781380278712
180,0.040783908,0.324973017,0.950617433,1.0092809657015918
181,0.041010484,0.457340419,0.902599871,1.0238467859803122
182,0.041237064,0.583035409,0.833454669,1.0345769734256969
183,0.04146364,0.697250128,0.74425441,1.0400723678004644
184,0.041690216,0.795619488,0.637736917,1.0397187449900471
185,0.041916796,0.874891162,0.517962515,1.0337197122908353
186,0.042143372,0.933284402,0.38975203,1.0229264199056185
187,0.042369948,0.970424771,0.258465499,1.0085286503437214
188,0.042596528,0.98942858,0.132223487,0.9964519654352556
189,0.042823104,1.00724161,0.00119518547,1.0145370893836996
190,0.04304968,0.995669544,-0.138580665,1.0105624415610102
191,0.043276256,0.964353979,-0.269761741,1.0027499937204836
192,0.043502836,0.917540729,-0.393530667,0.9967473752433164
193,0.043729412,0.856237352,-0.509444535,0.992676137201338
194,0.043955988,0.781146705,-0.616312623,0.9900314240014974
195,0.044182568,0.693128049,-0.712554932,0.988161023428071
196,0.044409144,0.593423605,-0.79642278,0.9864408194741244
197,0.04463572,0.483761519,-0.866249204,0.9844128906958208
198,0.0448623,0.366314948,-0.920692027,0.9818604497096112
199,0.045088876,0.243555531,-0.95891428,0.9788358930686104
200,0.045315452,0.118067525,-0.980651736,0.9756177677794392
201,0.045542032,-0.00753558008,-0.986198425,0.9726441184396228
202,0.045768608,-0.130270764,-0.976737618,0.9709868463694576
203,0.045995184,-0.247958988,-0.958265662,0.9797567386982824
204,0.046221764,-0.37505585,-0.930243611,1.006020066425542
205,0.04644834,-0.499711275,-0.876146376,1.017343830540059
206,0.046674916,-0.614349365,-0.804623783,1.0248445744451344
207,0.046901496,-0.718616307,-0.717729449,1.031544958648162
208,0.047128072,-0.810510695,-0.616315305,1.036772141886626
209,0.047354648,-0.88739109,-0.501905918,1.0393724971348108
210,0.047581224,-0.94667536,-0.377005965,1.0383277348767108
211,0.047807804,-0.986403823,-0.245043024,1.03303858564008
212,0.04803438,-1.00567758,-0.110045291,1.023497360985931
213,0.048260956,-1.00486946,0.0238663964,1.0103322365178138
214,0.048487536,-0.985549271,0.153014258,0.994720728719922
215,0.048714112,-0.95017916,0.27455467,0.9782207029171146
216,0.048940688,-0.901790917,0.386579156,0.9626703018373732
217,0.049167268,-0.844374597,0.488149822,0.951258708777544
218,0.049393844,-0.783689678,0.58348161,0.9546203006119358
219,0.04962042,-0.710697949,0.680597007,0.9683038606501648
220,0.049847,-0.621736407,0.767056286,0.9749315056813834
221,0.050073576,-0.523054421,0.84175235,0.9821329460581678
222,0.050300152,-0.415316999,0.905155063,0.9917938977329
223,0.050526732,-0.298639774,0.955946207,1.003018865292458
224,0.050753308,-0.173889518,0.991962552,1.014227269040625
225,0.050979884,-0.0429969206,1.01087904,1.0237251686924045
226,0.051206464,0.0910496265,1.01081264,1.0300322276695588
227,0.05143304,0.224481329,0.990830064,1.0321360827958503
228,0.051659616,0.353235811,0.95124805,1.0296483908016305
229,0.051886192,0.47350958,0.893666446,1.0228510390580472
230,0.052112772,0.582221866,0.820780754,1.0126633473853304
231,0.052339348,0.677343726,0.736210108,1.0007998462729346
232,0.052565924,0.758856356,0.644707739,0.9915110377680908
233,0.052792504,0.832531154,0.548628092,0.9941009057121322
234,0.05301908,0.897469521,0.439317614,0.9984515070946224
235,0.053245656,0.9447124,0.321333826,0.9957369464455584
236,0.053472236,0.975848436,0.200175017,0.9923502074745963
237,0.053698812,0.992214441,0.0772039741,0.990449950545776
238,0.053925388,0.993952215,-0.0466160029,0.990114057429779
239,0.054151968,0.980773211,-0.17000404,0.9908174650315722
240,0.054378544,0.952385366,-0.291257143,0.9918686087194764
241,0.05460512,0.9087919,-0.408313245,0.99262242354804
242,0.0548317,0.850486636,-0.518925548,0.9926112423816966
243,0.055058276,0.778538704,-0.620895088,0.9916332239285276
244,0.055284852,0.694563508,-0.712294757,0.9897822874949552
245,0.055511432,0.600665331,-0.791658819,0.9875225255658142
246,0.055738008,0.499478251,-0.858292818,0.9861450846524
247,0.055964584,0.393853664,-0.913634837,0.9898493240262416
248,0.056191164,0.281465977,-0.961611032,1.0039188730726696
249,0.05641774,0.157197237,-0.995619476,1.0159691123109489
250,0.056644316,0.0279968809,-1.01017439,1.0212361235520009
251,0.056870892,-0.101717807,-1.00672793,1.023847637302974
252,0.057097472,-0.229823425,-0.985987067,1.0249893029699932
253,0.057324048,-0.354075789,-0.948202312,1.0244572888381178
254,0.057550624,-0.471909672,-0.893913984,1.0217809493178998
255,0.057777204,-0.580678463,-0.824286759,1.0166361384547666
256,0.05800378,-0.677986026,-0.741189897,1.0090275148661434
257,0.058230356,-0.762002409,-0.647080779,0.9993612058730504
258,0.058456936,-0.831670523,-0.544744432,0.988422355022096
259,0.058683512,-0.886763215,-0.436989784,0.9773090707975028
260,0.058910088,-0.927845001,-0.32642591,0.967450220600018
261,0.059136668,-0.956452727,-0.215323508,0.9611660320831624
262,0.059363244,-0.975912869,-0.104377612,0.9633006137666336
263,0.05958982,-0.987711847,0.0112796165,0.9757019224525384
264,0.0598164,-0.984678805,0.132760286,0.98721764255503
265,0.060042976,-0.96505332,0.254188269,0.9959395865402388
266,0.060269552,-0.930158377,0.37320289,1.0044750034076262
267,0.060496132,-0.880103469,0.48836872,1.0130861228202723
268,0.060722708,-0.814681113,0.597629607,1.020866463041893
269,0.060949284,-0.734148264,0.698324442,1.026630699828825
270,0.06117586,-0.639613807,0.787540019,1.0293251036315536
271,0.06140244,-0.533153474,0.862570941,1.0282812550958942
272,0.061629016,-0.41767782,0.921359301,1.0233577228591608
273,0.061855592,-0.296610236,0.96281606,1.0149923974938992
274,0.062082172,-0.173479423,0.986963212,1.00419149204577
275,0.062308748,-0.0515334383,0.994976878,0.9926346830176468
276,0.062535324,0.0668113679,0.989385426,0.9833472800618708
277,0.062761904,0.181977212,0.973793209,0.9813889195818106
278,0.06298848,0.297860682,0.947206736,0.985921586605279
279,0.063215056,0.411619365,0.904802382,0.9880978521158772
280,0.063441636,0.518575549,0.848195195,0.9883556888417394
281,0.063668212,0.617664337,0.779625535,0.9893252080256858
282,0.063894788,0.708313584,0.699967802,0.9916630571156362
283,0.064121368,0.789464414,0.609700859,0.9949891984377012
284,0.064347944,0.859623611,0.509501755,0.9985447909367592
285,0.06457452,0.917109191,0.400533289,1.001516183813832
286,0.0648011,0.960349619,0.284539998,1.0032344011752852
287,0.065027676,0.988171995,0.163783789,1.0033090212414766
288,0.065254252,1.00002098,0.0408608913,1.0017115728779906
289,0.065480828,0.996101081,-0.0815428048,0.9988665925840196
290,0.065707408,0.977517188,-0.200965568,0.99592701235699
291,0.065933984,0.946447313,-0.315936685,0.995578505213709
292,0.06616056,0.904715061,-0.42783007,1.0015479103964386
293,0.06638714,0.848947823,-0.538007438,1.010164409519763
294,0.066613716,0.776639163,-0.641069651,1.0141386869386024
295,0.066840292,0.690842927,-0.732932329,1.0144537486792915
296,0.067066872,0.594286561,-0.812426627,1.013213540843804
297,0.067293448,0.488810718,-0.878722966,1.0110899690075126
298,0.067520024,0.376168907,-0.930901408,1.008080478009957
299,0.0677466,0.258335054,-0.968141496,1.004034956402301
300,0.067973176,0.137518987,-0.989942312,0.9988972528734116
301,0.06819976,0.0160421599,-0.996273041,0.9928173231176448
302,0.068426336,-0.103848338,-0.987624526,0.9861866816620868
303,0.068652912,-0.220160991,-0.964973688,0.9796450804904236
304,0.068879488,-0.331307501,-0.929713428,0.9741317184223762
305,0.069106064,-0.436322272,-0.883641005,0.971198550760652
306,0.06933264,-0.535595596,-0.828740954,0.9736742112914252
307,0.069559224,-0.631534934,-0.764873147,0.983867303864068
308,0.0697858,-0.723532796,-0.687759638,0.9965130265494686
309,0.070012376,-0.806181848,-0.596719086,1.0060028396413705
310,0.070238952,-0.876621604,-0.494573832,1.013068711898697
311,0.070465528,-0.933672547,-0.383384705,1.0187282570494045
312,0.070692104,-0.976072609,-0.264848322,1.0228623717062826
313,0.070918688,-1.00249231,-0.141011596,1.0248751018156037
314,0.071145264,-1.01191139,-0.0144466823,1.0241733678412095
315,0.07137184,-1.00395095,0.111881398,1.0204349572243367
316,0.071598416,-0.979062676,0.234908,1.0137454920002809
317,0.071824992,-0.938543379,0.351823181,1.0046432249536963
318,0.072051568,-0.884397447,0.46038717,0.9941151905607268
319,0.072278144,-0.819123745,0.559183359,0.983649738605348
320,0.072504728,-0.74545455,0.647936046,0.9755236058218166
321,0.072731304,-0.665525973,0.728128314,0.9730956623860794
322,0.07295788,-0.578300059,0.802058697,0.9777291116727412
323,0.073184456,-0.480816066,0.867692828,0.984074933086354
324,0.073411032,-0.374525219,0.921136737,0.988762027918005
325,0.073637608,-0.262138069,0.961417198,0.99303939582922
326,0.073864192,-0.145167246,0.988307357,0.99782496121155
327,0.074090768,-0.0248184968,1.00116324,1.0029437909107088
328,0.074317344,0.0973571315,0.999104321,1.0076878552947794
329,0.07454392,0.219294742,0.981395721,1.0112277450659564
330,0.074770496,0.338503093,0.947777152,1.012865873823798
331,0.074997072,0.452307135,0.898679197,1.0122060434924731
332,0.075223656,0.558159411,0.835292399,1.009255319915042
333,0.075450232,0.653955758,0.759502172,1.0045016826940725
