Frequency (GHz),Re( S21 ),Im( S21 ),S2
0.0,0.0387277901,0.0,0.0014998417260296579
0.000226380484,0.0345937833,-0.0167859495,0.001478497943623909
0.000452760969,0.023525605,-0.0294607822,0.001421391778451862
0.000679141438,0.00871177949,-0.0356258675,0.0013450975370099406
0.000905521938,-0.00641951011,-0.0350185372,0.0012675080576801758
0.00113190237,-0.0193005204,-0.0288035925,0.0012021570286168722
0.00135828288,-0.0284370426,-0.0186698847,0.001157229986545509
0.00158466338,-0.0331302322,-0.00628918875,0.0011371661807590434
0.00181104388,-0.0331298225,0.00684645772,0.001144459122193254
0.00203742425,-0.0283889193,0.0193283278,0.001179514994566165
0.00226380475,-0.0190783367,0.0296129603,0.001240910348967943
0.00249018525,-0.00584232109,0.0359264947,0.0013248457371477867
0.00271656575,0.00980915781,0.0364207961,0.0014226939654992591
0.00294294625,0.025151426,0.0297667105,0.0015186512838242863
0.00316932675,0.036443416,0.0161884204,0.0015901875247961922
0.00339570725,0.040140748,-0.00131845637,0.0016130179771990975
0.00362208775,0.0351766497,-0.0188786387,0.0015937996832816478
0.003848468,0.0230033882,-0.0315670967,0.00152563746274705
0.0040748485,0.00733364001,-0.0371701643,0.0014354033898852675
0.004301229,-0.00818641204,-0.0357502848,0.001345100205369768
0.0045276095,-0.0210315511,-0.028777048,0.0012704446332662152
0.00475399,-0.029878255,-0.018102821,0.001220422250003066
0.0049803705,-0.034212485,-0.00542964274,0.0011999751501592599
0.005206751,-0.0339473784,0.00783063844,0.0012137433986107921
0.0054331315,-0.0290717315,0.020454688,0.0012635598335854362
0.005659512,-0.0196515601,0.0310407653,0.001349712924773596
0.0058858925,-0.00610960834,0.0378803536,0.0014722485029292306
0.006112273,0.0103701055,0.0389751531,0.00162660164724957
0.0063386535,0.0272940043,0.0324489139,0.0017978946840180319
0.006565034,0.0393474661,0.0179330707,0.0018698181132218476
0.0067914145,0.0448310375,-0.00195840048,0.0020136572557664704
0.007017795,0.039250657,-0.0222712252,0.0020366215468407643
0.0072441755,0.0246583764,-0.0368712209,0.001967522457340674
0.007470556,0.00596435135,-0.0425152257,0.0018431179033481873
0.007696936,-0.0118807331,-0.039531976,0.0017039289454580117
0.0079233165,-0.025759032,-0.030272577,0.0015799566477979528
0.008149697,-0.0344202034,-0.0173951816,0.0014873427449943503
0.0083760775,-0.0377255082,-0.00307328696,0.0014326590616867733
0.008602458,-0.0359850973,0.0110574011,0.0014171933467767483
0.008828839,-0.0298216697,0.0237438474,0.0014531022730503848
0.009055219,-0.0194629263,0.034081731,0.0015403698881155923
0.0092816,-0.00539888581,0.0406335592,0.001680234101249324
0.00950798,0.0113247186,0.0418449305,0.0018792474599190162
0.009734361,0.0285097938,0.0355519205,0.0020767473937568386
0.009960741,0.0436305366,0.0211091284,0.002349219025811626
0.010187121,0.0513054207,-0.000412122259,0.0026324160379603517
0.010413502,0.0472937487,-0.0246163066,0.0028426612167239554
0.010639882,0.031110419,-0.0442295074,0.0029241074952022156
0.010866263,0.00750456331,-0.0530307665,0.0028685806660513203
0.011092643,-0.0162508171,-0.0495423041,0.0027185289519545287
0.011319024,-0.0345176682,-0.0366616845,0.002535548528342831
0.011545404,-0.0449000709,-0.0187745541,0.0023685002484788538
0.011771785,-0.0473783389,0.000364953943,0.002244840188303764
0.011998165,-0.0429703295,0.0181658566,0.002176447563350334
0.012224546,-0.0329300724,0.0329097584,0.0021674418662156127
0.012450926,-0.0185803045,0.0432635508,0.002216962543136901
0.012677307,-0.00113259011,0.0484918691,0.002352744129168805
0.012903687,0.0178612806,0.0471259356,0.002539879150847284
0.013130068,0.0366240889,0.0383837372,0.002814635169193767
0.013356448,0.0519353375,0.0216448177,0.0031657774145051392
0.013582829,0.0597861856,-0.00202615093,0.0035784932761887874
0.013809209,0.0561800189,-0.0290610529,0.004000739319260956
0.01403559,0.0393217877,-0.0530958958,0.004365377138728329
0.01426197,0.0118175698,-0.0668527558,0.004608945914032305
0.014488351,-0.0193691794,-0.0657967702,0.0047043800793809916
0.014714731,-0.0460854769,-0.0505267829,0.0046768269713241654
0.014941112,-0.0626272857,-0.0257647485,0.004585999179417676
0.015167492,-0.0670007169,0.00252913241,0.004495492575861259
0.015393872,-0.0599801317,0.029278446,0.004454843598924261
0.015620253,-0.0436818562,0.0508840494,0.004497291044419119
0.015846633,-0.0206767488,0.0649429858,0.004645119345557304
0.016073014,0.00627412926,0.0698379427,0.0049167029385396716
0.016299394,0.0342115462,0.0645157024,0.0053327057495601
0.016525775,0.0596542992,0.0483746678,0.005898743897803477
0.016752155,0.0783107951,0.0219394621,0.00661392062643152
0.016978536,0.0854906738,-0.0123179909,0.00746038820659049
0.017204916,0.0771899894,-0.0493074954,0.008389523566193133
0.017431296,0.0519513078,-0.0814089477,0.009326355147751677
0.017657678,0.0127041787,-0.100131124,0.010187638149944911
0.017884058,-0.0329068154,-0.0991651639,0.010916588231083543
0.018110438,-0.0746240541,-0.077130124,0.011517805478575102
0.018336818,-0.103052638,-0.0380829982,0.012070160950660248
0.0185632,-0.112286814,0.010331627,0.012715071114737726
0.01878958,-0.100513056,0.059450943,0.013637289050048386
0.01901596,-0.0691768453,0.101350233,0.015057305654814421
0.01924234,-0.021889016,0.129466429,0.017240685259460296
0.019468722,0.0362316705,0.138591781,0.020520415707972528
0.019695102,0.0987238958,0.124814421,0.0253250472914945
0.019921482,0.157568082,0.0857016072,0.03217246594182181
0.020147862,0.202950165,0.0213016607,0.041642530222105144
0.020374242,0.224034026,-0.0643419847,0.05433113580090371
0.020600624,0.210907206,-0.162026927,0.07073457461578977
0.020827004,0.15756093,-0.257462353,0.09111230987476149
0.021053384,0.0648693517,-0.333464235,0.11540642881411352
0.021279764,-0.0581848212,-0.374044389,0.14329467836045925
0.021506146,-0.196174383,-0.368641138,0.17438067717136574
0.021732526,-0.331079036,-0.314354271,0.20843193577463073
0.021958906,-0.446223915,-0.215413064,0.24551857045979536
0.022185286,-0.528697729,-0.081424661,0.2861512640687224
0.022411668,-0.571299493,0.0771103352,0.3323291144967135
0.022638048,-0.567749321,0.24904485,0.3843626288074835
0.022864428,-0.514861465,0.4221147,0.44326314809803624
0.023090808,-0.41166994,0.583424926,0.509856783777709
0.02331719,-0.259866893,0.718952,0.5844227803814734
0.02354357,-0.065001592,0.813640714,0.6662364184409644
0.02376995,0.161990851,0.852606118,0.753178228258734
0.02399633,0.40380016,0.82372719,0.8415810527613219
0.024222712,0.637443066,0.721233726,0.9265117499113233
0.024449092,0.837437987,0.548937857,1.0026351529183646
0.024675472,0.980980635,0.321204752,1.0654954989523846
0.024901852,1.05312204,0.0605201535,1.1127287201134255
0.025128232,1.04955268,-0.207576007,1.1446486267772464
0.025354614,0.975863278,-0.459829837,1.1637526163443517
0.025580994,0.844184935,-0.67870611,1.1732901882322864
0.025807374,0.669249177,-0.853031874,1.1755578389751293
0.026033754,0.464860231,-0.977053881,1.1707293207425356
0.026260136,0.24330999,-1.05008769,1.1618839079233363
0.026486516,0.0164654609,-1.07338309,1.1524223693005977
0.026712896,-0.20535107,-1.04884541,1.1422457560282129
0.026939276,-0.412840813,-0.979616761,1.130086535310632
0.027165658,-0.597275734,-0.87044096,1.1144057672709604
0.027392038,-0.750808299,-0.728090405,1.0938287397003374
0.027618418,-0.867391825,-0.561492503,1.0676424090020356
0.027844798,-0.943910182,-0.381131798,1.036227879129986
0.02807118,-0.980896235,-0.197648466,1.0012223399493285
0.02829756,-0.982308209,-0.0200029928,0.9653295371897447
0.02852394,-0.955089748,0.146457523,0.9336462327779991
0.02875032,-0.906923652,0.29683727,0.9106228754180701
0.028976702,-0.842558384,0.431728572,0.8962941903298507
0.029203082,-0.767107785,0.551491141,0.892596832409088
0.029429462,-0.677359223,0.65571928,0.888783291146882
0.029655842,-0.573361099,0.752373874,0.8948093961242557
0.029882224,-0.456935287,0.839292288,0.9132014012020474
0.030108604,-0.326084673,0.913241565,0.9403413700091661
0.030334984,-0.1798715,0.969893932,0.9730479958426705
0.030561364,-0.0194678195,1.00371301,1.0078188024393446
0.030787744,0.151190445,1.00894475,1.0408280592118604
0.031014126,0.325331539,0.981072187,1.0683432463730713
0.031240506,0.494118303,0.918240309,1.0873181624320152
0.031466886,0.648142934,0.822067678,1.0958845301064402
0.031693266,0.779043257,0.697464347,1.0933649116133046
0.031919648,0.880497813,0.552108228,1.0800998941230828
0.032146028,0.963418782,0.392867595,1.0825206967114476
0.032372408,1.00992072,0.230766699,1.073193130052675
0.032598788,1.03502977,0.076595664,1.077153520529854
0.03282517,1.01297796,-0.072184436,1.0313349402463996
0.03305155,0.978607416,-0.223278433,1.0075257332931327
0.03327793,0.926964819,-0.36379844,0.9916130806101364
0.03350431,0.858555615,-0.493260831,0.9804239914468388
0.033730692,0.774588287,-0.610747397,0.9729993972998701
0.033957072,0.676255703,-0.714954436,0.9684816213961023
0.034183452,0.564944148,-0.804237485,0.9659598226385713
0.034409832,0.442484587,-0.876800716,0.9645721053106732
0.034636212,0.311263829,-0.930998206,0.9636428308189597
0.034862592,0.174140766,-0.965617359,0.9627418903852016
0.035088972,0.0342833586,-0.980036139,0.9616461824229234
0.035315356,-0.105002604,-0.974380195,0.9604423112550188
0.035541736,-0.256256729,-0.958925307,0.9852052555628237
0.035768116,-0.394714206,-0.920408189,1.0029505387964701
0.035994496,-0.454667777,-0.900023758,1.0167655524065644
0.036220876,-0.620976448,-0.793420374,1.0151276388489965
0.036447256,-0.733500004,-0.697015047,1.0238522316124123
0.036673636,-0.83203274,-0.585899532,1.0355567420297267
0.036900016,-0.914215922,-0.45981425,1.0472198965413726
0.0371264,-0.976705909,-0.320530564,1.0566942751336743
0.03735278,-1.01621842,-0.171360403,1.0620642648636187
0.03757916,-1.03029799,-0.0170163233,1.0618035034566902
0.03780554,-1.01801181,0.136820018,1.0550677626249962
0.03803192,-0.980354369,0.2842623,1.0418997440186781
0.0382583,-0.920196533,0.420107573,1.0232520322371705
0.03848468,-0.8417961,0.540553868,1.0008191581849717
0.03871106,-0.750047326,0.643570125,0.976753497032266
0.038937444,-0.649650872,0.728637516,0.9529588852130108
0.039163824,-0.545834064,0.794971764,0.9299149309800279
0.039390204,-0.455982894,0.859757125,0.9471027136088809
0.039616584,-0.332035124,0.918238759,0.9534097420995553
0.039842964,-0.208968967,0.954405546,0.9545579754046053
0.040069344,-0.0833236724,0.9772892,0.9620370148188625
0.040295724,0.0461355634,0.986094832,0.9745115079073438
0.040522104,0.178965211,0.978775561,0.9900301455591392
0.040748484,0.313266426,0.953001738,1.0063481662898341
0.040974868,0.445745766,0.90690124,1.0211591470204644
0.041201248,0.572050333,0.839744449,1.0324123231117244
0.041427628,0.687396586,0.752393186,1.038609572783686
0.041654008,0.787340999,0.64738512,1.0390133423037324
0.041880388,0.868472338,0.528637469,1.0337017755019122
0.042106768,0.928825855,0.400901347,1.0234393589428954
0.042333148,0.967864394,0.269409955,1.0093432090260892
0.042559528,0.987501562,0.141552523,0.9951964517201055
0.042785912,1.00532687,0.0141281839,1.010881721124309
0.043012292,0.996846676,-0.126613483,1.0097342695296403
0.043238672,0.966850579,-0.258489192,1.0016167044934483
0.043465052,0.9212327,-0.382720888,0.9951449656607986
0.043691432,0.861160278,-0.499096245,0.9906940861781371
0.043917812,0.787350714,-0.606543779,0.9878165026799106
0.044144192,0.700622022,-0.703565776,0.9858760188698508
0.044370572,0.602137446,-0.788458467,0.984236258059393
0.044596956,0.493529797,-0.859548509,0.9823952998509843
0.044823336,0.37688747,-0.915441275,0.9800768930166266
0.045049716,0.254629046,-0.955211759,0.9772654555987442
0.045276096,0.129321635,-0.978497088,0.974180636503553
0.045502476,0.00356647256,-0.985491574,0.9712063621515187
0.045728856,-0.119758978,-0.977136374,0.9691377062054723
0.045955236,-0.237653837,-0.958047509,0.9743343757419276
0.046181616,-0.362284631,-0.932392299,1.0006055530933116
0.046407996,-0.487966329,-0.880611897,1.0135884513756748
0.04663438,-0.603346586,-0.810526252,1.0209799080190227
0.04686076,-0.708330333,-0.72507894,1.0274713298794145
0.04708714,-0.801150978,-0.625144422,1.0326484379080707
0.04731352,-0.879267037,-0.512147367,1.0354054478797918
0.0475399,-0.940110922,-0.388455361,1.0347061131533304
0.04776628,-0.981657743,-0.257365733,1.0298890449144813
0.04799266,-1.00288057,-0.122819521,1.0208540724221946
0.04821904,-1.00399363,0.0110789705,1.008125952667917
0.048445424,-0.986420929,0.140596792,0.9927937070899143
0.048671804,-0.952517092,0.262790799,0.9763478145911949
0.048898184,-0.905221045,0.375656009,0.9605425774087001
0.049124564,-0.848220408,0.478079885,0.9480382369892997
0.049350944,-0.787315428,0.572567761,0.9476994241033763
0.049577324,-0.717212856,0.669109523,0.9621018345809642
0.049803704,-0.629930496,0.75680846,0.9695714749183775
0.050030084,-0.532547414,0.832431078,0.9765482477783296
0.050256464,-0.426225036,0.896840096,0.9859899391064906
0.050482848,-0.311010957,0.948963702,0.9972599230876007
0.050709228,-0.187599033,0.986737907,1.0088450942932756
0.050935608,-0.057719931,1.00782728,1.0190474167468433
0.051161988,0.0758166015,1.01023388,1.026320649362864
0.051388368,0.209353074,0.992828906,1.0295379461824063
0.051614748,0.338839352,0.955697656,1.0281701161476742
0.051841128,0.460384399,0.900223255,1.0223557036853863
0.052067508,0.570746362,0.828928411,1.01287372029922
0.052293892,0.66767478,0.745270848,1.0012182487266874
0.052520272,0.750582755,0.653787434,0.9908124809596943
0.052746652,0.824016333,0.558278859,0.9906782014571087
0.052973032,0.89045471,0.451033592,0.9963408916736065
0.053199412,0.939683855,0.333532155,0.9942494457666049
0.053425792,0.972272217,0.212559447,0.9904947824590409
0.053652172,0.989937842,0.0898282155,0.9880460393235314
0.053878552,0.993022263,-0.0337250941,0.9872305967856949
0.054104936,0.981322348,-0.156908929,0.98761396268416
0.054331316,0.954559207,-0.278124869,0.9885367224247359
0.054557696,0.912688017,-0.395402819,0.9893428056485392
0.054784076,0.856112897,-0.506552279,0.9895245037698266
0.055010456,0.785792053,-0.609381616,0.9888151044767262
0.055236836,0.703231752,-0.701924086,0.9872323195279249
0.055463216,0.610428154,-0.782628894,0.9851305169195109
0.055689596,0.509881854,-0.850607336,0.9835123450954943
0.055915976,0.404536277,-0.906657219,0.9856769121738347
0.05614236,0.293852925,-0.954830468,0.9980507641521548
0.05636874,0.171358719,-0.991169274,1.011780340299008
0.05659512,0.0425412208,-1.00809681,1.0180689337993305
0.0568215,-0.0871334225,-1.00670362,1.0210444118376676
0.05704788,-0.21540387,-0.987955987,1.022455859460121
0.05727426,-0.340097874,-0.952153027,1.0222619507245827
0.05750064,-0.458709687,-0.899775565,1.0200106443187071
0.05772702,-0.56859988,-0.831881464,1.0153325936827975
0.057953404,-0.667319059,-0.750228465,1.0081574762009016
0.058179784,-0.752930105,-0.657191098,0.9988038823057567
0.058406164,-0.824239254,-0.555523276,0.9879764580122485
0.058632544,-0.880879641,-0.448054314,0.9767016102222996
0.058858924,-0.923277915,-0.337442577,0.9663096010991482
0.059085304,-0.952737391,-0.226042822,0.9588038935872105
0.059311684,-0.972168148,-0.11516083,0.9583729247520387
0.059538064,-0.984395444,-0.00115348992,0.9690357207069527
0.059764448,-0.98334223,0.119324058,0.9812001721189603
0.059990828,-0.965471029,0.240520552,0.9899844437727037
0.060217208,-0.932242692,0.359368801,0.9982223719195845
0.060443588,-0.884025753,0.474491864,1.0066440609694114
0.060669968,-0.820636451,0.584013879,1.014516395574502
0.060896348,-0.74222213,0.68541503,1.020687453611638
0.061122728,-0.649713576,0.775843024,1.0240601287281725
0.061349108,-0.544991612,0.852557182,1.0238696057301395
0.061575488,-0.4308047,0.913375318,1.0198471610736912
0.061801872,-0.310481459,0.957020998,1.0122879269956846
0.062028252,-0.187535644,0.983300567,1.0020496228330162
0.062254632,-0.0652790889,0.993149221,0.990606734620521
0.062481012,0.0536305457,0.988767385,0.9805371770718182
0.062707392,0.168702483,0.973714173,0.9765798184714392
0.062933772,0.283674687,0.94872576,0.9805518957321255
0.063160152,0.397711337,0.908558011,0.9836519669306036
0.063386532,0.505425155,0.853600204,0.9840878955756156
0.063612916,0.60523361,0.786439836,0.984795338321339
0.063839296,0.696632802,0.708191156,0.9868319742589875
0.064065676,0.778695166,0.619367599,0.9899823842427924
0.064292056,0.850022078,0.520584106,0.9935453445072573
0.064518436,0.908966005,0.412894756,0.9967012777779596
0.064744816,0.953924596,0.297926158,0.9987321304744042
0.064971196,0.983636141,0.17784518,0.9991689659306041
0.065197576,0.997413754,0.0551990084,0.9978811271967157
0.065423956,0.995304108,-0.0673204362,0.995162308531834
0.06565034,0.978211224,-0.187162593,0.9919270349780619
0.06587672,0.948088765,-0.302499592,0.9903783094793918
0.0661031,0.907246053,-0.413896948,0.9944060842477936
0.06632948,0.853712559,-0.523598671,1.0029807016672947
0.06655586,0.783694565,-0.627475202,1.0079023003354801
0.06678224,0.699583173,-0.720489323,1.0085214805017462
0.06700862,0.604465902,-0.801161885,1.0072393926574268
0.067235,0.500328064,-0.868740916,1.0050389507585074
0.067461384,0.388908178,-0.922383964,1.002041747959633
0.06768776,0.272108108,-0.961289823,0.998120946242711
0.067914144,0.152061805,-0.98492223,0.9931945916880309
0.06814052,0.0310378615,-0.993174791,0.9873595143243867
0.068366904,-0.0887313187,-0.98644048,0.9809380675008713
0.068593288,-0.205228567,-0.965593636,0.974489834596574
0.068819664,-0.316798717,-0.93192178,0.9688396311312146
0.069046048,-0.422319263,-0.887098491,0.9652972926353403
0.069272424,-0.521743298,-0.833110809,0.9662896890805512
0.069498808,-0.617107213,-0.770724773,0.9748379880525289
0.069725184,-0.709270298,-0.696278393,0.9878679561836712
0.069951568,-0.793247223,-0.607581735,0.9983967215028218
0.070177944,-0.865314186,-0.507241726,1.0060628090883015
0.070404328,-0.924162567,-0.397595406,1.0121585571163343
0.070630712,-0.968607962,-0.280362219,1.0168043578923975
0.070857088,-0.997332871,-0.157490432,1.0194760917486492
0.071083472,-1.00924146,-0.0314395614,1.0195567706039557
0.071309848,-1.00381136,0.0948951393,1.016642333927816
0.071536232,-0.981319785,0.21844855,1.0107082894295487
0.071762608,-0.942897558,0.336331755,1.0021748543037434
0.071988992,-0.890418589,0.446162224,0.9919059937613772
0.072215376,-0.826296747,0.546322346,0.9812344198417257
0.072441752,-0.753246367,0.636229694,0.9721683129260323
0.072668136,-0.673723578,0.716878474,0.9678182060376909
0.072894512,-0.587769151,0.790749669,0.9707576138908705
0.073120896,-0.492221475,0.857265115,0.977185457847139
0.073347272,-0.387328714,0.912227213,0.9821820208266411
0.073573656,-0.275993377,0.954030395,0.9863463387317201
0.073800032,-0.159992859,0.982503235,0.9909103217164591
0.074026416,-0.0405222811,0.997148931,0.9959480458599902
0.0742528,0.0809923708,0.997140348,1.0008486377373658
0.074479176,0.202625498,0.981697857,1.0047877748781404
0.07470556,0.321988344,0.950437605,1.0070081346699984
0.074931936,0.436438888,0.903621793,1.0070112477432114
0.07515832,0.543380678,0.842265368,1.004673511355915
0.075384696,0.640580416,0.768102527,1.000324761346519
0.07561108,0.726477981,0.683446825,0.9948698194804171
0.075837456,0.800568044,0.590909123,0.9900827847186151
0.07606384,0.863871753,0.49249807,0.9888287545850178
0.076290224,0.917743206,0.38755095,0.992448331005061
0.0765166,0.959725618,0.274431527,0.9963859248570336
0.076742984,0.986349761,0.155754939,0.9971454520476509
0.07696936,0.99734664,0.0351283513,0.9959343213843457
0.077195744,0.99344939,-0.0852773637,0.9942139192509941
0.07742212,0.975154519,-0.203905925,0.992503962176227
0.077648504,0.942809284,-0.319220632,0.9907911578910721
0.077874888,0.89685607,-0.429567277,0.9888788557650396
0.078101264,0.838005662,-0.533233941,0.9865919253784498
0.078327648,0.76731354,-0.628580809,0.983883902110426
0.078554024,0.686176717,-0.714191914,0.9809085769758816
0.078780408,0.596269011,-0.789017141,0.9780847822707319
0.079006784,0.499432296,-0.852535784,0.9762498812883261
0.079233168,0.397388458,-0.905028999,0.9769950755825598
