Unnamed: 0,Frequency (GHz),Re( S21 ),Im( S21 ),S2
0,0.0,0.0375143141,0.0,0.0014073237623934
1,0.000226564375,0.0335101523,-0.0162543952,0.0013871356704869
2,0.00045312875,0.022793401,-0.0285245236,0.0013331875757537
3,0.000679693125,0.00845692586,-0.0344912708,0.0012611673564004
4,0.0009062575,-0.00618106965,-0.0339085273,0.0011879938456729
5,0.00113282187,-0.0186425745,-0.0279087611,0.0011264445301249
6,0.00135938625,-0.0274898615,-0.0181247499,0.0010841990442267
7,0.00158595063,-0.032053031,-0.00616704812,0.0010654292788013
8,0.001812515,-0.0320907049,0.00653081713,0.0010724649133643
9,0.00203907938,-0.0275523737,0.0186166726,0.0011057137952
10,0.00226564375,-0.0185909159,0.028604487,0.001163838830534
11,0.00249220825,-0.00581266917,0.0347782522,0.0012433139489666
12,0.0027187725,0.00933952071,0.0353379585,0.0013359979580402
13,0.002945337,0.0242386311,0.0289736837,0.0014269855847495
14,0.00317190125,0.0352560319,0.0158725008,0.0014949240669798
15,0.00339846575,0.0389316157,-0.00108742493,0.0015168531939908
16,0.00362503,0.0342039578,-0.0181260966,0.0014984661071367
17,0.0038515945,0.0224706791,-0.0304838996,0.001434199554038
18,0.00407815875,0.00731894793,-0.0359939747,0.0013491332135062
19,0.004304723,-0.00772033492,-0.0347061455,0.0012641201067441
20,0.0045312875,-0.0202014931,-0.028033914,0.0011940006576287
21,0.004757852,-0.0288407411,-0.0177600533,0.001147207840416
22,0.0049844165,-0.0331345871,-0.00552181993,0.0011283913576268
23,0.0052109805,-0.0329897963,0.00732374704,0.0011419639306214
24,0.005437545,-0.0283806976,0.0196014009,0.0011896789135051
25,0.0056641095,-0.0193494167,0.0299572088,0.001271834285717
26,0.005890674,-0.00627913931,0.0367307663,0.0013885767834596
27,0.006117238,0.00971211307,0.0379650034,0.0015356666234464
28,0.0063438025,0.0262293406,0.0317975432,0.0016990620618666
29,0.006570367,0.038102936,0.0178213585,0.0017694345506056
30,0.0067969315,0.0436179042,-0.00148762006,0.0019047345802432
31,0.0070234955,0.0383782722,-0.0212881994,0.0019260792107514
32,0.00725006,0.0243309867,-0.0356146842,0.0018604026444613
33,0.0074766245,0.00622227276,-0.041277688,0.0017425642049251
34,0.007703189,-0.0111403679,-0.0385607183,0.0016110367927593
35,0.007929753,-0.0247186366,-0.0297186393,0.0014942085172063
36,0.0081563175,-0.0332803875,-0.0173121952,0.001407296294793
37,0.008382882,-0.0366691835,-0.00343893236,0.0013564552743333
38,0.008609446,-0.0351620764,0.0103186052,0.0013428452300329
39,0.008836011,-0.0293450318,0.0227426495,0.0013783589976228
40,0.009062575,-0.0194097627,0.0329541154,0.0014627126098668
41,0.009289139,-0.00580574758,0.0395427868,0.0015973386928729
42,0.009515704,0.0104712946,0.0409680158,0.001788026329189
43,0.009742268,0.0273747835,0.0350561067,0.0019783093886336
44,0.009968833,0.0423342772,0.0211841147,0.0022409577416691
45,0.010195397,0.0501236059,0.00026663419,0.0025124469622097
46,0.010421961,0.0465201735,-0.0234344695,0.0027133009032165
47,0.010648526,0.0309644267,-0.0427995026,0.002790593143667
48,0.01087509,0.00803275779,-0.051696457,0.0027370488640656
49,0.011101654,-0.0151946191,-0.0486100204,0.0025938105328825
50,0.011328219,-0.03319747,-0.036301773,0.0024198907373444
51,0.011554783,-0.0435957126,-0.0190051924,0.0022617834952628
52,0.011781348,-0.046318166,-0.000362974417,0.0021455042520309
53,0.012007912,-0.0423086323,0.0170960966,0.0020822968860531
54,0.012234476,-0.0327483676,0.0316801704,0.0020760887770377
55,0.012461041,-0.0188966095,0.0420657322,0.0021266076761176
56,0.012687605,-0.00189924287,0.0474971458,0.0022595859826257
57,0.01291417,0.0169573519,0.0465943292,0.0024585832970584
58,0.013140734,0.0355565846,0.0382550023,0.0027277159093899
59,0.013367298,0.0508764237,0.0219777301,0.0030714311088503
60,0.013593863,0.0587209649,-0.00102412316,0.0034492005470338
61,0.013820427,0.0556255542,-0.0276379902,0.0038580607823524
62,0.014046991,0.0394544564,-0.0515149869,0.0042104480051266
63,0.014273556,0.0126682809,-0.0654587075,0.0044453277285318
64,0.01450012,-0.0179563183,-0.0649224967,0.0045373599446524
65,0.014726685,-0.0444216803,-0.0503823385,0.0045116657134039
66,0.014953249,-0.0610790066,-0.0263726097,0.0044261595896313
67,0.015179813,-0.0658815354,0.00131795427,0.0043421137101192
68,0.015406378,-0.05948814,0.0277186576,0.0043071627798056
69,0.015632942,-0.0438861586,0.0492677465,0.0043533057618526
70,0.015859506,-0.0215306375,0.063550055,0.0045021778416594
71,0.016086071,0.00491232798,0.0689043775,0.0047719442048455
72,0.016312635,0.0325586088,0.0642082468,0.0051827619641211
73,0.0165392,0.0579762273,0.0487751141,0.0057402546874092
74,0.016765764,0.0768996999,0.0230277348,0.0064438404147291
75,0.016992328,0.08462587,-0.0106807202,0.0072756156572475
76,0.017218892,0.0770890787,-0.0473791696,0.0081875117668003
77,0.017445458,0.0527157709,-0.0795423016,0.0091059302454066
78,0.017672022,0.0142699201,-0.098721005,0.0099494674478704
79,0.017898586,-0.0307924785,-0.0985645577,0.0106631487667695
80,0.01812515,-0.0723749697,-0.0775505528,0.0112522244786615
81,0.018351714,-0.10115657,-0.0395184159,0.0117943568494102
82,0.018578278,-0.111184284,0.00811719801,0.0124278339121262
83,0.018804844,-0.100495316,0.0568682961,0.0133333116392571
84,0.019031408,-0.0703325421,0.0988946408,0.0147268164572092
85,0.019257972,-0.0240985826,0.127626717,0.0168693205755271
86,0.019484536,0.0332697518,0.137776315,0.0200891893598128
87,0.0197111,0.0954509377,0.125292718,0.0248091466916368
88,0.019937666,0.154505178,0.0875666142,0.0315397619512633
89,0.02016423,0.200639129,0.0244527794,0.0408539985062637
90,0.020390794,0.222970724,-0.0602043681,0.0533405096994044
91,0.020617358,0.211472437,-0.157383025,0.0694900081688696
92,0.020843922,0.159956843,-0.252933949,0.0895617741792612
93,0.021070488,0.0690650195,-0.329754651,0.1135081067746671
94,0.021297052,-0.0524950996,-0.371850014,0.1410281683938141
95,0.021523616,-0.18957521,-0.368534446,0.171756398135071
96,0.02175018,-0.324375421,-0.316659182,0.2054924512938363
97,0.021976744,-0.440314323,-0.220119581,0.2423293329785639
98,0.022203308,-0.524467528,-0.0881964341,0.2828447989143863
99,0.022429874,-0.569379807,0.0689758658,0.3289510346822168
100,0.022656438,-0.568520963,0.240378574,0.3809979442087208
101,0.022883002,-0.51839298,0.413841009,0.4399956624434185
102,0.023109566,-0.417714059,0.576432765,0.5067597676518008
103,0.02333613,-0.267896324,0.713987291,0.5815462921222317
104,0.023562696,-0.0742805749,0.811218977,0.663593832452401
105,0.02378926,0.152304858,0.852965355,0.7507466666006762
106,0.024015824,0.394547373,0.8268255,0.8393080369914512
107,0.024242388,0.629375637,0.726795197,0.9243449508314244
108,0.024468952,0.831178904,0.556511283,1.0005631785609477
109,0.024695518,0.977011561,0.330206871,1.0635881679832673
110,0.024922082,1.0517683,0.0702533498,1.1111520900430112
111,0.025148646,1.05093896,-0.197894737,1.143635024578181
112,0.02537521,0.979856908,-0.4509947,1.1635157795834106
113,0.025601774,0.850374401,-0.671411932,1.1739306043080813
114,0.02582834,0.676954806,-0.847742915,1.1769358592991948
115,0.026054904,0.473187506,-0.974062622,1.172704407412015
116,0.026281468,0.251515925,-1.04947102,1.164649682348446
117,0.026508032,0.0239404384,-1.07482982,1.1558322865520163
118,0.026734596,-0.199069113,-1.05183494,1.1459852527554104
119,0.02696116,-0.407973379,-0.983548343,1.1338096209907234
120,0.027187726,-0.593787074,-0.87474668,1.117764843420504
121,0.02741429,-0.748458564,-0.732344925,1.0965193111981977
122,0.027640854,-0.865841746,-0.565479159,1.0694486083796757
123,0.027867418,-0.942844868,-0.384840339,1.0370585316355725
124,0.028093982,-0.980124474,-0.201203004,1.0011266333524007
125,0.028320548,-0.981799066,-0.0235296004,0.964483048093456
126,0.028547112,-0.955212235,0.142793551,0.9328204121008848
127,0.028773676,-0.907573581,0.292895913,0.909477820781267
128,0.02900024,-0.844029605,0.427636147,0.8952586483374617
129,0.029226804,-0.769438267,0.54697758,0.8912197197466196
130,0.02945337,-0.679827034,0.651675761,0.8868460936321663
131,0.029679934,-0.576654136,0.749161422,0.8937728287789687
132,0.029906498,-0.460892439,0.836904049,0.9128302275599632
133,0.030133062,-0.330446422,0.911778629,0.9405351061137216
134,0.030359626,-0.184366688,0.969397128,0.9737218674187376
135,0.03058619,-0.0238443818,1.00413585,1.0088573597986463
136,0.030812756,0.147130117,1.01017225,1.0420952459984965
137,0.03103932,0.321716875,0.982958555,1.0697092685074536
138,0.031265884,0.491020799,0.920642793,1.0886845773534393
139,0.031492448,0.645602465,0.824856222,1.0971903297861894
140,0.031719012,0.777051628,0.70050478,1.0945161793802989
141,0.031945578,0.879017472,0.555385232,1.0811244720049646
142,0.032172142,0.963332951,0.39652884,1.085245495434114
143,0.032398706,1.01095915,0.234429702,1.0769956881485312
144,0.03262527,1.03546226,0.0834216923,1.0791412706305037
145,0.032851834,1.01358485,-0.0698666275,1.032235593787746
146,0.0330784,0.979991019,-0.221318126,1.0093641102168105
147,0.033304964,0.928536057,-0.362292528,0.993435084993738
148,0.033531528,0.860074878,-0.492149472,0.9819398985565936
149,0.033758092,0.775931656,-0.609878838,0.9740221318231326
150,0.033984656,0.677411497,-0.714144349,0.9688884874764148
151,0.03421122,0.566007912,-0.803328276,0.965701275467732
152,0.034437784,0.443630725,-0.875715911,0.9636865769425856
153,0.034664348,0.31268993,-0.929773211,0.9622532162166554
154,0.034890916,0.176005945,-0.964393675,0.9610332530553486
155,0.03511748,0.0366714112,-0.979023039,0.9598309032921948
156,0.035344044,-0.102112889,-0.973829985,0.9587718817850264
157,0.035570608,-0.253527373,-0.959913015,0.9857091252266714
158,0.035797172,-0.392874002,-0.922716498,1.00575571712888
159,0.036023736,-0.483812064,-0.888770282,1.0239867274382997
160,0.0362503,-0.619516969,-0.795314133,1.0163258450284889
161,0.036476864,-0.732633173,-0.699666381,1.026284410881685
162,0.036703428,-0.831992805,-0.588625133,1.0386915747710357
163,0.036929992,-0.914912522,-0.462221593,1.050713723947858
164,0.037156556,-0.97789669,-0.322368085,1.060203118539523
165,0.037383124,-1.01758516,-0.172534019,1.065247545564518
166,0.037609688,-1.03153229,-0.0175986737,1.064368578628643
167,0.037836252,-1.01889205,0.13662228,1.0568066569456012
168,0.038062816,-0.980796099,0.284173369,1.042715491462428
169,0.03828938,-0.920259833,0.41985628,1.0231574560886263
170,0.038515944,-0.841661394,0.539934635,0.9999233122226064
171,0.038742508,-0.749962211,0.642476976,0.9752199826181132
172,0.038969072,-0.649888456,0.726980984,0.950856356339672
173,0.039195636,-0.547388911,0.792202771,0.9272198502658444
174,0.0394222,-0.456095278,0.862534285,0.9519882954143584
175,0.039648768,-0.332693398,0.9174788,0.9524522455222264
176,0.039875332,-0.210326135,0.953787148,0.953947006754012
177,0.040101896,-0.0849660337,0.97705847,0.9618624806814504
178,0.04032846,0.0444242805,0.986284375,0.9747303850670832
179,0.040555024,0.177331671,0.979348063,0.990569150041504
180,0.040781588,0.311800778,0.953884482,1.0071153301618136
181,0.041008152,0.444487423,0.908017278,1.02206444635171
182,0.041234716,0.571003258,0.841036141,1.0333865111147864
183,0.04146128,0.686552882,0.753832936,1.039618955180886
184,0.041687844,0.78670007,0.648968577,1.0400572140714095
185,0.041914408,0.868048847,0.530374467,1.0348058760235634
186,0.042140976,0.928634465,0.402814299,1.0246213290646975
187,0.04236754,0.967884839,0.27166751,1.010604297555656
188,0.042594104,0.988638937,0.145242676,0.998502382684131
189,0.042820668,1.00842857,0.0140297767,1.0171250154264966
190,0.043047232,0.998408616,-0.126517445,1.0128264283923634
191,0.043273796,0.968352199,-0.258462846,1.0045090240705554
192,0.04350036,0.922617674,-0.382976413,0.997894305291517
193,0.043726924,0.862295628,-0.499594927,0.9931488411520498
194,0.043953488,0.788165212,-0.607146144,0.9898308415810736
195,0.044180052,0.701137424,-0.704104245,0.9873564751603758
196,0.044406616,0.602466345,-0.788794279,0.9851621114407888
197,0.044633184,0.493847251,-0.859618127,0.9828284315872452
198,0.044859748,0.377386689,-0.915280104,0.9801583818126336
199,0.045086312,0.25547117,-0.95494926,0.9771936078757164
200,0.045312876,0.130603358,-0.978327572,0.9741820752562912
201,0.04553944,0.00533700734,-0.985638738,0.97151220549358
202,0.045766004,-0.117358603,-0.977959037,0.970176919748079
203,0.045992568,-0.23512958,-0.961231053,0.9792510566424651
204,0.046219132,-0.362715185,-0.935237527,1.00623153733866
205,0.046445696,-0.488285631,-0.882863104,1.017870117845583
206,0.04667226,-0.604048312,-0.812864244,1.025622642403741
207,0.046898828,-0.709636867,-0.727284014,1.0325265200255278
208,0.047125392,-0.803013861,-0.626950502,1.0378981929161797
209,0.047351956,-0.881495893,-0.51336962,1.0405833761148118
210,0.04757852,-0.942454576,-0.389031649,1.039566251746999
211,0.047805084,-0.983878255,-0.25736022,1.0342507035002937
212,0.048031648,-1.004812,-0.122392789,1.0246271501431985
213,0.048258212,-1.00557637,0.0117219696,1.0113212404736802
214,0.048484776,-0.987700701,0.141261414,0.9955074618411708
215,0.04871134,-0.953626394,0.263324559,0.9787431227059878
216,0.048937904,-0.906385362,0.375943989,0.962868307313103
217,0.049164468,-0.849989474,0.478104025,0.9510655646319974
218,0.049391036,-0.790384173,0.573939919,0.9541141715506204
219,0.0496176,-0.718556285,0.671819985,0.9676652269584014
220,0.049844164,-0.630636811,0.759137154,0.9739920059714696
221,0.050070728,-0.53299129,0.834800482,0.9809715599632964
222,0.050297292,-0.426263809,0.899350107,0.9905314498240998
223,0.050523856,-0.310512125,0.951511562,1.0017920323916956
224,0.05075042,-0.186519846,0.989135206,1.0131781087005265
225,0.050976984,-0.0561245307,1.00987124,1.022989884325433
226,0.051203548,0.0777690709,1.01176786,1.0297222309176288
227,0.051430112,0.211444736,0.993784964,1.032317431054591
228,0.05165668,0.340843916,0.9561131,1.0303268350658252
229,0.051883244,0.462112725,0.900233805,1.0239690742717038
230,0.052109808,0.572073698,0.828754187,1.0141018184134265
231,0.052336372,0.66857022,0.745254755,1.0023907889209585
232,0.052562936,0.751432717,0.654531598,0.9930627409584358
233,0.0527895,0.826425314,0.559130728,0.9956059706138084
234,0.053016064,0.892774284,0.450261921,0.9997817196743228
235,0.053242628,0.941296637,0.332520962,0.9966095489969152
236,0.053469192,0.973618209,0.211549953,0.9926857995106698
237,0.053695756,0.99114418,0.0887535363,0.990243975753628
238,0.05392232,0.994082749,-0.0349052064,0.9894188852932236
239,0.054148888,0.982199788,-0.158181444,0.98973779277317
240,0.054375452,0.955232143,-0.27943629,0.9905530871893368
241,0.054602016,0.913173199,-0.396685272,0.9912444963936076
242,0.05482858,0.85646683,-0.507750332,0.9913458305363592
243,0.055055144,0.786100447,-0.610472679,0.990630804579037
244,0.055281708,0.703595459,-0.702926576,0.9891523411725044
245,0.055508272,0.610967755,-0.783604622,0.987317801269503
246,0.055734836,0.510794699,-0.851729751,0.9863547932650228
247,0.0559614,0.405952364,-0.90864712,0.990436910521483
248,0.056187964,0.29416436,-0.958350182,1.0049677420336427
249,0.056414528,0.170112565,-0.994184077,1.017340263731221
250,0.056641096,0.0408231616,-1.01046646,1.0227089973079513
251,0.05686766,-0.0891980678,-1.00863481,1.0253004752429895
252,0.057094224,-0.217784211,-0.989390969,1.0263244520996515
253,0.057320788,-0.342658162,-0.952987254,1.0255993222716786
254,0.057547352,-0.461233497,-0.899969161,1.022680829505893
255,0.057773916,-0.570850432,-0.831505299,1.017271277979666
256,0.05800048,-0.669106245,-0.749464571,1.009400310282214
257,0.058227044,-0.754163444,-0.656301141,0.999493687943843
258,0.058453608,-0.824955404,-0.55479151,0.9883450381568832
259,0.058680172,-0.881241739,-0.447739691,0.9770578334525196
260,0.05890674,-0.923568547,-0.337754488,0.9670569551718334
261,0.059133304,-0.953452826,-0.227123037,0.9606571653434895
262,0.059359868,-0.974241138,-0.116593048,0.9627397338134652
263,0.059586432,-0.987541914,-0.00124607666,0.975240584613826
264,0.059812996,-0.986097395,0.120177008,0.9868305856776182
265,0.06003956,-0.968071699,0.241755202,0.9956083920988074
266,0.060266124,-0.934787929,0.361129671,1.0042431114806771
267,0.060492688,-0.886327684,0.476889253,1.0130001230517018
268,0.060719252,-0.822439611,0.58699578,1.0209709594796397
269,0.060945816,-0.743321538,0.688790679,1.0269595083319665
270,0.06117238,-0.650016725,0.779341161,1.0298943880085534
271,0.061398948,-0.544541061,0.855895579,1.0290822092667509
272,0.061625512,-0.429763973,0.916327536,1.024353225720576
273,0.061852076,-0.309096247,0.959465027,1.0161136279455958
274,0.06207864,-0.186087757,0.985248387,1.0053430373913927
275,0.062305204,-0.0640419871,0.994787395,0.9937033373626026
276,0.062531768,0.0545364507,0.990580678,0.9842243040818932
277,0.062758332,0.169980392,0.976289988,0.9820354743335138
278,0.062984896,0.28624177,0.951004028,0.9863430121649576
279,0.06321146,0.400495678,0.909823596,0.9881757639350508
280,0.063438024,0.507998824,0.854390323,0.9880456292214272
281,0.063664592,0.607704043,0.786999881,0.98867301657256
282,0.063891156,0.69908911,0.708545446,0.990762232767931
283,0.06411772,0.781151831,0.619490027,0.9939660766271132
284,0.064344284,0.852446437,0.520462215,0.9975458451967012
285,0.064570848,0.911313891,0.412550807,1.0006911762859112
286,0.064797412,0.956170082,0.297414333,1.0027165111857217
287,0.065023976,0.985789955,0.177236646,1.0031946640642313
288,0.06525054,0.999535978,0.0545611531,1.0020490907440185
289,0.065477104,0.997512579,-0.0679386705,0.9996470082125388
290,0.065703668,0.980730414,-0.187768221,0.9970890497621164
291,0.065930232,0.951312125,-0.303379238,0.9970337212214762
292,0.0661568,0.911108255,-0.416090131,1.0032492494447425
293,0.066383364,0.85672009,-0.527308047,1.0120230890405624
294,0.066609928,0.785542905,-0.631553173,1.015937065922207
295,0.066836492,0.700665832,-0.724638283,1.0160332493214403
296,0.067063056,0.604872823,-0.805363536,1.0144815571224126
297,0.067289624,0.500045121,-0.872899294,1.011998300501603
298,0.067516184,0.387961984,-0.926343262,1.0086263400820168
299,0.067742752,0.270600557,-0.964899659,1.0042560133870264
300,0.067969312,0.150156155,-0.988088429,0.998865614408072
301,0.06819588,0.0289199706,-0.99588716,0.9926276001523704
302,0.06842244,-0.0908961445,-0.988777339,0.9859427352048856
303,0.068649008,-0.207330599,-0.967707038,0.9794428886764324
304,0.068875568,-0.318810076,-0.934029341,0.97405067440802
305,0.069102136,-0.424361765,-0.889500916,0.9712947871587544
306,0.069328696,-0.524353087,-0.836094439,0.9740000707731544
307,0.069555264,-0.621222198,-0.77368629,0.9845074946219152
308,0.069781832,-0.714423299,-0.697909534,0.9974783678021406
309,0.070008392,-0.798473835,-0.607984185,1.0072052343897215
310,0.07023496,-0.870445549,-0.506727278,1.014447988043201
311,0.07046152,-0.929121494,-0.396197289,1.0202390424237415
312,0.070688088,-0.973205566,-0.2780855,1.0244606190036305
313,0.070914648,-1.001333,-0.154434696,1.0265178522176124
314,0.071141216,-1.01244438,-0.027818447,1.025817488587076
315,0.071367776,-1.00612104,0.0987876505,1.0220385470219917
316,0.071594344,-0.982775569,0.222298279,1.0152643438696356
317,0.071820904,-0.943674088,0.339870363,1.0060326480083834
318,0.072047472,-0.890802443,0.449222893,0.9953302000500576
319,0.07227404,-0.826658487,0.548892498,0.9846472284898092
320,0.0725006,-0.753998756,0.638559937,0.9762729171909914
321,0.072727168,-0.675016999,0.719692349,0.9736050261481038
322,0.072953728,-0.588717163,0.794649959,0.9780564553494702
323,0.073180296,-0.492078185,0.861442149,0.9842235162266324
324,0.073406856,-0.386526972,0.916141272,0.9887179303452668
325,0.073633424,-0.274781466,0.957780778,0.9928488727633944
326,0.073859984,-0.158331662,0.986152887,0.997566431730117
327,0.074086552,-0.0383398049,1.00062048,1.0027112856352003
328,0.074313112,0.0836956576,1.00028598,1.0075770048856567
329,0.07453968,0.205758914,0.984370708,1.0113224214588807
330,0.074766248,0.325391114,0.952549279,1.0132295059935807
331,0.074992808,0.439921916,0.905172288,1.012868163140266
332,0.075219376,0.546776116,0.843351126,1.0102052427535133
