Frequency (GHz),Re( S21 ),Im( S21 ),S2
0,0.038900424,0,0.001513243
0.000226606,0.034745667,-0.016870387,0.001491871
0.000453212,0.023619192,-0.029611258,0.001434693
0.000679818,0.008721241,-0.035808198,0.001358287
0.000906424,-0.006501303,-0.035189636,0.001280577
0.00113303,-0.019460561,-0.028921437,0.001215163
0.001359636,-0.028645108,-0.018701838,0.001170301
0.001586241,-0.033344254,-0.006217588,0.001150498
0.001812847,-0.033300892,0.007021149,0.001158246
0.002039453,-0.028467737,0.019583738,0.001193935
0.002266059,-0.019024948,0.029901721,0.001256062
0.002492665,-0.005640277,0.036178671,0.001340709
0.002719271,0.010135854,0.036554471,0.001438965
0.002945877,0.025527421,0.029717023,0.001534751
0.003172483,0.036756452,0.015944747,0.001605272
0.003399089,0.040309172,-0.001690689,0.001627688
0.003625695,0.035139378,-0.019276787,0.00160637
0.003852301,0.022796908,-0.031895727,0.001537036
0.004078906,0.007018622,-0.037375741,0.001446207
0.004305513,-0.008550041,-0.035815481,0.001355852
0.004532118,-0.021394722,-0.028702777,0.001281584
0.004758724,-0.030199125,-0.017897425,0.001232305
0.00498533,-0.0344516,-0.00510671,0.001212991
0.005211936,-0.034062099,0.008251098,0.001228307
0.005438542,-0.029013246,0.020932548,0.00127994
0.005665148,-0.019379333,0.03150617,0.001368197
0.005891754,-0.00560982,0.038229108,0.001492935
0.00611836,0.011052281,0.039075963,0.001649084
0.006344966,0.028018381,0.032181595,0.001820685
0.006571572,0.039904501,0.017321676,0.00189241
0.006798178,0.044992577,-0.002811136,0.002032234
0.007024783,0.03894987,-0.023086401,0.002050074
0.007251389,0.024023153,-0.037412282,0.001976791
0.007477995,0.005204633,-0.042696826,0.001850107
0.007704601,-0.012594805,-0.039393332,0.001710464
0.007931207,-0.026333461,-0.029897274,0.001587298
0.008157813,-0.034812938,-0.016861042,0.001496235
0.008384419,-0.037915729,-0.002441753,0.001443565
0.008611025,-0.035954963,0.011728757,0.001430323
0.00883763,-0.029565429,0.024419915,0.001470447
0.009064236,-0.018941702,0.034681313,0.001561582
0.009290842,-0.004609158,0.041048721,0.001706242
0.009517448,0.012334189,0.041945137,0.001911527
0.009744054,0.029576015,0.03512767,0.002108694
0.00997066,0.044506799,0.020130159,0.002386079
0.010197266,0.051618613,-0.001835444,0.00266785
0.010423872,0.046794992,-0.026092326,0.002870581
0.010650478,0.029896909,-0.045248125,0.002941218
0.010877084,0.005991302,-0.053291593,0.00287589
0.01110369,-0.017618561,-0.049089894,0.002720231
0.011330295,-0.035480999,-0.035736863,0.002536025
0.011556901,-0.045387805,-0.017627657,0.002370787
0.011783507,-0.047415283,0.001551,0.002250615
0.012010113,-0.042606942,0.019268788,0.002186638
0.012236719,-0.032214057,0.033835467,0.002182584
0.012463325,-0.017580643,0.043941654,0.002239948
0.012689931,0.000135021,0.048806075,0.002382051
0.012916537,0.019504244,0.047045536,0.002593698
0.013143143,0.038019542,0.037597802,0.00285908
0.013369749,0.053016938,0.020192254,0.003218523
0.013596355,0.060168777,-0.004027589,0.003636503
0.01382296,0.055524897,-0.031223871,0.004057944
0.014049566,0.037573118,-0.054795202,0.004414253
0.014276172,0.009361815,-0.06749779,0.004643595
0.014502778,-0.021842754,-0.065167286,0.004723881
0.014729384,-0.047942612,-0.048855554,0.004685359
0.01495599,-0.063533194,-0.023527874,0.004590028
0.015182596,-0.066913582,0.004860175,0.004501049
0.015409202,-0.059023343,0.031348921,0.00446651
0.015635808,-0.042037632,0.052452508,0.004518428
0.015862414,-0.018542444,0.065837458,0.004678393
0.01608902,0.008683363,0.069926746,0.004965151
0.016315625,0.036651682,0.063683271,0.005398905
0.016542231,0.061782591,0.046545833,0.005983603
0.016768837,0.079685375,0.019174958,0.006717438
0.016995444,0.0856281,-0.015725387,0.007579459
0.01722205,0.075718738,-0.052760467,0.008516994
0.017448654,0.048842412,-0.084060967,0.009451827
0.01767526,0.008444162,-0.101139747,0.010300552
0.017901866,-0.037378553,-0.098051004,0.011011156
0.018128472,-0.07823655,-0.073998354,0.011596714
0.018355078,-0.104973391,-0.033552054,0.012145153
0.018581684,-0.112106003,0.015395721,0.012804784
0.01880829,-0.098215029,0.064183235,0.01376568
0.019034896,-0.065017007,0.10500735,0.015253755
0.019261502,-0.016293595,0.131440744,0.01754215
0.019488108,0.04270082,0.138390541,0.020975302
0.019714714,0.105357178,0.122050993,0.02599658
0.01994132,0.163438633,0.080142871,0.033135066
0.020167926,0.206904456,0.013042521,0.042979561
0.020394532,0.224824503,-0.074686006,0.056124057
0.020621138,0.207481027,-0.173193559,0.073044385
0.020847744,0.149458259,-0.26762566,0.093961265
0.02107435,0.052547846,-0.340604395,0.11877263
0.021300956,-0.073329352,-0.376496971,0.147127163
0.021527562,-0.212150678,-0.365546763,0.178632346
0.021754168,-0.345817477,-0.305778056,0.213089947
0.021980774,-0.457975119,-0.202153295,0.250607164
0.02220738,-0.536418259,-0.064802222,0.291943877
0.022433984,-0.574172497,0.096069366,0.338903379
0.02266059,-0.565259933,0.269019037,0.391890034
0.022887196,-0.506714404,0.441771388,0.451921446
0.023113802,-0.397765279,0.601305425,0.519785431
0.023340408,-0.240408972,0.733390272,0.595657765
0.023567014,-0.040710475,0.822785139,0.678632728
0.02379362,0.189639702,0.854626179,0.766349122
0.024020226,0.432455659,0.817228079,0.85487963
0.024246832,0.664052427,0.705786884,0.939100751
0.024473438,0.858793378,0.525478661,1.013653889
0.024700044,0.994484127,0.292024285,1.074276862
0.02492665,1.05742824,0.028765464,1.118981935
0.025153256,1.04476964,-0.238673553,1.148508666
0.025379862,0.963263512,-0.487622261,1.165652063
0.025606468,0.825659335,-0.70144546,1.173739071
0.025833074,0.64675957,-0.869790554,1.174833549
0.02605968,0.440025717,-0.987628698,1.169033077
0.026286286,0.217594296,-1.05478728,1.159923484
0.026512892,-0.0088853,-1.07255816,1.150459955
0.026739498,-0.229318991,-1.04289961,1.140226796
0.026966104,-0.434502214,-0.969042659,1.127835849
0.02719271,-0.615751982,-0.855886638,1.11169244
0.027419314,-0.765324533,-0.710439265,1.09044559
0.02764592,-0.877416849,-0.541878998,1.063493175
0.027872526,-0.94931078,-0.360837638,1.031394758
0.028099132,-0.982011199,-0.177888677,0.995990376
0.028325738,-0.97986865,-0.001658163,0.960145321
0.028552344,-0.950335443,0.162901625,0.929674394
0.02877895,-0.90048039,0.311195135,0.907707345
0.029005556,-0.835244179,0.444362193,0.895090597
0.029232162,-0.759276569,0.562282205,0.892662186
0.029458768,-0.667955041,0.665709078,0.889332513
0.029685374,-0.562959671,0.762063503,0.897664374
0.02991198,-0.445122391,0.8483904,0.917900214
0.030138586,-0.312403619,0.921326876,0.946439234
0.030365192,-0.16407308,0.976269782,0.980022663
0.030591798,-0.00166241,1.0074842,1.015027177
0.030818404,0.170431703,1.00921154,1.047554898
0.03104501,0.344992399,0.977178454,1.073897486
0.031271616,0.512900352,0.909992516,1.09115315
0.031498222,0.664730847,0.80982697,1.09768682
0.031724828,0.792338848,0.682076037,1.09302857
0.031951434,0.889852881,0.534860492,1.077913896
0.03217804,0.969741642,0.374882966,1.08093609
0.032404644,1.01329064,0.212933719,1.07209869
0.03263125,1.03445899,0.064002924,1.074201776
0.032857856,1.00924468,-0.088471375,1.026402008
0.033084462,0.973539114,-0.238120854,1.004479948
0.033311068,0.920461357,-0.377324998,0.989623264
0.033537674,0.850741148,-0.505584359,0.979376045
0.03376428,0.765516937,-0.62191397,0.972793167
0.033990888,0.66593343,-0.724910736,0.968962908
0.034217492,0.553393304,-0.812828183,0.966933804
0.0344441,0.429803461,-0.883800447,0.965834245
0.034670704,0.297655225,-0.93617171,0.965016104
0.034897308,0.159904674,-0.968775213,0.964094918
0.035123916,0.019796198,-0.981077373,0.962904701
0.03535052,-0.119349979,-0.97333616,0.961627698
0.035577128,-0.271049261,-0.956600189,0.988551623
0.035803732,-0.410203457,-0.916597366,1.008417607
0.03603034,-0.500710309,-0.877459586,1.020646139
0.036256944,-0.634034932,-0.784310758,1.01714366
0.036483552,-0.745279014,-0.686560333,1.0268059
0.036710156,-0.842412174,-0.573669314,1.038754753
0.036936764,-0.922785521,-0.445797712,1.050268718
0.037163368,-0.982965767,-0.30494675,1.059214219
0.037389976,-1.01969135,-0.154667005,1.063692332
0.03761658,-1.03065646,0.00010633,1.06225275
0.037843188,-1.01519048,0.153553978,1.054190535
0.038069792,-0.974606335,0.299792886,1.039733283
0.0382964,-0.912062287,0.433774412,1.020017856
0.038523004,-0.832003415,0.551961541,0.996891225
0.038749612,-0.739363134,0.652625442,0.972577811
0.038976216,-0.638781071,0.735405207,0.948862075
0.039202824,-0.536347508,0.799187899,0.926369947
0.039429428,-0.443447292,0.869069695,0.951927636
0.039656036,-0.320047885,0.922382116,0.953219417
0.03988264,-0.197176844,0.957582414,0.955842787
0.040109244,-0.071114786,0.979591906,0.964657615
0.040335852,0.059036344,0.98725009,0.97814803
0.040562456,0.19258891,0.978351951,0.994263028
0.040789064,0.327376604,0.950532675,1.010687807
0.041015668,0.459850788,0.902024388,1.025110744
0.041242276,0.585478961,0.832322478,1.035546321
0.04146888,0.699430943,0.742585301,1.040636573
0.041695488,0.797363997,0.635637403,1.039824252
0.041922092,0.876086533,0.515605032,1.033376162
0.0421487,0.933898091,0.387341321,1.022198943
0.042375304,0.970511079,0.256227344,1.007544206
0.042601912,0.989369214,0.130422249,0.995861405
0.042828516,1.00685108,-0.000992107,1.013750082
0.043055124,0.994905531,-0.140287235,1.009517524
0.043281728,0.963527381,-0.271149457,1.001907042
0.043508336,0.916721642,-0.394710183,0.996174697
0.04373494,0.855442703,-0.510504305,0.992396864
0.043961548,0.780354083,-0.617318749,0.990034933
0.044188152,0.692290068,-0.713542044,0.988407787
0.04441476,0.592487812,-0.797389567,0.986871929
0.044641364,0.482686937,-0.867161751,0.984956182
0.044867968,0.365086704,-0.921497703,0.982446318
0.045094576,0.242188886,-0.959556758,0.979404628
0.04532118,0.116605476,-0.981087565,0.976129647
0.045547788,-0.009026991,-0.986408591,0.973083395
0.045774392,-0.131698772,-0.976770639,0.971425448
0.046001,-0.249465495,-0.958384871,0.980734594
0.046227604,-0.37682423,-0.929811895,1.00654666
0.046454212,-0.50123471,-0.875395536,1.017553579
0.046680816,-0.615690291,-0.803674102,1.024966597
0.046907424,-0.719771683,-0.716598213,1.031584275
0.047134028,-0.811449587,-0.615024626,1.036705723
0.047360636,-0.888075233,-0.500495076,1.039172941
0.04758724,-0.947073102,-0.375534922,1.037973938
0.047813848,-0.986504138,-0.243590355,1.032526675
0.048040452,-1.00550091,-0.108696699,1.022847052
0.04826706,-1.00447178,0.025034767,1.009590296
0.048493664,-0.985016286,0.153953269,0.993958693
0.048720272,-0.949611545,0.275251806,0.977525643
0.048946876,-0.901295424,0.387059122,0.962148205
0.049173484,-0.844092488,0.488496065,0.951120534
0.049400088,-0.783630669,0.584077597,0.955223665
0.049626696,-0.710404515,0.681281567,0.968819148
0.0498533,-0.621423244,0.767721891,0.97556375
0.050079904,-0.522682548,0.842498302,0.983000435
0.050306512,-0.414789498,0.905974388,0.992839919
0.050533116,-0.297882646,0.956767499,1.004138118
0.050759724,-0.172875091,0.992677093,1.015293608
0.050986328,-0.041756224,1.01136804,1.024608895
0.051212936,0.092427306,1.01097929,1.030621932
0.05143954,0.225864977,0.990626335,1.032355523
0.051666148,0.354480743,0.95069015,1.029468358
0.051892752,0.47448957,0.892836392,1.022297175
0.05211936,0.582857549,0.819812953,1.0118162
0.052345964,0.677624345,0.735276341,0.999806051
0.052572572,0.758912623,0.643996716,0.99068014
0.052799176,0.832639098,0.548004568,0.993596874
0.053025784,0.897365868,0.438698888,0.997722215
0.053252388,0.944506824,0.320943236,0.995097701
0.053478996,0.975703478,0.199975789,0.991987593
0.0537056,0.992202044,0.077101462,0.990409531
0.053932208,0.994082212,-0.046720475,0.990382247
0.054158812,0.981008768,-0.17019175,0.991343435
0.05438542,0.952660084,-0.29157564,0.992577589
0.054612024,0.909027815,-0.408770055,0.993424526
0.054838628,0.85061723,-0.519489288,0.993418792
0.055065236,0.778523922,-0.621506989,0.992370435
0.05529184,0.694400072,-0.71288687,0.990399149
0.055518448,0.600389183,-0.792173803,0.988006505
0.055745052,0.499163359,-0.858715773,0.986556838
0.05597166,0.393543035,-0.914072156,0.990404027
0.056198264,0.280925959,-0.962061346,1.004481428
0.056424872,0.156549051,-0.995793641,1.016112581
0.056651476,0.027426234,-1.01015866,1.021172717
0.056878084,-0.10219308,-1.00660586,1.023698783
0.057104688,-0.230205253,-0.98579663,1.024789454
0.057331296,-0.354363739,-0.947967827,1.024216661
0.0575579,-0.472100228,-0.893658221,1.021503641
0.057784508,-0.580768883,-0.824036062,1.016327927
0.058011112,-0.677979887,-0.740975916,1.008702035
0.05823772,-0.761915147,-0.646938741,0.999044426
0.058464324,-0.831533015,-0.544706285,0.988152092
0.058690932,-0.88662082,-0.437078416,0.97713402
0.058917536,-0.927758098,-0.32665202,0.967436631
0.059144144,-0.956514299,-0.215676144,0.961435803
0.059370748,-0.976255298,-0.104721703,0.964041042
0.059597356,-0.988183498,0.011197646,0.976632013
0.05982396,-0.9850927,0.132816538,0.98804786
0.060050564,-0.965449095,0.254337519,0.996779529
0.060277172,-0.930512965,0.373472184,1.00533585
0.060503776,-0.880353451,0.488751084,1.013899821
0.060730384,-0.814770043,0.598076165,1.021545322
0.060956988,-0.734048188,0.698754549,1.027084662
0.061183596,-0.639340401,0.787861884,1.029482497
0.0614102,-0.53276819,0.862704694,1.028101333
0.061636808,-0.417279124,0.921261013,1.022843721
0.061863412,-0.296312958,0.962491453,1.014191166
0.06209002,-0.173390791,0.986474097,1.00319551
0.062316624,-0.051729623,0.99443996,0.991586788
0.062543232,0.066328757,0.988974631,0.982470325
0.062769836,0.181384385,0.973646343,0.980887496
0.062996444,0.297285795,0.947182059,0.985532697
0.063223048,0.410965115,0.904911757,0.987757614
0.063449656,0.517915905,0.848531842,0.988243172
0.06367626,0.617116272,0.780175626,0.989506501
0.063902868,0.707954764,0.700657964,0.99212153
0.064129472,0.789321363,0.610435724,0.995659987
0.06435608,0.85967499,0.510191798,0.999336759
0.064582684,0.917296886,0.401116252,1.002327825
0.064809288,0.960597813,0.284993589,1.003969504
0.065035896,0.988409758,0.164127007,1.003891524
0.0652625,1.00020254,0.041146569,1.002098161
0.065489108,0.996221244,-0.081245475,0.999057594
0.065715712,0.977624774,-0.200595945,0.995988932
0.06594232,0.946639061,-0.315506101,0.995669612
0.066168924,0.904987633,-0.427469283,1.001732604
0.066395532,0.8491503,-0.53765887,1.010133292
0.066622136,0.776865244,-0.640601635,1.013890062
0.066848744,0.691205561,-0.732390523,1.014161006
0.067075348,0.594816804,-0.811890483,1.012973187
0.067301952,0.489498079,-0.878256738,1.010943267
0.06752856,0.376985759,-0.93055135,1.008044077
0.067755168,0.259245902,-0.967936754,1.004109997
0.067981776,0.138487384,-0.989898741,0.999078273
0.068208376,0.01703514,-0.996397674,0.993098521
0.068434984,-0.102859795,-0.987920046,0.986566155
0.068661592,-0.219203621,-0.965442359,0.980129176
0.0688882,-0.330409348,-0.930362701,0.974745093
0.0691148,-0.435528755,-0.884489179,0.972006404
0.069341408,-0.535016239,-0.829789102,0.97479233
0.069568016,-0.631287575,-0.765959561,0.985218051
0.069794616,-0.723485351,-0.688710749,0.997753549
0.070021224,-0.806220233,-0.597579181,1.007091942
0.070247832,-0.876739562,-0.495368958,1.014062664
0.07047444,-0.933857143,-0.384103358,1.019624553
0.07070104,-0.976289093,-0.265484601,1.023622466
0.070927648,-1.00270092,-0.141581744,1.025454525
0.071154256,-1.01208425,-0.014989368,1.02453921
0.071380864,-1.0040853,0.111312956,1.020577864
0.071607464,-0.979185939,0.234261647,1.013683622
0.071834072,-0.938712478,0.351063192,1.004426481
0.07206068,-0.884690583,0.459508747,0.993825716
0.072287288,-0.819626451,0.558223009,0.983400447
0.072513888,-0.746243715,0.646991014,0.975477054
0.072740496,-0.666597068,0.727371573,0.973421056
0.072967104,-0.57947582,0.801587224,0.978334304
0.073193712,-0.482006073,0.867409527,0.984729142
0.073420312,-0.375755996,0.921034992,0.989498025
0.07364692,-0.263366014,0.961537719,0.993916442
0.073873528,-0.146314323,0.988642275,0.998821429
0.074100136,-0.025822712,1.00166035,1.003990269
0.074326736,0.096522175,0.999686658,1.008689944
0.074553344,0.218611866,0.981987536,1.012090669
0.074779952,0.337919682,0.948323846,1.013507828
0.075006552,0.451751143,0.899164319,1.012575568
0.07523316,0.557559788,0.835743129,1.009339495
0.075459768,0.653266907,0.759986222,1.004336709
0.075686376,0.737576783,0.674335241,0.998747528
0.075912976,0.810415089,0.581361532,0.994753847
0.076139584,0.873228252,0.482448757,0.995284383
0.076366192,0.926558673,0.376006633,0.999891963
0.0765928,0.966866732,0.261426061,1.003174863
0.0768194,0.991606355,0.142121479,1.003481678
0.077046008,1.00099468,0.021202214,1.002439883
0.077272616,0.995618105,-0.099456623,1.001147031
0.077499224,0.975806415,-0.218313545,0.999858963
0.077725824,0.941830516,-0.333748102,0.998432516
0.077952432,0.894141376,-0.444008976,0.996632771
0.07817904,0.833517313,-0.547311306,0.994300777
0.078405648,0.761116266,-0.641990483,0.991449751
0.078632248,0.678446889,-0.726661861,0.988327641
0.078858856,0.587284505,-0.80037272,0.985499581
0.079085464,0.489523202,-0.862797856,0.984053106
0.079312072,0.386721045,-0.914538324,0.985933513
0.079538672,0.278759539,-0.956784487,0.993143435
0.07976528,0.163648233,-0.98830694,1.003531352
0.079991888,0.042298075,-1.00497639,1.011766672
0.080218488,-0.081391856,-1.00497496,1.016599304
0.080445096,-0.204318509,-0.988602579,1.019081112
0.080671704,-0.324198335,-0.956385493,1.019777772
0.080898312,-0.438854843,-0.908896625,1.018686648
0.081124912,-0.546071589,-0.847024918,1.015645392
0.08135152,-0.643736064,-0.772143424,1.010601587
0.081578128,-0.730067194,-0.686118186,1.003756273
0.081804736,-0.803817511,-0.591180146,0.995616556
0.082031336,-0.86439842,-0.489715666,0.987006062
0.082257944,-0.911934555,-0.384032726,0.979105767
0.082484552,-0.947311997,-0.276065081,0.973611949
0.08271116,-0.972152412,-0.166741937,0.972883186
0.08293776,-0.987656832,-0.054939821,0.978484402
0.083164368,-0.991869926,0.061008912,0.987528037
0.083390976,-0.981581151,0.179280668,0.995643114
0.083617584,-0.956155598,0.296602786,1.00220674
0.083844184,-0.916081309,0.410745263,1.007916636
0.084070792,-0.861715198,0.519897461,1.012846452
0.0842974,-0.793448091,0.622066617,1.016526749
0.084524008,-0.712069333,0.715047121,1.01833512
0.084750608,-0.618974447,0.796647131,1.017776017
0.084977216,-0.516188085,0.864989638,1.014657213
0.085203824,-0.406221986,0.918785691,1.009183448
0.085430424,-0.29182291,0.957525551,1.002015792
0.085657032,-0.175648853,0.981575072,0.994342142
0.08588364,-0.059817996,0.99220264,0.988044271
0.086110248,0.054889426,0.991251945,0.985593268
0.086336848,0.169520184,0.979405999,0.987973204
0.086563456,0.284263134,0.954548836,0.99196901
0.086790064,0.396213412,0.915141881,0.99446973
0.087016672,0.502539337,0.862111986,0.995782862
0.087243272,0.601721585,0.79678905,0.996941656
0.08746988,0.692626119,0.720119298,0.998302744
0.087696488,0.774003148,0.632930696,0.999682139
0.087923096,0.844460785,0.536246479,1.000674304
0.088149696,0.902622223,0.431451946,1.000877659
0.088376304,0.947333813,0.320322722,1.000047999
0.088602912,0.977854609,0.204938427,0.998199395
0.08882952,0.994002938,0.08751215,0.995700217
0.08905612,0.996251345,-0.029867975,0.993408838
0.089282728,0.985719562,-0.145685598,0.992867348
0.089509336,0.963591218,-0.259698421,0.995951305
0.089735936,0.929297149,-0.372593045,1.002418768
0.089962544,0.880471349,-0.482913226,1.00843498
0.090189152,0.81672287,-0.586863458,1.011444965
0.09041576,0.739839911,-0.681594551,1.011934226
0.09064236,0.6517784,-0.765539944,1.010866489
0.090868968,0.554251552,-0.837559581,1.008700835
0.091095576,0.448968828,-0.896649122,1.005552656
0.091322184,0.337793201,-0.9419927,1.001454493
0.091548784,0.222744256,-0.973091841,0.996522735
0.091775392,0.10590183,-0.989862382,0.991042733
0.092002,-0.010742489,-0.99267447,0.985518004
0.092228608,-0.125447661,-0.982335091,0.980719347
0.092455208,-0.236933544,-0.960035086,0.977804871
0.092681816,-0.344741523,-0.927140713,0.978436619
0.092908424,-0.449566692,-0.88430357,0.984103014
0.093135032,-0.551976264,-0.830013156,0.993599635
