Unnamed: 0,Frequency (GHz),Re( S21 ),Im( S21 ),S2
0,0.0,0.0377520137,0.0,0.0014252145384049
1,0.000226459625,0.0337227806,-0.0163557082,0.0014047351221192
2,0.00045291925,0.0229393505,-0.028701134,0.0013499688942478
3,0.000679378875,0.00851546135,-0.0347036868,0.0012768589595158
4,0.0009058385,-0.00620933156,-0.0341176987,0.0012025731630059
5,0.00113229813,-0.0187432393,-0.0280845612,0.0011400515972536
6,0.00135875775,-0.027642386,-0.0182476789,0.0010970792890105
7,0.00158521738,-0.0322349295,-0.00622708723,0.0010778672952399
8,0.001811677,-0.0322807096,0.00653725443,0.001084779907762
9,0.00203813662,-0.02773045,0.0186887737,0.0011182481196123
10,0.00226459625,-0.0187370833,0.0287373979,0.001176916328654
11,0.002491056,-0.00590616232,0.0349624269,0.001257254048088
12,0.0027175155,0.00932004303,0.0355564393,0.0013511235777756
13,0.00294397525,0.0243115574,0.0291963387,0.0014434780166986
14,0.00317043475,0.0354259089,0.0160553548,0.0015127694391449
15,0.0033968945,0.0391684249,-0.000991793233,0.0015351491629639
16,0.003623354,0.0344650969,-0.0181506183,0.0015172878489986
17,0.00384981375,0.0226903483,-0.0306204166,0.0014524618187328
18,0.00407627325,0.00745298015,-0.0362040214,0.0013662780786479
19,0.004302733,-0.0076863612,-0.0349403322,0.0012799069627432
20,0.0045291925,-0.0202580132,-0.028250318,0.0012084675659124
21,0.004755652,-0.0289657991,-0.0179311335,0.0011605430660963
22,0.004982112,-0.0333035439,-0.00563381938,0.0011408659571056
23,0.0052085715,-0.0331806131,0.00727392174,0.0011538630231715
24,0.005435031,-0.0285779964,0.0196136348,0.0012013965483061
25,0.0056614905,-0.019539725,0.0300322603,0.0012837375118025
26,0.0058879505,-0.00644711917,0.0368716009,0.001401080298521
27,0.00611441,0.00958972983,0.038175527,0.0015493337799401
28,0.0063408695,0.0261917189,0.0320729949,0.001714683140792
29,0.006567329,0.038181413,0.018108001,0.0017857199988925
30,0.006793789,0.0438527726,-0.001248491,0.0019246243944843
31,0.0070202485,0.0387202092,-0.0211913772,0.0019483290681244
32,0.007246708,0.0246774852,-0.0356994756,0.0018834308339112
33,0.0074731675,0.0064762882,-0.0415074676,0.0017648121754145
34,0.0076996275,-0.0110241091,-0.0388582423,0.0016314939760942
35,0.007926087,-0.0247342847,-0.0300124474,0.0015125318385584
36,0.0081525465,-0.0333962776,-0.0175567064,0.001423549297152
37,0.008379006,-0.036849495,-0.00361419329,0.0013709476748925
38,0.008605466,-0.035377562,0.0102182152,0.0013559838149373
39,0.008831925,-0.0295699239,0.0227056984,0.0013899291392835
40,0.009058385,-0.0196411125,0.0329803787,0.001473478679433
41,0.009284845,-0.00603573257,0.0396366902,0.0016074972776673
42,0.009511304,0.0102590593,0.0411398187,0.0017977329803897
43,0.009737764,0.0272112284,0.0353478119,0.0019899187571547
44,0.009964224,0.0422843434,0.021568859,0.002253181375331
45,0.010190683,0.0502751395,0.000691596477,0.0025280679574314
46,0.010417143,0.0469076261,-0.0231038071,0.0027341112888514
47,0.010643602,0.0315004289,-0.0427128822,0.002816667326715
48,0.010870062,0.00853770785,-0.0519000217,0.0027665047077924
49,0.011096522,-0.0148716457,-0.0490170978,0.002623841722561
50,0.011322981,-0.0331046581,-0.0367732793,0.0024481924583937
51,0.011549441,-0.0436987914,-0.0194318295,0.0022871803675377
52,0.011775901,-0.0465534069,-0.00068900577,0.002167694422948
53,0.01200236,-0.0426183604,0.0168862659,0.0021014706192297
54,0.01222882,-0.0330923609,0.0315831751,0.0020926012993331
55,0.012455279,-0.0192394145,0.0420658849,0.0021396937427228
56,0.012681739,-0.00224694936,0.0476014949,0.0022709510981411
57,0.012908199,0.0166287459,0.0468146913,0.002468130511721
58,0.013134658,0.0350206941,0.0385998972,0.0027164010790963
59,0.013361118,0.0504709147,0.0225788523,0.0030571178018398
60,0.013587578,0.0588073619,-0.000433736364,0.003458493940871
61,0.013814037,0.056016352,-0.0270731952,0.0038707895897252
62,0.014040497,0.0401385948,-0.0511686727,0.0042293398583983
63,0.014266956,0.0134881176,-0.065497838,0.0044718960990656
64,0.014493416,-0.0172462743,-0.0653709918,0.0045708005461465
65,0.014719876,-0.0440172739,-0.0511041172,0.0045491511963789
66,0.014946335,-0.0610427335,-0.0271668453,0.0044642527967061
67,0.015172795,-0.0661645681,0.000615894736,0.0043781293981853
68,0.015399255,-0.0599952787,0.0272021014,0.0043393877868665
69,0.015625714,-0.0445249341,0.0489735268,0.0043808760838396
70,0.015852174,-0.0222278163,0.0634867549,0.0045246438651992
71,0.016078633,0.00421526469,0.0690724328,0.0047887694293172
72,0.016305093,0.0319135003,0.0646154657,0.0051936299090259
73,0.016531553,0.0574618317,0.0494338088,0.005745563554794
74,0.016758012,0.0766293928,0.0239202548,0.0064442424305936
75,0.016984472,0.0847352669,-0.00963730365,0.0072729430782565
76,0.017210932,0.0776879191,-0.0463649929,0.0081851253407051
77,0.017437392,0.0538059287,-0.078823328,0.009108195000265
78,0.01766385,0.0156810768,-0.0985632539,0.0099606111889633
79,0.01789031,-0.0293825679,-0.0991052389,0.0106851836738241
80,0.01811677,-0.0713216886,-0.0787202641,0.0112836632447291
81,0.01834323,-0.100712702,-0.0410759971,0.0118302858819
82,0.01856969,-0.111440852,0.00647669332,0.0124610110508472
83,0.018796148,-0.101408757,0.0554200001,0.013355112407369
84,0.019022608,-0.0717849731,0.097848013,0.0147273160110158
85,0.019249068,-0.0259423181,0.127135128,0.0168363446399779
86,0.019475528,0.0312003922,0.137961596,0.020006866444301
87,0.019701988,0.093351163,0.126261309,0.024656357783846
88,0.019928448,0.152639434,0.0894037187,0.031291821729229
89,0.020154906,0.199363023,0.027157288,0.0404831332312134
90,0.020381366,0.222697288,-0.0567982234,0.0528201202639512
91,0.020607826,0.212575033,-0.153666779,0.0688016236231859
92,0.020834286,0.162620395,-0.249512613,0.0887019369160437
93,0.021060746,0.0731559694,-0.327318877,0.1124894430993948
94,0.021287204,-0.0474465005,-0.370973468,0.1398724843696435
95,0.021513664,-0.184249386,-0.369502693,0.1704800763756292
96,0.021740124,-0.31946671,-0.319427848,0.2040931288761352
97,0.021966584,-0.436383426,-0.22439833,0.2407851049942864
98,0.022193044,-0.521806657,-0.0935180262,0.2810278085138595
99,0.022419502,-0.568205416,0.0628776625,0.3268109952131969
100,0.022645962,-0.568988979,0.23388049,0.3784485418261025
101,0.022872422,-0.520624995,0.407301277,0.4369447156645808
102,0.023098882,-0.421816498,0.570263803,0.5031299629970067
103,0.023325342,-0.273914933,0.708714306,0.577305358049456
104,0.023551802,-0.0821033046,0.8074947,0.6587886431543304
105,0.02377826,0.143068731,0.851505995,0.7455311213108904
106,0.02400472,0.384649277,0.828250229,0.8339535081351752
107,0.02423118,0.619891047,0.731399536,0.9192101914117714
108,0.02445764,0.823308706,0.564078569,0.996021857380482
109,0.0246841,0.971774995,0.339977473,1.0599313230547156
110,0.024910558,1.04972792,0.0811035186,1.108506486756827
111,0.025137018,1.05209899,-0.187150046,1.141937424476822
112,0.025363478,0.983769,-0.441329241,1.162572944322636
113,0.025589938,0.856357574,-0.663457513,1.173524166103311
114,0.025816398,0.684322238,-0.841825068,1.1769663705345332
115,0.026042856,0.481414348,-0.970228612,1.1731033340037116
116,0.026269316,0.260119408,-1.04758573,1.1650979681179034
117,0.026495776,0.0325114727,-1.07479239,1.1562356774590352
118,0.026722236,-0.190864295,-1.05355573,1.14640885532168
119,0.026948696,-0.400463343,-0.9869169,1.1343758565923456
120,0.027175156,-0.587320149,-0.879588604,1.118621069708051
121,0.027401614,-0.743374705,-0.738371551,1.0977984993599827
122,0.027628074,-0.862399578,-0.57226789,1.0712235700596302
123,0.027854534,-0.94113785,-0.391874909,1.039306397006381
124,0.028080994,-0.980032325,-0.20797132,1.003715427987448
125,0.028307454,-0.983010054,-0.0296567399,0.9671882884865792
126,0.028533912,-0.957147062,0.137528956,0.9350447120336818
127,0.028760372,-0.909962773,0.288564533,0.9113017379513576
128,0.028986832,-0.846476018,0.424047589,0.8963380067858493
129,0.029213292,-0.771791995,0.544176698,0.8917911621922632
130,0.029439752,-0.682602644,0.649053991,0.8872174528288189
131,0.02966621,-0.579539418,0.746422231,0.8930120839467961
132,0.02989267,-0.464104891,0.834120691,0.9111506770044394
133,0.03011913,-0.33424896,0.909072638,0.9381354284213608
134,0.03034559,-0.188950211,0.967024207,0.9708379991609234
135,0.03057205,-0.0292566624,1.00246108,1.005784169209554
136,0.03079851,0.141039342,1.00959206,1.0391682236068365
137,0.031024968,0.315299004,0.983791709,1.0672595886205327
138,0.031251428,0.484768778,0.923029125,1.086983533721879
139,0.031477888,0.640039802,0.828706384,1.0964052190265543
140,0.031704348,0.772635639,0.705523968,1.0947299000754032
141,0.031930808,0.876031578,0.56106317,1.082223206383619
142,0.032157266,0.961286843,0.402368248,1.085972601523496
143,0.032383726,1.00985968,0.240115598,1.0774720736925998
144,0.032610186,1.03607357,0.0865055174,1.080931646993187
145,0.032836646,1.01521969,-0.0647761002,1.0348669621208162
146,0.033063106,0.981895804,-0.216835886,1.0111371713702113
147,0.033289564,0.93080014,-0.358336866,0.9947942101587216
148,0.033516024,0.862653732,-0.488648385,0.982948705496636
149,0.033742484,0.778802037,-0.606786847,0.9747228905275508
150,0.033968944,0.680569112,-0.71145314,0.9693398866243282
151,0.034195404,0.569443583,-0.801065207,0.9659714600858308
152,0.034421864,0.447312206,-0.873929262,0.9638405646164512
153,0.034648324,0.31655407,-0.928511441,0.9623399753014616
154,0.034874784,0.179964826,-0.963688195,0.9610822757795684
155,0.03510124,0.0406192429,-0.978878856,0.959853737617638
156,0.0353277,-0.0982777253,-0.97420764,0.958739037124512
157,0.03555416,-0.249444708,-0.960319459,0.984436125683258
158,0.03578062,-0.388286382,-0.923287034,1.003225261599167
159,0.03600708,-0.469400585,-0.900848627,1.031865157966127
160,0.03623354,-0.615644217,-0.797810912,1.015520053231815
161,0.03646,-0.729040682,-0.702458858,1.024948763193689
162,0.03668646,-0.828698158,-0.592005372,1.0372109975494517
163,0.03691292,-0.912090778,-0.46626693,1.0493144373242704
164,0.03713938,-0.975779295,-0.327040136,1.0591004831055957
165,0.03736584,-1.01640356,-0.177673042,1.0646439066342075
166,0.037592296,-1.03145289,-0.022930745,1.064420883355607
167,0.037818756,-1.01995885,0.131444305,1.0575936610102556
168,0.038045216,-0.982901752,0.279500544,1.0442164081809655
169,0.038271676,-0.923159659,0.415969789,1.0252546213657008
170,0.038498136,-0.845018923,0.536989331,1.0024145218359075
171,0.038724596,-0.75342381,0.640482724,0.9778655572173762
172,0.038951056,-0.65313381,0.725877464,0.9534818665081872
173,0.039177516,-0.549641132,0.792163134,0.9296278048549436
174,0.039403976,-0.459785938,0.859440625,0.9500412966829304
175,0.039630436,-0.33571583,0.916666329,0.9529822772349252
176,0.039856896,-0.213071868,0.953028977,0.953663851934676
177,0.040083352,-0.0878133774,0.976278722,0.960831332280348
178,0.040309812,0.0412618704,0.985600293,0.9731104795105922
179,0.040536272,0.173756033,0.97897172,0.9885767875636556
180,0.040762732,0.307844609,0.954064369,1.005007123485731
181,0.040989192,0.440315962,0.908973277,1.020110564692104
182,0.041215652,0.566885412,0.842894733,1.0318306012575509
183,0.041442112,0.682801664,0.75658673,1.0386415923732617
184,0.041668572,0.783604026,0.652471542,1.0397543826832665
185,0.041895032,0.865811646,0.534368455,1.0351794520483164
186,0.042121492,0.927345812,0.40697372,1.0255978638045775
187,0.042347948,0.967526317,0.275564641,1.0120430454570433
188,0.042574408,0.988383234,0.147953942,0.9987917862056382
189,0.042800868,1.00804198,0.0188695882,1.016504694801158
190,0.043027328,0.999512613,-0.122522771,1.0140372929596064
191,0.043253788,0.969851375,-0.255042702,1.0056584694328514
192,0.043480248,0.924382329,-0.379942834,0.9988392472754156
193,0.043706708,0.86429292,-0.496874005,0.9938860284068664
194,0.043933168,0.790388823,-0.604712129,0.990391250483038
195,0.044159628,0.703583539,-0.701964736,0.9877842869393144
196,0.044386088,0.605117738,-0.786978066,0.985501953207337
197,0.044612548,0.496664941,-0.858160734,0.9831159089979524
198,0.044839004,0.380309701,-0.914205194,0.980406605411287
199,0.045065464,0.258425474,-0.954259038,0.97739403721681
200,0.045291924,0.133510575,-0.97799921,0.9743075283974548
201,0.045518384,0.00810292643,-0.985622227,0.9715168317731696
202,0.045744844,-0.114918515,-0.978078485,0.9698437879097006
203,0.045971304,-0.232674643,-0.960433304,0.976569620927534
204,0.046197764,-0.358630866,-0.935551703,1.0038730870341102
205,0.046424224,-0.484659523,-0.88413626,1.0165917794813752
206,0.046650684,-0.600655019,-0.814646482,1.024435342484867
207,0.046877144,-0.706459701,-0.729624271,1.0314368859692908
208,0.047103604,-0.800182939,-0.629888415,1.03705215121789
209,0.04733006,-0.879197359,-0.516865671,1.040138117930855
210,0.04755652,-0.940870941,-0.392951012,1.0396486254500497
211,0.04778298,-0.983134449,-0.261482358,1.034926368355774
212,0.04800944,-1.00493383,-0.126447931,1.0258810819326496
213,0.0482359,-1.00647259,0.0079995757,1.013051067632688
214,0.04846236,-0.989179492,0.138079777,0.9975420922097478
215,0.04868882,-0.955426753,0.260802537,0.9808582436537594
216,0.04891528,-0.908197999,0.374112815,0.964784003734828
217,0.04914174,-0.851330042,0.476862937,0.9521611010959876
218,0.0493682,-0.790850878,0.57207346,0.9527131548697424
219,0.049594656,-0.720044315,0.669490337,0.9666811269001928
220,0.049821116,-0.632347107,0.757199049,0.9732132635377736
221,0.050047576,-0.5348019,0.832896233,0.9797292071892004
222,0.050274036,-0.428365201,0.897405684,0.9888337071032782
223,0.050500496,-0.313073844,0.949633539,0.999819090190601
224,0.050726956,-0.189621702,0.987529933,1.0111717584403614
225,0.050953416,-0.0597266927,1.00878036,1.02120509254261
226,0.051179876,0.0738274977,1.01140237,1.0283852534582607
227,0.051406336,0.207417041,0.994268656,1.0315919892012422
228,0.051632796,0.33702299,0.957447171,1.0302895810444432
229,0.051859256,0.458770573,0.902290285,1.0245981970561295
230,0.052085712,0.569412649,0.831290424,1.0152745338752969
231,0.052312172,0.66667515,0.747909486,1.0038243548763066
232,0.052538632,0.750035822,0.656784236,0.9939192669413194
233,0.052765092,0.824504972,0.561393142,0.9949707087373528
234,0.052991552,0.891445518,0.453375697,1.0002246341925245
235,0.053218012,0.940717995,0.335522622,0.9975257759905748
236,0.053444472,0.973399162,0.214315087,0.9934368850981198
237,0.053670932,0.991126776,0.0913673565,0.9906802799379524
238,0.053897392,0.994229615,-0.0323542021,0.9895393217365758
239,0.054123852,0.982534289,-0.155636072,0.9895962159683246
240,0.054350312,0.955806732,-0.276882976,0.9902306913351364
241,0.054576768,0.914038956,-0.394153982,0.990824574612026
242,0.054803228,0.857653141,-0.505304396,0.9909014428840908
243,0.055029688,0.787600338,-0.608190894,0.9902104559622334
244,0.055256148,0.705357969,-0.700884342,0.988768725292578
245,0.055482608,0.612890184,-0.781851053,0.9869254467207628
246,0.055709068,0.512693644,-0.850222111,0.985732410631295
247,0.055935528,0.407698929,-0.906955838,0.9887873087900292
248,0.056161988,0.296749383,-0.956189692,1.0023589233979355
249,0.056388448,0.173562139,-0.99285692,1.0158886796861415
250,0.056614908,0.0443844236,-1.00994015,1.0219490836403269
251,0.056841364,-0.0856481418,-1.00872648,1.0248647156469832
252,0.057067824,-0.214307696,-0.990077078,1.0261804089458466
253,0.057294284,-0.339366645,-0.954269946,1.025800849577399
254,0.057520744,-0.458273292,-0.901812673,1.0232805073439222
255,0.057747204,-0.568368316,-0.833809912,1.0182815119821236
256,0.057973664,-0.667211175,-0.752068639,1.010777989812193
257,0.058200124,-0.752895892,-0.659000754,1.0011342179630442
258,0.058426584,-0.824270725,-0.557376802,0.9900911274997728
259,0.058653044,-0.881012797,-0.450025558,0.9787065513309746
260,0.058879504,-0.923591256,-0.339597434,0.968347225339042
261,0.059105964,-0.953386426,-0.228439406,0.9611302394946863
262,0.05933242,-0.973496258,-0.117698081,0.961547802611085
263,0.05955888,-0.98641938,-0.00318671693,0.9730333484043764
264,0.05978534,-0.98547411,0.117766872,0.9850282576209564
265,0.0600118,-0.967774093,0.239208817,0.993807553212512
266,0.06023826,-0.934784532,0.358376741,1.00225600975624
267,0.06046472,-0.886757135,0.473916173,1.0109347555043742
268,0.06069118,-0.823460698,0.58391124,1.019039857348985
269,0.06091764,-0.745029807,0.685800254,1.0253914017049215
270,0.0611441,-0.65240109,0.776696622,1.028884824859399
271,0.06137056,-0.547470272,0.853833616,1.0287555425353894
272,0.06159702,-0.433005065,0.915010571,1.0247377313574004
273,0.061823476,-0.312358737,0.958940625,1.0171351028556257
274,0.062049936,-0.189075127,0.985427976,1.0068176995335227
275,0.062276396,-0.0665033832,0.995430887,0.9953053507706529
276,0.062502856,0.0526909456,0.991239846,0.985332768046326
277,0.062729316,0.168247283,0.976503849,0.9818669153486967
278,0.062955776,0.284066021,0.951399565,0.9858546365689616
279,0.063182236,0.398495376,0.910677433,0.9881319516688508
280,0.063408696,0.506273925,0.855323076,0.9878908514730076
281,0.063635156,0.606063128,0.787903845,0.9881049840869284
282,0.063861616,0.697397232,0.709492862,0.9897430204302128
283,0.064088072,0.779373944,0.620607615,0.9925775563821032
284,0.064314532,0.850636065,0.521868467,0.9959284119276144
285,0.064540992,0.909585416,0.414315075,0.9990026103721488
286,0.064767452,0.954662383,0.299536347,1.001102288689343
287,0.064993912,0.984628677,0.179645106,1.0017659956805216
288,0.065220372,0.998797417,0.0571278371,1.000859869977596
289,0.065446832,0.997192383,-0.0653737485,0.99866637570616
290,0.065673292,0.980700612,-0.18534556,0.9961266669888882
291,0.065899752,0.951289177,-0.301043242,0.995578131831208
292,0.066126212,0.91111058,-0.413301915,1.0009409619306036
293,0.066352672,0.857575357,-0.524138927,1.0101571077303886
294,0.066579128,0.787203252,-0.62876761,1.0150376673444876
295,0.066805588,0.70272857,-0.722374558,1.0156524451399405
296,0.067032048,0.607157886,-0.803569257,1.0143642493275211
297,0.067258512,0.502463818,-0.871545732,1.012061851366553
298,0.067484968,0.390433908,-0.925420702,1.0088421122063254
299,0.067711424,0.273036242,-0.964390934,1.0045986630268748
300,0.067937888,0.152461261,-0.987949967,0.9992895734010112
301,0.068164344,0.0310123581,-0.996039689,0.9930568284181392
302,0.068390808,-0.089068681,-0.989109635,0.986271099984913
303,0.068617264,-0.205778152,-0.968085408,0.9795340050230614
304,0.068843728,-0.317490876,-0.934301078,0.9737189606952092
305,0.069070184,-0.423141092,-0.889480472,0.9702238938082952
306,0.069296648,-0.522838891,-0.835639298,0.9716535423040428
307,0.069523104,-0.618835211,-0.773260117,0.9808882269162682
308,0.069749568,-0.711537302,-0.698314428,0.9939283724904064
309,0.069976024,-0.795666516,-0.609114885,1.0041061478121416
310,0.07020248,-0.8678146,-0.508410871,1.0115837937241388
311,0.070428944,-0.926742673,-0.398421824,1.017591931798672
312,0.0706554,-0.971232414,-0.280831724,1.0221588592090796
313,0.070881864,-0.999940872,-0.157601476,1.024719972733499
314,0.07110832,-1.0117712,-0.0312160328,1.0246554018532108
315,0.071334784,-1.00621557,0.0954084322,1.0215725422452868
316,0.07156124,-0.98357439,0.219197482,1.0154661167790124
317,0.071787704,-0.945002913,0.337263614,1.006777250906827
318,0.07201416,-0.892398357,0.447234988,0.9963939620676596
319,0.072240624,-0.828203261,0.54751581,0.98569420373099
320,0.07246708,-0.755163491,0.637584209,0.9767855217054628
321,0.072693536,-0.675687671,0.718589306,0.972924419438966
322,0.07292,-0.589462757,0.793025434,0.9763556808609294
323,0.073146456,-0.493301302,0.859770775,0.9825519600989958
324,0.07337292,-0.387965798,0.914647698,0.987097871874476
325,0.073599376,-0.276360899,0.95634973,0.9909801525671612
326,0.07382584,-0.160155371,0.984750271,0.9953828390947213
327,0.074052296,-0.040511705,0.999337614,1.00031686499722
328,0.07427876,0.0811487362,0.999285102,1.0051558324660077
329,0.074505216,0.202907294,0.983822286,1.0090776603886682
330,0.07473168,0.322391033,0.952577889,1.0113406127705034
331,0.074958136,0.436980397,0.905816436,1.0114552830900196
332,0.075184592,0.544103861,0.844547033,1.0093087025042105
333,0.075411056,0.641548812,0.770490289,1.005240163621915
