Frequency (GHz),Re( S21 ),Im( S21 ),S2
0,0.03843075,0,0.001476923
0.000226587,0.034327563,-0.01666069,0.00145596
0.000453175,0.023340697,-0.029241277,0.00139984
0.000679762,0.008634697,-0.035360009,0.001324888
0.000906349,-0.006387742,-0.034754604,0.001248686
0.001132937,-0.019176971,-0.028579835,0.001184563
0.001359524,-0.028246999,-0.0185115,0.001140569
0.001586111,-0.032901935,-0.006209568,0.001121096
0.001812698,-0.032890067,0.006842725,0.001128579
0.002039286,-0.028162912,0.019242656,0.001163429
0.002265873,-0.018890191,0.029450813,0.00122419
0.00249246,-0.005717321,0.035698455,0.001307067
0.002719048,0.009844232,0.036146116,0.001403451
0.002945635,0.025071412,0.029480066,0.00149765
0.003172222,0.036237318,0.015944354,0.001567366
0.00339881,0.039843734,-0.001458896,0.001589652
0.003625397,0.034836553,-0.01886267,0.001569386
0.003851984,0.022709584,-0.031401336,0.001501769
0.004078571,0.007148087,-0.036902338,0.001412878
0.004305159,-0.008241097,-0.035445638,0.001324309
0.004531746,-0.020966161,-0.028492333,0.001251393
0.004758333,-0.029721273,-0.017875485,0.001202887
0.004984921,-0.033997372,-0.005278329,0.001183682
0.005211508,-0.033703011,0.007902483,0.001198342
0.005438095,-0.028817272,0.02044829,0.001248568
0.005664683,-0.019402195,0.030955276,0.001334674
0.00589127,-0.005882213,0.037709903,0.001456637
0.006117857,0.010546618,0.038709965,0.001609693
0.006344445,0.027367044,0.032087814,0.001778583
0.006571032,0.039268743,0.017547339,0.001849943
0.006797619,0.04453256,-0.002298007,0.00198843
0.007024206,0.038792867,-0.022422615,0.00200766
0.007250794,0.02418416,-0.036772732,0.001937107
0.007477381,0.005611165,-0.042213276,0.001813446
0.007703968,-0.012046917,-0.039132878,0.00167651
0.007930556,-0.025744878,-0.029876519,0.001555405
0.008157143,-0.034269754,-0.017065235,0.001465638
0.00838373,-0.037488904,-0.002836553,0.001413464
0.008610317,-0.035702232,0.011194784,0.001399973
0.008836905,-0.029526826,0.02380093,0.001438318
0.009063492,-0.019156441,0.034058616,0.001526959
0.009290079,-0.005087392,0.040522892,0.001667986
0.009516666,0.011620366,0.041628752,0.001867986
0.009743254,0.028757004,0.035156831,0.002062968
0.009969841,0.043722943,0.020578114,0.002335154
0.010196428,0.051113155,-0.001010434,0.002613576
0.010423016,0.046761658,-0.025087895,0.002816055
0.010649603,0.03036407,-0.044356372,0.002889465
0.01087619,0.006803205,-0.052747201,0.002828551
0.011102778,-0.01669251,-0.048976123,0.002677301
0.011329365,-0.034636252,-0.036012586,0.002496576
0.011555952,-0.044749986,-0.018195747,0.002333646
0.011782539,-0.047052622,0.00079974,0.002214589
0.012009127,-0.042551015,0.018440582,0.002150644
0.012235714,-0.032471057,0.03303406,0.002145619
0.012462301,-0.018125424,0.043263748,0.002200283
0.012688889,-0.000668513,0.048357993,0.002338942
0.012915476,0.018524643,0.046933319,0.002545899
0.013142063,0.037252061,0.037908111,0.002824741
0.01336865,0.052389361,0.02085777,0.003179692
0.013595238,0.059660222,-0.002833386,0.00356737
0.013821825,0.055628639,-0.029828796,0.003984303
0.014048412,0.038365834,-0.053548846,0.004339416
0.014275,0.010690236,-0.066759594,0.004571124
0.014501587,-0.020317365,-0.065140113,0.00465603
0.014728174,-0.046589587,-0.049515862,0.00462241
0.014954762,-0.062619925,-0.02468699,0.004530702
0.015181349,-0.066569746,0.00345069,0.004443438
0.015407936,-0.059268761,0.029929528,0.004408563
0.015634523,-0.042819567,0.05123074,0.004458104
0.015861111,-0.019757945,0.064986967,0.004613682
0.016087698,0.007180056,0.06958653,0.004893838
0.016314285,0.035045877,0.063957565,0.005318784
0.016540873,0.060316224,0.047487117,0.005893073
0.01676746,0.078646347,0.020740798,0.006615429
0.016994048,0.085310519,-0.01371596,0.007466012
0.017220634,0.076342829,-0.050653104,0.008393964
0.017447222,0.050442994,-0.082330301,0.009322774
0.01767381,0.01078737,-0.100266591,0.010169757
0.017900396,-0.034774162,-0.098348238,0.010881618
0.018126984,-0.075958535,-0.075489454,0.011468357
0.018353572,-0.103535786,-0.035974871,0.01201385
0.018580158,-0.111833096,0.012486301,0.012662549
0.018806746,-0.099215478,0.061295439,0.013600842
0.019033332,-0.067212753,0.102631293,0.015050736
0.01925992,-0.019457409,0.130007386,0.017280511
0.019486508,0.038921051,0.13825126,0.020628259
0.019713094,0.101426758,0.123457365,0.025529108
0.019939682,0.159939408,0.083211556,0.032504777
0.02016627,0.204511955,0.017679073,0.042137689
0.020392856,0.224226639,-0.068863675,0.055019791
0.020619444,0.209233776,-0.166895464,0.071632869
0.020846032,0.153803095,-0.261834711,0.092212808
0.021072618,0.059265714,-0.336402804,0.116679271
0.021299206,-0.064936206,-0.374811709,0.144700528
0.021525794,-0.203119501,-0.366928875,0.175894331
0.02175238,-0.337295204,-0.310311645,0.210061372
0.021978968,-0.451013595,-0.209501192,0.247304012
0.022205556,-0.531777918,-0.074297503,0.288307873
0.022432142,-0.572430909,0.085128427,0.334923995
0.02265873,-0.566769123,0.257498711,0.387532825
0.022885316,-0.511613846,0.430582374,0.447149908
0.023111904,-0.405986816,0.591395795,0.514574281
0.023338492,-0.251646012,0.725733817,0.590015288
0.023565078,-0.054360688,0.818332613,0.67262335
0.023791666,0.174527168,0.8542009,0.76011891
0.024018254,0.417179585,0.821357131,0.848666343
0.02424484,0.650149465,0.714506447,0.93321379
0.024471428,0.84779799,0.53820622,1.008427367
0.024698016,0.987617612,0.307585984,1.069997685
0.024924602,1.05534172,0.045609381,1.115826362
0.02515119,1.04745293,-0.222156599,1.146511195
0.025377778,0.970145524,-0.47280708,1.164728873
0.025604364,0.835815191,-0.689307511,1.173731878
0.025830952,0.659132719,-0.860889852,1.175587279
0.02605754,0.453609973,-0.982170105,1.170420123
0.026284126,0.231498986,-1.05268681,1.1617413
0.026510714,0.004584649,-1.07356048,1.152553123
0.0267373,-0.216893181,-1.04663944,1.142496769
0.026963888,-0.423597693,-0.975080371,1.130216735
0.027190476,-0.606724262,-0.863726437,1.114137688
0.027417062,-0.758401096,-0.719541967,1.092912865
0.02764365,-0.872680962,-0.551684976,1.065928374
0.027870238,-0.946688831,-0.370812535,1.033721679
0.028096824,-0.981284797,-0.18758209,0.998106893
0.028323412,-0.980725408,-0.010760333,0.961938111
0.02855,-0.952415884,0.15452458,0.930973862
0.028776586,-0.903492272,0.303563327,0.908448979
0.029003174,-0.838973999,0.437382966,0.89518123
0.029229762,-0.763599992,0.55590421,0.892114438
0.029456348,-0.673012316,0.659864008,0.888366087
0.029682936,-0.56878525,0.756707251,0.896122524
0.029909524,-0.451817304,0.843648732,0.915882059
0.03013611,-0.320042491,0.917419791,0.944086269
0.030362698,-0.172637492,0.973502576,0.977510969
0.030589286,-0.010993904,1.00620532,1.012570012
0.030815872,0.160658032,1.00973904,1.045383932
0.03104246,0.335253179,0.979714811,1.072235805
0.031269046,0.50375998,0.914551795,1.090179103
0.031495634,0.656744421,0.816201568,1.097498234
0.031722222,0.785951853,0.689862788,1.093630982
0.031948808,0.885316491,0.543524206,1.079203852
0.032175396,0.967038691,0.384025484,1.082639402
0.032401984,1.01228666,0.222036719,1.074024587
0.03262857,1.03491342,0.072238185,1.076264142
0.032855158,1.01107728,-0.080504902,1.028758305
0.033081746,0.976293683,-0.23089537,1.006462027
0.033308332,0.923942804,-0.370837837,0.991191006
0.03353492,0.85479939,-0.499779046,0.980461092
0.033761508,0.770071507,-0.616723359,0.973357827
0.033988096,0.670966327,-0.72029233,0.969016853
0.03421468,0.558920622,-0.808786929,0.966528558
0.034441268,0.435842246,-0.880398214,0.965059479
0.034667856,0.304191887,-0.933516026,0.963984875
0.034894444,0.166873842,-0.966996074,0.962928286
0.035121032,0.027073683,-0.980296075,0.961713379
0.03534762,-0.111933924,-0.973639131,0.960502361
0.035574204,-0.263517112,-0.958092451,0.987382413
0.035800792,-0.402744502,-0.919276237,1.007271934
0.03602738,-0.493276358,-0.882273018,1.021727244
0.036253968,-0.627756894,-0.78910172,1.016760242
0.036480556,-0.739801645,-0.692267299,1.026540487
0.036707144,-0.837890387,-0.580190122,1.038680878
0.036933728,-0.919364572,-0.45297116,1.050414088
0.037160316,-0.98076427,-0.312569052,1.059597966
0.037386904,-1.01878488,-0.162497148,1.064327955
0.037613492,-1.03105664,-0.007664349,1.063136537
0.03784008,-1.01683164,0.146111518,1.05529516
0.038066664,-0.977343798,0.292914659,1.040999897
0.038293252,-0.915689945,0.427631319,1.02135662
0.03851984,-0.836286545,0.546639562,0.998189996
0.038746428,-0.744079173,0.648124397,0.97371905
0.038973016,-0.643743277,0.731666088,0.949740671
0.039199604,-0.541298628,0.796103477,0.926784951
0.039426188,-0.449107945,0.866156876,0.95192568
0.039652776,-0.325743943,0.920233428,0.952938678
0.039879364,-0.203096136,0.955956221,0.955100337
0.040105952,-0.077334151,0.978552282,0.963545139
0.04033254,0.052500222,0.986925364,0.976777947
0.040559128,0.185793057,0.978906214,0.992776436
0.040785712,0.320465952,0.952128232,1.009246597
0.0410123,0.453054667,0.904776871,1.023879718
0.041238888,0.57908529,0.836260557,1.034671492
0.041465476,0.693740606,0.747626424,1.040221298
0.041692064,0.792638779,0.641590357,1.03991442
0.041918648,0.87250334,0.522197247,1.033952043
0.042145236,0.931524456,0.394262522,1.023180748
0.042371824,0.969298244,0.263162822,1.008793757
0.042598412,0.989000678,0.137107268,0.996920744
0.042825,1.00750148,0.005838146,1.015093316
0.043051588,0.996464849,-0.133972466,1.010890817
0.043278172,0.965731025,-0.265301496,1.003021296
0.04350476,0.919459879,-0.389291108,0.996954036
0.043731348,0.858660221,-0.505476892,0.992804263
0.043957936,0.784039319,-0.612660706,0.990070794
0.044184524,0.696459889,-0.709262371,0.988109488
0.044411112,0.597165108,-0.793536782,0.986306791
0.044637696,0.487878203,-0.863822162,0.984213869
0.044864284,0.370762289,-0.918780327,0.981621964
0.045090872,0.248276472,-0.957574308,0.978589762
0.04531746,0.122990288,-0.979933381,0.975396042
0.045544048,-0.002491953,-0.98613888,0.9724761
0.045770632,-0.125179365,-0.977370143,0.97092227
0.04599722,-0.24294579,-0.959711552,0.98006892
0.046223808,-0.370370179,-0.932295203,1.006348415
0.046450396,-0.495281637,-0.878822803,1.017633419
0.046676984,-0.610314488,-0.807906628,1.025196894
0.046903572,-0.71507287,-0.721540093,1.031949315
0.047130156,-0.807525933,-0.62056303,1.037196607
0.047356744,-0.885010242,-0.506496668,1.039782003
0.047583332,-0.944924176,-0.381846189,1.03868821
0.04780992,-0.985292554,-0.250044942,1.03332389
0.048036508,-1.00520515,-0.115128063,1.023691864
0.048263096,-1.00502694,0.018775377,1.010431665
0.04848968,-0.986325383,0.147980601,0.994736019
0.048716268,-0.951559603,0.269638389,0.978170539
0.048942856,-0.90376395,0.381833553,0.96258614
0.049169444,-0.846953988,0.483625412,0.951224597
0.049396032,-0.786893845,0.57934624,0.954843989
0.049622616,-0.714328051,0.676874995,0.968424323
0.049849204,-0.625849783,0.763750672,0.97500304
0.050075792,-0.527613521,0.838968873,0.982244797
0.05030238,-0.420247406,0.902969182,0.991961226
0.050528968,-0.303855866,0.954415441,1.003237221
0.050755556,-0.179295465,0.991127789,1.014481158
0.05098214,-0.048490875,1.01076508,1.023997412
0.051208728,0.085572168,1.0114255,1.030304138
0.051435316,0.219122931,0.992156804,1.032389983
0.051661904,0.348092407,0.953259289,1.029871596
0.051888492,0.468666434,0.89631933,1.023036568
0.05211508,0.577750623,0.824023843,1.012811076
0.052341664,0.673301816,0.739994884,1.000927764
0.052568252,0.755313814,0.649008632,0.991711162
0.05279484,0.82962662,0.553330183,0.99445462
0.053021428,0.895123661,0.444283307,0.998634025
0.053248016,0.942953289,0.326579571,0.995815121
0.0534746,0.974733412,0.205634281,0.992390682
0.053701188,0.99177438,0.082797863,0.990471907
0.053927776,0.994206965,-0.040968336,0.990125894
0.054154364,0.981734872,-0.164386004,0.990826117
0.054380952,0.954057992,-0.285757065,0.991883752
0.05460754,0.91116786,-0.403024793,0.992655853
0.054834124,0.853543818,-0.513945043,0.992676556
0.055060712,0.782237828,-0.616317034,0.991742706
0.0552873,0.698849797,-0.708207786,0.989949307
0.055513888,0.605471611,-0.788140535,0.987761375
0.055740476,0.504735589,-0.855411291,0.986486492
0.055967064,0.399487495,-0.911483884,0.990393129
0.056193648,0.287283689,-0.960259438,1.004630106
0.056420236,0.163104668,-0.994979858,1.016588051
0.056646824,0.033945788,-1.01027155,1.021800921
0.056873412,-0.095829889,-1.00756955,1.024379766
0.0571,-0.22409378,-0.98755008,1.025473183
0.057326588,-0.348587811,-0.950450897,1.02487037
0.057553172,-0.466736138,-0.896806538,1.022104589
0.05777976,-0.575883389,-0.827779412,1.016860433
0.058006348,-0.673629045,-0.74523741,1.009154888
0.058232936,-0.758140802,-0.651636124,0.999407114
0.058459524,-0.828359842,-0.549756646,0.988412398
0.058686108,-0.884057343,-0.442402273,0.977277157
0.058912696,-0.925795972,-0.332178682,0.967440859
0.059139284,-0.955119371,-0.221354574,0.96125086
0.059365872,-0.975381255,-0.110586226,0.963597906
0.05959246,-0.987977266,0.005070605,0.976124789
0.059819048,-0.98569119,0.126601472,0.987615055
0.060045632,-0.966842115,0.248160958,0.996367536
0.06027222,-0.932713866,0.367425203,1.004956436
0.060498808,-0.883382261,0.482950628,1.013605528
0.060725396,-0.818622291,0.592666864,1.021396467
0.060951984,-0.738677919,0.693895996,1.027136721
0.061178572,-0.644650698,0.783709049,1.029774396
0.061405156,-0.538613677,0.859385312,1.028647808
0.061631744,-0.423478156,0.918853521,1.023625542
0.061858332,-0.302671164,0.961014867,1.015159408
0.06208492,-0.179725572,0.985883296,1.004267155
0.062311508,-0.05789651,0.994635224,0.992651235
0.062538092,0.060401615,0.989812911,0.983377954
0.06276468,0.175642163,0.975024998,0.981523916
0.062991268,0.291719764,0.949172616,0.986029076
0.063217856,0.405693263,0.907478929,0.98810503
0.063444444,0.512946725,0.851601243,0.98833902
0.063671032,0.61243993,0.783741713,0.989333741
0.063897616,0.703595936,0.704750359,0.99172031
0.064124204,0.785349667,0.615087032,0.995106156
0.064350792,0.856198609,0.515412331,0.998725929
0.06457738,0.914448559,0.406873614,1.001762305
0.064803968,0.958512068,0.291202635,1.003544359
0.065030556,0.987196624,0.170652434,1.003679428
0.06525714,0.999926269,0.047816433,1.002138955
0.065483728,0.996887684,-0.074616239,0.999352638
0.065710316,0.979174674,-0.194176391,0.996487513
0.065936904,0.948967397,-0.309399426,0.996267125
0.066163492,0.908051014,-0.421698987,1.00238668
0.066390076,0.852968812,-0.532365322,1.01096863
0.066616664,0.781291723,-0.635939538,1.014835852
0.066843252,0.696084082,-0.728385389,1.015078324
0.06706984,0.600046456,-0.808532715,1.013780901
0.067296424,0.495009482,-0.875537515,1.011600327
0.067523016,0.382724792,-0.928470433,1.008535611
0.0677496,0.265163451,-0.966504335,1.004442285
0.067976192,0.144530758,-0.989132404,0.999272053
0.068202776,0.023141803,-0.996316254,0.993181621
0.06842936,-0.096762613,-0.988537967,0.986570315
0.068655952,-0.213196233,-0.966761291,0.980080028
0.068882536,-0.324572772,-0.932367086,0.974655867
0.069109128,-0.429929286,-0.887144923,0.971865305
0.069335712,-0.529677451,-0.83306855,0.974561411
0.069562304,-0.626242816,-0.769928932,0.984970625
0.069788888,-0.718924105,-0.693408549,0.997667285
0.070015472,-0.802299857,-0.602890134,1.007161574
0.070242064,-0.873536706,-0.501177013,1.014244775
0.070468648,-0.931434214,-0.390305161,1.019907814
0.07069524,-0.974703789,-0.271967739,1.024013927
0.070921824,-1.00199437,-0.148216635,1.025960888
0.071148408,-1.01227176,-0.021633556,1.025162127
0.071375,-1.00514674,0.104806148,1.021304298
0.071601584,-0.981065154,0.228028819,1.014485979
0.071828176,-0.941321909,0.345217586,1.005262118
0.07205476,-0.88792026,0.454127729,0.994634382
0.072281344,-0.823360443,0.553341389,0.984109112
0.072507936,-0.750379443,0.642592072,0.975993879
0.07273452,-0.671095908,0.723390341,0.973663303
0.072961112,-0.584405661,0.798021674,0.978368569
0.073187696,-0.487365663,0.864375591,0.984670452
0.073414288,-0.381469339,0.91858983,0.989326132
0.073640872,-0.269391775,0.959711552,0.993618191
0.073867456,-0.152619377,0.987493277,0.998435646
0.074094048,-0.032349113,1.00126755,1.003583172
0.074320632,0.089870647,1.00013268,1.008342111
0.074547224,0.211971551,0.983333349,1.011876414
0.074773808,0.331456244,0.950592756,1.013489829
0.075000392,0.445640892,0.902326882,1.012789607
0.075226984,0.551966429,0.839715064,1.009788327
0.075453568,0.648317814,0.764638186,1.004987543
0.07568016,0.733343959,0.679510176,0.999527441
0.075906744,0.806900263,0.586911142,0.995552723
0.076133328,0.870388329,0.488296211,0.996009033
0.07635992,0.924426079,0.382132053,1.000588481
0.076586504,0.965502203,0.267713159,1.003864839
0.076813096,0.990973651,0.148446724,1.004065207
0.07703968,1.00104141,0.027508175,1.002840604
0.077266272,0.99632138,-0.093197919,1.001342144
0.077492856,0.977170348,-0.212131172,0.999861523
0.07771944,0.943877518,-0.327689081,0.998284903
0.077946032,0.896895528,-0.438145131,0.996392744
0.078172616,0.836989522,-0.541738689,0.994032267
0.078399208,0.76529187,-0.636821568,0.991213356
0.078625792,0.683278739,-0.722011983,0.988171139
0.078852376,0.592691958,-0.796343267,0.985446356
0.079078968,0.495403618,-0.859458804,0.984094181
0.079305552,0.392980278,-0.911918223,0.986028344
0.079532144,0.285356283,-0.954913974,0.993288906
0.079758728,0.170515761,-0.987300694,1.003838285
0.079985312,0.049251694,-1.00491035,1.012270541
0.080211904,-0.074525237,-1.00581801,1.01722388
0.080438488,-0.197660297,-0.990297675,1.019759078
0.08066508,-0.317845583,-0.958874345,1.020465824
0.080891664,-0.432894051,-0.912119508,1.019359256
0.081118256,-0.54058063,-0.850915492,1.016284592
0.08134484,-0.63878268,-0.776627541,1.01119365
0.081571424,-0.725706577,-0.691113949,1.004288526
0.081798016,-0.800088704,-0.596600831,0.996074486
0.0820246,-0.861321628,-0.495476097,0.98737151
0.082251192,-0.909511626,-0.390053689,0.979353278
0.082477776,-0.945524991,-0.282286763,0.973703325
0.08270436,-0.970979691,-0.173147649,0.972781669
0.082930952,-0.987138748,-0.061558507,0.978232358
0.083157536,-0.992134154,0.054221571,0.987270158
0.083384128,-0.982700109,0.172467813,0.995444651
0.083610712,-0.958136916,0.289892942,1.002064268
0.083837296,-0.918925166,0.404254049,1.007844797
0.084063888,-0.865414321,0.513751209,1.012882252
0.084290472,-0.797970772,0.616405547,1.016713151
0.084517064,-0.717347145,0.710015595,1.018709072
0.084743648,-0.624898076,0.792376816,1.018358624
0.08497024,-0.522611856,0.861581385,1.015445635
0.085196824,-0.412977427,0.91629678,1.010150144
0.085423408,-0.298738033,0.955960512,1.003104913
0.08565,-0.182570443,0.98088789,0.995473019
0.085876584,-0.066637881,0.992306769,0.989113331
0.086103176,0.048205916,0.992057741,0.986502372
0.08632976,0.162967131,0.980900288,0.988723661
0.086556344,0.277907073,0.956764281,0.992630231
0.086782936,0.390150428,0.918045044,0.995024059
0.08700952,0.496818423,0.865652263,0.996182386
0.087236112,0.596377313,0.800945342,0.99717934
0.087462696,0.687712908,0.724888921,0.998412992
0.08768928,0.769603074,0.638308048,0.999726056
0.087915872,0.840678811,0.542202413,1.00072432
0.088142456,0.899572253,0.43792209,1.001005995
0.088369048,0.945120752,0.327202767,1.000314887
0.088595632,0.976556182,0.212089598,0.998643974
0.088822224,0.993654311,0.094775096,0.996331209
0.089048808,0.996837914,-0.022651058,0.994198897
0.089275392,0.987185478,-0.138640225,0.99375628
0.089501984,0.965881765,-0.252897263,0.99688461
0.089728568,0.932412207,-0.366112024,1.003430538
0.08995516,0.884384811,-0.476902455,1.009572446
0.090181744,0.821317434,-0.581448436,1.012644611
0.090408328,0.744987071,-0.676828384,1.013102397
0.09063492,0.657377839,-0.761441588,1.011938915
0.090861504,0.560224891,-0.834140122,1.009641672
0.091088096,0.455250084,-0.893922746,1.006350515
0.09131468,0.344319165,-0.939977169,1.002112766
0.091541264,0.229449213,-0.971806407,0.997054634
0.091767856,0.112713858,-0.989323616,0.991465631
0.09199444,-0.003899745,-0.992891192,0.985848127
0.092221032,-0.118652232,-0.983304203,0.980965508
0.092447616,-0.230254427,-0.961740255,0.977961419
0.092674208,-0.338224739,-0.929565072,0.978487197
0.092900792,-0.44324246,-0.887470841,0.984068372
0.093127376,-0.545938492,-0.83399415,0.993595079
