Unnamed: 0,Frequency (GHz),Re( S21 ),Im( S21 ),S2
0,0.0,0.0380158387,0.0,0.0014452039920644
1,0.000226388453,0.0339644291,-0.0164633393,0.0014246239849958
2,0.000452776906,0.0231167749,-0.0288997646,0.0013695816757126
3,0.000679165375,0.00859516952,-0.0349594504,0.0012960401113475
4,0.000905553813,-0.00624360144,-0.034384273,0.00122126078868
5,0.00113194225,-0.0188854095,-0.0283131357,0.0011582923451493
6,0.00135833075,-0.0278667007,-0.0183973555,0.0011150156972967
7,0.00158471912,-0.0325024836,-0.00627098186,0.0010957366536567
8,0.00181110763,-0.0325446315,0.00660868129,0.0011028277078635
9,0.002037496,-0.0279427413,0.0188657679,0.0011367139898153
10,0.0022638845,-0.0188560355,0.0289908424,0.0011960190178388
11,0.002490273,-0.00590482727,0.0352452621,0.0012770954855862
12,0.0027166615,0.00944464747,0.0358113162,0.0013716517338089
13,0.00294304975,0.024532849,0.0293694381,0.0014644245743665
14,0.00316943825,0.0356933698,0.016114952,0.0015337083256418
15,0.00339582675,0.0394318029,-0.00104036345,0.0015559494360525
16,0.00362221525,0.0346781053,-0.0183060244,0.0015376815165312
17,0.00384860375,0.0228203647,-0.0308441389,0.0014721299495234
18,0.004074992,0.00748283416,-0.036458496,0.001385214737648
19,0.0043013805,-0.00775994221,-0.0351848081,0.0012981874241363
20,0.004527769,-0.020423213,-0.0284456704,0.0012262637937488
21,0.0047541575,-0.0291969851,-0.0180456825,0.0011781105958204
22,0.004980546,-0.0335652828,-0.00564694451,0.0011585161917429
23,0.0052069345,-0.0334313996,0.0073702354,0.0011719788490662
24,0.005433323,-0.028772492,0.0198103152,0.0012203048842134
25,0.0056597115,-0.0196364745,0.0303016044,0.0013037783600032
26,0.0058860995,-0.00641604001,0.0371661708,0.0014224898213446
27,0.006112488,0.00975434389,0.0384311602,0.0015721012990424
28,0.0063388765,0.026455855,0.0322235338,0.0017382683943407
29,0.006565265,0.0384761468,0.0181123279,0.0018084702945322
30,0.0067916535,0.0441180766,-0.00136629911,0.0019482714561414
31,0.007018042,0.0388980396,-0.0214046706,0.0019712174082176
32,0.0072444305,0.0247465372,-0.0359519832,0.001904936199404
33,0.007470819,0.0064427536,-0.0417549387,0.001784983979791
34,0.0076972075,-0.0111453859,-0.0390680842,0.0016505348299182
35,0.007923596,-0.0249231383,-0.030159032,0.0015307300338979
36,0.008149984,-0.0336265564,-0.0176214483,0.0014412607355119
37,0.0083763725,-0.0370897204,-0.00358666223,0.0013885115053022
38,0.008602761,-0.035594102,0.010336915,0.0013737919089036
39,0.00882915,-0.0297312606,0.0229099356,0.0014088130060612
40,0.009055538,-0.0197102465,0.033245571,0.0014937618082068
41,0.009281926,-0.00598496851,0.0399246328,0.0016297961522805
42,0.009508315,0.0104468418,0.041402299,0.0018232868660796
43,0.009734703,0.0274713989,0.0355128869,0.0020158428934951
44,0.009961092,0.0426135622,0.0215708967,0.0022812192678153
45,0.01018748,0.0505687483,0.000524419767,0.0025574733207207
46,0.010413869,0.047076229,-0.0233894046,0.0027632355844029
47,0.010640257,0.0315102302,-0.0430242531,0.0028439809620698
48,0.010866646,0.00841849111,-0.05215865,0.0027913957623916
49,0.011093034,-0.0150670912,-0.0491882786,0.0026465039888603
50,0.011319423,-0.0333330743,-0.0368526354,0.0024692105782146
51,0.011545811,-0.0439306013,-0.019424038,0.002307190982805
52,0.011772199,-0.046764195,-0.000600641128,0.0021872507037626
53,0.011998588,-0.0427848548,0.0170455985,0.0021210962284802
54,0.012224976,-0.0331918485,0.0317976847,0.0021127915591275
55,0.012451365,-0.0192574803,0.0423156209,0.0021614623196574
56,0.012677753,-0.00216044206,0.0478520505,0.0022944862469491
57,0.012904142,0.0168209635,0.0470238216,0.0024941846109369
58,0.01313053,0.0355640687,0.0387280881,0.0027646677903796
59,0.013356919,0.0510514528,0.0224526878,0.0031103740224348
60,0.013583307,0.0590829737,-0.000610116753,0.0034911700236871
61,0.013809696,0.0561769381,-0.0273754001,0.0039052609049263
62,0.014036084,0.0401255228,-0.0515137985,0.0042637290158719
63,0.014262472,0.0133089367,-0.065781571,0.0045043428793126
64,0.014488861,-0.0175224524,-0.0655217767,0.0046001395600349
65,0.014715249,-0.0443058498,-0.0511110947,0.0045753523279325
66,0.014941638,-0.0612847544,-0.0270611849,0.0044881288500603
67,0.015168026,-0.0663331971,0.000793797954,0.0044007231526992
68,0.015394415,-0.0600830913,0.0274191275,0.0043617864130253
69,0.015620803,-0.0445306711,0.0492042191,0.0044040358458571
70,0.015847192,-0.0221514031,0.0637088344,0.0045495002399053
71,0.01607358,0.00437153922,0.0692623854,0.0048163883864501
72,0.016299968,0.0321445763,0.0647449121,0.0052251774283432
73,0.016526357,0.0577478968,0.0494668223,0.0057817860932832
74,0.016752745,0.0769285634,0.0238252599,0.0064856468760903
75,0.016979134,0.0849834457,-0.00987172313,0.0073196369606002
76,0.017205522,0.0778096765,-0.0467107855,0.0082362432390616
77,0.01743191,0.0537446812,-0.0792044997,0.0091618435300169
78,0.0176583,0.0154334111,-0.0988727435,0.0100140095853983
79,0.017884688,-0.0297530834,-0.0992491841,0.010735646516323
80,0.018111076,-0.0717083588,-0.0786605999,0.0113295786984174
81,0.018337464,-0.101013869,-0.0408403501,0.0118717359266397
82,0.018563852,-0.111593768,0.0068199411,0.0124996806530452
83,0.018790242,-0.101395056,0.0557952039,0.0133940621594857
84,0.01901663,-0.0716158152,0.0981927812,0.0147706472665516
85,0.019243018,-0.025642056,0.127405226,0.0168896066480182
86,0.019469406,0.0316050015,0.138124958,0.0200773801423167
87,0.019695796,0.0938354805,0.126290679,0.0247544330029469
88,0.019922184,0.15317367,0.0892643929,0.0314303050210744
89,0.020148572,0.199896142,0.026813779,0.040677446330745
90,0.02037496,0.223150373,-0.0573658347,0.0530869279608668
91,0.02060135,0.21284923,-0.154440194,0.0691565682343505
92,0.020827738,0.162623391,-0.250417858,0.089155470905647
93,0.021054126,0.0728405118,-0.328234106,0.1130433685009051
94,0.021280514,-0.0480549708,-0.371765494,0.1405188627476528
95,0.021506902,-0.185060099,-0.370077044,0.1712042587376677
96,0.021733292,-0.320364147,-0.319759637,0.2048794121374093
97,0.02195968,-0.437272817,-0.224526122,0.2416194959474743
98,0.022186068,-0.52266252,-0.0935426205,0.2819263316627574
99,0.022412456,-0.569056869,0.0629376769,0.3277868713296519
100,0.022638846,-0.569879353,0.234001502,0.3795191799139547
101,0.022865234,-0.5216043,0.407513499,0.438138297645713
102,0.023091622,-0.422905684,0.570639908,0.5044791221617563
103,0.02331801,-0.275085747,0.709344327,0.5788415424496309
104,0.023544398,-0.0832725987,0.808453143,0.6605308101208297
105,0.023770788,0.142022461,0.852818012,0.7474689410201286
106,0.023997176,0.383847207,0.829874039,0.8360295989278744
107,0.024223564,0.619410872,0.733242452,0.9213143217667727
108,0.024449952,0.823161423,0.566041768,0.9979980114359506
109,0.024676342,0.971924603,0.342006534,1.0616059032154008
110,0.02490273,1.05014372,0.0832070038,1.1097252381368112
111,0.025129118,1.05280852,-0.184930429,1.1426050433547144
112,0.025355506,0.984873891,-0.438977301,1.1626776519667243
113,0.025581894,0.858006179,-0.661036134,1.173143373655846
114,0.025808284,0.686667383,-0.839496553,1.1762665573749504
115,0.026034672,0.484561861,-0.968196273,1.172204220186874
116,0.02626106,0.264022678,-1.04608881,1.164009772905508
117,0.026487448,0.0370239764,-1.07410777,1.1550782764028404
118,0.026713838,-0.185970753,-1.05390692,1.1453049169952734
119,0.026940226,-0.395487458,-0.988434851,1.1334137841066938
120,0.027166614,-0.58259201,-0.882290483,1.1178499465082137
121,0.027393002,-0.739207149,-0.742161334,1.0972306548173676
122,0.027619392,-0.859043837,-0.576959491,1.0708385681426615
123,0.02784578,-0.938759685,-0.39723289,1.0390637150790512
124,0.028072168,-0.978711784,-0.213755354,1.003568107504128
125,0.028298556,-0.982761621,-0.0356625654,0.9670922222814567
126,0.028524944,-0.957853913,0.131509498,0.9347788667136236
127,0.028751334,-0.911696374,0.282718569,0.9111200676221556
128,0.028977722,-0.849146783,0.418496817,0.8961898449183806
129,0.02920411,-0.775395095,0.539180517,0.8919531832624464
130,0.029430498,-0.687282562,0.644493639,0.8877293707407462
131,0.029656888,-0.58498162,0.742462575,0.893454171013455
132,0.029883276,-0.470257133,0.830984056,0.9116762724635908
133,0.030109664,-0.341011763,0.906919718,0.9387923974015676
134,0.030336052,-0.196166798,0.965995848,0.971629390990812
135,0.03056244,-0.0367203131,1.00266457,1.006684621327447
136,0.03078883,0.133568972,1.01107919,1.0401217987321931
137,0.031015218,0.308068693,0.986547112,1.068181523802269
138,0.031241606,0.478002101,0.926977038,1.0877724375396676
139,0.031467994,0.63392055,0.833738863,1.0969757553888353
140,0.031694384,0.767323375,0.711524725,1.0950525961077162
141,0.031920772,0.871674776,0.567866325,1.0822890781836558
142,0.03214716,0.957697093,0.409826547,1.085141520566594
143,0.032373548,1.0072273,0.248154208,1.0760873448133974
144,0.032599936,1.03505623,0.0939474478,1.0801675222099465
145,0.032826326,1.01547945,-0.0556470156,1.0342951037174892
146,0.033052714,0.983422399,-0.207727268,1.010270232725659
147,0.033279102,0.933784604,-0.349408507,0.9940399914314058
148,0.03350549,0.867116928,-0.480154812,0.9824404103109124
149,0.03373188,0.784680605,-0.599009454,0.9745359778445442
150,0.033958268,0.687719643,-0.704661548,0.9695062045978038
151,0.034184656,0.577652991,-0.795483828,0.9664774986207796
152,0.034411044,0.456320316,-0.869714439,0.9646314361994246
153,0.034637432,0.326088041,-0.925741911,0.9633314962651496
154,0.03486382,0.189767674,-0.962375462,0.9621782999550836
155,0.035090208,0.0504632555,-0.978987992,0.9609640286358504
156,0.0353166,-0.0885838717,-0.975670159,0.9597793614884472
157,0.035542988,-0.239793703,-0.962898612,0.9846747569899787
158,0.035769376,-0.378691852,-0.926965773,1.0026730630846776
159,0.035995764,-0.438597441,-0.908347189,1.0174623310159503
160,0.036222152,-0.607082844,-0.804406762,1.0156198182304532
161,0.03644854,-0.721412063,-0.710163713,1.0247678639038624
162,0.036674928,-0.822095275,-0.600886583,1.0369053268067416
163,0.036901316,-0.906734288,-0.476243407,1.0489748517458346
164,0.037127704,-0.971903086,-0.337938249,1.0587978687135091
165,0.037354096,-1.01420879,-0.189237282,1.0644302186120118
166,0.037580484,-1.03107071,-0.0348435119,1.0643208793414298
167,0.037806872,-1.02142942,0.119528294,1.0576050731080868
168,0.03803326,-0.986175179,0.267916292,1.0443206231947113
169,0.038259648,-0.92811203,0.405013055,1.0254275149511538
170,0.038486036,-0.851476669,0.526903331,1.002639638070231
171,0.038712424,-0.761186182,0.631454468,0.9781391488249004
172,0.038938812,-0.661991894,0.718075991,0.9538663965723392
173,0.039165204,-0.559154034,0.785926461,0.9303336358384576
174,0.039391592,-0.470416933,0.851936996,0.9470887360066303
175,0.03961798,-0.347572565,0.912244618,0.9529969310106452
176,0.039844368,-0.225388467,0.950277328,0.9538269611674296
177,0.040070756,-0.100505583,0.975195408,0.9611074559984564
178,0.040297144,0.028379323,0.986262262,0.973518635419295
179,0.040523532,0.160924554,0.981440723,0.9891226048428616
180,0.04074992,0.295342088,0.95835638,1.005673900030904
181,0.040976308,0.428435206,0.915041268,1.0208572478833102
182,0.0412027,0.555905938,0.850624681,1.0325937598300117
183,0.041429088,0.672968686,0.765808523,1.0393495462360085
184,0.041655476,0.775113881,0.662976325,1.040339136029388
185,0.041881864,0.858810902,0.545927882,1.035593417739059
186,0.042108252,0.921942651,0.419349045,1.0258318732753198
187,0.04233464,0.963808715,0.288464665,1.0121391020635135
188,0.042561028,0.986122906,0.160732865,0.998273439628993
189,0.042787416,1.00654614,0.0333392061,1.0142466346122778
190,0.043013804,1.00076711,-0.107953437,1.013188753017865
191,0.043240196,0.973160863,-0.240747824,1.0050015800356398
192,0.043466584,0.929682314,-0.366117358,0.9983511247932948
193,0.043692972,0.871535063,-0.48379603,0.993631964682175
194,0.04391936,0.799466968,-0.592684925,0.9904228532453686
195,0.044145748,0.714319468,-0.691279173,0.9881191973873668
196,0.044372136,0.617268443,-0.777881324,0.9861196849516374
197,0.044598524,0.509942055,-0.850833714,0.9839589083366568
198,0.044824912,0.394407749,-0.908754408,0.9813920465306774
199,0.0450513,0.273048222,-0.950722575,0.978428746151992
200,0.045277692,0.148386717,-0.976363063,0.97530344857278
201,0.04550408,0.0229805633,-0.98583734,0.9724033672278608
202,0.045730468,-0.100323647,-0.980026782,0.970517327584656
203,0.045956856,-0.218468159,-0.963467896,0.9759987231195162
204,0.046183244,-0.343581557,-0.940564811,1.00271045000201
205,0.046409632,-0.470401913,-0.891563177,1.0161628583363929
206,0.04663602,-0.587401152,-0.824020147,1.0240493160328288
207,0.046862408,-0.694414258,-0.740837216,1.0310509423243213
208,0.047088796,-0.789629281,-0.642816901,1.0367279696238207
209,0.047315188,-0.870434344,-0.531307876,1.0399440063143417
210,0.047541576,-0.934164464,-0.408618838,1.0396326005688774
211,0.047767964,-0.97868073,-0.278018057,1.035110011291388
212,0.047994352,-1.00283372,-0.143455759,1.0262550247593043
213,0.04822074,-1.00672913,-0.00908477884,1.0135860743971288
214,0.048447128,-0.991707444,0.121282831,0.9981931795803876
215,0.048673516,-0.960076511,0.244608298,0.98158012642439
216,0.048899904,-0.914764047,0.358788669,0.9655225706866098
217,0.049126292,-0.859475851,0.462613076,0.952709596538356
218,0.049352684,-0.80011344,0.558468282,0.952068338868665
219,0.049579072,-0.731603026,0.656486332,0.966217291755171
220,0.04980546,-0.645752311,0.745907784,0.9733744693936314
221,0.050031848,-0.549625278,0.823380888,0.9800440329402458
222,0.050258236,-0.4444125,0.889784515,0.9892189532900352
223,0.050484624,-0.330136478,0.944078624,1.000274542399978
224,0.050711012,-0.207436621,0.984212041,1.0117032933812835
225,0.0509374,-0.0779750869,1.00783157,1.0218045876657276
226,0.051163788,0.0555031039,1.01289093,1.029028630618799
227,0.05139018,0.189387262,0.998183548,1.0322379305057248
228,0.051616568,0.319642872,0.963700414,1.0308900535641796
229,0.051842956,0.442359626,0.910727322,1.0251062937521511
230,0.052069344,0.55424422,0.841705382,1.0156546054911744
231,0.052295732,0.652967513,0.760032892,1.0040165699552888
232,0.05252212,0.737837136,0.670231819,0.9936143304607312
233,0.052748508,0.813315928,0.576204479,0.9934944003581626
234,0.052974896,0.882049799,0.470278859,0.9991740531382824
235,0.053201284,0.933766842,0.353726953,0.9970432724973172
236,0.053427676,0.968899131,0.233366683,0.9932255347869776
237,0.053654064,0.989140213,0.110953338,0.9907090041870276
238,0.053880452,0.994823337,-0.0125686498,0.9898314427976106
239,0.05410684,0.985732257,-0.13601698,0.9901687013386344
240,0.054333228,0.961562276,-0.257809192,0.9910675901059932
241,0.054559616,0.922230363,-0.375990152,0.991877436840095
242,0.054786004,0.868090928,-0.488375396,0.992092386694058
243,0.055012392,0.800046027,-0.592765033,0.991444029665976
244,0.055238784,0.719545305,-0.687166452,0.9899431787018114
245,0.055465172,0.628536701,-0.769985497,0.9879360500943004
246,0.05569156,0.529490471,-0.840274036,0.986420614455531
247,0.055917948,0.42536062,-0.898754716,0.988691696579025
248,0.056144336,0.315697074,-0.949491262,1.0011982991465145
249,0.056370724,0.193921059,-0.988658011,1.0150500398381574
250,0.056597112,0.0653626174,-1.00852847,1.0214019465539197
251,0.0568235,-0.0644692555,-1.01007128,1.0244002755855628
252,0.057049888,-0.193281725,-0.994205236,1.0258018765087913
253,0.05727628,-0.318887711,-0.961187363,1.0255705190177131
254,0.057502668,-0.438765168,-0.911451042,1.023257874612954
255,0.057729056,-0.55025214,-0.846007168,1.01850554588196
256,0.057955444,-0.650865316,-0.76656872,1.0112532620542185
257,0.058181832,-0.738624752,-0.675473154,1.0018305060417692
258,0.05840822,-0.81228894,-0.575449944,0.9909559600959268
259,0.058634608,-0.87144196,-0.469315976,0.9796685749774742
260,0.058860996,-0.916461229,-0.359728009,0.9693054247192948
261,0.059087384,-0.948604643,-0.24905695,0.96188013306446
262,0.059313776,-0.970757544,-0.138661623,0.9615972549259062
263,0.059540164,-0.985836625,-0.0249403641,0.9724958729528312
264,0.059766552,-0.987824023,0.0956274197,0.9849409038143846
265,0.05999294,-0.973018467,0.217379957,0.994018982828352
266,0.060219328,-0.942787886,0.33721751,1.002564647038949
267,0.060445716,-0.897444904,0.453752488,1.0112986760817593
268,0.060672104,-0.836737156,0.565103114,1.0194705976834653
269,0.060898492,-0.760732532,0.668725193,1.0259073689960183
270,0.06112488,-0.670282066,0.761717021,1.029490868082343
271,0.061351272,-0.567201853,0.841261983,1.029439666087726
272,0.06157766,-0.454200447,0.905082703,1.025472745324786
273,0.061804048,-0.334599376,0.951800168,1.0178803022244176
274,0.062030436,-0.211938873,0.981125116,1.0075245791345235
275,0.062256824,-0.0895865038,0.993914783,0.9958923375290446
276,0.062483212,0.0297169872,0.992321968,0.985585987503638
277,0.0627096,0.145375535,0.979922116,0.9813813996024536
278,0.062935988,0.261111617,0.957572758,0.9851248633960812
279,0.063162376,0.376217693,0.920022368,0.9879809101465696
280,0.063388768,0.485296845,0.86755985,0.9881731210989766
281,0.063615156,0.58672744,0.802762806,0.9886772115459472
282,0.063841544,0.680011451,0.726745367,0.99057440194709
283,0.064067932,0.764245927,0.63999635,0.993667164949412
284,0.06429432,0.838048577,0.543079913,0.9972612093158124
285,0.064520708,0.899770856,0.43697992,1.000539043790179
286,0.064747096,0.947780669,0.323245853,1.0027760780117854
287,0.064973484,0.980756164,0.203975141,1.0034885113699648
288,0.065199872,0.997928083,0.0816639736,1.0025294634241964
289,0.065426264,0.999243915,-0.0410163663,1.000170743968983
290,0.065652652,0.985508502,-0.161500826,0.9973095243129662
291,0.06587904,0.958596289,-0.277905554,0.9961383422286184
292,0.066105428,0.920810223,-0.390726179,1.00055841373725
293,0.066331816,0.870210707,-0.502251983,1.0095237290048722
294,0.066558204,0.802861869,-0.60841912,1.0147610062757475
295,0.066784592,0.721022606,-0.704082191,1.015605330046392
296,0.06701098,0.627755344,-0.787648618,1.014467117357868
297,0.067237368,0.52504617,-0.858292282,1.0123391219724365
298,0.06746376,0.414634079,-0.915107727,1.0093435714832848
299,0.067690144,0.29842782,-0.95723772,1.0053632163407509
300,0.067916536,0.178572595,-0.984091401,1.000324057207177
301,0.06814292,0.057357911,-0.995512903,0.9943358699937712
302,0.068369312,-0.062958084,-0.991853714,0.9877375103165448
303,0.068595704,-0.180325761,-0.973953426,0.9811026560973666
304,0.068822088,-0.293055892,-0.943075836,0.9752737882830144
305,0.06904848,-0.399986356,-0.900881112,0.9715758629445151
306,0.069274864,-0.501029193,-0.849370122,0.972459856384526
307,0.069501256,-0.598219395,-0.78936857,0.980969183858011
308,0.06972764,-0.692531288,-0.717225254,0.9940116498343036
309,0.069954032,-0.779033184,-0.630604148,1.0045542932479838
310,0.070180416,-0.85392797,-0.532013893,1.0122317602933362
311,0.070406808,-0.915847182,-0.423754781,1.0183441751976992
312,0.0706332,-0.963558793,-0.30750972,1.0230077754620952
313,0.070859584,-0.995688677,-0.185188055,1.0256905572206934
314,0.071085976,-1.01106846,-0.0592195541,1.0257663863945743
315,0.07131236,-1.00909245,0.0675109103,1.0228252956565371
316,0.071538752,-0.989951134,0.191924378,1.0168382145785728
317,0.071765136,-0.954695582,0.311093658,1.0082229183381397
318,0.071991528,-0.905139565,0.422577053,0.997848997850554
319,0.072217912,-0.843660414,0.524685621,0.9870578950348072
320,0.072444304,-0.772966683,0.616760314,0.977870777953401
321,0.072670696,-0.695554316,0.699733198,0.973422354889535
322,0.07289708,-0.611539841,0.776098251,0.9763094723355644
323,0.073123472,-0.517738044,0.845375478,0.9827123810086744
324,0.073349856,-0.414278597,0.903360784,0.9876874620013832
325,0.073576248,-0.304020643,0.948375463,0.9918445701905976
326,0.073802632,-0.188732415,0.98021102,0.9964335682011728
327,0.074029024,-0.0695814788,0.99834311,1.0015305474764669
328,0.074255408,0.0520442836,1.00190735,1.0065269454394596
329,0.0744818,0.174256474,0.990063369,1.010590793366543
330,0.074708192,0.294689745,0.962349653,1.0129589004373851
331,0.074934576,0.41070205,0.918937147,1.013121654010702
332,0.075160968,0.519668579,0.860750854,1.0109474646616083
