Frequency (GHz),Re( S21 ),Im( S21 ),S2
0.0,0.0396165326,0.0,0.0015694696552468626
0.000226508828,0.0353770703,-0.0171984416,0.0015473234964797527
0.000453017656,0.0240244325,-0.0301806591,0.0014880455406574692
0.0006795265,0.0088272756,-0.0364814214,0.0014088149018827332
0.000906035313,-0.00669367006,-0.0358245075,0.0013282005564896966
0.00113254413,-0.0198940746,-0.0294031035,0.0012603166996220773
0.001359053,-0.0292301029,-0.0189554747,0.0012137089366469284
0.00158556188,-0.0339779407,-0.00620895578,0.001193051586090712
0.00181207063,-0.0338789709,0.00728920056,0.001200917114046951
0.0020385795,-0.028892545,0.0200734455,0.001237722370818495
0.00226508825,-0.0192134716,0.0305410326,0.0013019121631982693
0.00249159725,-0.00553695159,0.0368612185,0.0013894072622147458
0.002718106,0.0105405236,0.037147522,0.001491041028502641
0.00294461475,0.0261779707,0.0300810449,0.0015901554122458744
0.00317112375,0.0375244729,0.0159729682,0.0016632217795410457
0.0033976325,0.0410146415,-0.00201893621,0.0016862769207935712
0.00362414125,0.035614714,-0.0199028626,0.0016645317929762746
0.00385065025,0.0229320023,-0.0326624587,0.001592712937816411
0.004077159,0.00680119079,-0.0381085165,0.0014985152259927533
0.004303668,-0.00905277487,-0.0363694914,0.0014046926375415776
0.0045301765,-0.0220711548,-0.0289879013,0.0013274342959841048
0.0047566855,-0.0309241563,-0.0178792961,0.0012759726718983048
0.0049831945,-0.0351064652,-0.00479799323,0.0012554846378739367
0.005209703,-0.0345441513,0.00880161487,0.001270766813357097
0.005436212,-0.0292402692,0.0216468666,0.001323580176486664
0.005662721,-0.0192949772,0.0322783962,0.001414191006392694
0.0058892295,-0.00519604608,0.0389291868,0.0015424804797747778
0.0061157385,0.0117596444,0.0395595394,0.001703246393954604
0.0063422475,0.0289127752,0.0323144346,0.001880171253283412
0.006568756,0.0407849811,0.0170337856,0.0019535645351941243
0.006795265,0.0456789471,-0.00350647769,0.0020988615939550657
0.007021774,0.0392413177,-0.0240462553,0.0021181034087851113
0.0072482825,0.0238356069,-0.0384023711,0.0020428782623934426
0.0074747915,0.00459454488,-0.0434847213,0.001912030829193008
0.0077013005,-0.0134719461,-0.0398236103,0.0017674132690475711
0.007927809,-0.0272897128,-0.0299132243,0.0016395294127285944
0.008154318,-0.0356764644,-0.0164879076,0.0015446612091106055
0.008380827,-0.0385521352,-0.0017586461,0.001489359964584124
0.008607336,-0.0362723917,0.0126111722,0.001474728063896282
0.008833845,-0.0295121782,0.0253714155,0.0015146773865821954
0.009060353,-0.0185064375,0.0355643556,0.0016073116181846577
0.009286862,-0.00382496952,0.0417158417,0.0017548418405683877
0.009513371,0.0133809727,0.0422554314,0.0019645719131982514
0.00973988,0.0307021979,0.0349881127,0.002166792986198665
0.009966389,0.0455153547,0.0194636751,0.0024504821618651722
0.010192898,0.0522632115,-0.00294940849,0.0027401422867346158
0.010419406,0.0468682311,-0.0274432786,0.002949764626760225
0.010645915,0.0293216091,-0.0465229265,0.0030241394503376052
0.010872424,0.00487710815,-0.0541720316,0.0029583951915781947
0.011098933,-0.0190097783,-0.0493698195,0.002798750748477731
0.011325442,-0.0368390158,-0.0353791453,0.0026087970072711615
0.011551951,-0.0464495011,-0.0167371053,0.0024376868462621893
0.011778459,-0.0480081774,0.00278835674,0.002312560030579374
0.012004968,-0.0426510833,0.0206371527,0.0022450069782266563
0.012231477,-0.0317089446,0.0351199619,0.0022388688915033206
0.012457986,-0.0165918767,0.0449419655,0.002295070635431193
0.012684495,0.00147859612,0.0493591242,0.0024385093882771046
0.012911004,0.0210197177,0.0470213629,0.00265283710116119
0.013137512,0.039719671,0.0369289741,0.0029414013924267115
0.013364021,0.0543577597,0.0188043751,0.003308370562504444
0.01359053,0.0608311146,-0.00596487103,0.0037360041898828666
0.013817039,0.0552668609,-0.0333747044,0.004168296807527328
0.014043548,0.0364034548,-0.0563781038,0.004503702109459218
0.014270057,0.00753912097,-0.068435058,0.0047401955084636575
0.014496565,-0.0239544399,-0.0651977882,0.00482456677709477
0.014723074,-0.0498908572,-0.0479337275,0.004786739864195049
0.014949583,-0.0649077147,-0.0218290035,0.004689516821379608
0.015176092,-0.0674425811,0.00700647198,0.004597592395036602
0.015402601,-0.0586065985,0.0335505605,0.004560373497604363
0.01562911,-0.0407341272,0.0543272234,0.004610716321099287
0.015855618,-0.0165420827,0.0670598298,0.004770661272858607
0.016082127,0.0110880416,0.0702572912,0.005059031633284928
0.016308636,0.0390893705,0.0629952028,0.005496374461899397
0.016535145,0.0638360977,0.0448513888,0.00608669444685271
0.016761654,0.0809363127,0.0166538805,0.006828038449180462
0.016988162,0.0857294053,-0.0187092107,0.007699565498108663
0.017214672,0.0744863227,-0.055680871,0.008648571664687176
0.01744118,0.0463418923,-0.0863071382,0.009596493086218696
0.01766769,0.0050343778,-0.102147445,0.010459445479861159
0.017894198,-0.041081775,-0.097453773,0.011184950109086152
0.018120706,-0.0814810991,-0.0717446357,0.011786462262269735
0.018347216,-0.107038267,-0.0299400948,0.012353599878996277
0.018573724,-0.112459108,0.01977529,0.013038113066739765
0.018800234,-0.0966109708,0.0685643777,0.014034753568306711
0.019026742,-0.0615281574,0.108578473,0.015574998952050901
0.01925325,-0.0112940539,0.133456603,0.017938220537795715
0.01947976,0.0485732704,0.138263971,0.02147628827404036
0.019706268,0.111253731,0.119432144,0.0266414296818571
0.019932778,0.168373391,0.0749935955,0.033973638162856507
0.020159286,0.209855452,0.00569881871,0.04407178726881375
0.020385796,0.224878713,-0.0834792927,0.057539227870228644
0.020612304,0.204008415,-0.182312548,0.07485729854906453
0.020838812,0.142280802,-0.275681615,0.09624417946677143
0.021065322,0.0420513898,-0.346143663,0.1215837548191691
0.02129183,-0.0861842558,-0.378247559,0.15049894183725832
0.02151834,-0.22593753,-0.36265099,0.182563508010481
0.021744848,-0.35884878,-0.297952265,0.2175479991261186
0.021971358,-0.468550563,-0.189733088,0.2555382747696327
0.022197866,-0.543010175,-0.0486646406,0.29722829739825785
0.022424374,-0.575658739,0.11456757,0.344508711882775
0.022650884,-0.560937762,0.288248897,0.39773859945928525
0.022877392,-0.496390998,0.4599199,0.45793033731144606
0.023103902,-0.381794423,0.6165241,0.5258689473147129
0.02333041,-0.219704583,0.743950665,0.6017326957451461
0.023556918,-0.0167242605,0.827251077,0.6846240452869318
0.023783428,0.215004176,0.852036059,0.7721922415336905
0.024009936,0.457006633,0.807256818,0.860518632813482
0.024236446,0.685546696,0.68884182,0.9444773253774288
0.024462954,0.875207186,0.502691448,1.0186863103183754
0.024689464,1.00426459,0.265127748,1.0788400894874197
0.024915972,1.05966961,-0.000122311685,1.1228996973177003
0.02514248,1.03928542,-0.267312706,1.1515702670136188
0.02536899,0.950557113,-0.51391238,1.1676647593921592
0.025595498,0.806804538,-0.723633349,1.1745787863223494
0.025822008,0.62325573,-0.886610985,1.1745267437005031
0.026048516,0.413643748,-0.998268723,1.1676415935795383
0.026275024,0.190051675,-1.05888903,1.1573656170246465
0.026501534,-0.0359857939,-1.07030928,1.1468569322167317
0.026728042,-0.254549772,-1.0349015,1.135816701127502
0.026954552,-0.456720978,-0.956202865,1.1229179707794847
0.02718106,-0.634173512,-0.839305878,1.106610400167765
0.02740757,-0.77954495,-0.691278398,1.085556152611949
0.027634078,-0.88738364,-0.521225393,1.059125634847654
0.027860586,-0.955237389,-0.339599758,1.0278064649771959
0.028087096,-0.984258473,-0.156745389,0.9933338586450531
0.028313604,-0.978824854,0.0189179145,0.9584559822971506
0.028540114,-0.946184218,0.182670191,0.928632973072248
0.028766622,-0.893599808,0.330052882,0.9074555217741429
0.02899313,-0.82570976,0.462149054,0.8953783558723525
0.02921964,-0.747223079,0.579078138,0.8936738196997871
0.029446148,-0.65385884,0.680817664,0.8910440742605625
0.029672658,-0.546451807,0.775026679,0.8992759305353343
0.029899166,-0.426328152,0.858861566,0.9193988827397074
0.030125676,-0.29161185,0.928821921,0.9477476319905528
0.030352184,-0.141736537,0.980292559,0.9810627471515209
0.030578692,0.0215920676,1.00761008,1.0157442907008496
0.030805202,0.193825603,1.00516236,1.047919734339083
0.03103171,0.367649734,0.968882561,1.0738997439201894
0.03125822,0.533921182,0.897617221,1.09078850402404
0.031484728,0.683274269,0.793782651,1.096954623706072
0.031711236,0.807717085,0.662989438,1.0919618843004528
0.031937746,0.901582241,0.513463855,1.076495667678043
0.032164254,0.977069616,0.351624131,1.0783045640118927
0.032390764,1.01629794,0.188867301,1.0685323602352683
0.032617272,1.03460968,0.0380248465,1.071863078901051
0.032843782,1.00564432,-0.111361861,1.0237219624336458
0.03307029,0.966349423,-0.259707719,1.0012793066406158
0.033296798,0.910292447,-0.39720732,0.9864059941268302
0.033523308,0.838059485,-0.523494303,0.9763899856719211
0.033749816,0.750725031,-0.63769567,0.9702438397066999
0.033976324,0.64936167,-0.738480449,0.9670239520204305
0.034202836,0.535294354,-0.824127138,0.9657255850123485
0.034429344,0.410368383,-0.892750561,0.9654057739318496
0.034655852,0.277050048,-0.942642868,0.9653323056880677
0.03488236,0.138318151,-0.9725793,0.9650424056845489
0.035108868,-0.00252202945,-0.981988132,0.9643070520213961
0.03533538,-0.142055973,-0.971120119,0.9632541849915508
0.035561888,-0.293635845,-0.950319648,0.9893294428437079
0.035788396,-0.431746602,-0.906463265,1.0080807791330066
0.036014904,-0.516689241,-0.869542539,1.0230719988957226
0.036241412,-0.652968168,-0.76869148,1.0172540198458666
0.036467924,-0.761673272,-0.667710185,1.0259830644319203
0.036694432,-0.855679095,-0.552248001,1.037164568228515
0.03692094,-0.93250376,-0.422458589,1.0480345218340086
0.037147448,-0.988877237,-0.280397683,1.0565010504885226
0.037373956,-1.02171469,-0.12963292,1.0607056017095227
0.037600468,-1.02888,0.024938453,1.0592159808380333
0.037826976,-1.00984144,0.177581757,1.0513150143604806
0.038053484,-0.966005743,0.322528899,1.0371919861991343
0.038279992,-0.900576055,0.454854757,1.0179300808048921
0.0385065,-0.817995846,0.571136951,0.9953146208708321
0.038733012,-0.723168075,0.669738114,0.9715212060434828
0.03895952,-0.620678186,0.750406086,0.94835070448209
0.039186028,-0.516155899,0.812339544,0.9263124468186261
0.039412536,-0.422811061,0.877967954,0.949596921554892
0.039639048,-0.297641248,0.929792643,0.9531046714879229
0.039865556,-0.173571825,0.9621315,0.9558242017260806
0.040092064,-0.0467338301,0.981062412,0.9646675071150733
0.040318572,0.0838056505,0.985461056,0.9781568799483633
0.04054508,0.217307478,0.973151982,0.9942473200652487
0.040771592,0.351540387,0.941832364,1.0106288455699384
0.0409981,0.482902348,0.889827788,1.0249881700008858
0.041224608,0.606835604,0.816752076,1.0353334039323547
0.041451116,0.718520761,0.723893344,1.0402936574755215
0.041677624,0.813669324,0.61420393,1.0393042364460618
0.041904136,0.889184058,0.491916507,1.0326301388604284
0.042130644,0.943496227,0.361949116,1.021192292936417
0.042357152,0.976483583,0.229634434,1.0062521611470183
0.04258366,0.991236091,0.102679223,0.993092010936844
0.042810168,1.00464475,-0.0272909459,1.0100558694306792
0.04303668,0.989532471,-0.16632852,1.0068396877287562
0.043263188,0.954714239,-0.296177149,0.9992001817391172
0.043489696,0.904763758,-0.418228894,0.9935128655667458
0.043716204,0.8406654,-0.532184601,0.9899387642986892
0.043942716,0.763065279,-0.63692224,0.9879385598219654
0.044169224,0.672764838,-0.730881512,0.9868003118325723
0.044395732,0.570965707,-0.812296152,0.9858268771240171
0.04462224,0.459386677,-0.87945807,0.9844826158932272
0.044848748,0.340228766,-0.930982113,0.9824833079398275
0.04507526,0.216024637,-0.966003478,0.9798293632990782
0.045301768,0.0894371644,-0.984263122,0.9767728997050995
0.045528276,-0.0368507355,-0.986098528,0.9737482836306577
0.045754784,-0.15985845,-0.972738087,0.971774109936822
0.045981292,-0.277281642,-0.949844003,0.9790887390252803
0.046207804,-0.402867526,-0.91793263,1.0049025567240777
0.046434312,-0.525980949,-0.859965622,1.0161968297327877
0.04666082,-0.63828069,-0.784702897,1.0231608757870687
0.046887328,-0.739572406,-0.694497585,1.029294239287461
0.047113836,-0.827989876,-0.590313554,1.0340373267946061
0.047340348,-0.901021183,-0.47375226,1.036280376069827
0.047566856,-0.956225753,-0.347363949,1.0350294037652916
0.047793364,-0.991790354,-0.214582354,1.0296936929356266
0.048019872,-1.00695074,-0.0794001743,1.020254180465418
0.04824638,-1.00219214,0.054132849,1.0073194508186365
0.048472892,-0.97916019,0.182434961,0.9920371926759076
0.0486994,-0.940351129,0.302769482,0.9759296050421229
0.048925908,-0.888780355,0.4133403,0.960780723038016
0.049152416,-0.828305781,0.513304651,0.9495721315762518
0.049378928,-0.764504015,0.606500328,0.9523090368152278
0.049605436,-0.689145505,0.701270282,0.9667015354780646
0.049831944,-0.597653508,0.785382986,0.9740161503229824
0.050058452,-0.496555686,0.857278407,0.9814938164073883
0.05028496,-0.3866615,0.91747582,0.9912689958669225
0.050511472,-0.268169731,0.964666128,1.0024957431351247
0.05073798,-0.142052829,0.996704996,1.0135998552782632
0.050964488,-0.0103586558,1.01132834,1.0228923130371383
0.051190996,0.123819344,1.00676227,1.0289014982441433
0.051417504,0.256644458,0.982224643,1.0306316271385911
0.051644016,0.38404125,0.938207269,1.0277205613060008
0.051870524,0.502256811,0.87648344,1.0204851247901234
0.052097032,0.60832113,0.799886286,1.0098726677353507
0.05232354,0.700359702,0.71209985,0.9975899085555513
0.052550048,0.778437853,0.617800415,0.9876428437574218
0.05277656,0.848106503,0.519570947,0.9892386093973657
0.053003068,0.909261465,0.408976644,0.994018307071449
0.053229576,0.952739775,0.289935529,0.9917756898435603
0.053456084,0.980044663,0.16815798,0.9887646477124641
0.053682592,0.992614985,0.0449814014,0.9873078349184582
0.053909104,0.990608275,-0.0786879882,0.987496553985439
0.054135612,0.973720193,-0.201594368,0.9887713034652766
0.05436212,0.94164145,-0.322025597,0.9903891054813089
0.054588628,0.89437294,-0.437884837,0.9916460862787603
0.05481514,0.832435668,-0.546877384,0.9920240144892898
0.055041648,0.75695461,-0.646759331,0.9912779138358196
0.055268156,0.669627905,-0.735581636,0.9894818743751256
0.055494664,0.572646201,-0.811887205,0.9870845051624444
0.055721172,0.46869722,-0.875007272,0.9853148100886103
0.055947684,0.360674173,-0.926294148,0.9881067076882799
0.056174192,0.246717304,-0.969684124,1.0011567284306757
0.0564007,0.121535778,-0.999195039,1.0131616712962768
0.056627208,-0.0080730496,-1.00903594,1.0182187023415277
0.056853716,-0.137463793,-1.00079441,1.0204857454731946
0.057080228,-0.264525741,-0.975372493,1.0213253677526342
0.057306736,-0.38707903,-0.933151007,1.0206009773308549
0.057533244,-0.502637386,-0.874768674,1.0178645748166313
0.057759752,-0.60864526,-0.801461518,1.012789617355332
0.05798626,-0.702803612,-0.715143621,1.0053633156972381
0.058212772,-0.783378243,-0.618290305,0.9959643728627603
0.05843928,-0.849399388,-0.513678193,0.9853446062985198
0.058665788,-0.900710285,-0.404085636,0.9745642187263059
0.058892296,-0.937918544,-0.292068392,0.9649951407845456
0.059118804,-0.962542355,-0.179825366,0.9588249474259799
0.059345316,-0.977757335,-0.0681001395,0.9606470351462216
0.059571824,-0.98525095,0.0476749875,0.9729923389090275
0.059798332,-0.978033543,0.169012189,0.9851147312637046
0.06002484,-0.954016685,0.289928824,0.9942065582444122
0.060251352,-0.914628923,0.407868832,1.0029030509051842
0.06047786,-0.860092402,0.521351576,1.0115664057758136
0.060704368,-0.790299118,0.6282897,1.0193206430376678
0.060930876,-0.705619335,0.726003289,1.0249794215646597
0.061157384,-0.607290804,0.811588049,1.0274772819025928
0.061383896,-0.497524589,0.882384956,1.026133927234741
0.061610404,-0.37935397,0.936423659,1.0207987036897093
0.061836912,-0.25629586,0.972736597,1.0119040549962801
0.06206342,-0.131927624,0.991485775,1.000448940001636
0.062289928,-0.00949334446,0.993976951,0.9880803027082927
0.06251644,0.108621925,0.982798576,0.9776917635783333
0.062742948,0.222714737,0.961574852,0.9742280500758012
0.062969456,0.336629778,0.929716945,0.9776932052564623
0.063195964,0.447911412,0.882401407,0.9792568760754135
0.063422472,0.55176115,0.821150243,0.9787280882282816
0.063648984,0.647104383,0.748369157,0.9788004776467012
0.063875492,0.73345077,0.665038884,0.9802267492455583
0.064102,0.809824884,0.571712911,0.9826719953497073
0.064328508,0.874821007,0.469135255,0.9853996817724091
0.06455502,0.926859975,0.358528405,0.9876120304488445
0.064781528,0.964489698,0.241679102,0.9886491658916575
0.065008036,0.98666966,0.120864749,0.9881253055153486
0.065234544,0.992979944,-0.00133707584,0.9860109569580451
0.065461052,0.983746469,-0.122297443,0.9827137798343062
0.065687564,0.960151434,-0.239643469,0.9793197684466104
0.065914072,0.924369574,-0.351955026,0.9783314496636022
0.06614058,0.878318965,-0.460486799,0.9834922963319375
0.066367088,0.818982661,-0.566806853,0.9920026076264044
0.066593596,0.743658006,-0.665837228,0.99636644407862
0.066820108,0.655330181,-0.75340867,0.9970822701606616
0.067046616,0.556792557,-0.828404069,0.9962712530663549
0.067273128,0.449885815,-0.890080512,0.9946405643803965
0.067499632,0.336340398,-0.937579751,0.9921806528120204
0.067726144,0.218106836,-0.970122278,0.98870782618184
0.067952648,0.0973810554,-0.987236798,0.9841195652761106
0.06817916,-0.0235205591,-0.988921106,0.9785181705926399
0.068405672,-0.142349213,-0.975698769,0.9722513862698346
0.068632176,-0.257112831,-0.948584795,0.9659201211700267
0.068858688,-0.366228104,-0.909010708,0.9604234914180959
0.069085192,-0.468729615,-0.858791053,0.9572295246908971
0.069311704,-0.564931512,-0.799922287,0.9590232784899166
0.069538216,-0.657117486,-0.73249346,0.9683500593497318
0.06976472,-0.744972289,-0.652464211,0.980693258013752
0.069991232,-0.823196769,-0.558974445,0.9901053506550974
0.070217736,-0.888864577,-0.454930305,0.997041818652782
0.070444248,-0.940901935,-0.342508078,1.0026082347819982
0.07067076,-0.978185296,-0.223438472,1.0067712240803024
0.070897264,-0.999512136,-0.0997584984,1.0089762680143053
0.071123776,-1.00397491,0.0259986222,1.0086415482658062
0.07135028,-0.991286397,0.15092811,1.0054280152654136
0.071576792,-0.961965024,0.272041947,0.9993835283268713
0.071803304,-0.917346776,0.386613101,0.9909947973024305
0.072029808,-0.859444559,0.492481828,0.9811833009049261
0.07225632,-0.790730417,0.588294327,0.9713448075493768
0.072482824,-0.713880062,0.673787594,0.9636144647494327
0.072709336,-0.631017864,0.750347495,0.9612049079398974
0.072935848,-0.541313291,0.820254266,0.9658371399044494
0.073162352,-0.441787452,0.881729305,0.9726227200404354
0.073388864,-0.333726525,0.930768788,0.9777039302035645
0.073615368,-0.219976917,0.966293633,0.9821132291891637
0.07384188,-0.102184527,0.988119602,0.9868220254148522
0.074068392,0.0183519162,0.995679915,0.991715285962619
0.074294896,0.14000456,0.988190591,0.9961219209617228
0.074521408,0.260649502,0.965040326,0.9992409936990343
0.074747912,0.377770483,0.926116109,1.0004015851753532
0.074974424,0.488710314,0.872004271,0.99922921965222
0.075200936,0.590986371,0.804044008,0.9957516575084536
0.07542744,0.682600975,0.72423774,0.9904643951112583
0.075653952,0.762332976,0.635066271,0.9844607348588621
0.075880456,0.830121696,0.539127886,0.9797609076327453
0.076106968,0.887381077,0.437989593,0.9792800593939855
0.07633348,0.934997857,0.330337942,0.9833441485193879
0.076559984,0.969802678,0.2152289,0.9868407136511816
0.076786496,0.989046752,0.0958913267,0.9874086241780358
0.077013,0.992932081,-0.0244360752,0.9865112392501706
0.077239512,0.982162774,-0.143850327,0.985336631209382
0.077466024,0.957158804,-0.260846734,0.9841939947131771
0.077692528,0.918250501,-0.373849303,0.9829472839403369
0.07791904,0.865933716,-0.481145471,0.9813421647693805
0.078145552,0.801026762,-0.580980718,0.9791824681280001
0.078372056,0.724731326,-0.671718776,0.9764416089166564
0.078598568,0.638600767,-0.752004027,0.973320996237205
0.078825072,0.544451892,-0.820913672,0.9703271195789032
0.079051584,0.444215328,-0.878135681,0.9684495318754812
0.079278096,0.339534789,-0.924235404,0.9694949549483178
