Unnamed: 0,Frequency (GHz),Re( S21 ),Im( S21 ),S2
0,0.0,0.0387582779,0.0,0.0015022041057736
1,0.000226626656,0.0346171409,-0.0168103185,0.0014809332521618
2,0.000453253313,0.0235286318,-0.0295033902,0.0014240465476734
3,0.000679879938,0.0086846631,-0.035673745,0.0013480394554855
4,0.000906506625,-0.00647920836,-0.0350537598,0.0012707462170883
5,0.00113313325,-0.0193859544,-0.028807817,0.0012057055483043
6,0.00135975988,-0.0285319295,-0.018628858,0.0011611053513771
7,0.0015863865,-0.0332117565,-0.00619622879,0.0011414140210333
8,0.00181301325,-0.0331705026,0.00698767602,0.001149109858897
9,0.00203963988,-0.0283609554,0.0194997247,0.0011845830545765
10,0.0022662665,-0.0189607777,0.0297798421,0.0012463500864897
11,0.00249289325,-0.00563207502,0.0360388719,0.0013305205568555
12,0.00271951975,0.0100836447,0.0364226475,0.001428289141345
13,0.0029461465,0.025423184,0.0296191406,0.0015236317745804
14,0.003172773,0.036620602,0.0159008373,0.0015939051176834
15,0.00339939975,0.0401678681,-0.00167479715,0.0016162625731926
16,0.0036260265,0.0350202806,-0.0192013141,0.0015951105164695
17,0.003852653,0.0227218103,-0.0317790546,0.0015261889745789
18,0.00407927975,0.0069988477,-0.0372409113,0.0014358693435822
19,0.0043059065,-0.00851380732,-0.03568675,0.0013460290406445
20,0.004532533,-0.0213110559,-0.0286010299,0.0012721800149136
21,0.0047591595,-0.0300830528,-0.0178374834,0.0012231658798128
22,0.0049857865,-0.0343215428,-0.00509729888,0.0012039507560442
23,0.005212413,-0.0339378379,0.00820816215,0.0012191507672073
24,0.0054390395,-0.0289146733,0.0208422672,0.0012704584340819
25,0.005665666,-0.0193242244,0.0313807614,0.0013581778347052
26,0.005892293,-0.0056117638,0.0380882956,0.0014822101546599
27,0.0061189195,0.0109889116,0.0389459878,0.0016375461438703
28,0.006345546,0.0279034097,0.0320906714,0.0018084114637888
29,0.006572173,0.0397637859,0.0172928199,0.0018802002891948
30,0.0067987995,0.0448498502,-0.00277688098,0.0020192201309395
31,0.007025426,0.0388381667,-0.0229934715,0.0020371029242383
32,0.007252053,0.0239642281,-0.0372836217,0.0019643526754975
33,0.0074786795,0.00520510832,-0.0425596908,0.0018384204336145
34,0.007705306,-0.0125399241,-0.039272584,0.0016995855504708
35,0.0079319325,-0.0262376275,-0.029811142,0.0015771172841729
36,0.0081585595,-0.0346938148,-0.0168202911,0.0014865829780654
37,0.008385186,-0.0377918333,-0.00244996953,0.0014342250148729
38,0.008611813,-0.0358439088,0.0116740363,0.0014210689215964
39,0.008838439,-0.0294828322,0.0243253652,0.0014609607866467
40,0.009065066,-0.0189015381,0.0345590897,0.0015515988234383
41,0.009291693,-0.00462166173,0.0409160703,0.001695484565941
42,0.009518319,0.0122629479,0.0418228135,0.0018995276202538
43,0.009744946,0.0294684619,0.0350396,0.0020961638149117
44,0.009971573,0.0443648957,0.0201038793,0.0023724099333808
45,0.010198199,0.051477097,-0.00179281679,0.0026531057075899
46,0.010424826,0.0466881022,-0.0259897728,0.0028552471772332
47,0.010651453,0.0298482478,-0.045111239,0.0029259417808453
48,0.010878079,0.00600680755,-0.0531518608,0.0028612020434453
49,0.011104706,-0.0175481513,-0.0489744507,0.0027064344354144
50,0.011331332,-0.0353737101,-0.0356634706,0.0025231825014759
51,0.011557959,-0.0452643596,-0.0176040493,0.0023587648017549
52,0.011784586,-0.0472957119,0.00152522745,0.002239210682902
53,0.012011212,-0.0425082855,0.0192001443,0.0021755998772903
54,0.012237839,-0.0321491845,0.0337350816,0.0021716257945736
55,0.012464466,-0.0175582599,0.0438230149,0.0022287491256415
56,0.012691092,-5.22461887e-05,0.0485245921,0.0023546387681356
57,0.012917719,0.0192121007,0.0468520001,0.0025642147266773
58,0.013144346,0.0379142314,0.0375311114,0.0028460732655719
59,0.013370972,0.0528892092,0.0201755725,0.0032043221755041
60,0.013597599,0.0600422621,-0.00398531603,0.003620955981944
61,0.013824226,0.0554281548,-0.0311271343,0.0040411788342629
62,0.014050852,0.0375303477,-0.0546641126,0.0043966922048283
63,0.014277479,0.00938271824,-0.0673634484,0.0046258695819106
64,0.014504106,-0.0217667017,-0.0650597513,0.0047065605421146
65,0.014730732,-0.0478322878,-0.0487941355,0.0046687954153743
66,0.014957359,-0.063412793,-0.0235183928,0.0045742971159559
67,0.015183986,-0.0668042451,0.00482172938,0.0044860562375948
68,0.015410612,-0.0589406751,0.031273067,0.0044520079008302
69,0.015637239,-0.0419915542,0.0523527451,0.0045041005436371
70,0.015863865,-0.0185377859,0.0657285899,0.0046638970363166
71,0.016090492,0.00864643045,0.0698237121,0.0049501115309503
72,0.016317119,0.0365770869,0.0636003464,0.0053828873482901
73,0.016543745,0.0616788678,0.0464967676,0.0059662321303382
74,0.016770372,0.0795669854,0.0191709157,0.0066984291744203
75,0.016996998,0.0855146125,-0.0156790074,0.0075585802240744
76,0.017223626,0.0756329522,-0.0526677221,0.0084942324096903
77,0.017450252,0.0488047861,-0.0839376226,0.0094274316340067
78,0.017676878,0.00846533105,-0.101012081,0.0102751023377366
79,0.017903506,-0.037303295,-0.0979481786,0.0109853815089145
80,0.018130132,-0.0781267211,-0.0739423335,0.0115712532332624
81,0.018356758,-0.104855299,-0.0335508585,0.0121202938344664
82,0.018583386,-0.112004191,0.0153474547,0.012780483167333
83,0.018810012,-0.0981464311,0.0640995875,0.0137414790553372
84,0.019036638,-0.0649898052,0.104905665,0.0152288733290261
85,0.019263266,-0.0163085144,0.13133727,0.0175154461329879
86,0.019489892,0.0426473878,0.138298705,0.0209453314908406
87,0.019716518,0.105270863,0.121980555,0.0259612103948728
88,0.019943146,0.163325682,0.0801023915,0.0330916715247843
89,0.020169772,0.206772536,0.0130408304,0.0429249449013928
90,0.020396398,0.224684983,-0.0746407807,0.0560545877292157
91,0.020623026,0.207349956,-0.173096269,0.0729563225949223
92,0.020849652,0.149355873,-0.267477602,0.0938514443712625
93,0.021076278,0.0524935015,-0.340417653,0.1186397461737589
94,0.021302906,-0.073324129,-0.376292855,0.1469727406176596
95,0.021529532,-0.212086812,-0.365348101,0.1784600507286295
96,0.021756158,-0.345707148,-0.305601656,0.2129058043282362
97,0.021982786,-0.457834691,-0.202004209,0.2504183047367811
98,0.022209412,-0.536258876,-0.0646715611,0.2917559929038944
99,0.022436038,-0.573991835,0.0961898565,0.3387191151401577
100,0.022662664,-0.565047204,0.269135714,0.3917123752985074
101,0.022889292,-0.506451309,0.441880345,0.4517511676851325
102,0.023115918,-0.397433996,0.601387501,0.519620707535553
103,0.023342544,-0.240000919,0.733412385,0.5954941675922327
104,0.023569172,-0.0402346402,0.822705686,0.6784634720487541
105,0.023795798,0.190152496,0.854405642,0.7661669728164622
106,0.024022424,0.432954639,0.81684339,0.8546828432183122
107,0.024249052,0.664479017,0.705238879,0.938894240486463
108,0.024475678,0.859095871,0.524793506,1.0134539395090203
109,0.024702304,0.99462986,0.291242123,1.0741105326131666
110,0.024928932,1.05740297,0.0279266499,1.1188809387394585
111,0.025155558,1.04456937,-0.23953487,1.1485021226881138
112,0.025382184,0.962884367,-0.488476455,1.1657555513023576
113,0.025608812,0.825090587,-0.702258229,1.1739410969542212
114,0.025835438,0.645984113,-0.87051338,1.1750890190074212
115,0.026062064,0.439027011,-0.988217771,1.1693190793078023
116,0.026288692,0.216397807,-1.05519104,1.1602561417706907
117,0.026515318,-0.0102318749,-1.07270813,1.1508074234320664
118,0.026741944,-0.2307484,-1.04273689,1.1405450458694322
119,0.026968572,-0.435924828,-0.968533754,1.128088088304162
120,0.027195198,-0.617066383,-0.855032623,1.111851707422963
121,0.027421824,-0.766433179,-0.709279418,1.0904971106704648
122,0.027648452,-0.878243208,-0.54048574,1.0634359675414788
123,0.027875078,-0.949814022,-0.359302521,1.031244977984772
124,0.028101704,-0.982186913,-0.176302046,0.9957735434922558
125,0.028328332,-0.979743421,-8.76512058e-05,0.9598971786755172
126,0.028554958,-0.949989378,0.164390102,0.9295039239483974
127,0.028781584,-0.899915397,0.31256932,0.90754730156293
128,0.029008212,-0.834516048,0.445612192,0.8949872600285832
129,0.029234838,-0.758379102,0.563338697,0.8924893498879842
130,0.029461464,-0.666821063,0.666695476,0.8891331877793165
131,0.029688092,-0.561689675,0.762949467,0.8975871801971897
132,0.029914718,-0.443703383,0.84912771,0.9178905599754889
133,0.030141344,-0.310831815,0.921876073,0.9464719111860954
134,0.030367972,-0.162362024,0.976584673,0.9800790503758934
135,0.030594598,0.000152872599,1.00751734,1.0150912137707069
136,0.030821224,0.172295094,1.00892389,1.047613015229201
137,0.031047852,0.34683308,0.976550877,1.0739448007517556
138,0.031274478,0.514642715,0.909029126,1.091191076018895
139,0.031501104,0.666305423,0.808552444,1.097719971417582
140,0.03172773,0.793682396,0.680527925,1.0930500024251066
141,0.031954358,0.890916467,0.533105612,1.077933744717657
142,0.032180984,0.97062546,0.372980922,1.0812285517761815
143,0.03240761,1.01394582,0.21091792,1.0725724948725988
144,0.032634238,1.03437138,0.0623325184,1.0738094946131909
145,0.032860864,1.00906515,-0.090730682,1.0264445336007078
146,0.03308749,0.973061442,-0.240339652,1.0046117182306005
147,0.033314118,0.91963613,-0.379469216,0.9897274974930316
148,0.033540744,0.849567294,-0.507595062,0.9794173340012664
149,0.033767372,0.764014065,-0.623724937,0.9727502885534782
150,0.033993996,0.664143264,-0.726459801,0.9688301175855332
151,0.034220624,0.551374257,-0.814065218,0.9667157504396896
152,0.034447252,0.427624732,-0.884695411,0.9655488816625308
153,0.034673876,0.295387298,-0.936716139,0.964690780882808
154,0.034900504,0.157610327,-0.968978703,0.9637607420446092
155,0.035127132,0.0175269507,-0.98096019,0.9625900883656764
156,0.035353756,-0.121556088,-0.97292614,0.9613611564251632
157,0.035580384,-0.273276567,-0.956014335,0.9886434907967976
158,0.035807012,-0.412519008,-0.915829062,1.008914802765104
159,0.036033636,-0.504128516,-0.87539643,1.020464470301107
160,0.036260264,-0.636058331,-0.782773614,1.0173047312091266
161,0.036486892,-0.747111559,-0.684766948,1.0270814546646454
162,0.036713516,-0.844024777,-0.571575165,1.039075993434677
163,0.036940144,-0.924109221,-0.443407774,1.050588306380862
164,0.037166772,-0.983922541,-0.30229938,1.059488481836281
165,0.037393396,-1.02021253,-0.151833504,1.063887019305919
166,0.037620024,-1.03069675,0.00302993949,1.0623449709938757
167,0.037846652,-1.01473761,0.156459168,1.0541718883997644
168,0.038073276,-0.973683536,0.302574247,1.0396108032250804
169,0.038299904,-0.910721779,0.436343133,1.0198094884611804
170,0.038526532,-0.83031559,0.554253459,0.9966208758105128
171,0.038753156,-0.73740536,0.654601336,0.9722695740497146
172,0.038979784,-0.636630177,0.73703146,0.9485133552967828
173,0.039206412,-0.534241199,0.80035913,0.9259883956833146
174,0.039433036,-0.440776318,0.870705903,0.9524125320286824
175,0.039659664,-0.317317843,0.923290551,0.9531560550520564
176,0.039886292,-0.194383353,0.958142757,0.9558224307150835
177,0.040112916,-0.0682448968,0.979808927,0.964682899368134
178,0.040339544,0.0619622208,0.987098932,0.9782036183620084
179,0.040566172,0.195528984,0.977803528,0.994331322953319
180,0.040792796,0.330271274,0.949565232,1.010753244252797
181,0.041019424,0.462626755,0.900631249,1.0251601611171302
182,0.041246052,0.588058889,0.830518901,1.035574901850162
183,0.041472676,0.701741636,0.740407288,1.0406442758194714
184,0.041699304,0.799344122,0.633138716,1.0398156590740797
185,0.041925932,0.877691269,0.512851357,1.0333584780555718
186,0.042152556,0.935095251,0.384406328,1.0221713534491967
187,0.042379184,0.97128123,0.253216058,1.0075055997793725
188,0.042605812,0.98992753,0.12757431,0.996231719223877
189,0.042832436,1.00711489,-0.00450767344,1.0143007207795536
190,0.043059064,0.994492054,-0.143717825,1.0096692586918694
191,0.043285692,0.962631524,-0.274472684,1.0019947052607263
192,0.043512316,0.915364444,-0.397889286,0.9962079492530193
193,0.043738944,0.853640974,-0.513476014,0.9923605294449968
194,0.043965572,0.778140366,-0.620013535,0.9899192127818102
195,0.044192196,0.689715445,-0.715894818,0.9882127855108012
196,0.044418824,0.589618027,-0.799348891,0.9866080673063023
197,0.044645452,0.479598075,-0.868695974,0.9846470087875142
198,0.044872076,0.361854434,-0.922595561,0.982121200582365
199,0.045098704,0.238882318,-0.960224867,0.9790965570582209
200,0.045325328,0.113282986,-0.981343091,0.9758672971705104
201,0.045551956,-0.0123112118,-0.98627609,0.9728920916416728
202,0.045778584,-0.134870797,-0.976307929,0.971367304111684
203,0.046005208,-0.252635002,-0.957873464,0.9813460172708992
204,0.046231836,-0.380307764,-0.928680062,1.0070806529150034
205,0.046458464,-0.504511893,-0.873705745,1.0178939790244483
206,0.046685088,-0.618752301,-0.801529646,1.02530418340968
207,0.046911716,-0.722568214,-0.714007199,1.0319111041069755
208,0.047138344,-0.813900232,-0.612006128,1.0369850883592062
209,0.047364968,-0.890090883,-0.497097373,1.039367578243221
210,0.047591596,-0.948575079,-0.371837556,1.0380578485519094
211,0.047818224,-0.987437904,-0.239697412,1.032488463575411
212,0.048044848,-1.00584567,-0.104724146,1.0226926586131784
213,0.048271476,-1.00424123,0.0289733429,1.0093399026307142
214,0.048498104,-0.984253705,0.157759145,0.993643303637358
215,0.048724728,-0.948380828,0.278848231,0.977182530849795
216,0.048951356,-0.89967829,0.39038828,0.9618240346586824
217,0.049177984,-0.842229962,0.491537988,0.9509609025376096
218,0.049404608,-0.781605005,0.587121487,0.9556180243381412
219,0.049631236,-0.707767129,0.684170365,0.9690233972371358
220,0.049857864,-0.618407249,0.770211339,0.975653032339921
221,0.050084488,-0.519368172,0.844613969,0.9831160547165544
222,0.050311116,-0.411196053,0.907696009,0.992994238757307
223,0.050537744,-0.294037759,0.958047211,1.0043126622226206
224,0.050764368,-0.168827802,0.993458927,1.0154634663641426
225,0.050990996,-0.0375781283,1.01160216,1.0247510458431968
226,0.051217624,0.0966444984,1.01063371,1.0307206548593515
227,0.051444248,0.230020106,0.989693582,1.032402635416242
228,0.051670876,0.358473241,0.949190915,1.0294664576315813
229,0.051897504,0.478228778,0.890815675,1.0222553309330789
230,0.052124128,0.586268485,0.817338049,1.0117522228473217
231,0.052350756,0.680655479,0.732442677,0.9997641561836458
232,0.052577384,0.761607289,0.640940249,0.9908500654461114
233,0.052804008,0.835199475,0.544582844,0.994128637019404
234,0.053030636,0.899420857,0.434756517,0.9979711070805856
235,0.053257264,0.945962548,0.316751897,0.9951769064717508
236,0.053483888,0.976592481,0.195634961,0.9920059119112068
237,0.053710516,0.992523253,0.0726753175,0.9903841095194278
238,0.053937144,0.993828654,-0.0511619747,0.990312941166655
239,0.054163768,0.98018074,-0.174570337,0.9912290856272412
240,0.054390396,0.951271951,-0.295810789,0.9924223476481489
241,0.054617024,0.907111526,-0.412783951,0.9932419108052192
242,0.054843648,0.84821856,-0.523214519,0.9932281584208748
243,0.055070276,0.775698483,-0.624889255,0.9921947175429564
244,0.055296904,0.691209555,-0.715886831,0.9902646037225205
245,0.055523528,0.596900821,-0.79476589,0.987943410017966
246,0.055750156,0.495457143,-0.860904217,0.9866338513981056
247,0.055976784,0.389663875,-0.915966272,0.9908321469215936
248,0.056203408,0.276618063,-0.963673651,1.0051844584095415
249,0.056430036,0.151874229,-0.996760786,1.016597845941682
250,0.056656664,0.0226088427,-1.01045644,1.021533376905707
251,0.056883288,-0.107057072,-1.00624537,1.0239909613116502
252,0.057109916,-0.235025868,-0.984767139,1.0250034766833989
253,0.057336544,-0.359034121,-0.946267843,1.0243283307381152
254,0.057563168,-0.476504862,-0.891311646,1.0214933338048684
255,0.057789796,-0.584797084,-0.821098626,1.016190583073991
256,0.058016424,-0.681539714,-0.737532079,1.008449949313264
257,0.058243048,-0.764942765,-0.643091857,0.9987045702655536
258,0.058469676,-0.833997548,-0.540565968,0.9877634758297894
259,0.058696304,-0.888522804,-0.432750255,0.9767455564305876
260,0.058922928,-0.929127395,-0.322231352,0.967110760351234
261,0.059149556,-0.957428634,-0.211240098,0.9612919682061556
262,0.059376184,-0.97685498,-0.100220852,0.9642898711264064
263,0.059602808,-0.988336623,0.0159709733,0.9770643523511936
264,0.059829436,-0.984584451,0.137682468,0.9883630031455424
265,0.060056064,-0.964322209,0.259148568,0.9970753030670902
266,0.060282688,-0.928787291,0.378170282,1.0056585941110785
267,0.060509316,-0.878022909,0.493269712,1.0142392375053852
268,0.060735944,-0.811833322,0.602325618,1.0218694928086376
269,0.060962568,-0.730527461,0.70263052,1.027360018910577
270,0.061189196,-0.635288537,0.791259229,1.0296826927212748
271,0.061415824,-0.52826941,0.865530968,1.028212426108765
272,0.061642448,-0.41244024,0.923448741,1.0228645288257423
273,0.061869076,-0.291253805,0.96400553,1.014135440797559
274,0.062095704,-0.168232769,0.987314105,1.0030914064973584
275,0.062322328,-0.046584826,0.994645596,0.9914900076556454
276,0.062548956,0.0713912323,0.988642752,0.982511199131446
277,0.062775584,0.18645452,0.972857177,0.9812163748688396
278,0.063002208,0.302404195,0.945727527,0.9858488524791336
279,0.063228836,0.415877551,0.902733803,0.9878824565046004
280,0.06345546,0.522501588,0.845739067,0.9882824789125524
281,0.063682088,0.62132448,0.776836276,0.9895187091568184
282,0.063908716,0.711732984,0.696818173,0.992119406736602
283,0.06413534,0.792611063,0.606144249,0.9956431477857638
284,0.064361968,0.862416506,0.505509377,0.999301960056176
285,0.064588596,0.919438839,0.396118045,1.00227728423629
286,0.06481522,0.962102771,0.279765159,1.0039102861561735
287,0.065041848,0.989257812,0.158760637,1.0038359584636731
288,0.065268476,1.00039434,0.0357344151,1.0020657839265743
289,0.0654951,0.995778263,-0.0866153836,0.9990765737394725
290,0.065721728,0.97659713,-0.205851436,0.996116768027499
291,0.065948356,0.9451074,-0.320638001,0.9960367252200362
292,0.06617498,0.902916551,-0.432585537,1.002388544891314
293,0.066401608,0.846316516,-0.542650998,1.0107217508847743
294,0.066628236,0.773300767,-0.645208001,1.0142874407972042
295,0.06685486,0.687029541,-0.736497581,1.0144382770255225
296,0.067081488,0.59011513,-0.815426946,1.013156970917804
297,0.067308112,0.484355599,-0.881153166,1.0110312482344723
298,0.067534744,0.371500999,-0.932746351,1.0080287475618133
299,0.067761368,0.253532737,-0.969388306,1.0039925365402609
300,0.067987992,0.132667571,-0.990591824,0.9988728461706872
301,0.068214624,0.0112270787,-0.996345699,0.9928307992119346
302,0.068441248,-0.108550817,-0.987163186,0.986274435665038
303,0.068667872,-0.224692523,-0.96404022,0.979860275669754
304,0.068894504,-0.335636079,-0.928389609,0.9745588436256672
305,0.069121128,-0.440471619,-0.882032871,0.971997232668984
306,0.069347752,-0.539736867,-0.826916218,0.9751063171903992
307,0.069574384,-0.635875583,-0.762555122,0.9858280711440248
308,0.069801008,-0.727759242,-0.68461895,0.9983366210155168
309,0.070027632,-0.809983373,-0.592884898,1.0075855668129274
310,0.070254264,-0.87991488,-0.490172654,1.014519426774818
311,0.070480888,-0.936377704,-0.378477246,1.0200482302880562
312,0.070707512,-0.978081822,-0.259510607,1.0239898056723482
313,0.070934144,-1.00369811,-0.135365888,1.0257338196516006
314,0.071160768,-1.01224124,-0.00866200123,1.0247073582220465
315,0.071387392,-1.00339031,0.117608391,1.0206238478355047
316,0.071614024,-0.977665961,0.240382999,1.0136147175062875
317,0.071840648,-0.936429918,0.35688296,1.0042664384638482
318,0.072067272,-0.881736219,0.464926958,0.9936158361715496
319,0.072293904,-0.816111624,0.563177526,0.983207108619398
320,0.072520528,-0.742285609,0.651479661,0.9754136740251758
321,0.072747152,-0.662244558,0.731475472,0.9736242207382382
322,0.072973784,-0.574606121,0.805315852,0.9787058157731524
323,0.073200408,-0.476596653,0.87055558,0.9850113875199388
324,0.073427032,-0.369955659,0.923486054,0.989693681558615
325,0.073653664,-0.257285833,0.963273942,0.9940926871987232
326,0.073880288,-0.140031934,0.989643037,0.9990022832223636
327,0.074106912,-0.0194175132,1.00189471,1.0041700497448562
328,0.074333544,0.102955468,0.999126852,1.0088542947785288
329,0.074560168,0.224963248,0.98061955,1.012223164792912
330,0.074786792,0.344071537,0.946157932,1.013600054860059
331,0.075013424,0.457586199,0.896237075,1.0126260241198233
