Frequency (GHz),Re( S21 ),Im( S21 ),S2
0.0,0.0384753756,0.0,0.0014803545275610755
0.000226466641,0.0343681388,-0.0166765843,0.0014592774284910722
0.000452933281,0.0233719293,-0.0292686652,0.0014029018417938894
0.000679399938,0.00865502749,-0.0353933163,0.0013275963395645012
0.000905866563,-0.00637715729,-0.0347901285,0.0012510211761479126
0.00113233325,-0.0191744789,-0.028616624,0.0011865718102439212
0.00135879988,-0.0282522924,-0.0185498055,0.001142287309942928
0.0015852665,-0.0329169892,-0.00624979194,0.001122588077286206
0.00181173313,-0.0329188481,0.00680206064,0.001129918589181111
0.00203819975,-0.0282098744,0.0192064736,0.0011646856418112725
0.0022646665,-0.0189579781,0.0294288862,0.0012254642766126303
0.002491133,-0.00580233242,0.0357048102,0.001308500532930207
0.00271759975,0.0097557744,0.0361948647,0.0014052433647950017
0.0029440665,0.0250052083,0.0295762364,0.001500014201715074
0.003170533,0.0362237319,0.0160742048,0.0015705388127154208
0.00339699975,0.0398908071,-0.00132884516,0.001593042320548666
0.00362346625,0.0349458046,-0.0187733565,0.0015736481734174735
0.003849933,0.0228446666,-0.0313732438,0.001506159218599394
0.0040763995,0.00727599859,-0.0369331278,0.001416996084572815
0.0043028665,-0.00814071484,-0.0355193354,0.0013278944253638891
0.004529333,-0.0209009256,-0.0285920296,0.0012543528475840115
0.0047557995,-0.0296920016,-0.0179885682,0.0012052035449004537
0.004982266,-0.034002997,-0.0053967312,0.0011853285126270624
0.005208733,-0.0337451212,0.00778366206,0.001199318599866973
0.0054351995,-0.0289026089,0.0203372724,0.001248965449898161
0.005661666,-0.019536851,0.0308685154,0.0013345537899962382
0.005888133,-0.00606561964,0.0376740359,0.0014561247226116424
0.0061145995,0.0103326645,0.0387601331,0.0016091118735992755
0.006341066,0.0271710344,0.0322546884,0.0017786300341470778
0.0065675325,0.0391561948,0.0178053826,0.0018502392407479299
0.0067939995,0.0445795022,-0.00199434138,0.0019913094139397854
0.007020466,0.0389983393,-0.0221828688,0.0020129501363559377
0.0072469325,0.0244745482,-0.0366727188,0.0019438918137779965
0.0074733995,0.00589478575,-0.042259261,0.001820593639304524
0.007699866,-0.0118301352,-0.0392828807,0.0016830968149407115
0.0079263325,-0.0256145187,-0.0300802272,0.0015609236366362696
0.008152799,-0.0342215896,-0.0172858126,0.0014699165119931468
0.008379266,-0.0375121832,-0.00305227493,0.0014164802706786686
0.008605733,-0.0357893705,0.01099829,0.0014018414237103704
0.008832199,-0.0296691135,0.0236246213,0.001438379027444296
0.009058666,-0.0193646625,0.0339211375,0.0015256337230328124
0.009285132,-0.00536223268,0.0404515937,0.0016650849721843398
0.009511599,0.0112949898,0.0416609794,0.0018632139991493282
0.009738066,0.0284271818,0.0353669599,0.0020589265176584595
0.009964532,0.0434799679,0.0209633708,0.002329970523883323
0.010190999,0.051087141,-0.000494454463,0.002610140460769862
0.010417466,0.0470321029,-0.0245924275,0.0028168061935389442
0.010643932,0.0308720097,-0.0440709107,0.0028953261528442686
0.010870399,0.00737163611,-0.0527650453,0.002838491024449308
0.011096866,-0.0162354521,-0.0492488071,0.002689034905664405
0.011323332,-0.0343712904,-0.0364223085,0.002507970160230304
0.011549799,-0.044677183,-0.0186367985,0.0023433809391450915
0.011776266,-0.0471373834,0.000392182119,0.0022220867206130595
0.012002732,-0.0427568071,0.0180991758,0.0021557247180259164
0.012229199,-0.0327709764,0.0327769183,0.0021482632674542316
0.012455665,-0.0184913501,0.0430989042,0.0021994455717615482
0.012682132,-0.00110283738,0.0483159535,0.0023356476129008878
0.012908599,0.0180540215,0.0470517613,0.0025398159337546404
0.013135065,0.0368016511,0.0382291302,0.0028158279195346836
0.013361532,0.0520583317,0.0214016531,0.0031681006547999648
0.013587999,0.0597954057,-0.00234002806,0.0035809662741491796
0.013814465,0.056022428,-0.0293827783,0.004001860099642135
0.014040932,0.0389941148,-0.0533200949,0.004363573509180585
0.014267399,0.0116246874,-0.0665723532,0.004567011567733269
0.014493865,-0.01940763,-0.0654389411,0.004658911114506168
0.014720332,-0.0459454581,-0.0501906499,0.004630086457403227
0.014946799,-0.0623520464,-0.0255395342,0.004540045497420722
0.015173265,-0.0666702464,0.00260188943,0.0044516915836426574
0.015399732,-0.0596714765,0.029207157,0.004413743127712701
0.015626199,-0.0434469059,0.0507075749,0.004458891784522565
0.015852665,-0.0205376204,0.0647092164,0.004609076538796526
0.016079132,0.00631849514,0.069590047,0.0048826980222964125
0.016305598,0.034178488,0.064280957,0.005300210474801993
0.016532065,0.0595584363,0.0481636636,0.005866945825875124
0.016758532,0.0781570077,0.0217574853,0.006581906019197576
0.016984998,0.0852735415,-0.0124587314,0.007426796868049567
0.017211466,0.0769056156,-0.0493758768,0.008352450920583742
0.017437932,0.0516215414,-0.0813567936,0.009283711401384915
0.017664398,0.0123937642,-0.0999213532,0.010137882216364351
0.017890864,-0.0331062451,-0.0988101438,0.010859467982397952
0.018117332,-0.0746406615,-0.0767034665,0.011454650122274203
0.018343798,-0.102874301,-0.0376883745,0.012003535378690852
0.018570264,-0.111960851,0.0106093409,0.012647790270976613
0.018796732,-0.100114778,0.0595736429,0.013571987702366005
0.019023198,-0.0687736496,0.101323605,0.014996287809499605
0.019249664,-0.0215211231,0.12931782,0.017186257309037754
0.019476132,0.0365497358,0.138346419,0.02047561483717336
0.019702598,0.0989907905,0.124477997,0.0252939483409469
0.019929064,0.157766521,0.0852576792,0.03215914701101355
0.020155532,0.203029081,0.0207361411,0.04165079527942367
0.020381998,0.223911732,-0.0650088564,0.054362615137675645
0.020608464,0.210501477,-0.162712514,0.07078623403138172
0.020834932,0.15684019,-0.258023769,0.09117511056820146
0.021061398,0.0638952032,-0.333742797,0.11546685154135249
0.021287864,-0.0592622422,-0.373935729,0.1433399427733329
0.021514332,-0.197174132,-0.368142426,0.17440648415111892
0.021740798,-0.331861198,-0.313554555,0.20844831369924327
0.021967264,-0.446726292,-0.214439213,0.24554855603612866
0.022193732,-0.528970957,-0.0804106817,0.28627615108095456
0.022420198,-0.571371496,0.0781835765,0.3325780580756094
0.022646664,-0.567627609,0.250175357,0.3847888117491343
0.022873132,-0.514507711,0.423324198,0.44392156129080274
0.023099598,-0.410993218,0.584703326,0.5107934046774577
0.023326064,-0.258751452,0.720214069,0.585660619097645
0.023552532,-0.0633625016,0.814704061,0.6677575136189018
0.023778998,0.164138362,0.853212714,0.7549133372112887
0.024005464,0.40628773,0.823612511,0.843407287824278
0.024231932,0.639952123,0.720230639,0.9282708930865555
0.024458398,0.839578986,0.547064781,1.0041727483433662
0.024684864,0.982420862,0.318681777,1.0667088250847008
0.02491133,1.05369604,0.0576928817,1.1136038133105317
0.025137798,1.04929101,-0.210359827,1.14526288048229
0.025364264,0.974933505,-0.462317795,1.164233082745247
0.02559073,0.842792988,-0.680771172,1.173749409248222
0.025817198,0.66754967,-0.854626,1.1760081617931089
0.026043664,0.462893724,-0.978206694,1.1711589359049979
0.02627013,0.241129577,-1.05086589,1.1624625916696911
0.026496598,0.0141268456,-1.07376087,1.1531619737097634
0.026723064,-0.207792088,-1.04874945,1.1430529607107025
0.02694953,-0.415280759,-0.978968978,1.1308383686819807
0.027175998,-0.599550486,-0.869199872,1.1149692027476528
0.027402464,-0.752716959,-0.726293743,1.0940854214871578
0.02762893,-0.868748903,-0.559278071,1.0675166171651844
0.027855398,-0.94460535,-0.378720015,1.0357081170102227
0.028081864,-0.980935574,-0.195285812,1.000371148707209
0.02830833,-0.981811523,-0.0178809166,0.9642735938740357
0.028534798,-0.954372704,0.148216754,0.932795464306568
0.028761264,-0.906074345,0.298153371,0.9098661513058426
0.02898773,-0.841802061,0.432708114,0.8958670218252847
0.029214198,-0.766538382,0.552059412,0.8923506854569637
0.029440664,-0.676586568,0.656266272,0.8884548037627966
0.02966713,-0.572665632,0.753127038,0.8951462614406129
0.029893598,-0.456203073,0.840208769,0.9140720193191386
0.030120064,-0.325156868,0.914286375,0.9416465643182099
0.03034653,-0.178617164,0.97096616,0.9746793751405486
0.030572998,-0.0178192258,1.00464892,1.0096369772652776
0.030799464,0.153208271,1.00955391,1.0426718714990975
0.03102593,0.327596724,0.981190503,1.0700544167529251
0.031252398,0.496438354,0.917777181,1.0887659932865361
0.031478864,0.650306463,0.821029484,1.0969879094168764
0.03170533,0.780856192,0.695939839,1.0940686520920868
0.031931796,0.881825089,0.550296664,1.0804419059993868
0.032158264,0.964634836,0.390996426,1.0833985719695205
0.03238473,1.01094723,0.228874668,1.074397915496783
0.032611196,1.0355227,0.0763856098,1.0781420235998078
0.032837664,1.01268852,-0.0742227212,1.0310470508821232
0.03306413,0.978318512,-0.225195691,1.0078202101668616
0.033290596,0.926486611,-0.365634024,0.9920656798686979
0.033517064,0.857845604,-0.495014995,0.9809389255769748
0.033743532,0.773624897,-0.612386584,0.9735128095214498
0.033969996,0.675040185,-0.716422617,0.9689406175139628
0.034196464,0.563507855,-0.805470645,0.9663240626034171
0.034422932,0.44089058,-0.87774682,0.9648239835528488
0.034649396,0.30959627,-0.931633949,0.9637916653272475
0.034875864,0.172486976,-0.96595645,0.962823620186227
0.035102332,0.032719247,-0.980121851,0.9617093919319133
0.035328796,-0.106427945,-0.974288523,0.9605650335264445
0.035555264,-0.257826358,-0.959078372,0.9863057545177146
0.035781728,-0.396655947,-0.920693338,1.005012162928049
0.036008196,-0.478715092,-0.892670393,1.0260285698473428
0.036234664,-0.622770369,-0.792760074,1.0163114674328817
0.036461128,-0.735309362,-0.696354449,1.0255893764869406
0.036687596,-0.833907485,-0.584948659,1.0375666272049235
0.036914064,-0.916058064,-0.458442777,1.0493321564029
0.037140528,-0.978354573,-0.318688065,1.0587397532834564
0.037366996,-1.01748872,-0.169083253,1.0638724417723004
0.037593464,-1.03102863,-0.0144310659,1.063228291542687
0.037819928,-1.0181061,0.139517829,1.0560052554660835
0.038046396,-0.979810357,0.286849111,1.0423107481659577
0.038272864,-0.919106066,0.422378927,1.0231599185316678
0.038499328,-0.840325356,0.542363942,1.0003053495183063
0.038725796,-0.748398244,0.644852281,0.9759343959331865
0.038952264,-0.64802897,0.729364872,0.9519146624668373
0.039178728,-0.544737041,0.794960439,0.9287005434125084
0.039405196,-0.454210281,0.862239957,0.9497647228134608
0.039631664,-0.330387115,0.918669283,0.9531088972857573
0.039858128,-0.207615599,0.954703689,0.9545633707383375
0.040084596,-0.0820508823,0.97756952,0.9623745137192388
0.040311064,0.0474352874,0.986351311,0.9751390152021392
0.040537528,0.180350274,0.978956878,0.990882790315382
0.040763996,0.314745724,0.95303607,1.0073426214973291
0.040990464,0.447282255,0.906723499,1.022208919276688
0.041216928,0.573571861,0.839320123,1.0334429486037386
0.041443396,0.688820601,0.751732707,1.039575883135549
0.041669864,0.788599074,0.646539748,1.039902145257561
0.041896328,0.869528055,0.52768749,1.034533125534583
0.042122796,0.929676712,0.399941117,1.0242516859023387
0.042349264,0.968527377,0.268589258,1.0101854695114907
0.042575728,0.9884094,0.141390949,0.9969445424674807
0.042802196,1.00700843,0.0122777503,1.014216721243494
0.043028664,0.997578025,-0.128304213,1.01162388703645
0.043255128,0.9674263,-0.260145903,1.0035895367793752
0.043481596,0.921642482,-0.384477884,0.9972481079122377
0.043708064,0.861333072,-0.500963211,0.9928587996963876
0.043934528,0.787225485,-0.608469546,0.9899591526429313
0.044160996,0.700170457,-0.705465376,0.9879200655904103
0.044387464,0.601375639,-0.790236056,0.9861256833850935
0.044613928,0.492517233,-0.861123741,0.9841073221158114
0.044840396,0.375714421,-0.916767776,0.9816244812593515
0.045066864,0.253396332,-0.956288815,0.9786979987651583
0.045293328,0.128121182,-0.979367018,0.9755747932232895
0.045519796,0.0024801949,-0.9862324,0.972660498176502
0.045746264,-0.120612666,-0.977909446,0.9708542997756544
0.045972728,-0.238431931,-0.959611952,0.9777048841416391
0.046199196,-0.364430815,-0.933598101,1.0044152331123704
0.046425664,-0.489972442,-0.881283462,1.0167335343141488
0.046652128,-0.605430186,-0.811049283,1.0243466495748086
0.046878596,-0.710599303,-0.725377619,1.031124059570195
0.047105064,-0.803587854,-0.625109196,1.0365149460200918
0.047331528,-0.881787717,-0.511695802,1.0393821716364953
0.047557996,-0.942596793,-0.387554318,1.03868706357433
0.047784464,-0.983988464,-0.256037325,1.0337884090782348
0.048010928,-1.00496054,-0.121131442,1.0246185131980907
0.048237396,-1.00577044,0.0130335763,1.0117440520889616
0.048463864,-0.987886608,0.142724261,0.9962901649437419
0.048690328,-0.953701854,0.265010774,0.9797779366591163
0.048916796,-0.906196713,0.377901047,0.9640016839757006
0.049143264,-0.849199593,0.480321109,0.9518483165023556
0.049369728,-0.788602114,0.575483501,0.9530745541284861
0.049596196,-0.717359662,0.672740579,0.9671847712980095
0.04982266,-0.629384816,0.76022315,0.9740644844072763
0.050049128,-0.531491816,0.835756898,0.9809731430295601
0.050275596,-0.424599349,0.900043964,0.9903637443040572
0.05050206,-0.308782309,0.951910496,1.0014801067463375
0.050728528,-0.184804052,0.989256918,1.0127817874464775
0.050954996,-0.054472737,1.00975597,1.0225743980269122
0.05118146,0.0793358162,1.01145887,1.029343217433797
0.051407928,0.21292679,0.99331373,1.032009984106217
0.051634396,0.342251241,0.955494404,1.0301054680413553
0.05186086,0.46345678,0.899463236,1.02382629984356
0.052087328,0.573365808,0.827804565,1.0140087476183322
0.052313796,0.669810951,0.744035363,1.0022353314740662
0.05254026,0.752424419,0.652794361,0.9922829840608858
0.052766728,0.826340973,0.557327807,0.9934536881140159
0.052993196,0.892592132,0.449299902,0.998591116045515
0.05321966,0.941351771,0.331679791,0.9961546405226401
0.053446128,0.973728061,0.210691497,0.9925372436869206
0.053672596,0.991263509,0.0878725499,0.9903249293009212
0.05389906,0.994204879,-0.0358321778,0.9897272863932954
0.054125528,0.982307136,-0.159195855,0.9902706296857035
0.054351996,0.955278337,-0.280578911,0.9912812264394315
0.05457846,0.913083851,-0.397974879,0.9921061232720548
0.054804928,0.856154263,-0.509168565,0.9922527496372322
0.055031396,0.785482526,-0.611960888,0.9914789270930893
0.05525786,0.702610195,-0.704393208,0.9898308775944693
0.055484328,0.609571099,-0.784936786,0.9877026827520776
0.055710796,0.508923531,-0.852767706,0.9862159208020104
0.05593726,0.403599322,-0.908943772,0.9890711933764477
0.056163728,0.292289495,-0.95755583,1.002346316454344
0.056390196,0.168965667,-0.993379533,1.015352293208053
0.05661666,0.0399121754,-1.0097146,1.0211165551983201
0.056843128,-0.089885965,-1.00786698,1.0238753360783017
0.057069596,-0.218237221,-0.988677979,1.0251116307893273
0.05729606,-0.342935473,-0.952421963,1.0247123342465072
0.057522528,-0.461448401,-0.899603665,1.022221380866889
0.057748996,-0.571134925,-0.831324577,1.0172956548789844
0.05797546,-0.669570088,-0.749385774,1.0099031410179067
0.058201928,-0.754864752,-0.656191587,1.0004081926616002
0.058428396,-0.825882375,-0.554499924,0.9895518630516463
0.05865486,-0.882312894,-0.447122395,0.9783944790291913
0.058881328,-0.924632788,-0.336687893,0.9683045299374324
0.059107796,-0.954235017,-0.225515991,0.9614219298657024
0.05933426,-0.974218905,-0.114670821,0.9622518720482129
0.059560728,-0.986891806,9.78142343e-05,0.9739554463175661
0.059787196,-0.985540986,0.121202797,0.9859811530864754
0.06001366,-0.967434108,0.242737845,0.9948504147169996
0.060240128,-0.933982611,0.361975789,1.0033499894725497
0.060466596,-0.885414898,0.477514714,1.0119798436868521
0.06069306,-0.821520448,0.587388456,1.0199210447241847
0.060919528,-0.742479265,0.688998163,1.0259939275723151
0.061145996,-0.649292111,0.779445171,1.0291150200020556
0.06137246,-0.543922961,0.855981946,1.0285572793809545
0.061598928,-0.429195911,0.916459024,1.0241062726901524
0.061825396,-0.30849278,0.959663033,1.0161209322188876
0.06205186,-0.185351506,0.985481381,1.0055287330741352
0.062278328,-0.0630769208,0.994947433,0.993899092370899
0.062504796,0.0557499975,0.990408719,0.9840174928924711
0.06273126,0.171011716,0.975493133,0.9808318595394203
0.062957728,0.286611527,0.950198591,0.9850235297476571
0.063184196,0.400777191,0.909359515,0.9875570843468857
0.06341066,0.508390486,0.853987813,0.9877560710078392
0.063637128,0.608139932,0.786533296,0.9884688026095882
0.063863592,0.699510396,0.70799613,0.9905733142070536
0.06409006,0.781530082,0.618863881,0.9937817722773088
0.064316528,0.852768898,0.519762218,0.997367556656414
0.064542992,0.911569178,0.411772013,1.0005145569696678
0.06476946,0.956336737,0.296547115,1.0025201459506303
0.064995928,0.985834479,0.176274925,1.002942469168957
0.065222392,0.999410987,0.053507816,1.001685407309404
0.06544886,0.99715513,-0.0690711588,0.9990891782632917
0.065675328,0.980031788,-0.188943759,0.996162049555527
0.065901792,0.950077653,-0.304416835,0.9953171561614057
0.06612826,0.909420192,-0.41641283,1.0004447306059259
0.066354728,0.855404615,-0.526861012,1.0092995813289625
0.066581192,0.784730315,-0.630960524,1.013912850126354
0.06680766,0.70014143,-0.72406435,1.0144672049433674
0.067034128,0.604565799,-0.804834008,1.0132575857538524
0.067260592,0.499922186,-0.872468352,1.0111232172966145
0.067487064,0.387961,-0.926074624,1.0081279467377413
0.067713528,0.270623744,-0.964831412,1.0041368643984914
0.067939992,0.150087312,-0.98820895,0.9990831300834878
0.068166464,0.0286534596,-0.996127605,0.9930912261900848
0.068392928,-0.0914297402,-0.989020109,0.9865201733994114
0.068619392,-0.208147138,-0.967803478,0.9799688030864875
0.068845864,-0.319864094,-0.933811128,0.9743162614070732
0.069072328,-0.425515026,-0.888773561,0.9709814800844014
0.069298792,-0.525233984,-0.834696889,0.9725896344547906
0.069525264,-0.621265173,-0.771979809,0.9819232406863962
0.069751728,-0.713857293,-0.696596622,0.9948390885510988
0.069978192,-0.797740161,-0.607019603,1.0048621628985834
0.070204664,-0.869585693,-0.505996943,1.0122121837956355
0.070431128,-0.928154528,-0.395731956,1.0180746088464887
0.070657592,-0.972220719,-0.277924836,1.0224553409185038
0.070884056,-1.00045133,-0.154563099,1.0247926152712528
0.071110528,-1.01177251,-0.0281552598,1.0244763306461053
0.071336992,-1.00571442,0.0983699039,1.021138132589232
0.071563456,-0.982621133,0.221941546,1.0148023408590736
0.071789928,-0.943687558,0.339697063,1.0059403017348294
0.072016392,-0.890841722,0.449305952,0.9954748121585515
0.072242856,-0.826533198,0.549227059,0.9848074897338968
0.072469328,-0.753492355,0.638998866,0.976070279792732
0.072695792,-0.674062371,0.719830215,0.9725156184250878
0.072922256,-0.587810755,0.794179082,0.9762418979800327
0.073148728,-0.491579026,0.860804439,0.9826342210052135
0.073375192,-0.38618955,0.915579677,0.9874285134646268
0.073601656,-0.274483919,0.957211494,0.9915952660353107
0.073828128,-0.158104658,0.985516012,0.9962388927896813
0.074054592,-0.0382375084,0.999927819,1.001317750258737
0.074281056,0.083647266,0.999589324,1.0061756817640517
0.074507528,0.20557256,0.983728409,1.009981660098625
0.074733992,0.325110972,0.952000856,1.0120027739395174
0.074960456,0.439607173,0.904724598,1.0117810647793137
0.075186928,0.546481907,0.842973948,1.0092475516850634
0.075413392,0.643547714,0.768533707,1.0047977189897876
0.075639856,0.729323089,0.683750629,0.9994270908063976
0.075866328,0.803441465,0.591225982,0.9950663494732106
0.076092792,0.86708957,0.492756158,0.9946529536497059
0.076319256,0.921360314,0.387276173,0.9988876623877045
0.076545728,0.96327728,0.273474723,1.0026915422841252
0.076772192,0.989671648,0.154370531,1.0032802316962577
0.076998656,1.00049865,0.0334090814,1.0021137153718143
0.077225128,0.996442974,-0.0873542875,1.0005293719785975
0.077451592,0.977936447,-0.206365481,0.9989464061193453
0.077678056,0.94529742,-0.322050899,0.9973039938053646
0.077904528,0.898973286,-0.432717681,0.9953975603916557
0.078130992,0.83969903,-0.536623776,0.9930595379514391
0.078357456,0.768567741,-0.632118464,0.9902701250355626
0.078583928,0.68701458,-0.717794716,0.9872182874500971
0.078810392,0.59675014,-0.792632759,0.9843774202299717
0.079036856,0.499637008,-0.856177688,0.9826773731922175
0.079263328,0.397350848,-0.908828378,0.98385671706443
