Frequency (GHz),Re( S21 ),Im( S21 ),S2
0,0.038586941,0,0.001488952
0.000226625,0.034463771,-0.016734621,0.001467799
0.000453249,0.023424761,-0.02936805,0.001411202
0.000679874,0.008650889,-0.035507441,0.001335616
0.000906498,-0.006437865,-0.034890287,0.001258778
0.001133123,-0.019278843,-0.028678421,0.001194126
0.001359747,-0.028379681,-0.018557165,0.001149775
0.001586372,-0.033041962,-0.006195553,0.001130156
0.001812996,-0.033013828,0.006915107,0.001137732
0.002039621,-0.028247546,0.019363888,0.001172884
0.002266245,-0.018916294,0.029602971,0.001234162
0.00249287,-0.00567202,0.035854846,0.001317742
0.002719494,0.009961151,0.036272053,0.001414886
0.002946119,0.025241498,0.029540477,0.001509773
0.003172743,0.036422458,0.015915673,0.001579904
0.003399368,0.039997648,-0.001574626,0.001602291
0.003625993,0.034916725,-0.019036161,0.001581553
0.003852617,0.022701122,-0.031589765,0.001513254
0.004079242,0.007058868,-0.037064027,0.00142357
0.004305866,-0.008387649,-0.035551734,0.001334278
0.004532491,-0.02114155,-0.02852856,0.001260844
0.004759115,-0.029896703,-0.017838718,0.001212033
0.00498574,-0.034146804,-0.005174352,0.001192778
0.005212364,-0.033803389,0.008062035,0.001207665
0.005438989,-0.028848201,0.02064427,0.001258405
0.005665613,-0.019348197,0.031160157,0.001345308
0.005892238,-0.005736907,0.037886716,0.001468315
0.006118862,0.010772377,0.038814094,0.001622578
0.006345487,0.027636306,0.032075852,0.001792626
0.006572111,0.039515235,0.01740879,0.00186452
0.006798736,0.044684522,-0.002552634,0.002003222
0.007025361,0.038801163,-0.022721227,0.002021784
0.007251985,0.024052518,-0.037034608,0.001950086
0.00747861,0.005383991,-0.042381719,0.001825197
0.007705234,-0.012313332,-0.039186653,0.001687212
0.007931859,-0.026001841,-0.029820137,0.001565336
0.008158483,-0.0344809,-0.01691694,0.001475115
0.008385108,-0.037628893,-0.002620431,0.0014228
0.008611732,-0.035753474,0.011450543,0.001409426
0.008838356,-0.029480934,0.024069436,0.001448463
0.009064981,-0.019004921,0.034305159,0.001538031
0.009291606,-0.004834442,0.04070662,0.001680401
0.00951823,0.011952695,0.041705154,0.001882187
0.009744855,0.029124474,0.035072673,0.002078327
0.009971479,0.044044264,0.020316761,0.002352668
0.010198104,0.051287103,-0.001424782,0.002632397
0.010424728,0.046707913,-0.025559815,0.002834933
0.010651353,0.030079158,-0.044748392,0.002907174
0.010877977,0.006370999,-0.052951284,0.002844428
0.011104602,-0.017153585,-0.048960444,0.002691371
0.011331226,-0.0350288,-0.035808917,0.002509295
0.011557851,-0.045015946,-0.017863002,0.002345522
0.011784475,-0.047166672,0.001199623,0.002226134
0.0120111,-0.042507917,0.01885128,0.002162294
0.012237724,-0.032277837,0.033404529,0.002157721
0.012464349,-0.017803762,0.043549061,0.002213495
0.012690973,-0.000241054,0.04851228,0.002353499
0.012917598,0.019011028,0.046912972,0.002562246
0.013144222,0.037729494,0.037680324,0.002843322
0.013370847,0.052764043,0.02041571,0.003200845
0.013597471,0.060030352,-0.003678025,0.003617171
0.013824096,0.055480763,-0.030490944,0.004007813
0.014050721,0.037898205,-0.054100048,0.004363089
0.014277345,0.00999197,-0.06703604,0.00459367
0.01450397,-0.021074234,-0.065058604,0.004676745
0.014730594,-0.047225285,-0.049103435,0.004641375
0.014957219,-0.063009858,-0.024048537,0.004548574
0.015183843,-0.066659942,0.004184739,0.00446106
0.015410468,-0.059060358,0.030636914,0.004426746
0.015637092,-0.042349596,0.051808782,0.004477638
0.015863717,-0.0190874,0.065352663,0.004635299
0.016090341,0.007970255,0.069676481,0.004918337
0.016316966,0.035856154,0.063727945,0.005346915
0.01654359,0.061021153,0.046923295,0.005925377
0.016770215,0.079101659,0.019878117,0.006652212
0.01699684,0.085375011,-0.014772138,0.007507109
0.017223464,0.075919256,-0.051717635,0.008438447
0.017450088,0.049532436,-0.083160557,0.00936914
0.017676712,0.009526676,-0.100626513,0.010216453
0.017903338,-0.036129229,-0.098094598,0.010927871
0.018129962,-0.077107906,-0.074627422,0.011514881
0.018356586,-0.104222991,-0.034651347,0.012063148
0.018583212,-0.111900739,0.014036082,0.012718787
0.018809836,-0.09861555,0.062807225,0.013669774
0.01903646,-0.065991662,0.103850804,0.015139889
0.019263084,-0.017738437,0.130709723,0.017399684
0.01948971,0.04094778,0.13825196,0.020790325
0.019716334,0.103508241,0.122624129,0.025750633
0.019942958,0.161757514,0.081487693,0.032805737
0.020169582,0.205699086,0.015126189,0.042540916
0.020396208,0.224412844,-0.072024696,0.055548681
0.020622832,0.208127961,-0.17026566,0.072307643
0.020849456,0.151292413,-0.264872342,0.093046752
0.02107608,0.055489775,-0.338521719,0.117676069
0.021302706,-0.069582224,-0.375519156,0.145856322
0.02152933,-0.208065018,-0.365938365,0.177201939
0.021755954,-0.341916412,-0.307586402,0.211516227
0.021982578,-0.454738826,-0.205225781,0.248905021
0.022209204,-0.534183264,-0.068826355,0.290088827
0.022435828,-0.573181212,0.091409199,0.336892343
0.022662452,-0.565646291,0.264106393,0.389707913
0.022889076,-0.508514047,0.436992884,0.449549317
0.023115702,-0.400928557,0.597045422,0.517206944
0.023342326,-0.244797423,0.730029404,0.592868709
0.02356895,-0.04607961,0.820688963,0.675653704
0.023795576,0.183661714,0.854112566,0.763239901
0.0240222,0.426374823,0.818507671,0.851750297
0.024248824,0.658475101,0.708883405,0.936105141
0.024475448,0.854336917,0.530169249,1.010971
0.024702074,0.991650462,0.297837436,1.072077777
0.024928698,1.05648422,0.035060152,1.117388121
0.025155322,1.04569733,-0.232569352,1.147571409
0.025381946,0.965793252,-0.482276022,1.165346767
0.025608572,0.829359949,-0.697236121,1.173976133
0.025835196,0.651138186,-0.866892397,1.175483365
0.02606182,0.444621116,-0.986063302,1.170008772
0.026288444,0.222052753,-1.0544405,1.161152193
0.02651507,-0.004828096,-1.0732224,1.15182963
0.026741694,-0.225836754,-1.04433692,1.141641842
0.026968318,-0.431683719,-0.971017957,1.129226706
0.027194942,-0.613619626,-0.858184099,1.113008993
0.027421568,-0.763851106,-0.712872028,1.09165504
0.027648192,-0.876539469,-0.544291973,1.064575193
0.027874816,-0.948939502,-0.363108695,1.032334103
0.028101442,-0.982036412,-0.179931909,0.996771006
0.028328066,-0.980174065,-0.003424207,0.960752923
0.02855469,-0.950848222,0.161382899,0.930156781
0.028781314,-0.90106523,0.309881538,0.907945116
0.02900794,-0.835866988,0.443184704,0.895086303
0.029234564,-0.759871304,0.561120152,0.892260224
0.029461188,-0.668514907,0.664663792,0.888690137
0.029687812,-0.563626707,0.76105535,0.896880311
0.029914438,-0.445936054,0.847401083,0.91694756
0.030141062,-0.313408643,0.920394778,0.945351525
0.030367686,-0.165297478,0.975467265,0.978859641
0.03059431,-0.003098718,1.00690639,1.01387008
0.030820936,0.168839812,1.00895679,1.046500686
0.03104756,0.343354225,0.977321923,1.073050265
0.031274184,0.511363208,0.910556734,1.090605896
0.031500808,0.663449168,0.810761094,1.09749835
0.031727434,0.791428745,0.683257163,1.093199809
0.031954058,0.889362991,0.536141515,1.078414254
0.032180682,0.969780862,0.376164824,1.081974895
0.032407308,1.01373696,0.214037091,1.0734745
0.032633932,1.03458285,0.06509386,1.074598884
0.032860556,1.00980687,-0.088199966,1.027489149
0.03308718,0.974071681,-0.238123432,1.005518409
0.033313806,0.920817673,-0.37755096,0.990449914
0.03354043,0.850854099,-0.505926967,0.979914794
0.033767056,0.765378058,-0.622252107,0.973001256
0.03399368,0.665588319,-0.725138068,0.968833028
0.034220304,0.552926183,-0.812875092,0.966493279
0.034446928,0.429314584,-0.883647561,0.965144024
0.034673552,0.297234088,-0.935846925,0.96415757
0.034900176,0.159609839,-0.96833986,0.963157385
0.0351268,0.019648934,-0.980603516,0.961969336
0.035353424,-0.1193638,-0.972892642,0.96076781
0.035580052,-0.271028697,-0.956366301,0.988093056
0.035806676,-0.410291761,-0.916575015,1.008449087
0.0360333,-0.502209067,-0.876702189,1.020820675
0.036259924,-0.634211719,-0.784124076,1.017075071
0.036486548,-0.745503664,-0.686393261,1.026911422
0.036713172,-0.842709839,-0.573437035,1.038989906
0.036939796,-0.923129499,-0.445450068,1.050593835
0.037166424,-0.983310938,-0.304456592,1.059594217
0.037393048,-1.01998651,-0.154028654,1.064097307
0.037619672,-1.03085506,0.00088115,1.062662931
0.037846296,-1.01525259,0.154441357,1.054589954
0.03807292,-0.974500179,0.300761014,1.040107786
0.038299544,-0.911762893,0.434784055,1.020348748
0.038526168,-0.831495225,0.552965701,0.997155376
0.038752792,-0.738642156,0.653568745,0.972744339
0.03897942,-0.63786,0.736210942,0.948871931
0.039206044,-0.535399258,0.79966265,0.926112719
0.039432668,-0.442074746,0.870154917,0.952599661
0.039659292,-0.318541646,0.922813356,0.95305327
0.039885916,-0.195643052,0.957716942,0.955497945
0.04011254,-0.069588326,0.979455471,0.964175555
0.040339164,0.060504329,0.9868626,0.977558565
0.040565788,0.193951651,0.977747977,0.993608349
0.040792416,0.328603655,0.949759126,1.010022759
0.04101904,0.460934401,0.901132286,1.024499919
0.041245664,0.586434603,0.83135432,1.035055549
0.041472288,0.700289011,0.741562724,1.040319973
0.041698912,0.798155904,0.634556353,1.039714612
0.041925536,0.876829147,0.514440179,1.033478051
0.04215216,0.934579253,0.386059731,1.022480496
0.042378788,0.971082687,0.254830867,1.007940356
0.042605412,0.989948213,0.129106119,0.996665854
0.042832036,1.00744617,-0.003078655,1.014957264
0.04305866,0.99495846,-0.14250043,1.01024871
0.043285284,0.963167489,-0.27342093,1.002450617
0.043511908,0.915929198,-0.396965563,0.996507954
0.043738532,0.854216754,-0.51263696,0.992482916
0.043965156,0.778733075,-0.619220793,0.989859593
0.044191784,0.690349102,-0.715123951,0.987984148
0.044418408,0.59032619,-0.798596144,0.986240812
0.044645032,0.480410218,-0.86797899,0.984181505
0.044871656,0.362787813,-0.921948195,0.981603472
0.04509828,0.239935368,-0.959688246,0.97857051
0.045324904,0.114435561,-0.980954826,0.975367868
0.045551528,-0.011093031,-0.986061931,0.972441187
0.045778152,-0.133623928,-0.976271987,0.970962347
0.04600478,-0.251350284,-0.958023846,0.980986655
0.046231404,-0.379093409,-0.929081678,1.006904577
0.046458028,-0.503405452,-0.874270141,1.017765329
0.046684652,-0.617762387,-0.802237153,1.025214816
0.046911276,-0.721712589,-0.714834988,1.031858121
0.0471379,-0.813192844,-0.612928331,1.03696374
0.047364524,-0.889541268,-0.498086184,1.039373514
0.047591152,-0.948187768,-0.372863144,1.038086968
0.047817776,-0.987210989,-0.240728363,1.032535682
0.0480444,-1.00576818,-0.105730213,1.02274851
0.048271024,-1.0042938,0.028018234,1.009391058
0.048497648,-0.984408438,0.156871736,0.993668714
0.048724272,-0.948607683,0.27803278,0.977158763
0.048950896,-0.899949014,0.38963449,0.961723264
0.04917752,-0.842524827,0.490816444,0.950748866
0.049404148,-0.781960964,0.586395204,0.955322284
0.049630772,-0.70818764,0.683487117,0.968684373
0.049857396,-0.618881583,0.769537747,0.975202758
0.05008402,-0.519931376,0.843946934,0.982575063
0.050310644,-0.411877483,0.907058179,0.992397601
0.050537268,-0.294854581,0.957478166,1.003703662
0.050763892,-0.169778094,0.993008435,1.014890353
0.05099052,-0.038637061,1.0113219,1.024264808
0.051217144,0.095525667,1.01056409,1.030364933
0.051443768,0.2289069,0.98985368,1.032208677
0.051670392,0.35743615,0.949571371,1.02944639
0.051897016,0.477329582,0.891379058,1.022400155
0.05212364,0.585547149,0.818024158,1.012028987
0.052350264,0.680121422,0.733182907,1.000122324
0.052576888,0.761233687,0.641679585,0.991229416
0.052803516,0.834970891,0.5453071,0.994536222
0.05303014,0.899322271,0.435398847,0.998352703
0.053256764,0.94591558,0.31729728,0.995433848
0.053483388,0.97654736,0.196110234,0.99210397
0.053710012,0.992454469,0.07311935,0.990312312
0.053936636,0.993732631,-0.050706845,0.990075726
0.05416326,0.980077267,-0.174066752,0.990850683
0.054389884,0.95119673,-0.295237333,0.991940302
0.054616512,0.907107532,-0.41214034,0.992703734
0.054843136,0.848325014,-0.52252239,0.992684977
0.05506976,0.775940895,-0.62418735,0.99169412
0.055296384,0.691593587,-0.715220869,0.989842581
0.055523008,0.597411275,-0.794178843,0.987620266
0.055749632,0.496065974,-0.860425532,0.986413547
0.055976256,0.390347034,-0.915610671,0.990713708
0.056202884,0.277346164,-0.96347779,1.005210347
0.056429508,0.152572289,-0.996718466,1.016726004
0.056656132,0.023247486,-1.01052785,1.021706981
0.056882756,-0.106490195,-1.00640023,1.024181585
0.05710938,-0.234535187,-0.984978199,1.025188806
0.057336004,-0.358616412,-0.94651109,1.024488974
0.057562628,-0.476151645,-0.891569257,1.021616129
0.057789252,-0.584497035,-0.821358025,1.016265789
0.05801588,-0.681280315,-0.737785757,1.008470691
0.058242504,-0.764712632,-0.643336475,0.99866723
0.058469128,-0.833785653,-0.540801823,0.987665127
0.058695752,-0.888318121,-0.432980597,0.976581281
0.058922376,-0.928920329,-0.322464079,0.96687606
0.059149,-0.957211077,-0.211489856,0.960981005
0.059375624,-0.976633787,-0.100513704,0.963916559
0.059602248,-0.988143444,0.015632743,0.976671849
0.059828876,-0.984417439,0.137309909,0.987931705
0.0600555,-0.964189947,0.258729637,0.996603279
0.060282124,-0.928712726,0.377703249,1.005167072
0.060508748,-0.878030121,0.492766589,1.013755805
0.060735372,-0.811940849,0.601810098,1.021423336
0.060961996,-0.730744064,0.702135742,1.026981487
0.06118862,-0.635608077,0.790821075,1.0293956
0.061415248,-0.528670073,0.86518234,1.028032528
0.061641872,-0.412887603,0.923210919,1.022794574
0.061868496,-0.291706711,0.9638834,1.014164014
0.06209512,-0.168652177,0.98729378,1.003192565
0.062321744,-0.04694362,0.994698405,0.99162862
0.062548368,0.071100019,0.988732517,0.982647203
0.062774992,0.186220974,0.972961664,0.981332651
0.063001616,0.302232444,0.945828915,0.985936787
0.063228244,0.415747106,0.902795434,0.987885252
0.063454868,0.522370398,0.845754087,0.988170808
0.063681492,0.62116009,0.776822031,0.989292325
0.063908116,0.711518109,0.696804941,0.991795145
0.06413474,0.792346179,0.606166959,0.99525085
0.064361364,0.862120271,0.505598664,0.998881371
0.064587988,0.919143617,0.396292061,1.001872386
0.064814616,0.961848021,0.28002435,1.003565252
0.06504124,0.989079058,0.159085721,1.00358565
0.065267864,1.00031435,0.036091868,1.001931422
0.065494488,0.995802939,-0.086266659,0.99906543
0.065721112,0.976712942,-0.20554927,0.996218673
0.065947736,0.945289552,-0.320406318,0.996232546
0.06617436,0.903143227,-0.432443291,1.002674888
0.066400984,0.846543968,-0.542620122,1.011073287
0.066627612,0.773474336,-0.645269632,1.014635446
0.066854236,0.687121272,-0.736611843,1.01473265
0.06708086,0.590117753,-0.81555289,1.013365479
0.06730748,0.484277457,-0.881253481,1.011132353
0.067534112,0.371363819,-0.93279165,1.008011348
0.067760736,0.253366292,-0.969361901,1.003856973
0.06798736,0.132503867,-0.990490556,0.998628816
0.068213984,0.011094427,-0.996179402,0.992496487
0.068440608,-0.108632058,-0.986949861,0.985870952
0.068667232,-0.224711061,-0.963802218,0.979409776
0.068893856,-0.335589349,-0.928149641,0.974081967
0.06912048,-0.440362751,-0.881811559,0.971510978
0.069347104,-0.539573848,-0.826735497,0.974631519
0.069573728,-0.635682642,-0.762435496,0.985400307
0.069800352,-0.727566779,-0.684554577,0.997968387
0.070026976,-0.809800684,-0.592864335,1.007265268
0.0702536,-0.87975055,-0.490191847,1.014249077
0.070480224,-0.936242938,-0.378529817,1.019835661
0.070706848,-0.977986634,-0.259584576,1.023842008
0.07093348,-1.00364852,-0.135445416,1.025655812
0.071160104,-1.01223755,-0.008728528,1.024701045
0.071386728,-1.00342453,0.117574476,1.020684545
0.071613352,-0.977721751,0.240397006,1.013730543
0.071839976,-0.936485052,0.3569538,1.004420268
0.0720666,-0.881764114,0.465052426,0.993781712
0.072293224,-0.81608808,0.563343823,0.983356017
0.072519848,-0.742195308,0.651661456,0.975516528
0.072746472,-0.662088096,0.731645226,0.973665384
0.072973096,-0.574390233,0.805457413,0.978685784
0.07319972,-0.476323456,0.870645821,0.98490818
0.073426344,-0.369647712,0.923498034,0.98948805
0.073652968,-0.256979704,0.963197887,0.993788738
0.073879592,-0.139762864,0.98948884,0.998621823
0.074106216,-0.019211981,1.00168633,1.003744604
0.074332848,0.103085339,0.998898149,1.008424099
0.074559472,0.22502248,0.980404794,1.011828677
0.074786096,0.344080329,0.945985496,1.013279831
0.07501272,0.457575858,0.89612186,1.012410054
0.075239344,0.562977731,0.832057953,1.009264363
0.075465968,0.65822196,0.755725741,1.004377544
0.075692592,0.742035091,0.669573307,0.99894449
0.075919216,0.814386249,0.576161444,0.995186972
0.07614584,0.876755416,0.476780921,0.996020106
0.076372464,0.929523289,0.369740784,1.000721792
0.076599088,0.969010592,0.254636467,1.003821258
0.076825712,0.992815435,0.135011777,1.003910668
0.077052336,1.00124145,0.013942312,1.002678829
0.07727896,0.994895816,-0.106716469,1.001206089
0.077505584,0.974127829,-0.225424007,0.99974101
0.077732208,0.939239025,-0.340563506,0.998153448
0.07795884,0.890709996,-0.450398475,0.996223083
0.078185464,0.829343081,-0.553168714,0.993805572
0.078412088,0.756309986,-0.647240758,0.990925394
0.078638712,0.673121929,-0.731261849,0.987837023
0.078865336,0.581548035,-0.804309845,0.985112444
0.07909196,0.483467311,-0.866092265,0.983856452
0.079318584,0.380390525,-0.917252123,0.986048409
0.079545208,0.272077978,-0.958955467,0.993622014
0.079771832,0.156525791,-0.989768505,1.004142017
0.079998456,0.034868635,-1.00552559,1.012297534
0.08022508,-0.088939853,-1.00455225,1.01703552
0.080451704,-0.211834788,-0.98719722,1.019432329
0.080678328,-0.331539631,-0.95399642,1.020027696
0.080904952,-0.44587034,-0.905544281,1.018810805
0.081131576,-0.55260855,-0.842762589,1.015624991
0.081358208,-0.649654329,-0.767060935,1.010433225
0.081584832,-0.735252261,-0.680335462,1.003452228
0.081811456,-0.808190942,-0.584837079,0.995207008
0.08203808,-0.867921948,-0.482959777,0.986538654
0.082264704,-0.914611459,-0.377004534,0.97864654
0.082491328,-0.949190676,-0.26887989,0.973259335
0.082717952,-0.973317504,-0.159442276,0.972768803
0.082944576,-0.988116145,-0.047457274,0.978625709
0.0831712,-0.991459489,0.068664014,0.987706665
0.083397824,-0.980204523,0.186921731,0.99574064
0.083624448,-0.953839123,0.304063112,1.002263449
0.083851072,-0.91286844,0.417910665,1.007978113
0.084077696,-0.857645035,0.526665032,1.012931062
0.08430432,-0.788565755,0.628331363,1.016636252
0.084530944,-0.70643729,0.720703661,1.018467412
0.084757576,-0.612674892,0.801597774,1.017929515
0.0849842,-0.50932163,0.869152069,1.014833842
0.085210824,-0.398900926,0.922098994,1.009388503
0.085437448,-0.284166813,0.959954321,1.002263076
0.085664072,-0.167773858,0.983113468,0.994660158
0.085890696,-0.051814865,0.992879927,0.98849533
0.08611732,0.063001417,0.991100073,0.986248533
0.086343944,0.177768022,0.978336751,0.988744268
0.086570568,0.292507678,0.95238173,0.992591701
0.086797192,0.404193729,0.911844611,0.994833165
0.087023816,0.510054052,0.857763886,0.99591402
0.08725044,0.608622849,0.791488945,0.996876522
0.087477064,0.698790312,0.713974297,0.998067197
0.087703688,0.779325187,0.626063466,0.999303211
0.087930312,0.848859429,0.528793871,1.000185288
0.088156944,0.906046271,0.423560262,1.000323141
0.088383568,0.949763417,0.312137097,0.999480116
0.088610192,0.97929889,0.196594507,0.997675716
0.088836816,0.994495749,0.079127587,0.99528297
0.08906344,0.995847642,-0.03820141,0.993171874
0.089290064,0.984486997,-0.153925791,0.992907796
0.089516688,0.961549103,-0.267878532,0.996335585
0.089743312,0.926314771,-0.380723,1.003009058
0.089969936,0.876402855,-0.490805238,1.008971746
0.09019656,0.811587393,-0.594271898,1.011833185
0.090423184,0.733731449,-0.688340962,1.012175119
0.090649808,0.644803166,-0.771483183,1.010957425
0.090876432,0.54653126,-0.842573881,1.008627163
0.091103056,0.440649271,-0.900627792,1.0053022
0.09132968,0.329042494,-0.944860101,1.001029573
0.091556304,0.213742465,-0.97481066,0.995941664
0.091782936,0.096827008,-0.990438104,0.990343107
0.09200956,-0.019727415,-0.992150664,0.984752111
0.092236184,-0.134207711,-0.980789006,0.979958784
0.092462808,-0.245376393,-0.957568467,0.977146943
0.092689432,-0.352842778,-0.923853397,0.978003125
0.092916056,-0.457366258,-0.880213082,0.983958964
0.09314268,-0.559432626,-0.825007915,0.993602923
0.093369304,-0.656646013,-0.756101608,1.002873628
