Frequency (GHz),Re( S21 ),Im( S21 ),S2
0.0,0.0392116867,0.0,0.0015375563738589566
0.000226618172,0.0350203812,-0.0170121174,0.001515839237824696
0.000453236344,0.0237967782,-0.0298578274,0.001457776509748186
0.0006798545,0.00876977108,-0.0361007527,0.0013801732303021618
0.000906472688,-0.00658214604,-0.035466969,0.0013012305365388487
0.00113309087,-0.0196471754,-0.0291337781,0.001234788527578405
0.001359709,-0.028899353,-0.0188162532,0.0011892239883051193
0.00158632713,-0.0336219408,-0.00621788064,0.0011690969428119913
0.00181294538,-0.0335565396,0.00713540148,0.0011769553042071542
0.0020395635,-0.0286576618,0.0197970644,0.0012131853387009268
0.00226618175,-0.0191109926,0.0301832389,0.001276257948651728
0.00249279975,-0.00559635926,0.0364806503,0.001362157083277878
0.002719418,0.010314323,0.0368166268,0.0014618492678788073
0.00294603625,0.025814401,0.0298759677,0.0015589567450002442
0.00317265425,0.0370921567,0.0159541089,0.0016303616794504138
0.0033992725,0.0406158641,-0.00183762435,0.001653025279841382
0.00362589075,0.0353416279,-0.0195473973,0.0016311314038261057
0.003852509,0.0228541661,-0.0322224051,0.001560596298554895
0.004079127,0.00692902459,-0.0376870781,0.0014683272374843243
0.004305745,-0.00875837915,-0.0360536575,0.0013765754244624612
0.0045323635,-0.0216775816,-0.0288314484,0.0013011699608665211
0.0047589815,-0.0305074062,-0.0179010294,0.0012511486866314627
0.0049855995,-0.034737505,-0.00498722261,0.0012315666429867204
0.005212218,-0.0342818722,0.0084783081,0.0012471284697756584
0.005438836,-0.0291281268,0.021238856,0.0012995367750656143
0.005665454,-0.0193589311,0.0318483785,0.0013890874264138096
0.0058920725,-0.00543906027,0.0385490768,0.0015156146987529906
0.0061186905,0.0113636171,0.039303802,0.0016739206452506164
0.0063453085,0.0284223463,0.032247711,0.0018477446339366446
0.006571927,0.0403057933,0.0171940699,0.0019201930132684106
0.006798545,0.0452954993,-0.00312687666,0.002061459614483153
0.007025163,0.0390662812,-0.0235104654,0.0020789163101220705
0.0072517815,0.023930775,-0.0378343686,0.0020041214394612913
0.0074783995,0.00494117662,-0.043022532,0.0018753534860810588
0.007705018,-0.0129597867,-0.0395687968,0.0017336457515091871
0.007931636,-0.0267265737,-0.0299070161,0.0016087393537471907
0.008158254,-0.0351707675,-0.0167168863,0.0015164371741061837
0.0083848725,-0.0381883569,-0.00217176788,0.001463067178446377
0.00861149,-0.0361054428,0.0120850233,0.0014496507879456146
0.008838109,-0.0295709465,0.0248191599,0.0014904315750476301
0.009064727,-0.0187862683,0.035069596,0.001582800440242801
0.009291345,-0.00429501897,0.0413637981,0.0017294109812102238
0.009517963,0.0127804317,0.04212014,0.0019374456280579649
0.009744581,0.0300857369,0.0350936353,0.0021367148033854277
0.009971199,0.0449827947,0.0198492203,0.0024174433655402804
0.010197818,0.0519289263,-0.00233869627,0.002702082886914143
0.010424436,0.0468279719,-0.0267091822,0.0029062393660599867
0.010651054,0.0296249799,-0.045813147,0.0029764838721190127
0.010877672,0.00549083203,-0.0536577702,0.0029093055392176823
0.01110429,-0.0182136316,-0.0491870642,0.00275110366067544
0.011330908,-0.036040999,-0.0355732515,0.002564409831200253
0.011557527,-0.0458179303,-0.0172586944,0.002397145269368249
0.011784145,-0.0476593114,0.00205087732,0.0022756160609038604
0.012010763,-0.0426389985,0.0198213775,0.002210971199080508
0.012237381,-0.0320316777,0.0343640558,0.002206916707302191
0.012463999,-0.017204361,0.0443749279,0.0022651242635485192
0.012690617,0.000672021881,0.0490751229,0.002408819301058647
0.012917236,0.020139141,0.0470870435,0.002622774665788773
0.013143854,0.0389141738,0.0373618789,0.0029102229174748718
0.013370472,0.0537822433,0.0195620898,0.003275205051723659
0.01359709,0.0606149137,-0.00499301311,0.0036990979427750795
0.013823708,0.0554075539,-0.0320406221,0.0040965984937364145
0.014050326,0.0370667018,-0.0555038676,0.004454619700888453
0.014276945,0.00855752174,-0.0679039955,0.004684183783194592
0.014503563,-0.0227565877,-0.0651583672,0.004763475099917827
0.014730181,-0.0487557575,-0.0484385714,0.004723419088671704
0.014956799,-0.0640825927,-0.0228047781,0.004626636591344333
0.015183417,-0.0671103895,0.00574217411,0.004536776942351265
0.015410036,-0.0588464774,0.0322373547,0.0045021549404423225
0.015636654,-0.0415178053,0.0532087833,0.0045549027771950665
0.015863272,-0.0177495256,0.066344589,0.004716650148603976
0.01608989,0.00964698009,0.0700942203,0.005006263944321788
0.016316508,0.037655279,0.0634510517,0.005443955998403914
0.016543126,0.0626655519,0.0458963476,0.006033446117951619
0.016769745,0.0802690908,0.0181554314,0.00677274662717875
0.016996362,0.0857437253,-0.016983578,0.007640428350003945
0.01722298,0.0752545074,-0.0540361367,0.008583144953477742
0.0174496,0.0478011593,-0.0850711539,0.009522052056301461
0.017676218,0.00698080566,-0.101611145,0.010373556435873715
0.017902836,-0.0389756523,-0.0978114083,0.011086173065839804
0.018129454,-0.079621911,-0.0730386302,0.011674290212784273
0.018356072,-0.105838925,-0.0320260599,0.012227546557874013
0.01858269,-0.112248257,0.0172217619,0.01289626028247834
0.018809308,-0.0975567549,0.0659938082,0.013872503147357062
0.019035926,-0.0636004806,0.106487304,0.015384567045739393
0.019262544,-0.0142643368,0.132305697,0.017708268762999645
0.019489162,0.0451062322,0.138409704,0.02119181834464793
0.01971578,0.107822113,0.1210673,0.026282899181074768
0.019942398,0.165574446,0.0781020671,0.03351483005349981
0.020169018,0.208276913,0.0100367758,0.04348000935726904
0.020395636,0.225012556,-0.0783805773,0.056774165255534415
0.020622254,0.206165463,-0.1771072,0.07387115842584435
0.020848872,0.146524146,-0.271137774,0.09498501785070439
0.02107549,0.0481589064,-0.343052298,0.12000415942872475
0.021302108,-0.0787281469,-0.377317816,0.1485668553853178
0.021528726,-0.217912838,-0.364399135,0.18027273455396245
0.021755344,-0.351220667,-0.302597404,0.21492114583546412
0.021981962,-0.462338388,-0.197134584,0.2526188292272916
0.02220858,-0.539205551,-0.0583470874,0.29414700883727685
0.022435198,-0.574970901,0.103470378,0.34129765612021473
0.022661816,-0.563809514,0.276764303,0.394479647491992
0.022888436,-0.502914727,0.449204654,0.4547080438087442
0.023115054,-0.391686857,0.60773772,0.5227637302573369
0.023341672,-0.232314602,0.738130391,0.5988065484202313
0.02356829,-0.0310818814,0.825190544,0.6819055172583796
0.023794908,0.200090721,0.854185164,0.7696685910280068
0.024021526,0.442816108,0.81366396,0.8581351453071492
0.024248144,0.673301518,0.699159026,0.942158277778373
0.024474762,0.865956366,0.516232312,1.0163762277687913
0.02470138,0.998808682,0.280947357,1.0765502006438625
0.024927998,1.05851388,0.0168536678,1.1207356802709671
0.025154616,1.04260492,-0.250395685,1.1497230182748257
0.025381234,0.958170176,-0.498257846,1.1663509672764307
0.025607854,0.818179488,-0.710314989,1.1739650581820122
0.025834472,0.63754344,-0.876449108,1.174624676801029
0.02606109,0.429739058,-0.991847634,1.1684373870421254
0.026287708,0.20687525,-1.05651855,1.159028815556665
0.026514326,-0.0194572024,-1.07189023,1.1493272478946872
0.026740944,-0.239237517,-1.04003251,1.1389022113972256
0.026967562,-0.443342179,-0.964268565,1.1263661531276272
0.02719418,-0.623182774,-0.849572361,1.1101299663854494
0.027420798,-0.771127641,-0.703003407,1.0888516289678325
0.027647416,-0.881497443,-0.533758938,1.061936345910426
0.027874034,-0.951701522,-0.352446675,1.0299544456956722
0.028100652,-0.982848346,-0.169569716,0.9947447598192565
0.028327272,-0.979349971,0.00634881295,0.959166673123575
0.02855389,-0.948683977,0.170462847,0.9290588704238819
0.028780508,-0.89786154,0.318259805,0.9074446484898095
0.029007126,-0.831786752,0.450932354,0.8952091886866907
0.029233744,-0.755042553,0.568330169,0.8930884378363264
0.029460362,-0.662899375,0.67123425,0.8899909997484532
0.02968698,-0.557089627,0.766983986,0.8986132872914472
0.029913598,-0.438410103,0.852554202,0.9190520857603274
0.030140216,-0.304868102,0.924532831,0.9477055152139571
0.030366834,-0.155811206,0.97827816,0.98130529024816
0.030593452,0.00712771155,1.00805318,1.0162220179800527
0.030820072,0.179446459,1.00814521,1.0485577960935826
0.03104669,0.353843868,0.974377453,1.0746169038359688
0.031273308,0.521162152,0.905491948,1.0915256565701057
0.031499926,0.672001183,0.803803742,1.097686045606602
0.031726544,0.798292875,0.674826205,1.0926619212304678
0.031953162,0.894289553,0.526765525,1.0772357229334655
0.03217978,0.972639978,0.366212904,1.0801404178599538
0.032406398,1.01468849,0.204076484,1.0712399430602824
0.032633016,1.03433609,0.05549049,1.0729303415569282
0.032859634,1.00790405,-0.0968868285,1.0252576315431912
0.033086252,0.971072376,-0.246033803,1.003514191648928
0.03331287,0.916990936,-0.384658337,0.9888344129297617
0.03353949,0.846384346,-0.512279689,0.9787969409157844
0.033766108,0.760367036,-0.627922833,0.9724451136381711
0.033992724,0.660065711,-0.730183065,0.9688540512507297
0.034219344,0.546873271,-0.817301333,0.9670518434578164
0.03444596,0.42270124,-0.887398124,0.9661517687762569
0.03467258,0.29005754,-0.938806713,0.965491420884716
0.0348992,0.151923567,-0.970358551,0.9646764877088232
0.035125816,0.0115727298,-0.981530845,0.9635367277614377
0.035352436,-0.127649829,-0.972607076,0.9622590031289989
0.035579052,-0.279390424,-0.954589963,0.989301006483241
0.035805672,-0.418400079,-0.913339257,1.009247224484518
0.036032288,-0.509131491,-0.872595727,1.0206381779065417
0.036258908,-0.641084373,-0.778750181,1.0174410177123359
0.036485524,-0.751443565,-0.679942966,1.0269898683927865
0.036712144,-0.847524583,-0.566111445,1.038780086949312
0.03693876,-0.926679194,-0.437473804,1.0501176577787201
0.03716538,-0.985505044,-0.296077877,1.0588823009982693
0.037391996,-1.02079046,-0.14551197,1.0631868966402924
0.037618616,-1.03029728,0.00926904567,1.061598400383031
0.037845236,-1.01342809,0.162451848,1.053427096519663
0.038071852,-0.971564114,0.308186799,1.0389159306904714
0.038298472,-0.907912016,0.44148165,1.0192102760839068
0.038525088,-0.826938152,0.558866203,0.9961581400888122
0.038751708,-0.733570516,0.658674955,0.9719783982887582
0.038978324,-0.632425368,0.740586281,0.9484298856953465
0.039204944,-0.529666007,0.803499699,0.9261578452644146
0.03943156,-0.435964704,0.873038292,0.952261082432085
0.03965818,-0.312178224,0.925231516,0.9535086017394524
0.039884796,-0.188948423,0.959494948,0.9563320617917096
0.040111416,-0.0625604093,0.980502725,0.9652993985442092
0.040338036,0.067835696,0.987053871,0.9788770259078889
0.040564652,0.201496303,0.976935625,0.9950039755168083
0.040791272,0.336196899,0.94780463,1.0113619715466533
0.041017888,0.468339235,0.897943914,1.0256449117300246
0.041244508,0.593365252,0.82692188,1.0358821179037578
0.041471124,0.706451237,0.735978663,1.0407379426500978
0.041697744,0.803293943,0.62801367,1.0396823285673562
0.04192436,0.880767345,0.507206082,1.0330091256361396
0.04215098,0.937247276,0.378434539,1.0216451566775628
0.042377596,0.972527683,0.247090563,1.0068638405250054
0.042604216,0.990266204,0.121337935,0.9953500492546339
0.042830832,1.0065378,-0.0104132425,1.013226778448204
0.043057452,0.993244767,-0.149415821,1.0088602547379883
0.043284072,0.960732937,-0.279881209,1.0013412673879476
0.043510688,0.912887394,-0.402966112,0.9957450815445077
0.043737308,0.850638449,-0.518204033,0.9921211907345906
0.043963924,0.77464056,-0.624378562,0.9899165858823015
0.044190544,0.685727775,-0.719870567,0.9884362146393522
0.04441716,0.585145831,-0.80288744,0.9870238848464341
0.04464378,0.474652261,-0.871725678,0.9852004265569718
0.044870396,0.356468052,-0.925027668,0.982745658662193
0.045097016,0.233118489,-0.961965799,0.9797224283593515
0.045323632,0.107235491,-0.982309222,0.9764308581562565
0.045550252,-0.0185267385,-0.986406147,0.973340326878833
0.045776872,-0.141144216,-0.975564122,0.9716470458438855
0.046003488,-0.258821756,-0.956129491,0.9811723049388427
0.046230108,-0.38609761,-0.926114082,1.0067586573264147
0.046456724,-0.509920537,-0.870353162,1.0175335806577666
0.046683344,-0.623627067,-0.797441542,1.0248237316023603
0.04690996,-0.726797879,-0.709292531,1.0313310514512848
0.04713658,-0.817407906,-0.606787741,1.0363470474191878
0.047363196,-0.892829478,-0.491502613,1.0387192953715803
0.047589816,-0.950523436,-0.365990847,1.0374441024730234
0.047816432,-0.988597751,-0.233715802,1.0319485893867613
0.048043052,-1.00623643,-0.0987129733,1.0222560041568713
0.048269672,-1.00389636,0.0349245556,1.009027626205107
0.048496288,-0.983212233,0.163577482,0.9934638877383067
0.048722908,-0.946683586,0.28447789,0.9771374819006716
0.048949524,-0.897357106,0.395790756,0.9619000982237467
0.049176144,-0.839280009,0.496688247,0.9510901482149732
0.04940276,-0.777987003,0.591875792,0.9555807299925492
0.04962938,-0.703658819,0.688489377,0.969153355798323
0.049855996,-0.613750577,0.774095476,0.9759135767314995
0.050082616,-0.514175773,0.84795332,0.9834015584391699
0.050309232,-0.405519903,0.910388529,0.9932536654639132
0.050535852,-0.287955761,0.959995985,1.0045108115092094
0.050762468,-0.162445411,0.994575858,1.0155696488713952
0.050989088,-0.0310292207,1.01181877,1.0247400358615624
0.051215708,0.103204556,1.00991261,1.0305746602161692
0.051442324,0.236424476,0.988037705,1.0321150393535417
0.051668944,0.364560336,0.94664669,1.029044194272389
0.05189556,0.483858466,0.887469172,1.0217205463702388
0.05212218,0.591335773,0.813300073,1.0111350051713126
0.052348796,0.685098529,0.727828145,0.9990938030921049
0.052575416,0.76537925,0.635829508,0.9900845595740846
0.052802032,0.838189244,0.539120674,0.9932123098915059
0.053028652,0.90173614,0.429119676,0.9972717625124446
0.053255268,0.947637439,0.310940415,0.9947006574748508
0.053481888,0.977619052,0.189693093,0.9917224803652853
0.053708508,0.992899239,0.0666458607,0.9902905695552229
0.053935124,0.993539512,-0.0572404265,0.9903972283311
0.054161744,0.979198694,-0.180651486,0.9914650417253139
0.05438836,0.949561357,-0.30182901,0.9927675219852615
0.05461498,0.904639602,-0.418649763,0.9936404335666746
0.054841596,0.844969749,-0.52881515,0.9936193395946455
0.055068216,0.77168566,-0.630096257,0.9925200509350458
0.055294832,0.686478674,-0.720568955,0.9904725887665902
0.055521452,0.591528118,-0.798803806,0.9879930348647077
0.055748068,0.489535928,-0.864197314,0.9864824223276358
0.055974688,0.383296639,-0.918399215,0.9903734315813126
0.056201304,0.270030975,-0.965156436,1.0044436734116726
0.056427924,0.145215198,-0.99737823,1.0158507874081122
0.056654544,0.0159652103,-1.01021111,1.020781374707355
0.05688116,-0.113563187,-1.00515902,1.0232412529289574
0.05710778,-0.241288096,-0.982892632,1.0242978713111925
0.057334396,-0.364969015,-0.943668306,1.0237122536589798
0.057561016,-0.482048094,-0.888052166,1.0210070144663244
0.057787632,-0.589897335,-0.81723845,1.0158575499985045
0.058014252,-0.686153173,-0.733125806,1.0082796242411176
0.058240868,-0.769028306,-0.638188779,0.9986894530707405
0.058467488,-0.83751297,-0.535213828,0.9878818166006345
0.058694104,-0.891424716,-0.426996112,0.9769637039587971
0.058920724,-0.931369781,-0.31612283,0.9673833126071969
0.059147344,-0.958951235,-0.204822406,0.9615396891076542
0.05937396,-0.977560163,-0.0935762227,0.9643803817393867
0.05960058,-0.988204181,0.0226728767,0.9770615626837341
0.059827196,-0.98364222,0.144383654,0.9883986565089201
0.060053816,-0.96252501,0.26576075,0.9970831711160626
0.060280432,-0.926122069,0.384561419,1.0055895716721344
0.060507052,-0.874513865,0.49930349,1.0140784752034182
0.060733668,-0.807533026,0.607870877,1.0216165911854658
0.060960288,-0.725515783,0.707567811,1.0270253585454348
0.061186904,-0.629667819,0.795485914,1.0292794016566322
0.061413524,-0.522161424,0.868970394,1.0277620983622229
0.061640144,-0.405975878,0.926052332,1.0223893351205091
0.06186676,-0.284563839,0.965755939,1.0136611121801895
0.06209338,-0.161435589,0.988219976,1.0026401703612176
0.062319996,-0.0397776924,0.994732618,0.9910752461258029
0.062546616,0.0781311318,0.987926602,0.9821034446956154
0.062773232,0.19301644,0.971342146,0.9807609107061589
0.062999852,0.308686793,0.943516433,0.9855107955136684
0.063226468,0.421892703,0.899879754,0.9877770245037466
0.063453088,0.52821368,0.842231929,0.9883643139662035
0.063679704,0.626669466,0.772677958,0.9897458463957749
0.063906324,0.716637254,0.692018867,0.9924590661046242
0.06413294,0.796987951,0.600724161,0.9960593116483323
0.06435956,0.866167903,0.499505401,0.9997524818155882
0.06458618,0.922460377,0.389592111,1.0027151600884185
0.064812796,0.96429497,0.272809327,1.0042897180654937
0.065039416,0.99053818,0.151495025,1.0041166286374632
0.065266032,1.00070691,0.0283007585,1.0022152526534234
0.065492652,0.995100319,-0.0940669328,0.9990732327203015
0.065719268,0.97493279,-0.213174999,0.9959375252158341
0.065945888,0.942471981,-0.327685177,0.9956310101955856
0.066172504,0.899372578,-0.439173251,1.0017441784522751
0.066399124,0.842021286,-0.548673093,1.0100420090592805
0.06662574,0.768343925,-0.650634289,1.0136773651069413
0.06685236,0.681483507,-0.741269886,1.013900814203472
0.06707898,0.584066629,-0.819495678,1.0127069933721033
0.0673056,0.477888405,-0.884483933,1.0106891553685926
0.067532216,0.36469236,-0.935311198,1.0078075545465648
0.067758832,0.246454924,-0.971159875,1.0038915323738613
0.067985448,0.125394776,-0.991539836,0.998875096222997
0.068212072,0.00383996405,-0.996439219,0.9929058624852353
0.068438688,-0.115960307,-0.986374617,0.9863816778614308
0.068665304,-0.232022434,-0.962350249,0.9799524116296463
0.06889192,-0.342775494,-0.925790429,0.9745829577149481
0.069118544,-0.447302699,-0.878525913,0.9718874843451683
0.06934516,-0.546114981,-0.822513103,0.9747693770793189
0.069571776,-0.641631544,-0.757340312,0.9852553864360811
0.0697984,-0.732812762,-0.678725004,0.9976821752048687
0.070025016,-0.814270794,-0.586389363,1.0068894110009363
0.070251632,-0.883350492,-0.483174264,1.013765461108584
0.070478248,-0.93889755,-0.371101528,1.0192449534799373
0.070704872,-0.979650021,-0.251891106,1.0231632929272036
0.070931488,-1.00430405,-0.12763533,1.0249174023106113
0.071158104,-1.01189458,-0.000945115054,1.023931534275842
0.07138472,-1.00211823,0.125195578,1.019914879649087
0.071611344,-0.975508094,0.247736171,1.0129892518812542
0.07183796,-0.933435142,0.363911748,1.0037329246529756
0.072064576,-0.877955914,0.471552938,0.9931687602640071
0.072291192,-0.811594069,0.56933409,0.9828262388721049
0.072517816,-0.737068653,0.657097399,0.9750471910077996
0.072744432,-0.656373501,0.736459076,0.9731981434377709
0.072971048,-0.568185389,0.809579551,0.9782536856704429
0.073197672,-0.46971035,0.874084651,0.9846517900109143
0.073424288,-0.362641364,0.926231503,0.9894135560334196
0.073650904,-0.24961254,0.96515733,0.9938350917779806
0.07387752,-0.132098392,0.99059397,0.9987263985693466
0.074104144,-0.0113418829,1.0018574,1.0038468882424774
0.07433076,0.111037843,0.998065412,1.0084639692088224
0.074557376,0.232906461,0.97852087,1.0117485126011014
0.074783992,0.351722032,0.943038285,1.0130295947699501
0.075010616,0.464794368,0.892144382,1.0119554028586815
0.075237232,0.569602132,0.827128053,1.0085874048385164
0.075463848,0.664108992,0.749960482,1.0034814778169283
0.075690472,0.747077107,0.663109839,0.9978388623820953
0.075917088,0.818503559,0.569140136,0.993868570501765
0.076143704,0.87987715,0.469361901,0.9944843932024563
0.07637032,0.931647122,0.362126887,0.9991022422191936
0.076596944,0.970218718,0.246960044,1.0023136240900454
0.07682356,0.993161738,0.127337918,1.0025851831877552
0.077050176,1.00075448,0.00632907869,1.0015495864771344
0.077276792,0.993595183,-0.1142148,1.0002764082198436
0.077503416,0.972021222,-0.232754305,0.9989998225144062
0.077730032,0.936322093,-0.347663999,0.9975693180405727
0.077956648,0.886974871,-0.457189292,0.995746470504928
0.078183272,0.824789882,-0.559548795,0.993373203435526
0.078409888,0.750959754,-0.653091729,0.99046935861595
0.078636504,0.667024136,-0.736458182,0.9872918518412916
0.07886312,0.574781775,-0.808729887,0.9844181189991835
0.079089744,0.476136327,-0.869626462,0.9829559852996885
0.07931636,0.372622609,-0.91979754,0.9848751233280185
