Unnamed: 0,Frequency (GHz),Re( S21 ),Im( S21 ),S2
0,0.0,0.0375789329,0.0,0.0014121761979027
1,0.000226432547,0.0335727073,-0.016273519,0.0013919540960948
2,0.000452865094,0.02284858,-0.0285624918,0.0013378735458414
3,0.000679297625,0.00849850569,-0.0345463604,0.0012656756158496
4,0.000905730188,-0.0061587058,-0.0339758471,0.0011922878432935
5,0.00113216275,-0.018642839,-0.0279815495,0.0011305225584008
6,0.00135859525,-0.0275135953,-0.0181958415,0.0010880865742253
7,0.00158502788,-0.0320989825,-0.00622973032,0.0010691542173952
8,0.00181146038,-0.0321567655,0.0064824447,0.0010760796567105
9,0.002037893,-0.027635878,0.0185885001,0.0011092740887985
10,0.0022643255,-0.0186879318,0.02860374,0.001167412736949
11,0.002490758,-0.00591593981,0.0348132737,0.0012469623695466
12,0.0027171905,0.00924383942,0.0354173817,0.0013398394937062
13,0.00294362325,0.0241736416,0.029099552,0.0014311488748059
14,0.00317005575,0.0352495983,0.0160321184,0.0014995630007029
15,0.00339648825,0.0389971212,-0.000924486143,0.001521630136516
16,0.00362292075,0.0343455859,-0.0180104338,0.0015039949964784
17,0.00384935325,0.022651827,-0.0304427985,0.0014398692469495
18,0.004075786,0.00749872765,-0.0360337347,0.0013546609527988
19,0.0043022185,-0.00757456012,-0.0348126404,0.0012692938926312
20,0.004528651,-0.0201083384,-0.0281842984,0.0011986999495091
21,0.0047550835,-0.0288072098,-0.0179318544,0.001151406738684
22,0.004981516,-0.0331608951,-0.00569615886,0.0011320911895915
23,0.0052079485,-0.03307366,0.00716191577,0.0011451600232921
24,0.005434381,-0.0285213459,0.0194673445,0.0011924446738291
25,0.0056608135,-0.0195438787,0.0298705883,0.0012742152400284
26,0.0058872465,-0.00651773717,0.0367174186,0.0013906497264648
27,0.006113679,0.00945470203,0.0380555801,0.0015376185672236
28,0.0063401115,0.0260043032,0.0320170745,0.001701316844456
29,0.006566544,0.0379786417,0.0181373917,0.0017713422030562
30,0.0067929765,0.0436783433,-0.0011139937,0.0019090386553962
31,0.007019409,0.0386283882,-0.0209830031,0.0019324387940245
32,0.0072458415,0.0246967301,-0.0354704261,0.0018680796053478
33,0.007472274,0.00659884419,-0.0413169228,0.001750632854305
34,0.0076987065,-0.0108342515,-0.0387468599,0.0016187001576754
35,0.007925139,-0.02452223,-0.0299946871,0.0015010210183998
36,0.008151572,-0.033202,-0.0176263414,0.0014130607151493
37,0.0083780045,-0.0367026031,-0.00375305116,0.0013611664673257
38,0.008604437,-0.0352974944,0.0100344531,0.0013466033599341
39,0.008830869,-0.0295667555,0.0225051213,0.0013806735155244
40,0.009057302,-0.0197164938,0.0327900015,0.0014639243261354
41,0.009283735,-0.00618353626,0.0394852981,0.0015973248867245
42,0.009510167,0.0100564044,0.0410570763,0.0017868147837603
43,0.0097366,0.0269673448,0.0353551432,0.0019772238362545
44,0.009963032,0.0420554057,0.0216804035,0.0022386970445144
45,0.010189465,0.0501069315,0.000905399967,0.0025115243334459
46,0.010415897,0.0468508489,-0.0228202995,0.0027157681119203
47,0.01064233,0.0315855667,-0.0424228832,0.0027973490427609
48,0.010868762,0.00875337701,-0.0516789444,0.0027473349033774
49,0.011095195,-0.0145780416,-0.048920624,0.0026057467494407
50,0.011321627,-0.0328031816,-0.0368179604,0.0024316109310985
51,0.01154806,-0.043451149,-0.0195988677,0.0022721179645423
52,0.011774493,-0.0464004949,-0.000939498655,0.0021538885846876
53,0.012000925,-0.0425801203,0.0165983159,0.0020885707354786
54,0.012227358,-0.0331710652,0.0313034989,0.0020802286098849
55,0.01245379,-0.0194240902,0.0418374911,0.0021276709416403
56,0.012680223,-0.00251254672,0.0474586338,0.0022586348131826
57,0.012906655,0.0163166784,0.0467870273,0.0024552599175799
58,0.013133088,0.0349715166,0.0387154929,0.002721896363794
59,0.01335952,0.0504710935,0.0227105618,0.0030631008963573
60,0.013585953,0.0588618256,-0.000308898656,0.0034648099313444
61,0.013812386,0.0561183244,-0.026978163,0.0038770876123182
62,0.014038818,0.040320646,-0.0507599935,0.0042023314339773
63,0.014265251,0.0138469972,-0.065201208,0.004442936856116
64,0.014491683,-0.0167796966,-0.0652630031,0.0045408177916186
65,0.014718116,-0.0435432456,-0.0512160957,0.0045191026961334
66,0.014944548,-0.0606617481,-0.0274772644,0.0044348477414553
67,0.015170981,-0.0659513697,0.000169852632,0.0043496120152226
68,0.015397413,-0.0599879585,0.02670433,0.0043116764057466
69,0.015623846,-0.0447250493,0.0485106036,0.0043536086965237
70,0.015850278,-0.0226059295,0.0631375611,0.0044973796702152
71,0.016076711,0.00371377473,0.0689001307,0.0047610201332222
72,0.016303144,0.0313642211,0.0646621659,0.0051649100640888
73,0.016529576,0.0569556914,0.0497126505,0.0057152984025871
74,0.016756009,0.0762638897,0.024407804,0.0064119217682761
75,0.016982442,0.0845991448,-0.00900744461,0.0072381493592935
76,0.017208874,0.0778394714,-0.0457001552,0.0081474874931355
77,0.017435306,0.054251086,-0.0782577321,0.0090674529656147
78,0.017661738,0.0163601711,-0.0982285589,0.009916504981992
79,0.017888172,-0.0285897758,-0.0990966931,0.0106375298636498
80,0.018114604,-0.0705706775,-0.0790690705,0.0112321384325429
81,0.018341036,-0.100159667,-0.0417404436,0.0117742235254756
82,0.01856747,-0.111210957,0.00560198445,0.0123992591866338
83,0.018793902,-0.101573758,0.0544828586,0.0132856101954701
84,0.019020334,-0.0723548457,0.0970147699,0.0146470892750207
85,0.019246766,-0.0268638767,0.126568675,0.0167412973626084
86,0.0194732,0.0300391223,0.137801722,0.0198916634547196
87,0.019699632,0.0921150222,0.126607493,0.0245146345986515
88,0.019926064,0.151535347,0.0902932733,0.0311158365936389
89,0.020152496,0.198618442,0.0285460018,0.0402641597212729
90,0.02037893,0.222527057,-0.0550499633,0.0525487895564125
91,0.020605362,0.213138029,-0.151792794,0.0684688717163312
92,0.020831794,0.163975507,-0.247814581,0.0883000334521126
93,0.021058228,0.0752333626,-0.326117367,0.1120125959071157
94,0.02128466,-0.0448453091,-0.370548964,0.1393176364697478
95,0.021511092,-0.181422517,-0.370043814,0.1698465539542819
96,0.021737524,-0.316764742,-0.321003854,0.2033833760571798
97,0.021963958,-0.434160739,-0.22695367,0.240003515615495
98,0.02219039,-0.520383477,-0.0968934074,0.2801872955321918
99,0.022416822,-0.56784302,0.0589437485,0.3259200608499516
100,0.022643254,-0.569869637,0.229713872,0.3775198661637441
101,0.022869688,-0.522835374,0.403284371,0.4359951121985855
102,0.02309612,-0.425330609,0.566811681,0.5021816086703567
103,0.023322552,-0.278578043,0.706243217,0.5763852076002189
104,0.023548986,-0.0876219124,0.806380689,0.6579274151247481
105,0.023775418,0.137121052,0.852031231,0.7447594015009621
106,0.02400185,0.378797203,0.8305462,0.8332943113350633
107,0.024228282,0.614695311,0.735408068,0.9186753518448794
108,0.024454716,0.819283128,0.569545567,0.995606996714816
109,0.024681148,0.969309986,0.346491009,1.0596178682771582
110,0.02490758,1.04904473,0.088161692,1.108267329477076
111,0.025134014,1.05324578,-0.180064037,1.1417497305085456
112,0.025360446,0.986646354,-0.434691221,1.1624274854759642
113,0.025586878,0.86075747,-0.657669306,1.1734323382153224
114,0.02581331,0.689967811,-0.83720541,1.1769684787494
115,0.026039744,0.487986594,-0.966996193,1.173212553200214
116,0.026266176,0.267255396,-1.04587531,1.165280610758713
117,0.026492608,0.0398424715,-1.07467008,1.1565032033824347
118,0.02671904,-0.183697641,-1.0550009,1.1467717223097749
119,0.026945474,-0.393799543,-0.989824593,1.1348308049746243
120,0.027171906,-0.581455529,-0.883774638,1.1191481429767007
121,0.027398338,-0.738538921,-0.743587792,1.0983625422432794
122,0.027624772,-0.858737469,-0.578228116,1.0717777947974354
123,0.027851204,-0.93870455,-0.398290455,1.0398015187348095
124,0.028077636,-0.978804648,-0.214584365,1.004104988648857
125,0.028304068,-0.982916296,-0.0362673476,0.9674397654442988
126,0.028530502,-0.958061874,0.131076306,0.9350635524069976
127,0.028756934,-0.911840618,0.282380491,0.9111920543320232
128,0.028983366,-0.8492347,0.41820398,0.8960941445719304
129,0.029209798,-0.775401533,0.538794875,0.8915474547050157
130,0.029436232,-0.68710041,0.644135714,0.887017791472458
131,0.029662664,-0.584813416,0.742102087,0.8927222390633447
132,0.029889096,-0.470129937,0.830568194,0.9108656825480456
133,0.03011553,-0.34095335,0.906455517,0.93791079117596
134,0.030341962,-0.196202368,0.965513051,0.9707108208601358
135,0.030568394,-0.0368600525,1.00220895,1.005781442930405
136,0.030794826,0.133339301,1.01070261,1.039299135051981
137,0.03102126,0.307793677,0.986295462,1.0675156859629735
138,0.031247692,0.477753431,0.926870227,1.0873367585313034
139,0.031474124,0.633780956,0.833751917,1.0968205592894489
140,0.031700556,0.7673527,0.711582839,1.09518030295659
141,0.03192699,0.871881425,0.567888498,1.0826745654207266
142,0.032153422,0.95824039,0.409777015,1.0861418470496624
143,0.032379854,1.00797236,0.247879624,1.0774525865183509
144,0.032606288,1.03555393,0.094043076,1.0812160420819867
145,0.03283272,1.01582479,-0.0567526594,1.0351208683275164
146,0.033059152,0.983612835,-0.209042609,1.011193021554264
147,0.033285584,0.933634579,-0.35088101,0.9947910102831274
148,0.033512018,0.866557896,-0.481664985,0.982923744894997
149,0.033738448,0.783708334,-0.600416601,0.9746988475374488
150,0.033964884,0.686388433,-0.705835283,0.9693325276838856
151,0.034191316,0.576063335,-0.796329558,0.9659897308757976
152,0.034417748,0.454596519,-0.870188355,0.9638857682645234
153,0.03464418,0.32434997,-0.925855041,0.9624104599841128
154,0.034870612,0.188107938,-0.962180078,0.961175098838698
155,0.035097044,0.0489369035,-0.978556573,0.9599677870856724
156,0.035323476,-0.0899599791,-0.97507894,0.958871737071196
157,0.035549912,-0.241143182,-0.962372541,0.984310941895882
158,0.035776344,-0.380141646,-0.926474273,1.002862249554468
159,0.036002776,-0.455138892,-0.907245159,1.030245189539923
160,0.036229208,-0.608518362,-0.803327441,1.0156295743547714
161,0.03645564,-0.722768724,-0.708974063,1.0250388503993162
162,0.036682072,-0.823397338,-0.599457562,1.03733254486447
163,0.036908504,-0.907917857,-0.474523365,1.049487258990396
164,0.03713494,-0.972877741,-0.335918695,1.0593324685837662
165,0.037361372,-1.0148797,-0.186950982,1.0649314751428545
166,0.037587804,-1.03135896,-0.032358788,1.0647483955331103
167,0.037814236,-1.0212847,0.122119479,1.0579356056053215
168,0.038040668,-0.985578895,0.270513803,1.0445434758829435
169,0.0382671,-0.927074075,0.407520205,1.0255390580203478
170,0.038493532,-0.850030363,0.529232502,1.002638659195092
171,0.038719968,-0.759382367,0.633530855,0.9780229235475536
172,0.0389464,-0.659893215,0.719821453,0.9536019794020674
173,0.039172832,-0.556956947,0.787149787,0.9298058279857062
174,0.039399264,-0.467923611,0.854275227,0.9487386691971808
175,0.039625696,-0.344613373,0.913243651,0.952772342942247
176,0.039852128,-0.22238645,0.950807154,0.9534899772411825
177,0.04007856,-0.0974591747,0.975298882,0.960706199963655
178,0.040304992,0.0314256623,0.985940456,0.9730661550284816
179,0.040531428,0.163913622,0.980698645,0.988637507781995
180,0.04075786,0.29821521,0.957211733,1.0051866132682072
181,0.040984292,0.431139588,0.91352278,1.0204052139197382
182,0.041210724,0.558401704,0.848769367,1.0322219013876843
183,0.041437156,0.675227702,0.763651788,1.0390965028637975
184,0.041663588,0.777116001,0.66054821,1.040233216744436
185,0.04189002,0.860535204,0.543250322,1.0356417496764254
186,0.042116456,0.923357606,0.416444212,1.026015050266352
187,0.042342888,0.964860141,0.28538993,1.0124025038359448
188,0.04256932,0.986897886,0.157774672,0.9988602845159764
189,0.042795752,1.00746894,0.0294399969,1.0158603784821958
190,0.043022184,1.0006628,-0.111989155,1.013867610141454
191,0.043248616,0.972401798,-0.244758233,1.0054718493749153
192,0.043475048,0.928275943,-0.370033711,0.9986211736289708
193,0.043701484,0.86948961,-0.487497181,0.9936656833808988
194,0.043927916,0.796829164,-0.596039712,0.990200054881982
195,0.044154348,0.711178184,-0.694171846,0.9876489611765856
196,0.04438078,0.613743305,-0.780230761,0.985440884842962
197,0.044607212,0.506165564,-0.852603614,0.983136500785299
198,0.044833644,0.39050442,-0.909952283,0.9805068593764484
199,0.045060076,0.269118607,-0.951388776,0.9775654277323989
200,0.045286508,0.144500449,-0.976553857,0.974537815382778
201,0.045512944,0.0191852804,-0.985608757,0.9717926968591116
202,0.045739376,-0.103962928,-0.979449272,0.9701291668196632
203,0.045965808,-0.221960261,-0.962895215,0.9764335525330844
204,0.04619224,-0.347729415,-0.939524293,1.003621643193392
205,0.046418672,-0.474386841,-0.889752567,1.0167025053970489
206,0.046645104,-0.591191828,-0.821649969,1.0246164490516825
207,0.046871536,-0.697966218,-0.73789835,1.031650816401946
208,0.047097972,-0.792837262,-0.639302969,1.0372992101878715
209,0.047324404,-0.87316978,-0.527253032,1.0404212244584414
210,0.047550836,-0.93630445,-0.40410462,1.039966566995147
211,0.047777268,-0.980128169,-0.273166209,1.0352710054067242
212,0.0480037,-1.00353324,-0.138412446,1.0262369689926008
213,0.048230132,-1.00667095,-0.00400191359,1.0134024168862843
214,0.048456564,-0.990923822,0.126265049,0.99787288360606
215,0.048683,-0.95863086,0.24936974,0.9811583929720072
216,0.048909432,-0.9127478,0.363228917,0.9650437925498327
217,0.049135864,-0.857054412,0.466656744,0.9523107818493473
218,0.049362296,-0.797547638,0.562386334,0.9523606235493386
219,0.049588728,-0.728225708,0.660390198,0.9664278954065804
220,0.04981516,-0.641780496,0.74923116,0.9732295361609516
221,0.050041592,-0.545260608,0.82615757,0.9798454611048344
222,0.050268028,-0.439708889,0.892012715,0.9890305907872856
223,0.05049446,-0.325142384,0.945720136,1.000104145509062
224,0.050720892,-0.2022167,0.985220492,1.011551011615612
225,0.050947324,-0.0726120844,1.00816619,1.021671581460029
226,0.051173756,0.060913559,1.01252604,1.028919443348128
227,0.051400188,0.19474335,0.997115076,1.0321634471557084
228,0.05162662,0.324844807,0.961943328,1.030859114918583
229,0.051853052,0.447314024,0.908315063,1.0251260897397665
230,0.052079488,0.558863878,0.83868736,1.0157253219569686
231,0.05230592,0.657173932,0.756490171,1.0041549557199498
232,0.052532352,0.741623759,0.666317642,0.9939849999537302
233,0.052758784,0.816986203,0.571866333,0.994497558711224
234,0.052985216,0.885208249,0.465047628,0.9998629404060724
235,0.053211648,0.936063051,0.347995967,0.9973152284956937
236,0.05343808,0.970352829,0.227342695,0.9932693137181662
237,0.053664516,0.989739954,0.104761295,0.9905601054739992
238,0.053890948,0.994556367,-0.0187964905,0.9894956751953554
239,0.05411738,0.984610081,-0.142140299,0.989660876206636
240,0.054343812,0.959628701,-0.263692975,0.990421228847298
241,0.054570244,0.919559658,-0.381518573,0.9911463861650333
242,0.054796676,0.864775717,-0.49346143,0.9913412236105088
243,0.055023108,0.796185195,-0.597353816,0.9907424462269498
244,0.055249544,0.715232491,-0.691230059,0.9893565106472084
245,0.055475976,0.623857319,-0.773515046,0.9875234808582498
246,0.055702408,0.524534702,-0.84328258,0.9862621633336852
247,0.05592884,0.420213073,-0.90136838,0.9890439831839276
248,0.056155272,0.310054988,-0.951887667,1.002224226170383
249,0.056381704,0.187611505,-0.990302861,1.0158978333131503
250,0.056608136,0.0587450452,-1.00925708,1.0220508338656764
251,0.056834568,-0.0712407604,-1.00989032,1.024953704372073
252,0.057061004,-0.200081646,-0.993080556,1.0262416557713383
253,0.057287436,-0.325560778,-0.959092081,1.0258474400088755
254,0.057513868,-0.445135295,-0.908397973,1.0233323082052457
255,0.0577403,-0.556143224,-0.842058003,1.0183569660174625
256,0.057966732,-0.65612483,-0.761834145,1.01089105703041
257,0.058193164,-0.743140638,-0.670099497,1.0012913437267
258,0.058419596,-0.815997243,-0.569597661,0.990292996000272
259,0.058646032,-0.874326289,-0.463144541,0.9789493254946122
260,0.058872464,-0.918548763,-0.353385717,0.9686132949884342
261,0.059098896,-0.949981928,-0.242676139,0.9613573719665446
262,0.059325328,-0.971626759,-0.132261157,0.9615515724558228
263,0.05955176,-0.986183345,-0.0181955323,0.9728886673510696
264,0.059778192,-0.987232149,0.10259483,0.9851530151618872
265,0.060004624,-0.971510172,0.22427848,0.99413285089058
266,0.06023106,-0.940423787,0.343947113,1.002696515696456
267,0.060457492,-0.894232154,0.460228056,1.0114610087770188
268,0.060683924,-0.832679868,0.571212709,1.0196397214956163
269,0.060910356,-0.755857766,0.674336493,1.0260506682140498
270,0.061136788,-0.66465348,0.766693473,1.029583130016912
271,0.06136322,-0.560919106,0.845479369,1.0294656068804773
272,0.061589652,-0.447393209,0.908442736,1.0254288880504836
273,0.061816088,-0.327415884,0.954240441,1.017775980335376
274,0.06204252,-0.204534858,0.982621253,1.0073790349843703
275,0.062268952,-0.0821166113,0.994488597,0.9957507074144236
276,0.062495384,0.0371270515,0.992068231,0.985577792912553
277,0.062721816,0.152776703,0.978988647,0.9817594919344408
278,0.062948248,0.268675774,0.955738306,0.9856223810902488
279,0.06317468,0.383594811,0.917043269,0.988113336244332
280,0.063401112,0.492210537,0.86358124,0.988043770813766
281,0.063627548,0.593066394,0.797915339,0.9883966359036482
282,0.06385398,0.685684621,0.721123099,0.9901819233872776
283,0.064080412,0.769163311,0.633695602,0.9931823149826252
284,0.064306844,0.842130125,0.536210775,0.9967051426586162
285,0.064533276,0.902954996,0.429666489,0.999941016570947
286,0.064759708,0.950030267,0.31561932,1.0021730633733537
287,0.06498614,0.982060492,0.196165219,1.0029236030926
288,0.065212576,0.998298287,0.0737927184,1.002044835115996
289,0.065439008,0.998712063,-0.0488375463,0.9998108907103208
290,0.06566544,0.984134436,-0.169175804,0.9971410407800844
291,0.065891872,0.956484556,-0.285396725,0.9963139965072428
292,0.066118304,0.917992353,-0.398175031,1.0012533154783276
293,0.066344736,0.866348267,-0.509662211,1.0103148890553115
294,0.066571168,0.797854066,-0.615374565,1.0152569658816717
295,0.066797604,0.715040267,-0.710343122,1.0158699344041382
296,0.067024036,0.620937705,-0.793087244,1.0145510100861823
297,0.067250464,0.517522454,-0.862791955,1.012239448006904
298,0.067476896,0.406557411,-0.918565333,1.0090511994284237
299,0.067703336,0.289974898,-0.959581077,1.0048812848065902
300,0.067929768,0.16993393,-0.98529315,0.9996801320021672
301,0.0681562,0.0487176813,-0.995592713,0.9935782626499486
302,0.068382632,-0.0714363903,-0.990872502,0.986931473078834
303,0.068609064,-0.188512385,-0.972002447,0.980325676272376
304,0.068835496,-0.300857902,-0.940264344,0.974612513793592
305,0.069061928,-0.407358915,-0.897336364,0.9711538357867178
306,0.06928836,-0.508026719,-0.845216215,0.9724815973168311
307,0.069514792,-0.605018318,-0.784536779,0.981545122719244
308,0.069741224,-0.69899869,-0.71140784,0.9947002834351818
309,0.069967656,-0.784814715,-0.623834014,1.0051030139038837
310,0.070194088,-0.858868122,-0.524453342,1.0127057589227757
311,0.07042052,-0.919844985,-0.415517867,1.0187698942258798
312,0.070646952,-0.966503441,-0.298712552,1.023358090187193
313,0.070873392,-0.997473419,-0.175979555,1.0259220253895476
314,0.071099824,-1.01161492,-0.0497855693,1.0258433492771313
315,0.071326256,-1.00836992,0.0769617781,1.0227330108491202
316,0.071552688,-0.987981617,0.201179817,1.016580994298088
317,0.07177912,-0.951555431,0.319958329,1.007831070562068
318,0.072005552,-0.900947571,0.430889636,0.9973724041030124
319,0.072231984,-0.83856833,0.532332599,0.9865748400370836
320,0.072458416,-0.767146826,0.623700202,0.977516194616715
321,0.072684848,-0.689134657,0.706046224,0.9734078459031656
322,0.07291128,-0.604406834,0.781883001,0.9766486482386694
323,0.073137712,-0.509745598,0.850378335,0.98298388731775
324,0.073364144,-0.405619591,0.907327592,0.9877706118075258
325,0.073590576,-0.294899464,0.951251924,0.9918459167811892
326,0.073817008,-0.179284006,0.981973767,0.9964152338835784
327,0.07404344,-0.059928447,0.998957157,1.0015068202813544
328,0.07426988,0.061765302,1.00133741,1.0064915611966596
329,0.074496312,0.183891669,0.988290966,1.0105351794048187
330,0.074722744,0.304074526,0.959383667,1.0128783378684916
331,0.074949176,0.419671088,0.914821029,1.0130213372037224
332,0.075175608,0.528068185,0.855559766,1.010838521207169
333,0.07540204,0.627000391,0.78328532,1.0066653828416552
