Frequency (GHz),Re( S21 ),Im( S21 ),S2
0.0,0.0378731899,0.0,0.001434378513201462
0.000226431188,0.0338328071,-0.0164069775,0.0014138477469513167
0.000452862375,0.0230177287,-0.0287945438,0.001358941587156922
0.000679293563,0.00854692888,-0.0348219983,0.0012856215588849806
0.00090572475,-0.00623106072,-0.0342383534,0.0012110909612396182
0.00113215588,-0.0188138708,-0.0281849448,0.0011483528478581397
0.00135858713,-0.0277486369,-0.0183096174,0.0011052289391424242
0.00158501825,-0.0323582888,-0.00623912504,0.0010859855353289607
0.0018114495,-0.0323992968,0.00657834671,0.0010929890785714579
0.00203788063,-0.0278221257,0.0187775232,0.0011266660559931386
0.00226431175,-0.0187829044,0.0288593471,0.0011856594127378178
0.002490743,-0.0058939564,0.0350948609,0.0012663879836354495
0.00271717425,0.00939073507,0.0356715545,0.0013606457056013982
0.0029436055,0.0244269539,0.0292677488,0.0014532771966526267
0.0031700365,0.0355596282,0.0160673,0.0015226452870122351
0.00339646775,0.0392922685,-0.00103509368,0.001544953782802468
0.003622899,0.0345556512,-0.0182444304,0.0015269522704765058
0.00384933,0.0227318052,-0.0307412762,0.0014617610300554336
0.00407576125,0.00744083337,-0.0363291167,0.0013751707214423243
0.0043021925,-0.0077478271,-0.0350484625,0.0012884235483854008
0.0045286235,-0.020357592,-0.0283242576,0.0012166951206296218
0.004755055,-0.0290874392,-0.0179591719,0.0011686109745474463
0.004981486,-0.0334281214,-0.00561060291,0.0011489181653468383
0.005207917,-0.0332882553,0.00734745525,0.0011620930395687308
0.0054343485,-0.0286483821,0.0197289754,0.0012099622672814055
0.0056607795,-0.01955585,0.0301724356,0.0012928071392586471
0.005887211,-0.00639895862,0.0370114818,0.0014107964564522037
0.006113642,0.009700411,0.0382835083,0.0015597249813250897
0.006340073,0.026343707,0.0321181901,0.0017255690338015871
0.0065665045,0.0383364372,0.0180748478,0.0017963825401827085
0.0067929355,0.0439772643,-0.00134728511,0.001935814952479682
0.0070193665,0.0387839563,-0.0213334244,0.0019593102629108248
0.007245798,0.0246720742,-0.0358488783,0.0018938533206985164
0.007472229,0.0064113019,-0.041635368,0.0017746086605483675
0.00769866,-0.0111315781,-0.0389463082,0.001640726953405787
0.0079250915,-0.0248650517,-0.0300504062,0.0015212977088286716
0.0081515225,-0.0335306786,-0.0175415259,0.0014320115382768688
0.008377954,-0.0369686931,-0.00354839559,0.001379275380785119
0.008604385,-0.0354645438,0.0103263613,0.001364367604640256
0.008830816,-0.0296111237,0.0228455383,0.0013987372669934683
0.009057247,-0.0196229182,0.0331335329,0.0014828899211192736
0.009283678,-0.00595117733,0.0397792086,0.0016178019484554198
0.00951011,0.0104089016,0.0412446335,0.001809465025067805
0.009736541,0.0273887478,0.035380993,0.0020019581717180537
0.009962972,0.0424720161,0.021504106,0.0022662987264578955
0.010189403,0.0504154786,0.00053489476,0.0025420065948713335
0.010415834,0.0469537973,-0.0233140662,0.00274820476366747
0.010642266,0.0314393155,-0.0429162569,0.002830235665415338
0.010868697,0.00839435775,-0.0520450808,0.0027791556775135133
0.011095128,-0.0150543777,-0.0490804464,0.0026355245067575302
0.011321559,-0.0332878605,-0.0367557816,0.002459069137694359
0.01154799,-0.0436654612,-0.0194222517,0.0022838963629068583
0.011774422,-0.0465220623,-0.000696563104,0.0021647874808029353
0.012000853,-0.04259523,0.0168671031,0.0020988527857389292
0.012227284,-0.0330791771,0.0315584913,0.00209017033074534
0.012453715,-0.019236939,0.0420419276,0.002137583498413363
0.012680146,-0.00224935962,0.0475796349,0.0022688812759173844
0.012906577,0.0166234169,0.0467954464,0.002466151793206479
0.013133009,0.035275992,0.0385922641,0.002733758459948213
0.01335944,0.0507157594,0.0224544127,0.0030762889012206094
0.013585871,0.058984071,-0.00067111617,0.0034795710286466765
0.013812302,0.0560672134,-0.0273846872,0.003893453511482984
0.014038733,0.0400316641,-0.0514803007,0.00425275549077765
0.014265165,0.0132409623,-0.0657249764,0.004495095605410578
0.014491596,-0.017569812,-0.065454796,0.00459302861311696
0.014718027,-0.0443368033,-0.0510325506,0.004570073347604451
0.014944458,-0.0612922348,-0.0269680861,0.004484015714675344
0.015170889,-0.0663047358,0.000894438883,0.004397118010423224
0.01539732,-0.0600109659,0.027509762,0.004358103033547607
0.015623752,-0.0444185771,0.0492630415,0.004399857249419367
0.015850183,-0.022014562,0.0637167394,0.004544463819819357
0.016076614,0.00450928323,0.0692078471,0.004810059735465337
0.016303045,0.0322527029,0.0646284819,0.0052170775170542975
0.016529476,0.057798259,0.0493055359,0.00577167461381727
0.016755908,0.0769035667,0.023649456,0.006473455340277284
0.016982338,0.084882088,-0.0100247115,0.0073054637038979745
0.01720877,0.0776511654,-0.046808321,0.008220722402817198
0.017435202,0.0535608381,-0.0792297646,0.009146118976545825
0.017661632,0.0152556896,-0.0988280997,0.00999972935548469
0.017888064,-0.0299042501,-0.0991470218,0.010724396105853025
0.018114494,-0.0718216375,-0.0785116702,0.011322429970774973
0.018340926,-0.101076134,-0.0406517498,0.011868949626187755
0.018567356,-0.111585997,0.00703573972,0.012500936359891596
0.018793788,-0.101298369,0.056011714,0.013398671667277956
0.01902022,-0.0714234039,0.0983694494,0.014777851199921697
0.01924665,-0.0253672656,0.127494663,0.01689838725750451
0.019473082,0.0319243446,0.13808395,0.02008634102574205
0.019699512,0.0941381752,0.126092359,0.024761279028170775
0.019925944,0.15338403,0.0889131129,0.03143220230460905
0.020152376,0.199941635,0.026349606,0.040670959142828464
0.020378806,0.222979128,-0.0578698665,0.05306861297236821
0.020605238,0.212443963,-0.154891357,0.06912376988844682
0.020831668,0.162005782,-0.250722826,0.0891078088788578
0.0210581,0.0720634535,-0.328315496,0.11298420624407267
0.021284532,-0.0489205196,-0.371566832,0.14045512788045023
0.021510962,-0.18593204,-0.369559348,0.17114483519274673
0.021737394,-0.321146607,-0.318899244,0.204831871011384
0.021963824,-0.43785432,-0.223322302,0.2415892561132416
0.022190256,-0.522907317,-0.0920109302,0.2818980734484078
0.022416688,-0.568828881,0.0646900162,0.3277510940556683
0.022643118,-0.569070458,0.235839725,0.37946156205640535
0.02286955,-0.520146608,0.40924871,0.4380370004505698
0.02309598,-0.420797855,0.572046876,0.5043084631139605
0.023322412,-0.272410631,0.710188568,0.5785753539997087
0.023548844,-0.0802025944,0.808526874,0.6601481621287028
0.023775274,0.14523688,0.851980567,0.746964637857776
0.024001706,0.386912227,0.82808429,0.8354246627469035
0.024228136,0.622038424,0.730567336,0.9206604333625407
0.024454568,0.825115323,0.562636495,0.9973751217552793
0.024680998,0.973041713,0.338073939,1.06110416346895
0.02490743,1.05032837,0.0789616928,1.1094246337566984
0.025133862,1.05201042,-0.189276472,1.1425515066413432
0.025360292,0.98307395,-0.443210572,1.1628700023011695
0.025586724,0.855216265,-0.664931118,1.1735282516052803
0.025813154,0.682938159,-0.842815697,1.176742828127905
0.026039586,0.479993999,-0.970723927,1.1726991815263133
0.026266018,0.258813292,-1.04763448,1.1645223238007476
0.026492448,0.0314251184,-1.07450342,1.1555451376581505
0.02671888,-0.191670597,-1.05305612,1.1456648096237907
0.02694531,-0.400977701,-0.986330152,1.1336302854435885
0.027171742,-0.587571561,-0.879019976,1.1179164575030174
0.027398174,-0.74341917,-0.737897515,1.0971648049666642
0.027624604,-0.862306178,-0.571934283,1.0706807686876918
0.027851036,-0.940976322,-0.391699106,1.038864628205847
0.028077466,-0.979864478,-0.20794937,1.0033773357296094
0.028303898,-0.982886732,-0.0297737252,0.9669528026539249
0.02853033,-0.957065642,0.137316585,0.9348304876129344
0.02875676,-0.909991622,0.288312405,0.9112087949870749
0.028983192,-0.846606016,0.423793882,0.8963430007480221
0.029209622,-0.772038698,0.544018269,0.8919996282152917
0.029436054,-0.683031976,0.648914814,0.8876231160671191
0.029662484,-0.580017447,0.746334672,0.8934356814537454
0.029888916,-0.464610547,0.834130764,0.9116370918348629
0.030115348,-0.334756374,0.909189463,0.9386873095638564
0.030341778,-0.189430267,0.967241049,0.9714390729263116
0.03056821,-0.0296837036,1.00275958,1.0064078975411892
0.03079464,0.14068003,1.00994408,1.0397779155678473
0.031021072,0.315006018,0.98416543,1.0678103849833014
0.031247504,0.484522849,0.923398495,1.087427171771342
0.031473934,0.639808536,0.829065144,1.0967039757342039
0.031700366,0.772392452,0.705891013,1.0948722221407383
0.031926796,0.875769079,0.561459124,1.0822078276553555
0.032153228,0.960885823,0.402796745,1.0855467826249825
0.03237966,1.00938845,0.240653798,1.0767792934852276
0.03260609,1.03585196,0.0867553279,1.0805157699548782
0.032832522,1.01507699,-0.0637727678,1.034448261540333
0.033058952,0.981865287,-0.21572417,1.0105963593377811
0.033285384,0.930997729,-0.357138336,0.9943045624440063
0.033511816,0.86312747,-0.487428278,0.9825753556626462
0.033738248,0.779565334,-0.605629921,0.974509711184998
0.033964676,0.681599855,-0.710445046,0.9693105257219632
0.034191108,0.570689142,-0.800277114,0.9661295559888652
0.03441754,0.44869861,-0.873405814,0.9641681585449347
0.034643972,0.318001747,-0.92826575,0.9628024137181146
0.034870404,0.181402847,-0.963705778,0.9616358194502908
0.035096832,0.0419923738,-0.979125679,0.96045045473457
0.035323264,-0.097003445,-0.974639177,0.9593311936851054
0.035549696,-0.248204038,-0.960786641,0.9847162140035683
0.035776128,-0.387015462,-0.923792124,1.0031728561915048
0.03600256,-0.461892009,-0.903846741,1.030283159194377
0.036228988,-0.614506185,-0.798783422,1.0156728066652843
0.03645542,-0.728014827,-0.703516304,1.0249407783256603
0.036681852,-0.827763259,-0.593216836,1.0370982274641518
0.036908284,-0.911278963,-0.467656106,1.0491315818854385
0.037134712,-0.975139439,-0.328607559,1.058879853325173
0.037361144,-1.01598835,-0.179397002,1.0644156116623105
0.037587576,-1.0313071,-0.0247686449,1.0642078202805922
0.037814008,-1.02011275,0.129548788,1.0574129111848314
0.03804044,-0.983367682,0.277610093,1.044079361737522
0.038266868,-0.92393285,0.414147019,1.025169664655709
0.0384933,-0.846079826,0.535292506,1.0023891389439503
0.038719732,-0.754740775,0.638963759,0.9779083227630108
0.038946164,-0.654667199,0.724593878,0.9536254294815845
0.039172596,-0.551249921,0.791254878,0.9299607573613012
0.039399024,-0.461687893,0.857816577,0.9490049903187765
0.039625456,-0.337877333,0.915955126,0.9531348850008686
0.039851888,-0.215268552,0.952665091,0.9539113250902149
0.04007832,-0.090035826,0.976238012,0.9611471060372145
0.040304752,0.0390542261,0.985881686,0.9734879313664726
0.04053118,0.171612352,0.979565978,0.9890003046140684
0.040757612,0.305813164,0.954951227,1.0054535372244966
0.040984044,0.438437611,0.910120368,1.0205466229878426
0.041210476,0.565187931,0.844263554,1.0322183459607717
0.041436908,0.681298792,0.75813812,1.0389414529777938
0.041663336,0.782298207,0.654173136,1.0399329765394894
0.041889768,0.864700377,0.536197901,1.035214931020748
0.0421162,0.926432788,0.408916444,1.025490368855058
0.042342632,0.966829658,0.277588069,1.0118147236395456
0.042569064,0.987819135,0.149872005,0.9982482613548682
0.042795492,1.00735807,0.02145309,1.0152305162646729
0.043021924,0.999456465,-0.119839087,1.0132746322032897
0.043248356,0.97019732,-0.252325237,1.0049508649622887
0.043474788,0.925148189,-0.377222359,0.9981958797395045
0.04370122,0.865501046,-0.494224578,0.9933499941263721
0.043927648,0.792038083,-0.602226675,0.9900012930038706
0.04415408,0.705641806,-0.699738026,0.9875636634053184
0.044380512,0.60752362,-0.785092592,0.985455326871183
0.044606944,0.499336451,-0.856674731,0.9832284860311978
0.044833376,0.383155674,-0.913148999,0.9806493648930963
0.045059804,0.261357307,-0.953634977,0.9777273112800827
0.045286236,0.136450917,-0.97778827,0.9746887536997337
0.045512668,0.0109845288,-0.985792339,0.9719071955040489
0.0457391,-0.112173438,-0.978571773,0.9701855951051034
0.045965532,-0.230073243,-0.96098125,0.9764186599960996
0.04619196,-0.355661005,-0.936496019,1.0035195440804583
0.046418392,-0.481888324,-0.885608256,1.0165183399028905
0.046644824,-0.598090649,-0.816484451,1.0243592831460124
0.046871256,-0.704118967,-0.731812894,1.0313336315138024
0.047097688,-0.798116386,-0.632417083,1.03694113247193
0.047324116,-0.877468705,-0.519706249,1.040045913504027
0.047550548,-0.939542353,-0.396052659,1.039597541781747
0.04777698,-0.982255518,-0.264774591,1.0349314866806656
0.048003412,-1.00453305,-0.129847318,1.025946974534096
0.04822984,-1.00655675,0.00457906211,1.0131774587803697
0.048456272,-0.989732623,0.134720072,0.9977201628301453
0.048682704,-0.95641619,0.257576913,0.9810777946047257
0.048909136,-0.909573317,0.371087313,0.9650294128679424
0.049135568,-0.852987707,0.474091262,0.9523505529978705
0.049361996,-0.792629063,0.569365025,0.9524373632055085
0.049588428,-0.722408533,0.666815639,0.9665171849661904
0.04981486,-0.635125518,0.754936099,0.9733129371881061
0.050041292,-0.537858605,0.831028938,0.9799009747659538
0.050267724,-0.431653649,0.895942867,0.989038493623195
0.050494152,-0.316547871,0.948602259,1.0000488004145356
0.050720584,-0.193224445,0.986958146,1.0114220681013153
0.050947016,-0.0633910149,1.00868595,1.0214657664974547
0.051173448,0.0701733008,1.01178944,1.028642163040681
0.05139988,0.203843087,0.995124578,1.0318249298573676
0.051626308,0.333592087,0.958746791,1.0304790897618132
0.05185274,0.455535889,0.903998137,1.0247255778664912
0.052079172,0.566418827,0.833365619,1.015328542511309
0.052305604,0.663958967,0.750295401,1.003784698621458
0.052532036,0.747581959,0.65937984,0.9936605588207035
0.052758464,0.822094142,0.564261734,0.9942300827674029
0.052984896,0.889362574,0.456830978,0.9996603304923419
0.053211328,0.939178348,0.339309216,0.9971867134145438
0.05343776,0.972394407,0.218315333,0.9932124673877826
0.053664192,0.990677416,0.0955091938,0.9905637486727631
0.05389062,0.994359553,-0.0281549022,0.9895436191602514
0.054117052,0.983252883,-0.151475564,0.9897310784169299
0.054343484,0.957097709,-0.272861689,0.9904895258969814
0.054569916,0.915861607,-0.390364558,0.9911869713191578
0.054796348,0.859945655,-0.501822591,0.9913324423913323
0.055022776,0.790288508,-0.605070233,0.9906659127395402
0.055249208,0.70836544,-0.698154747,0.9892016473450277
0.05547564,0.616141558,-0.779522717,0.9872860858137296
0.055702072,0.516109109,-0.84828037,0.9859481985201106
0.055928504,0.411210358,-0.905299842,0.9886617624517131
0.056154932,0.30056721,-0.954695404,1.0017839621459073
0.056381364,0.177776277,-0.99187398,1.0154183968650212
0.056607796,0.048763033,-1.00954604,1.0215610402670408
0.056834228,-0.0811900645,-1.00890422,1.0244795517073226
0.05706066,-0.209835425,-0.990845442,1.0258055955171062
0.057287088,-0.334965497,-0.955650151,1.0254690952867798
0.05751352,-0.454045415,-0.903807163,1.0230246267726306
0.057739952,-0.564422667,-0.836394072,1.0181279907001342
0.057966384,-0.663649261,-0.755187571,1.0107386090187263
0.058192812,-0.749800503,-0.662574232,1.0012054072094427
0.058419244,-0.821699679,-0.561309218,0.9902584006804745
0.058645676,-0.878994942,-0.454214215,0.9789426611696495
0.058872108,-0.922126293,-0.343938977,0.9686109201417284
0.05909854,-0.95242852,-0.232834354,0.9613319221119877
0.059324968,-0.972915888,-0.122126207,0.9614801355590352
0.0595514,-0.986246586,-0.00785243884,0.9727439891923915
0.059777832,-0.985978067,0.112983309,0.984917976717646
0.060004264,-0.968918443,0.234510079,0.9937979263381305
0.060230696,-0.936514974,0.35383302,1.0022581025685409
0.060457124,-0.889053285,0.469584256,1.0109251170523648
0.060683556,-0.826304913,0.579859376,1.019016705183047
0.060909988,-0.748395145,0.682104886,1.025362368564644
0.06113642,-0.656242013,0.773434758,1.028854904508811
0.061362852,-0.551723599,0.851075113,1.0287277776614756
0.06158928,-0.43759349,0.91281122,1.0247123858482685
0.061815712,-0.317195743,0.957338274,1.0171097102426212
0.062042144,-0.19406952,0.98444134,1.006787730494026
0.062268576,-0.0715622455,0.995053172,0.9952519700882638
0.062495008,0.0476442538,0.991418362,0.9851803434309219
0.062721436,0.16316998,0.977158666,0.9814635009121
0.062947868,0.278859973,0.952710688,0.9854205395709941
0.0631743,0.393422365,0.912806034,0.9879960129890024
0.063400732,0.501532078,0.858172476,0.9879944238269687
0.063627164,0.601747215,0.791384935,0.9883898261052103
0.063853592,0.693589509,0.713529706,0.9901910483393076
0.064080024,0.776150584,0.625114739,0.9931781659585792
0.064306456,0.848057806,0.526743531,0.9966607897678816
0.064532888,0.907689035,0.419444621,0.9998331743450648
0.06475932,0.953456283,0.30480507,1.001985014289881
0.064985748,0.984094322,0.184944734,1.0026461892269705
0.06521218,0.998892665,0.0623673536,1.0016762429858697
0.065438612,0.997860789,-0.0602652244,0.9993580514956848
0.065665044,0.981868565,-0.180415615,0.9966156730709874
0.065891476,0.95286268,-0.296286166,0.9957327790997619
0.066117904,0.913065553,-0.408583611,1.0006292712529952
0.066344336,0.860144854,-0.519436955,1.0096639200823532
0.066570768,0.790452778,-0.624328256,1.014601365487919
0.0667972,0.706570446,-0.718322635,1.0152292031139822
0.067023632,0.611537576,-0.799974382,1.0139372187162379
0.067250064,0.507333875,-0.868486941,1.0116572274100533
0.067476496,0.395728946,-0.922983706,1.0085003202437655
0.06770292,0.278664082,-0.962653339,1.0043551216847517
0.067929352,0.158307239,-0.986967444,0.9991659174356963
0.068155784,0.0369494632,-0.995838523,0.9930596267215895
0.068382216,-0.0831687674,-0.989682376,0.9863882492358406
0.068608648,-0.200032577,-0.969395041,0.9797397773766525
0.06883508,-0.311997652,-0.936282456,0.9739673722669051
0.069061512,-0.417965174,-0.892042696,0.9704350581637986
0.069287944,-0.517968237,-0.838681936,0.9716784843135962
0.069514376,-0.61417228,-0.77681464,0.9806485744387281
0.069740808,-0.707198024,-0.702553034,0.9937098107321096
0.069967232,-0.791879654,-0.613971055,1.0040338427969728
0.070193664,-0.864661574,-0.513749838,1.0115785335971836
0.070420096,-0.9242661,-0.404153615,1.0176079681267782
0.070646528,-0.96947974,-0.286875635,1.0221885962271209
0.07087296,-0.998960257,-0.163865745,1.0247735774499112
0.071099392,-1.01159871,-0.0375931524,1.0247451951810336
0.071325824,-1.00686681,0.0890376791,1.0217084813790906
0.071552256,-0.985038996,0.212954879,1.0156516041305927
0.071778688,-0.947244823,0.331266135,1.0070100068981396
0.07200512,-0.895358503,0.441585898,0.9966649542068674
0.072231544,-0.831799567,0.542297661,0.9859772727874584
0.072457976,-0.759297132,0.632838786,0.9770170637293792
0.072684408,-0.680285871,0.714283168,0.972989310370345
0.07291084,-0.594609499,0.789129138,0.976285252741654
0.073137272,-0.499067307,0.85649544,0.9826526156570259
0.073363704,-0.394185334,0.912176192,0.9874474827923124
0.073590136,-0.282863021,0.954723239,0.9915079517358976
0.073816568,-0.166811585,0.983978629,0.9960400472189318
0.074043,-0.0472031571,0.9994241,1.0010766697010174
0.074269424,0.0745418146,1.00021851,1.0059935498704808
0.074495856,0.196502522,0.985571802,1.0099650180498878
0.074722288,0.316296279,0.955089331,1.0122389662992735
0.07494872,0.431286454,0.909017801,1.0123213679387697
0.075175152,0.538878024,0.848352671,1.0100917791429787
0.075401584,0.63683486,0.774811447,1.0058914173134534
0.075628016,0.723592043,0.690695822,1.0006461632211696
0.075854448,0.798662722,0.598607898,0.9961935590604277
0.07608088,0.86311847,0.500479877,0.995453600537076
0.076307312,0.918198466,0.395458579,0.9994759106694524
0.076533736,0.961158991,0.282029897,1.0033674687819687
0.076760168,0.98862046,0.16304031,1.0039525566155076
0.0769866,1.00042295,0.0420627631,1.002615354926309
0.077213032,0.997291088,-0.0787672028,1.00079378644116
0.077439464,0.979705751,-0.197889343,0.9989835506154456
0.077665896,0.948011875,-0.31375432,0.997168288459678
0.077892328,0.902657509,-0.424703747,0.995163851269925
0.07811876,0.844357312,-0.529026628,0.9928084434609157
0.078345192,0.774166048,-0.625091076,0.9900719231707761
0.078571624,0.693472624,-0.711486697,0.9871176002454152
0.078798048,0.603942037,-0.787168264,0.9843798599044831
0.07902448,0.507406414,-0.851625502,0.9827272646250913
0.079250912,0.405561298,-0.90517205,0.9838164065366474
