Frequency (GHz),Re( S21 ),Im( S21 ),S2
0.0,0.0388311185,0.0,0.001507855763961042
0.000226511141,0.034686476,-0.0168342553,0.0014865437688041543
0.000453022281,0.0235865414,-0.029549012,0.001429469045390058
0.000679533438,0.0087245414,-0.0357365571,0.0013532191360018746
0.000906044563,-0.00646231091,-0.0351268016,0.0012756536529432675
0.00113255575,-0.0193939507,-0.0288829748,0.0012103515570514654
0.00135906688,-0.0285639111,-0.0186984465,0.0011655289188420655
0.001585578,-0.0332650803,-0.00625355588,0.0011456725285097307
0.00181208913,-0.0332414098,0.0069478089,0.0011532633740024556
0.00203860025,-0.0284453034,0.0194825791,0.0011887061739058085
0.0022651115,-0.0190534182,0.0297908392,0.001250526845344348
0.0024916225,-0.00572511461,0.0360840224,0.001334833609861337
0.00271813375,0.0100037185,0.0365068242,0.001432822596996948
0.00294464475,0.0253762398,0.0297413636,0.001528502255174509
0.003171156,0.0366294421,0.0160473902,0.0015992347607883084
0.00339766725,0.0402417779,-0.00153308909,0.0016217510507108052
0.00362417825,0.0351582617,-0.0191069897,0.0016011804211615928
0.0038506895,0.0228900965,-0.0317547731,0.001532322132411796
0.0040772005,0.00716072088,-0.0372902043,0.0014418352602570063
0.0043037115,-0.00838745106,-0.0357947797,0.0013516155890554273
0.004530223,-0.0212362856,-0.0287461486,0.0012773208854180494
0.004756734,-0.0300652422,-0.0179982744,0.0012278566699223563
0.004983245,-0.0343596637,-0.00525542023,0.0012082059313709911
0.0052097565,-0.0340283662,0.00806718413,0.0012230091660286263
0.0054362675,-0.0290543735,0.0207326561,0.0012739996484383695
0.0056627785,-0.0195073579,0.0313197933,0.0013614664645934175
0.0058892895,-0.00582642388,0.0380971842,0.001485342659198164
0.006115801,0.010768231,0.0390480757,0.0016407070147422913
0.006342312,0.0277222954,0.0323019363,0.0018119407509741188
0.006568823,0.0396793,0.0175790265,0.0018834690211777024
0.0067953345,0.0449282974,-0.00245389692,0.002024573517356832
0.0070218455,0.0390760377,-0.0227412675,0.0020441019698383776
0.0072483565,0.0242934991,-0.0371770151,0.001972304550267329
0.0074748675,0.00553539954,-0.0426133275,0.0018465363286896883
0.007701379,-0.0122773228,-0.0394524969,0.0017072321667799097
0.00792789,-0.0260756649,-0.0300667863,0.0015839519383869596
0.008154401,-0.0346392058,-0.0171057452,0.001492481097302077
0.0083809125,-0.0378386602,-0.00273054419,0.0014392200773046067
0.008607423,-0.035982132,0.0114261536,0.001425270809356217
0.008833935,-0.0296974424,0.0241256543,0.0014639852805044262
0.009060446,-0.0191876907,0.0344326757,0.001553776630260237
0.009286957,-0.00496311998,0.040891517,0.0016967487224971644
0.009513468,0.0119008869,0.0419312641,0.0018998620180305402
0.009739979,0.0291284639,0.0353323147,0.002096839871233439
0.00996649,0.0441549756,0.0205585361,0.0023723152768115987
0.010193001,0.0515054651,-0.0012342023,0.0026543361904846434
0.010419513,0.0470142178,-0.0254764333,0.0028593853290351857
0.010646024,0.0304092877,-0.0448196754,0.0029335280813827364
0.010872535,0.00663413992,-0.0531740524,0.002871491661116083
0.011099046,-0.0170253217,-0.0492740981,0.002717798322556914
0.011325557,-0.0350509621,-0.0361327529,0.0025341457762680947
0.011552068,-0.045162227,-0.0181330573,0.002368434514644612
0.011778579,-0.0473936014,0.00101839285,0.0022471905776590127
0.012005091,-0.0427722782,0.0187700521,0.0021817826382549096
0.012231602,-0.0325446352,0.0334201939,0.002176062640614676
0.012458113,-0.0180434585,0.0436488166,0.002230785585221658
0.012684624,-0.000439664436,0.0486871526,0.00237063213311197
0.012911135,0.0188737288,0.0471525304,0.002579578761938874
0.013137646,0.0376732536,0.0379710086,0.002861071530911187
0.013364157,0.0528147966,0.0207348261,0.0032193357532966124
0.013590669,0.060216181,-0.00337226177,0.0036373606036701647
0.01381718,0.0558053292,-0.0302632246,0.004030097530310418
0.014043691,0.0383281671,-0.0540331416,0.0043886287844111735
0.014270202,0.0104310373,-0.0671834722,0.004622425476002163
0.014496713,-0.0207447447,-0.0654012859,0.004707672630041716
0.014723224,-0.0470868498,-0.049555596,0.004672928519002976
0.014949735,-0.0630776882,-0.0245043822,0.004579259495660096
0.015176247,-0.066898413,0.00380836474,0.004489901303911445
0.015402758,-0.0594135821,0.0303868782,0.004453336104695076
0.015629269,-0.0427624024,0.051703956,0.004501922125069462
0.01585578,-0.0195124615,0.0653965622,0.00465744650136745
0.016082291,0.00757397292,0.0698653013,0.004938525391532675
0.016308802,0.0355280936,0.0640571341,0.005365561863955743
0.016535313,0.0608113706,0.0473812819,0.005943008668737812
0.016761825,0.0790695474,0.0204314757,0.006669438525320537
0.016988336,0.0855784193,-0.014192367,0.007525089130949301
0.017214846,0.0763865337,-0.0512228869,0.008458686673071427
0.017441358,0.0502272174,-0.082887888,0.009393175344847408
0.01766787,0.0103287315,-0.100690179,0.010245194841451134
0.01789438,-0.035398405,-0.0985284075,0.01096089416103008
0.018120892,-0.0766201392,-0.0753630549,0.011550235774887792
0.018347402,-0.104086876,-0.0355478935,0.012097730487726718
0.018573914,-0.112144388,0.0131382979,0.012748978631603687
0.018800424,-0.0992059782,0.0620479882,0.013691778950286216
0.019026936,-0.0668623522,0.103339553,0.015149637355956654
0.019253448,-0.0188048482,0.130532354,0.01739231775660636
0.019479958,0.0397869982,0.138479501,0.020759577422975805
0.01970647,0.102381676,0.123315923,0.025688824445910904
0.01993298,0.16083926,0.0826747417,0.03270438047250932
0.020159492,0.20520708,0.0167720616,0.04239124773244059
0.020386002,0.224577352,-0.0700632483,0.05534384579367936
0.020612514,0.209127933,-0.168259412,0.07204572208743823
0.020839026,0.153174236,-0.263192356,0.09273256283101444
0.021065536,0.0581117533,-0.337553471,0.11731932165574789
0.021292048,-0.0665361211,-0.375551969,0.1454663368308108
0.021518558,-0.205001146,-0.367089897,0.17678046234078393
0.02174507,-0.339229882,-0.309799492,0.21105263808519198
0.02197158,-0.452747643,-0.208321258,0.248378174776758
0.022198092,-0.533069551,-0.072554782,0.2894273425944091
0.022424604,-0.5731197,0.0872418508,0.3360773310590995
0.022651114,-0.5667665,0.259756684,0.3886978004049258
0.022877626,-0.510918975,0.432746083,0.4483073713668936
0.023104136,-0.404678822,0.593249023,0.5157093522657623
0.023330648,-0.249868274,0.72710824,0.5911205470276366
0.023557158,-0.0522955656,0.819126606,0.6737032228385031
0.02378367,0.176687375,0.85438019,0.7611839375488266
0.024010182,0.419256687,0.820944488,0.8497260219717981
0.024236692,0.651990652,0.713567019,0.9342697008999314
0.024463204,0.84927386,0.53683269,1.0094554263319357
0.024689714,0.988619983,0.305899858,1.0709441939113404
0.024916226,1.05579007,0.0437675714,1.116608272216859
0.025142736,1.0473175,-0.223966792,1.1470350697250211
0.025369248,0.969470322,-0.474393398,1.1649218013047702
0.02559576,0.834726632,-0.690513015,1.1735767740544536
0.02582227,0.657833576,-0.861634672,1.1751593217054954
0.026048782,0.452356726,-0.982418776,1.1697732589947774
0.026275292,0.230468303,-1.0524714,1.1608116865056597
0.026501804,0.00389888417,-1.07303202,1.1514129172430516
0.026728314,-0.217170373,-1.04599357,1.141265519390304
0.026954826,-0.423487872,-0.974512875,1.129017321271854
0.027181338,-0.606329441,-0.863394797,1.1130859665100437
0.027407848,-0.757876873,-0.719531655,1.092103157175297
0.02763436,-0.872192264,-0.551997125,1.0654201713897113
0.02786087,-0.946368635,-0.371374965,1.0335329579405146
0.028087382,-0.981202722,-0.188284397,0.9982097958138629
0.028313892,-0.980884731,-0.0115054809,0.9622672315996825
0.028540404,-0.95266968,0.153851137,0.931249691547495
0.028766916,-0.90387696,0.303036451,0.9088246494535169
0.028993426,-0.839372158,0.437001407,0.8955158493455566
0.029219938,-0.764012873,0.555822134,0.8926539147540281
0.029446448,-0.673667669,0.659752667,0.8891017098695064
0.02967296,-0.569410205,0.756535888,0.8965745313900906
0.02989947,-0.452453077,0.843473732,0.9161617234607756
0.030125982,-0.320738822,0.917259336,0.9442380814171085
0.030352494,-0.173430339,0.97339195,0.9775699708104574
0.030579004,-0.0118941283,1.0061959,1.012571659464827
0.030805516,0.159669176,1.00988579,1.0453635546084432
0.031032026,0.334220946,0.980058193,1.07221770241156
0.031258538,0.502741516,0.915106952,1.0901697655087088
0.031485048,0.65579319,0.816963911,1.097494739926792
0.03171156,0.785123408,0.690819323,1.093650102819713
0.031938072,0.884656072,0.544610143,1.0792165735849495
0.032164582,0.966231823,0.385152996,1.0819467661056794
0.032391094,1.01143575,0.223267585,1.0728506908897946
0.032617604,1.03502524,0.072326459,1.0765083641085362
0.032844116,1.01113951,-0.0787074044,1.0285979641904253
0.033070626,0.976481736,-0.229042575,1.0059770819042042
0.033297138,0.924447,-0.368936002,0.9907160293807441
0.03352365,0.855686843,-0.4979029,0.9801072711117167
0.03375016,0.771360934,-0.614980936,0.9731992421447886
0.033976672,0.672626555,-0.718799591,0.9690993345129353
0.034203184,0.560873568,-0.807644784,0.9668692564034572
0.034429692,0.43797487,-0.879669607,0.9656406042310512
0.034656204,0.306378871,-0.933214426,0.9647571774897441
0.034882716,0.169002816,-0.967087865,0.9638208904461881
0.035109228,0.0290577412,-0.980716109,0.962648438775746
0.03533574,-0.110143103,-0.974299252,0.9613905355862281
0.035562248,-0.261691362,-0.958623588,0.9874415524154089
0.03578876,-0.400652587,-0.919722795,1.0064125151124046
0.036015272,-0.486612737,-0.886502504,1.0226786454089012
0.036241784,-0.625961006,-0.790446162,1.0166323160530624
0.036468292,-0.738102019,-0.69370687,1.0260238119370733
0.036694804,-0.83625859,-0.581913233,1.0379514400893004
0.036921316,-0.917885125,-0.455057353,1.0495902972156321
0.037147828,-0.97956574,-0.315034568,1.058795818016694
0.03737434,-1.0180037,-0.16529201,1.06365298178353
0.037600848,-1.03080654,-0.0106767835,1.0626761166126772
0.03782736,-1.01717329,0.143035173,1.055100562604564
0.038053872,-0.97827369,0.289940536,1.0410849269621834
0.038280384,-0.917144716,0.424908727,1.0217018563674813
0.038506896,-0.838158131,0.544279218,0.9987489197081048
0.038733404,-0.746239364,0.646192014,0.9744373073405007
0.038959916,-0.646056294,0.73022145,0.9506121010571169
0.039186428,-0.543289363,0.795387864,0.9278051861474284
0.03941294,-0.452099472,0.863788307,0.950524171892605
0.039639448,-0.328665763,0.919367611,0.9532579879242193
0.03986596,-0.20596534,0.955455124,0.955316215259171
0.040092472,-0.0802465007,0.978367627,0.9636427144362063
0.040318984,0.049528636,0.987084806,0.9767895000200781
0.040545496,0.182786167,0.979454219,0.9927413499634518
0.040772004,0.31748119,0.953105748,1.0092048728744558
0.040998516,0.450174958,0.906203926,1.0238630483081153
0.041225028,0.576404035,0.838125944,1.0346967095701722
0.04145154,0.691345692,0.749887168,1.0402896305780192
0.041678052,0.790599406,0.644177496,1.0400120671203827
0.04190456,0.870863795,0.525026858,1.034056951063154
0.042131072,0.930310905,0.397240698,1.0232785521094463
0.042357584,0.968529761,0.266132593,1.0088764549996208
0.042584096,0.988228381,0.139566258,0.9960740733860037
0.042810604,1.00666964,0.00984351709,1.0134806589264307
0.043037116,0.996694148,-0.130119294,1.0103302553285043
0.043263628,0.96650964,-0.261556149,1.0025525032926397
0.04349014,0.920780718,-0.385647506,0.9965611295246156
0.043716652,0.860536516,-0.502012432,0.992539577251973
0.04394316,0.78645575,-0.609483957,0.9899833405484404
0.044169672,0.699360371,-0.706485689,0.9882269572870623
0.044396184,0.60045439,-0.791254103,0.9866285299846067
0.044622696,0.491434574,-0.862091243,0.9847092517798465
0.044849208,0.374456465,-0.917614341,0.9822337229891605
0.045075716,0.251990169,-0.95694524,0.9792432376313063
0.045302228,0.126628682,-0.979784489,0.9760124679900483
0.04552874,0.000989868771,-0.986397088,0.9729801950550636
0.045755252,-0.121976785,-0.977890551,0.9711482658140198
0.04598176,-0.239791945,-0.959810138,0.9787356778944621
0.046208272,-0.366278648,-0.933211029,1.0050428726279466
0.046434784,-0.491485387,-0.880502522,1.0168425768829004
0.046661296,-0.606722832,-0.810091734,1.024361212365227
0.046887808,-0.711698771,-0.724259555,1.0310670436517086
0.047114316,-0.804472446,-0.623841941,1.0363546837238704
0.047340828,-0.882416248,-0.510309398,1.0390741164215198
0.04756734,-0.942928433,-0.38610661,1.0381923440455276
0.047793852,-0.984001458,-0.254612684,1.0330864881998096
0.048020364,-1.00466919,-0.119830124,1.0237194399531115
0.048246872,-1.00523293,0.014116413,1.0106925166723715
0.048473384,-0.987202406,0.143520206,0.9951666399424712
0.048699896,-0.952995479,0.265495092,0.9786880268705279
0.048926408,-0.905605972,0.378092766,0.9630763162235957
0.049152916,-0.848916233,0.48030591,0.9513525378318384
0.049379428,-0.788733184,0.57576263,0.9536026416472949
0.04960594,-0.717188537,0.673221111,0.9675860619002747
0.049832452,-0.629224956,0.760636747,0.9744923061399438
0.050058964,-0.531341851,0.836266994,0.9816666478779023
0.050285472,-0.424341917,0.900672793,0.9912775425736557
0.050511984,-0.308320612,0.952593267,1.002495532117788
0.050738496,-0.184093952,0.98987931,1.0137516315290542
0.050965008,-0.0535370931,1.01018798,1.0233459752740783
0.05119152,0.0804058388,1.01159179,1.0297830485085357
0.051418028,0.213990122,0.993094265,1.032027991489465
0.05164454,0.343149841,0.954943836,1.02966954329272
0.051871052,0.464054972,0.898679793,1.0229723873844436
0.052097564,0.573582649,0.826945901,1.012836578414559
0.052324072,0.669645965,0.743305326,1.0009285261007475
0.052550584,0.752044559,0.652431011,0.9912372428359866
0.052777096,0.826181531,0.557177365,0.9930225382338473
0.053003608,0.892295182,0.449086249,0.9978691508613031
0.05323012,0.940975249,0.331737965,0.9954844966529532
0.053456628,0.973489761,0.210982054,0.992195741881896
0.05368314,0.991247594,0.0882658735,0.9903626570355067
0.053909652,0.994412661,-0.0354637392,0.9901142171551467
0.054136164,0.982681274,-0.158950403,0.9909277168841256
0.054362676,0.95572865,-0.280508369,0.9921021975098625
0.054589184,0.913513958,-0.398077488,0.9929734379132159
0.054815696,0.856488645,-0.509396672,0.9930577684586117
0.055042208,0.785684466,-0.612237453,0.9921347789696322
0.05526872,0.702691734,-0.704636812,0.99028870985745
0.055495228,0.609593868,-0.78508693,0.9879661715600263
0.05572174,0.508995712,-0.85282284,0.9863834312600526
0.055948252,0.403802872,-0.909070194,0.989465377054646
0.056174764,0.292292655,-0.957860827,1.0029323600680728
0.056401276,0.168821007,-0.993428946,1.015401603155165
0.056627784,0.0398993157,-1.00961125,1.020906831519891
0.056854296,-0.0897635669,-1.00774372,1.0236049031420489
0.057080808,-0.218015537,-0.988586247,1.0248335421309434
0.05730732,-0.342642009,-0.952379346,1.0244299650189437
0.057533832,-0.461096883,-0.899617314,1.0219216471608903
0.05776034,-0.570729792,-0.831403315,1.0169639676693525
0.057986852,-0.6691131,-0.749548316,1.009535018610046
0.058213364,-0.754364789,-0.656466246,1.000014167020347
0.058439876,-0.825364232,-0.554920793,0.9891632019686987
0.058666384,-0.881820083,-0.447721004,0.978060756204895
0.058892896,-0.924234271,-0.337489635,0.9681082414233347
0.059119408,-0.954047799,-0.226527274,0.9615218086426156
0.05934592,-0.974443972,-0.115751997,0.9629395793766248
0.059572432,-0.987392485,-0.000668092573,0.9749443657821614
0.05979894,-0.986003757,0.12060298,0.9867484876029954
0.060025452,-0.967939615,0.242198125,0.9955670300398639
0.060251964,-0.93454206,0.361543238,1.004082374852568
0.060478476,-0.885973513,0.477209538,1.0126780088957348
0.060704988,-0.822015047,0.587181449,1.020490791544152
0.060931496,-0.742874265,0.688822329,1.0263383745282744
0.061158008,-0.649595559,0.779217422,1.0291541810208487
0.06138452,-0.544192016,0.855629742,1.0282472056731309
0.061611032,-0.429527223,0.915946126,1.0234509410324997
0.06183754,-0.30900085,0.959008515,1.0151788571432276
0.062064052,-0.18614094,0.984764993,1.0044105409823736
0.062290564,-0.06421794,0.994311094,0.9927784954693204
0.062517076,0.0542699434,0.990065277,0.983174479477726
0.062743588,0.169438049,0.97563833,0.9805794034141153
0.062970096,0.285200775,0.950618327,0.9850146856888796
0.063196608,0.399374485,0.909971893,0.9875488253190188
0.06342312,0.507050812,0.854912817,0.9879764506207349
0.063649632,0.607006848,0.787754178,0.9890139584753508
0.063876144,0.698676169,0.709412813,0.9914149283770894
0.064102652,0.781019926,0.620352507,0.9948293577502305
0.064329164,0.852548242,0.521212637,0.9985011179057843
0.064555676,0.911560655,0.413112134,1.001604463002063
0.064782188,0.956447721,0.297757089,1.0034515270558477
0.065008696,0.985984147,0.177386358,1.0036306581398218
0.065235208,0.999557436,0.0545907766,1.0020952207526852
0.06546172,0.997309804,-0.0679313689,0.9992415160351463
0.065688232,0.980275869,-0.187680349,0.996164692744467
0.065914744,0.95056057,-0.303056151,0.9954084278976598
0.066141252,0.910179853,-0.415175974,1.0007984541939503
0.066367764,0.856191039,-0.52576071,1.0094874194436037
0.066594276,0.785608947,-0.629799008,1.0138282080842327
0.066820788,0.70126158,-0.722900271,1.01435260539597
0.0670473,0.605949819,-0.803786635,1.013248137750756
0.067273808,0.501529038,-0.871625841,1.0112629826561628
0.06750032,0.389726758,-0.925488651,1.0084161890309904
0.067726832,0.272482008,-0.964522064,1.0045492566265322
0.067953344,0.151981339,-0.988174379,0.9995869307162686
0.068179856,0.0305415522,-0.996354818,0.9936557097625985
0.068406368,-0.0895744935,-0.989495158,0.9871242575912265
0.06863288,-0.20634234,-0.968521416,0.9806108945273206
0.068859384,-0.318126261,-0.934783995,0.9750254352460002
0.069085896,-0.423885167,-0.890040636,0.9718509685339025
0.069312408,-0.523844182,-0.836295128,0.9738022681317857
0.06953892,-0.620313227,-0.773738682,0.9834600476142507
0.069765432,-0.713202775,-0.698245704,0.9962052614221562
0.069991944,-0.797201037,-0.608624399,1.0059531524519865
0.070218456,-0.869172871,-0.507626712,1.0131463584183136
0.070444968,-0.927889585,-0.397380292,1.0188901784214774
0.07067148,-0.972094297,-0.279573381,1.0231285976236955
0.070897984,-1.00044048,-0.156210974,1.025283022420659
0.071124496,-1.01186109,-0.0298243519,1.024752357422243
0.071351008,-1.00590801,0.0966430381,1.0211908013953581
0.07157752,-0.982955754,0.220121384,1.014655438015784
0.071804032,-0.944229662,0.337765932,1.0056554794204629
0.072030544,-0.891678572,0.447280258,0.9951503049605057
0.072257056,-0.827761352,0.547170639,0.9845845640485362
0.072483568,-0.755200207,0.637046874,0.9761560723260148
0.07271008,-0.676246524,0.718223691,0.9731546315357461
0.072936584,-0.590216041,0.793097496,0.9773586132151838
0.073163096,-0.494011402,0.860108435,0.9838337852641549
0.073389608,-0.388683707,0.915217817,0.9886986766415073
0.07361612,-0.276993722,0.957237244,0.9930286633281289
0.073842632,-0.160523415,0.985929787,0.9978253116571276
0.074069144,-0.0404719226,1.00066757,1.0029735621686455
0.074295656,0.0816462263,1.00055861,1.0077836383141627
0.074522168,0.203799412,0.984829068,1.0114224935092944
0.07474868,0.323515087,0.953159571,1.0131751793055217
0.074975192,0.438112229,0.905913889,1.0126222994824527
0.075201696,0.54501307,0.844219029,1.0097450153965277
0.075428208,0.642059863,0.769908369,1.004999764331819
0.07565472,0.727830052,0.685362995,0.9994590195096926
0.075881232,0.802051485,0.593175471,0.9951437239867771
0.076107744,0.866003931,0.49501577,0.9950034210561456
0.076334256,0.920627654,0.38963306,0.9993691987545072
0.076560768,0.962758005,0.27590844,1.0030284434548136
0.07678728,0.989415586,0.156970888,1.0035830614992318
0.077013792,1.00062108,0.0361348428,1.002548272604547
0.077240296,0.99699837,-0.0846128389,1.0011650822893743
0.077466808,0.978915989,-0.203722313,0.9997792943339181
0.07769332,0.946652532,-0.319596082,0.9982926719717617
0.077919832,0.90063405,-0.43050611,0.9964772027667346
0.078146344,0.841595769,-0.53467685,0.9941627723246238
0.078372856,0.770646095,-0.630432189,0.9913401486660807
0.078599368,0.689246237,-0.716353595,0.9882228482880842
0.07882588,0.599132717,-0.79142952,0.9853206977072325
0.079052392,0.502187848,-0.855237961,0.9836246046143087
0.079278896,0.400062025,-0.90824151,0.9849522643341807
