Frequency (GHz),Re( S21 ),Im( S21 ),S2
0,0.038155846,0,0.001455869
0.000226388,0.034087997,-0.01652729,0.001435143
0.000452776,0.023196248,-0.029010825,0.001379694
0.000679163,0.008616406,-0.035090953,0.001305617
0.000905551,-0.006280186,-0.034508564,0.001230282
0.001131939,-0.018968942,-0.028408162,0.001166844
0.001358327,-0.027980289,-0.018448614,0.001123248
0.001584715,-0.032626361,-0.006271557,0.001103812
0.001811103,-0.032659013,0.006658727,0.00111095
0.00203749,-0.028028438,0.018959897,0.001145071
0.002263878,-0.018896248,0.029115437,0.001204777
0.002490266,-0.005887808,0.035380341,0.001286435
0.002716654,0.009521764,0.035930295,0.00138165
0.002943042,0.024659833,0.02944411,0.001475063
0.00316943,0.035844717,0.016123137,0.001544799
0.003395817,0.039571833,-0.001102987,0.001567147
0.003622205,0.034772907,-0.018426903,0.001548706
0.003848593,0.022849349,-0.030992502,0.001482628
0.004074981,0.007444114,-0.036601014,0.001395049
0.004301369,-0.007853632,-0.035294257,0.001307364
0.004527757,-0.020551192,-0.028505249,0.001234901
0.004754144,-0.02933646,-0.018048199,0.001186365
0.004980532,-0.033694442,-0.00559386,0.001166607
0.00520692,-0.033530567,0.007471334,0.00118012
0.005433308,-0.028824927,0.019946365,0.001228734
0.005659696,-0.019629397,0.030453604,0.001312735
0.005886084,-0.006343336,0.037309181,0.001432213
0.006112471,0.00988906,0.038535435,0.001582773
0.006338859,0.02663305,0.032259215,0.001749976
0.006565247,0.038655955,0.018063169,0.001820561
0.006791635,0.044259671,-0.001500389,0.00196117
0.007018023,0.038960218,-0.021592733,0.001984145
0.00724441,0.024714397,-0.036145818,0.001917322
0.007470798,0.006329083,-0.041909348,0.001796451
0.007697186,-0.011309746,-0.039155375,0.001661054
0.007923574,-0.025103644,-0.030169483,0.001540391
0.008149962,-0.033792626,-0.017559599,0.001450281
0.00837635,-0.037217341,-0.003465814,0.001397142
0.008602737,-0.03566565,0.010498154,0.00138225
0.008829125,-0.029736484,0.023090338,0.001417422
0.009055513,-0.019643175,0.033421002,0.001502818
0.009281901,-0.005847309,0.040067438,0.001639591
0.009508288,0.010642804,0.041483592,0.001834158
0.009734676,0.027696384,0.035505049,0.002027698
0.009961064,0.042826846,0.021455972,0.002294497
0.010187452,0.050715506,0.000310583,0.002572159
0.01041384,0.047107022,-0.023660097,0.002778872
0.010640227,0.031406678,-0.04328347,0.002859838
0.010866615,0.008205505,-0.052339036,0.002806705
0.011093003,-0.015334019,-0.049250945,0.002660788
0.011319391,-0.033593938,-0.036794182,0.002482364
0.011545779,-0.044137795,-0.01926589,0.002319319
0.011772167,-0.046887726,-0.000376427,0.002198601
0.011998554,-0.042810597,0.017298626,0.00213199
0.012224942,-0.033117518,0.032042809,0.002123512
0.01245133,-0.019092716,0.042518131,0.002172323
0.012677718,-0.00192154,0.047981087,0.002305877
0.012904106,0.016884251,0.046947848,0.002489178
0.013130493,0.035597965,0.038626794,0.002759244
0.013356881,0.051044677,0.022337407,0.003104519
0.013583269,0.05924286,-0.000944853,0.003510609
0.013809657,0.056172796,-0.027770853,0.003926603
0.014036045,0.039933328,-0.051883664,0.004286585
0.014262433,0.012956192,-0.06603124,0.004527988
0.01448882,-0.01795858,-0.065584458,0.004623832
0.014715208,-0.044726361,-0.050971117,0.004598502
0.014941596,-0.061601725,-0.026752334,0.00451046
0.015167984,-0.066489488,0.001206797,0.004422308
0.015394372,-0.060055725,0.027860822,0.004382916
0.015620759,-0.044325754,0.049602043,0.004425135
0.015847147,-0.021798385,0.063999213,0.004571069
0.016073535,0.004824754,0.069394842,0.004838922
0.016299923,0.032634582,0.064685687,0.005249254
0.016526311,0.058197085,0.04920369,0.005807904
0.016752699,0.077251524,0.023376091,0.00651424
0.016979086,0.085098676,-0.010450722,0.007351002
0.017205474,0.077659659,-0.047322784,0.008270468
0.017431862,0.053319503,-0.079722635,0.009198668
0.01765825,0.014789272,-0.099168211,0.010053057
0.017884638,-0.03049683,-0.099229604,0.010776571
0.018111026,-0.072397277,-0.078300916,0.011372399
0.018337414,-0.10149765,-0.040190816,0.011917075
0.018563802,-0.111761257,0.007649234,0.012549089
0.018790188,-0.10119044,0.0566606,0.013449929
0.019016576,-0.071042635,0.098942168,0.014836609
0.019242964,-0.024756944,0.127896503,0.016970422
0.019469352,0.032697626,0.138239592,0.02017932
0.01969574,0.094990738,0.125946209,0.024885688
0.019922128,0.154212594,0.088427238,0.031600901
0.020148516,0.200619265,0.025516825,0.040899198
0.020374904,0.223363042,-0.059007868,0.053372977
0.020601292,0.212398008,-0.156227216,0.069519857
0.02082768,0.161438495,-0.252080113,0.089606771
0.021054068,0.070969828,-0.329473674,0.113589618
0.021280454,-0.050438527,-0.372314543,0.141162164
0.021506842,-0.187683642,-0.369753063,0.171942477
0.02173323,-0.322902977,-0.31849736,0.205706901
0.021959618,-0.439404279,-0.22238189,0.242529825
0.022186006,-0.524109244,-0.090676867,0.282912794
0.022412394,-0.569606721,0.066300407,0.328847561
0.022638782,-0.569390416,0.23758103,0.380650192
0.02286517,-0.520015359,0.410996616,0.439334192
0.023091558,-0.420242578,0.573697746,0.505732928
0.023317946,-0.271468341,0.711651325,0.580142669
0.023544334,-0.078921385,0.809711933,0.661861999
0.02377072,0.14678669,0.852794468,0.748804737
0.023997108,0.388619453,0.828439593,0.837337239
0.024223496,0.623740971,0.730411112,0.922553191
0.024449884,0.826615632,0.561989129,0.999125184
0.024676272,0.974153399,0.337055415,1.062581198
0.02490266,1.05093646,0.077779092,1.11051703
0.025129048,1.05211568,-0.190382764,1.143193001
0.025355436,0.982795179,-0.444037676,1.163055822
0.025581824,0.854752362,-0.665367246,1.173315172
0.025808212,0.68251735,-0.842860579,1.176243889
0.0260346,0.479823947,-0.970449507,1.172003266
0.026260986,0.259000778,-1.04717267,1.163652004
0.026487374,0.032001149,-1.07404149,1.154589196
0.026713762,-0.190741137,-1.052773,1.144713171
0.02694015,-0.399791688,-0.986364543,1.132748405
0.027166538,-0.586264789,-0.879454792,1.117147134
0.027392926,-0.742138147,-0.738755226,1.096528313
0.027619314,-0.861183286,-0.573184133,1.070176702
0.027845702,-0.940112948,-0.393276453,1.038478723
0.02807209,-0.979328513,-0.209775314,1.003090019
0.028298478,-0.98271811,-0.031775247,0.96674455
0.028524866,-0.957227767,0.135232687,0.934572878
0.028751252,-0.910561323,0.286243469,0.911057246
0.02897764,-0.84755224,0.421804011,0.896263423
0.029204028,-0.773373485,0.542259216,0.892151605
0.029430416,-0.684854686,0.647303402,0.888027635
0.029656804,-0.582135558,0.744947195,0.893828131
0.029883192,-0.466993898,0.833076,0.912098923
0.03010958,-0.337354809,0.908529758,0.939234588
0.030335968,-0.192171663,0.967020929,0.972059425
0.030562356,-0.03248274,1.00300407,1.007072293
0.030788744,0.137912422,1.01065171,1.040436715
0.031015132,0.312348336,0.985310972,1.068399195
0.031241518,0.482032299,0.92494452,1.087877502
0.031467906,0.637522757,0.830978096,1.096959862
0.031694294,0.770347416,0.70815587,1.094919878
0.031920682,0.874017537,0.564045966,1.082054507
0.03214707,0.959298193,0.405665874,1.084817824
0.032373458,1.00808978,0.24383758,1.07570177
0.032599846,1.0352385,0.089586146,1.079744429
0.032826234,1.01503277,-0.05984956,1.033873494
0.033052622,0.982369065,-0.211722508,1.0098754
0.03327901,0.932194054,-0.353141487,0.993694664
0.033505398,0.865051568,-0.483581692,0.982165468
0.033731784,0.782194674,-0.602096438,0.974348629
0.033958172,0.684858382,-0.707378447,0.969415271
0.03418456,0.574456573,-0.79780066,0.966486247
0.034410948,0.452828109,-0.87159735,0.964735237
0.034637336,0.322342634,-0.927152097,0.963515785
0.034863724,0.185820773,-0.963272452,0.962423176
0.035090112,0.046378713,-0.979333401,0.961244895
0.0353165,-0.092729844,-0.975433648,0.960069626
0.035542888,-0.243958935,-0.961997867,0.984955858
0.035769276,-0.382761002,-0.925426126,1.002919499
0.035995664,-0.442641705,-0.906452954,1.017588637
0.036222052,-0.610665798,-0.801762998,1.015736622
0.03644844,-0.72457248,-0.706967056,1.024807697
0.036674828,-0.824746728,-0.59720844,1.036865086
0.036901216,-0.908795655,-0.472172678,1.04885658
0.037127604,-0.973310947,-0.333582103,1.058611219
0.037353992,-1.01492226,-0.184717014,1.064187569
0.037580376,-1.03107905,-0.03028694,1.064041306
0.037806764,-1.02075243,0.123996809,1.057310732
0.038033152,-0.984860301,0.272185743,1.044034891
0.03825954,-0.926226318,0.408994794,1.025171934
0.038485928,-0.849098086,0.530533075,1.002432903
0.038712316,-0.758392811,0.634693444,0.977995424
0.038938704,-0.658854902,0.720904469,0.953793035
0.039165092,-0.555740893,0.788343728,0.930333774
0.03939148,-0.46671313,0.854012012,0.947157662
0.039617868,-0.343585134,0.913826227,0.953129117
0.039844256,-0.221191868,0.951359272,0.954010307
0.040070644,-0.096141152,0.975746691,0.961324726
0.040297032,0.032858614,0.986241221,0.973751435
0.04052342,0.165447325,0.980804324,0.989349939
0.040749808,0.299815923,0.957071722,1.005875869
0.040976196,0.432749689,0.913095415,1.02101553
0.041202584,0.559941709,0.848032713,1.0326942
0.041428972,0.676606476,0.762617171,1.039381273
0.04165536,0.778249145,0.659263849,1.040300554
0.041881748,0.861362875,0.541795254,1.0354881
0.042108136,0.923860848,0.414910704,1.025669759
0.042334524,0.965075076,0.283837855,1.01193383
0.042560908,0.986761928,0.156022236,0.998042041
0.042787296,1.00656891,0.028559318,1.013996605
0.043013684,1.00012398,-0.112673111,1.012943205
0.043240072,0.971906722,-0.245311812,1.004780561
0.04346646,0.927860856,-0.370462686,0.99816837
0.043692848,0.86918503,-0.487868249,0.993498045
0.043919236,0.796624959,-0.596432805,0.990343416
0.044145624,0.711023092,-0.694652677,0.988096179
0.044372012,0.613557637,-0.780829966,0.98614841
0.0445984,0.50586313,-0.853306413,0.984029341
0.044824788,0.390015721,-0.910702765,0.981491789
0.045051176,0.268407255,-0.95210284,0.978542272
0.045277564,0.143569291,-0.977138877,0.975412526
0.045503952,0.018067269,-0.985985458,0.97249375
0.04573034,-0.105249673,-0.979539156,0.970574452
0.045956728,-0.22334145,-0.962357402,0.976013172
0.046183116,-0.348355144,-0.938786626,1.002671636
0.046409504,-0.47492674,-0.889107823,1.016068129
0.046635892,-0.591569185,-0.820942581,1.023900822
0.04686228,-0.698135853,-0.737196863,1.030852884
0.047088668,-0.792823434,-0.638685644,1.036488349
0.047315056,-0.873032451,-0.526771724,1.03967411
0.04754144,-0.936115682,-0.403775066,1.039346874
0.047767828,-0.979953468,-0.272971243,1.034822099
0.047994216,-1.0034194,-0.138311148,1.025980466
0.048220604,-1.00663853,-0.003941887,1.013336669
0.048446992,-0.990968525,0.126336053,0.997979416
0.04867338,-0.958727539,0.249497786,0.981407639
0.048899768,-0.912849069,0.363455653,0.965393434
0.049126156,-0.857040226,0.467015922,0.95262182
0.049352544,-0.797186375,0.562592328,0.952016244
0.049578932,-0.728159308,0.660284162,0.966191152
0.04980532,-0.641823471,0.749285579,0.973366247
0.050031708,-0.5452618,0.826276302,0.980042958
0.050258096,-0.439663976,0.892136693,0.989212291
0.050484484,-0.325063497,0.945824564,1.000250383
0.050710872,-0.20211634,0.985292375,1.011652079
0.05093726,-0.072502755,1.00819767,1.021719191
0.051163648,0.061017703,1.01251197,1.02890365
0.051390036,0.194825381,0.997053921,1.03207345
0.051616424,0.324886471,0.961840928,1.03068919
0.051842812,0.447299898,0.908184648,1.024876554
0.0520692,0.558789194,0.838545859,1.015404521
0.052295588,0.657047927,0.75633657,1.003756985
0.052521972,0.741412461,0.666080534,0.993355715
0.05274836,0.816368699,0.571652234,0.993244129
0.052974748,0.884519756,0.465363324,0.998938222
0.053201136,0.93560338,0.348539263,0.996833303
0.053427524,0.970085561,0.22799097,0.993045878
0.053653912,0.989666045,0.105462648,0.990561251
0.0538803,0.994678855,-0.018102963,0.989713742
0.054106688,0.984910011,-0.141520604,0.990075811
0.054333076,0.960061014,-0.263202697,0.99099281
0.054559464,0.920058608,-0.381188631,0.991812615
0.054785852,0.865269065,-0.493291259,0.992026821
0.05501224,0.796609581,-0.597311676,0.991368063
0.055238628,0.715545595,-0.691262722,0.989849649
0.055465016,0.624038219,-0.773560584,0.987819676
0.055691404,0.52456677,-0.843271434,0.986277008
0.055917792,0.420084715,-0.901138306,0.988521414
0.05614418,0.310119778,-0.951223195,1.000999843
0.056370568,0.188117206,-0.989665926,1.014826728
0.056596956,0.059451241,-1.00877631,1.021164094
0.056823344,-0.070377901,-1.0095557,1.02415576
0.057049732,-0.199085772,-0.992936909,1.02555885
0.05727612,-0.324488878,-0.959190428,1.025339309
0.057502504,-0.444070458,-0.908761501,1.023046037
0.057728892,-0.555175364,-0.842674077,1.018319285
0.05795528,-0.6553303,-0.762652278,1.011096299
0.058181668,-0.742567837,-0.671043694,1.001706632
0.058408056,-0.815658987,-0.570581615,0.990862962
0.058634444,-0.874200881,-0.46408549,0.979602522
0.058860832,-0.918584228,-0.354210436,0.969262017
0.05908722,-0.950077534,-0.243322313,0.961853069
0.059313608,-0.971571803,-0.132764474,0.961578174
0.059539996,-0.985960782,-0.018921599,0.972476691
0.059766384,-0.987206578,0.101686247,0.98491692
0.059992772,-0.971642852,0.223372504,0.993985107
0.06021916,-0.940658689,0.34304291,1.002517207
0.060445548,-0.894577563,0.459311336,1.01123592
0.060671936,-0.833161533,0.570293307,1.019392596
0.060898324,-0.756496251,0.67344594,1.025816012
0.061124712,-0.665452421,0.765874267,1.029390317
0.0613511,-0.561864018,0.844774306,1.029334803
0.061577488,-0.448453367,0.907886803,1.025368869
0.061803876,-0.328549564,0.953854561,1.01778334
0.062030264,-0.205693692,0.982409716,1.007438745
0.062256652,-0.083246566,0.994429767,0.995820552
0.062483036,0.036065158,0.992082834,0.985529045
0.062709424,0.151667118,0.97894603,0.981338244
0.062935812,0.267285615,0.955849767,0.985090377
0.0631622,0.382176459,0.917547107,0.987951539
0.063388588,0.490941286,0.864360332,0.98814213
0.063614976,0.591970623,0.798878253,0.988635682
0.063841364,0.684771538,0.722221315,0.990515687
0.064067752,0.768439591,0.634887218,0.993581185
0.06429414,0.841596723,0.537453532,0.997141343
0.064520528,0.902600825,0.430920124,1.000380403
0.064746916,0.949832857,0.316851377,1.002577251
0.064973304,0.981988728,0.197355896,1.003251212
0.065199692,0.998319447,0.074935854,1.0022571
0.06542608,0.998795688,-0.047738485,0.999871789
0.065652468,0.98424226,-0.168109819,0.996993738
0.065878856,0.956548214,-0.284311444,0.995817483
0.066105244,0.918011785,-0.396857619,1.000241607
0.066331632,0.86667788,-0.508027673,1.009222664
0.06655802,0.798635066,-0.613734901,1.014488497
0.066784408,0.716172278,-0.708851099,1.015372612
0.067010796,0.622357607,-0.791803896,1.014282401
0.067237184,0.519177794,-0.861777246,1.012205604
0.067463568,0.40837571,-0.917873859,1.009263142
0.06768996,0.29186359,-0.959242344,1.00533023
0.067916344,0.171793133,-0.985301793,1.000332504
0.068142736,0.05045731,-0.995905995,0.994374691
0.06836912,-0.069881678,-0.991418123,0.987793343
0.068595512,-0.187174782,-0.972691476,0.981163106
0.068821896,-0.299734116,-0.941001356,0.975324092
0.069048288,-0.406404704,-0.898020267,0.971605183
0.069274672,-0.50710845,-0.845752835,0.972456838
0.069501064,-0.60388428,-0.785015583,0.980925689
0.069727448,-0.697679222,-0.712155044,0.993921104
0.069953832,-0.783546209,-0.624876857,1.004415748
0.070180224,-0.857708752,-0.525719523,1.01204532
0.070406608,-0.918818772,-0.416995883,1.018113502
0.070633,-0.96566081,-0.300398827,1.022740255
0.070859384,-0.996877491,-0.17784667,1.02539417
0.071085776,-1.01132047,-0.051775865,1.025449833
0.07131216,-1.00840676,0.074927233,1.022498284
0.071538552,-0.988348305,0.1991878,1.016508152
0.071764936,-0.95221734,0.318087876,1.007897759
0.071991328,-0.901842892,0.429200143,0.997533365
0.072217712,-0.839612186,0.530853212,0.986753756
0.072444104,-0.768236339,0.622406602,0.977577051
0.072670488,-0.690203726,0.704807997,0.973135496
0.07289688,-0.605611384,0.780549288,0.976022339
0.073123264,-0.511280298,0.849123895,0.982418932
0.073349656,-0.40737325,0.906327188,0.987381937
0.07357604,-0.296765506,0.950500548,0.991521057
0.073802432,-0.18122904,0.98144877,0.996085653
0.074028816,-0.061939191,0.99865818,1.001154624
0.074255208,0.059707377,1.00127625,1.0061191
0.074481592,0.181814522,0.988480985,1.010151178
0.074707984,0.302013904,0.959832191,1.012490233
0.074934368,0.417666078,0.915524542,1.01263014
0.075160752,0.526156425,0.85650444,1.010440439
0.075387144,0.625213444,0.784445047,1.006245882
0.075613528,0.713220537,0.701614797,1.000946858
0.07583992,0.789607823,0.610607505,0.996322039
0.076066304,0.855346441,0.513450503,0.995248953
0.076292696,0.911802411,0.409503162,0.999076476
0.07651908,0.956539333,0.297062427,1.003213581
0.076745472,0.986006558,0.178671971,1.004132606
0.076971856,0.999845624,0.057947237,1.003049154
0.077198248,0.99873662,-0.062913939,1.001433
0.077424632,0.983139992,-0.182335123,0.999810341
0.077651024,0.95336616,-0.298763216,0.998166494
0.077877408,0.909821689,-0.41052556,0.996306741
0.0781038,0.853180408,-0.51588577,0.994054936
0.078330184,0.7844643,-0.613172531,0.991364791
0.078556576,0.705043674,-0.700931549,0.988391619
0.07878296,0.616576016,-0.778069973,0.985558866
0.079009352,0.520898819,-0.844022751,0.983709984
0.079235736,0.419749111,-0.899032652,0.984449026
0.079462128,0.313753277,-0.944252372,0.990053661
0.079688512,0.201202169,-0.979686022,1.000267015
0.079914904,0.081499778,-1.00160193,1.00984864
0.080141288,-0.04188979,-1.00702417,1.015852434
0.080367672,-0.165391788,-0.995845616,1.019062934
0.080594064,-0.286530375,-0.968616009,1.020316629
0.080820448,-0.403121173,-0.925885618,1.019770858
0.08104684,-0.512949944,-0.868432164,1.017292069
0.081273224,-0.613851309,-0.797478855,1.012785954
0.081499616,-0.703918219,-0.714748859,1.00636679
0.081726,-0.781719685,-0.622380137,0.998442701
0.081952392,-0.846450388,-0.522737145,0.989732382
0.082178776,-0.898000777,-0.418182045,0.981281618
0.082405168,-0.936999619,-0.310820252,0.974577515
0.082631552,-0.964859843,-0.202042639,0.971775745
0.082857944,-0.983237624,-0.091508485,0.975130028
0.083084328,-0.991485119,0.022797577,0.983562471
0.08331072,-0.986181259,0.140442982,0.992277707
0.083537104,-0.965753257,0.258160114,0.999325998
0.083763496,-0.930568278,0.373357028,1.00535279
0.08398988,-0.881051838,0.484206289,1.010708072
0.084216272,-0.817526758,0.588829398,1.01507006
0.084442656,-0.740587711,0.685095131,1.017825496
0.084669048,-0.65137738,0.77077961,1.018393698
0.084895432,-0.551678896,0.843851268,1.016434567
0.085121816,-0.44383508,0.902764916,1.011974072
0.085348208,-0.330536366,0.946686864,1.005470308
0.085574592,-0.214524314,0.975632131,0.997878736
0.085800984,-0.098207481,0.990526915,0.990788279
0.086027368,0.016995212,0.993100882,0.986538199
0.08625376,0.131522,0.984791875,0.987113074
0.086480144,0.2463741,0.964413106,0.990792836
0.086706536,0.359558672,0.929688752,0.993603614
0.08693292,0.467814505,0.880883515,0.994806178
0.087159312,0.56924665,0.819445193,0.995532173
0.087385696,0.662722409,0.746496141,0.99645748
0.087612088,0.747113466,0.662886679,0.99759728
0.087838472,0.821128011,0.569535792,0.998622229
0.088064864,0.883413672,0.467657775,0.99912351
0.088291248,0.932745159,0.358841866,0.998781016
0.08851764,0.968221128,0.245017543,0.997485749
0.088744024,0.989424706,0.128323168,0.995428084
0.088970416,0.996544361,0.010896898,0.993219406
0.0891968,0.990436614,-0.105470009,0.992088609
0.089423192,0.972376943,-0.219973266,0.993905157
0.089649576,0.942675471,-0.333173454,0.999641594
0.089875968,0.899270296,-0.444779873,1.006516201
0.090102352,0.840658188,-0.551442087,1.010794564
0.090328736,0.768108368,-0.649676025,1.012069402
0.090555128,0.683692396,-0.737530291,1.011386222
0.090781512,0.589233041,-0.813777685,1.009429697
0.091007904,0.486445546,-0.877388656,1.006440123
0.091234288,0.377145678,-0.927493155,1.002482415
0.09146068,0.263305545,-0.963493109,0.997648781
0.091687064,0.146989062,-0.985171914,0.992169484
0.091913456,0.030220902,-0.992750108,0.98646608
0.09213984,-0.085165814,-0.986884654,0.981194536
0.092366232,-0.197704732,-0.968633115,0.977337273
0.092592616,-0.306580573,-0.939341486,0.976354075
0.092819008,-0.41206193,-0.900116146,0.98000411
0.093045392,-0.515123606,-0.850373447,0.988487329
0.093271784,-0.614788413,-0.787695348,0.998428754
