Frequency (GHz),Re( S21 ),Im( S21 ),S2
0,0.038505826,0,0.001482699
0.000226518,0.034393996,-0.016692631,0.001461591
0.000453036,0.023385599,-0.029295286,0.0014051
0.000679554,0.008653471,-0.035422683,0.001329649
0.000906073,-0.006392424,-0.034814891,0.00125294
0.001132591,-0.01919926,-0.028631458,0.001188372
0.001359109,-0.028281607,-0.018552102,0.00114403
0.001585627,-0.032945368,-0.006238741,0.001124319
0.001812145,-0.032940764,0.006825384,0.00113168
0.002038663,-0.028220343,0.019239241,0.001166536
0.002265181,-0.018952582,0.029465914,0.00122744
0.002491699,-0.005778784,0.035738539,0.001310638
0.002718218,0.00979579,0.036215611,0.001407528
0.002944736,0.025054265,0.02957532,0.001502416
0.003171254,0.03626883,0.016047349,0.001572945
0.003397772,0.03991982,-0.001377649,0.00159549
0.00362429,0.034946568,-0.018828586,0.001575778
0.003850808,0.022820029,-0.031421963,0.001508094
0.004077326,0.007233465,-0.036965419,0.001418765
0.004303845,-0.008191677,-0.035531085,0.001329562
0.004530363,-0.020952163,-0.028583055,0.001255984
0.004756881,-0.029736711,-0.017960738,0.00120686
0.004983399,-0.03403575,-0.005353113,0.001187088
0.005209917,-0.033760775,0.007839445,0.001201247
0.005436435,-0.028895753,0.020399867,0.001251119
0.005662953,-0.019502979,0.030929517,0.001337001
0.005889471,-0.006003172,0.037721116,0.001458921
0.00611599,0.010419319,0.038777351,0.001612245
0.006342508,0.027266629,0.032226399,0.00178201
0.006569026,0.039234575,0.01773292,0.001853808
0.006795544,0.044609275,-0.00210473,0.001994417
0.007022062,0.038966853,-0.022294011,0.002015439
0.00724858,0.024394898,-0.036751669,0.001945796
0.007475098,0.005793411,-0.04229096,0.001822089
0.007701616,-0.011928939,-0.0392696,0.001684401
0.007928135,-0.02569559,-0.030032406,0.001562209
0.008154653,-0.034277681,-0.017214473,0.001471298
0.008381171,-0.037539993,-0.002966985,0.001418054
0.008607689,-0.03578651,0.011089028,0.001403641
0.008834207,-0.029635845,0.023714764,0.001440673
0.009060725,-0.019297,0.034000471,0.001528406
0.009287243,-0.005260626,0.040506829,0.001668477
0.009513761,0.011423052,0.041675597,0.001867342
0.009740279,0.028569674,0.035314258,0.002063323
0.009966797,0.04359889,0.020841217,0.00233522
0.010193316,0.051137403,-0.00067642,0.002615491
0.010419834,0.046979018,-0.024788044,0.002821475
0.010646352,0.030722121,-0.044214997,0.002898815
0.01087287,0.007174015,-0.052813828,0.002840767
0.011099388,-0.016422583,-0.04920144,0.002690483
0.011325906,-0.03451005,-0.036306303,0.002509091
0.011552424,-0.044753268,-0.018484609,0.002344536
0.011778942,-0.047151085,0.000554436,0.002223532
0.012005461,-0.042713407,0.01825282,0.002157601
0.012231979,-0.032676991,0.032907303,0.002150676
0.012458497,-0.018356444,0.043194652,0.002202737
0.012685015,-0.000931135,0.048361182,0.002339671
0.012911533,0.018246794,0.047029719,0.00254474
0.013138051,0.036990758,0.038124505,0.002821794
0.013364569,0.052205138,0.021208629,0.003175182
0.013591087,0.059850074,-0.002605628,0.003588821
0.013817606,0.055941209,-0.029670918,0.004009782
0.014044124,0.038829546,-0.053187434,0.004336637
0.014270642,0.011302344,-0.066678815,0.004573807
0.01449716,-0.019743709,-0.065377496,0.004664031
0.014723678,-0.04621074,-0.049985029,0.004633936
0.014950196,-0.06249712,-0.025247766,0.00454334
0.015176714,-0.066683009,0.002918308,0.00445514
0.015403232,-0.059562594,0.029498961,0.004417891
0.015629751,-0.043237131,0.050938271,0.004464157
0.015856269,-0.02025233,0.064851195,0.004615834
0.016082787,0.006649774,0.069621034,0.004891308
0.016309305,0.034520336,0.064182252,0.005311015
0.016535823,0.059861623,0.047923606,0.005880086
0.016762341,0.078359023,0.021384338,0.006597426
0.01698886,0.085307166,-0.012924627,0.007444359
0.017215378,0.07671909,-0.049853057,0.008371146
0.017441896,0.051209919,-0.081730723,0.009302367
0.017668414,0.011820279,-0.100077711,0.010155267
0.017894932,-0.03371777,-0.098681733,0.010874972
0.01812145,-0.075147145,-0.076299697,0.011468737
0.018347968,-0.103161506,-0.037086852,0.012017731
0.018574486,-0.111968167,0.011295725,0.012664464
0.018801004,-0.099832937,0.060228478,0.013594085
0.019027522,-0.068231143,0.101842947,0.015027475
0.01925404,-0.020772308,0.129613131,0.017231053
0.019480558,0.037428469,0.138343945,0.020539937
0.019707076,0.099898554,0.124119021,0.025385253
0.019933594,0.15857026,0.084508173,0.032286159
0.020160114,0.203564227,0.019610781,0.041822977
0.020386632,0.224002987,-0.066420019,0.054588957
0.02061315,0.210003734,-0.164229363,0.071072852
0.020839668,0.155693099,-0.259389311,0.091523156
0.021066186,0.062166318,-0.33467564,0.115872435
0.021292704,-0.061376646,-0.374204636,0.143796202
0.021519222,-0.199395776,-0.367627084,0.174908348
0.02174574,-0.333899617,-0.312260211,0.208995394
0.021972258,-0.448331445,-0.212472409,0.246145609
0.022198776,-0.529982209,-0.077950664,0.286957448
0.022425294,-0.571659029,0.080985554,0.333352705
0.022651812,-0.567103922,0.253121376,0.385677289
0.02287833,-0.513120055,0.426205695,0.444943485
0.023104848,-0.408725619,0.587286651,0.511962242
0.023331366,-0.255643338,0.72223419,0.586975741
0.023557884,-0.059539322,0.815873563,0.669194602
0.023784404,0.168434203,0.853257537,0.756418505
0.024010922,0.410685778,0.822335422,0.844898355
0.02423744,0.643986583,0.717584968,0.929646905
0.024463958,0.842772186,0.543205321,1.005336978
0.024690476,0.984392464,0.313956529,1.067597225
0.024916994,1.05424798,0.052566979,1.114202091
0.025143512,1.04842997,-0.215411574,1.145607548
0.02537003,0.972828388,-0.466900468,1.16439112
0.025596548,0.83969903,-0.684609056,1.173784021
0.025823066,0.663734078,-0.857549608,1.175934256
0.026049584,0.458584309,-0.98014915,1.170991925
0.026276102,0.236554697,-1.05183041,1.162305336
0.02650262,0.009498249,-1.07375228,1.153034176
0.026729138,-0.212283686,-1.04779077,1.142929861
0.026955656,-0.41944775,-0.977110028,1.130680422
0.027182174,-0.603206635,-0.86653173,1.114735484
0.027408694,-0.755693614,-0.722959697,1.093743562
0.027635212,-0.870920658,-0.555472612,1.067052615
0.02786173,-0.945917606,-0.37466839,1.03513652
0.028088248,-0.981415093,-0.191207081,0.999735733
0.028314766,-0.981551945,-0.013942006,0.9636386
0.028541284,-0.953564584,0.151900724,0.932359246
0.028767802,-0.90479207,0.301515788,0.90956046
0.02899432,-0.84017539,0.435767323,0.895787846
0.029220838,-0.76461786,0.554742992,0.892380259
0.029447356,-0.674203992,0.65873301,0.888480201
0.029673874,-0.569959044,0.755404592,0.895489409
0.029900392,-0.453129113,0.842207611,0.914639653
0.03012691,-0.321678251,0.915909946,0.942367926
0.030353428,-0.174738064,0.972083271,0.975479277
0.030579946,-0.01360598,1.00510931,1.010429848
0.030806464,0.157616973,1.00922024,1.043368603
0.031032984,0.331997782,0.97997582,1.070575135
0.031259502,0.500594556,0.915675342,1.089056241
0.03148602,0.653987408,0.818121374,1.097022112
0.031712538,0.783871114,0.692379832,1.093843755
0.031939056,0.884054005,0.546311259,1.080007475
0.032165574,0.966242254,0.386777073,1.083220598
0.032392092,1.01191616,0.224573776,1.074407696
0.03261861,1.03557289,0.072935276,1.077730765
0.032845128,1.01205838,-0.078482255,1.030421629
0.033071646,0.97723186,-0.229240268,1.007533209
0.033298164,0.924898803,-0.369452983,0.991933302
0.033524682,0.855767369,-0.498577893,0.980917705
0.0337512,0.7710706,-0.615646183,0.973570093
0.03397772,0.672031164,-0.719315588,0.969040801
0.034204236,0.560082316,-0.807923913,0.96643325
0.034430756,0.437109351,-0.879685819,0.964911725
0.034657272,0.305543244,-0.932996035,0.963838275
0.034883792,0.168262303,-0.966698229,0.962817669
0.035110308,0.028434292,-0.98022598,0.961651481
0.035336828,-0.11066357,-0.973766863,0.960468329
0.035563344,-0.262099713,-0.958080709,0.986614905
0.035789864,-0.400979459,-0.919207752,1.005727418
0.03601638,-0.487436593,-0.887268603,1.024840006
0.0362429,-0.62643224,-0.789890289,1.01634402
0.03646942,-0.738547862,-0.693056583,1.025780372
0.036695936,-0.836684525,-0.581170201,1.037799797
0.036922456,-0.918278754,-0.454214275,1.049546478
0.037148972,-0.979913056,-0.314085722,1.058879438
0.037375492,-1.01829183,-0.164228424,1.063889226
0.037602008,-1.03101695,-0.009483123,1.063085881
0.037828528,-1.01727486,0.144379407,1.055693554
0.038055044,-0.978212714,0.291451037,1.041843821
0.038281564,-0.916846573,0.426579058,1.022577331
0.03850808,-0.837539911,0.546067894,0.999663247
0.0387346,-0.745229781,0.648017645,0.975294295
0.038961116,-0.644610584,0.731972098,0.951305957
0.039187636,-0.541371047,0.796906114,0.928141965
0.039414152,-0.450091153,0.865086496,0.950956692
0.039640672,-0.326143235,0.920233905,0.95319985
0.039867188,-0.203262806,0.955788195,0.954846842
0.040093708,-0.077521801,0.978168488,0.962823221
0.040320228,0.05213698,0.986394882,0.975693128
0.040546744,0.185170427,0.978357375,0.99147124
0.040773264,0.319580704,0.951712072,1.007887694
0.04099978,0.451984286,0.904627621,1.022640927
0.0412263,0.577969134,0.836455941,1.033706861
0.041452816,0.692741811,0.7481637,1.039640139
0.041679336,0.791899681,0.642384708,1.039763218
0.041905852,0.872111022,0.523103714,1.03421513
0.042132372,0.931496143,0.395104229,1.023792416
0.042358888,0.969585419,0.26370573,1.009636597
0.042585408,0.989001036,0.13684091,0.996848484
0.042811924,1.00727689,0.00685384,1.014653708
0.043038444,0.996783853,-0.133480102,1.011394987
0.04326496,0.965987682,-0.265076399,1.003397699
0.04349148,0.91960907,-0.389169246,0.997133544
0.043717996,0.858720005,-0.505373836,0.992802761
0.043944516,0.784049332,-0.612534702,0.989932116
0.044171036,0.696461678,-0.709106386,0.987890736
0.044397552,0.597186089,-0.793369889,0.986067006
0.044624072,0.487921238,-0.863673329,0.983998754
0.044850588,0.370806843,-0.918673813,0.98145929
0.045077108,0.2482844,-0.957515478,0.978481034
0.045303624,0.122916892,-0.979903638,0.975319702
0.045530144,-0.002700753,-0.986094356,0.972389373
0.04575666,-0.125627086,-0.977172494,0.970648248
0.04598318,-0.243332937,-0.958684444,0.978286781
0.046209696,-0.369810224,-0.931755543,1.004927994
0.046436216,-0.494940221,-0.878538847,1.016796328
0.046662732,-0.609983504,-0.807633102,1.024351103
0.046889252,-0.714684129,-0.721326828,1.031085797
0.047115768,-0.807104111,-0.620467365,1.036396797
0.047342288,-0.884621441,-0.506541193,1.039139074
0.047568808,-0.94464612,-0.382006258,1.038285073
0.047795324,-0.985182881,-0.250248849,1.033209795
0.048021844,-1.00527811,-0.115275323,1.023872479
0.04824836,-1.00523996,0.018788911,1.0108604
0.04847488,-0.986583233,0.148232207,0.995319263
0.048701396,-0.951733112,0.270160854,0.978782804
0.048927916,-0.903694928,0.382616758,0.963060106
0.049154432,-0.84636873,0.484579623,0.951157438
0.049380952,-0.785626829,0.579679132,0.953237411
0.049607468,-0.713529766,0.676785409,0.967163217
0.049833988,-0.625026703,0.763674021,0.97385639
0.050060504,-0.526736915,0.838678062,0.980832669
0.050287024,-0.419459611,0.902415216,0.990299587
0.05051354,-0.303283244,0.953658998,1.001446211
0.05074006,-0.179008991,0.990289211,1.01271694
0.050966576,-0.048488248,1.00998449,1.02241978
0.051193096,0.085364163,1.01082528,1.029054787
0.051419616,0.218831003,0.991804898,1.031563964
0.051646132,0.347862482,0.953151405,1.029505907
0.051872652,0.468626946,0.896376729,1.023102455
0.052099168,0.577983439,0.82410413,1.013212473
0.052325688,0.673814535,0.739890397,1.001463827
0.052552204,0.755885482,0.648426831,0.991820217
0.052778724,0.829618514,0.552612185,0.993647106
0.05300524,0.895226121,0.443900526,0.998477485
0.05323176,0.943184793,0.326005667,0.995877249
0.053458276,0.974850178,0.204862177,0.992301381
0.053684796,0.991688073,0.081933111,0.990158269
0.053911312,0.993909895,-0.041826867,0.989606366
0.054137832,0.981262624,-0.165167212,0.990156545
0.054364348,0.953465343,-0.286425531,0.991135745
0.054590868,0.910506606,-0.403579175,0.99189843
0.054817388,0.852847815,-0.514409125,0.991966143
0.055043904,0.781513155,-0.616724253,0.991111616
0.055270424,0.698071957,-0.708585382,0.989397701
0.05549694,0.604583204,-0.788493991,0.987243624
0.05572346,0.503632545,-0.855678558,0.985831535
0.055949976,0.39812386,-0.911354065,0.98906884
0.056176496,0.286313802,-0.959573507,1.002756909
0.056403012,0.162510857,-0.994477808,1.015395889
0.056629532,0.033349909,-1.00987124,1.020952138
0.056856048,-0.096426979,-1.00714982,1.023648922
0.057082568,-0.224660322,-0.987101376,1.024841387
0.057309084,-0.349125892,-0.949993312,1.024376181
0.057535604,-0.467276335,-0.896351933,1.021793961
0.05776212,-0.57646817,-0.827310801,1.016758712
0.05798864,-0.674291372,-0.744705677,1.0092554
0.058215156,-0.758885026,-0.650967896,0.999665684
0.058441676,-0.829149783,-0.548870325,0.988747996
0.058668196,-0.884814262,-0.441226006,0.977576667
0.058894712,-0.92639631,-0.33065784,0.96754473
0.059121232,-0.955352187,-0.219467059,0.960863591
0.059347748,-0.974887073,-0.108571373,0.962192548
0.059574268,-0.986983716,0.006567671,0.97417999
0.059800784,-0.984683335,0.127812311,0.985937257
0.060027304,-0.9656955,0.249226764,0.994681779
0.06025382,-0.931416035,0.368255198,1.003147721
0.06048034,-0.882026553,0.483491689,1.011735054
0.060706856,-0.817320883,0.592938423,1.019589399
0.060933376,-0.737514198,0.693977177,1.025531514
0.061159892,-0.643651187,0.783710182,1.0284885
0.061386412,-0.537741363,0.859413087,1.027756628
0.061612928,-0.422641933,0.918978631,1.023147928
0.061839448,-0.301748127,0.96124649,1.015046747
0.062065968,-0.178591818,0.98616004,1.004406662
0.062292484,-0.056454491,0.994811177,0.992836387
0.062519004,0.062148299,0.989622891,0.983215877
0.06274552,0.177322716,0.974224865,0.980557433
0.06297204,0.292998344,0.948192,0.984916098
0.063198556,0.406915337,0.906469047,0.987266225
0.063425076,0.514122486,0.850364208,0.987441217
0.063651592,0.613428593,0.782253206,0.988214717
0.063878112,0.704302788,0.703087926,0.990375049
0.064104628,0.785745025,0.613355935,0.993600747
0.064331148,0.856306434,0.513706565,0.997155144
0.064557664,0.914328754,0.405254662,1.000228411
0.064784184,0.958234549,0.28968823,1.002132721
0.0650107,0.986818433,0.169219896,1.002445993
0.06523722,0.999471009,0.046414293,1.001096584
0.065463736,0.996329069,-0.076049626,0.998455159
0.065690256,0.97841233,-0.195679516,0.99558116
0.065916776,0.947817504,-0.310873598,0.995000415
0.066143292,0.906552494,-0.422751874,1.000556571
0.066369812,0.851631522,-0.533022344,1.009389068
0.066596328,0.780079007,-0.63658458,1.013763185
0.066822848,0.694805324,-0.729026556,1.014234158
0.067049364,0.598659337,-0.809093237,1.013024868
0.06727588,0.493529618,-0.87597537,1.010904333
0.0675024,0.381172001,-0.928772449,1.007910356
0.06772892,0.263543993,-0.966668367,1.003903168
0.06795544,0.142838463,-0.98915118,0.998822883
0.068181952,0.021364812,-0.996166766,0.992804681
0.068408472,-0.098630413,-0.988176763,0.986221273
0.068634992,-0.215144292,-0.966126263,0.979687022
0.068861512,-0.32656306,-0.931376159,0.974104982
0.069088024,-0.431863964,-0.88568604,0.970946245
0.069314544,-0.531288743,-0.831059158,0.972927053
0.069541064,-0.627166808,-0.767671704,0.98265805
0.069767584,-0.719383895,-0.691358805,0.995490186
0.069994104,-0.802573681,-0.600966394,1.00528512
0.070220616,-0.873618722,-0.499301106,1.012511266
0.070447136,-0.931316853,-0.388508052,1.018289587
0.070673656,-0.974432886,-0.270286113,1.022574032
0.070900176,-1.00163984,-0.146649271,1.024788378
0.071126688,-1.01189101,-0.020133365,1.024328769
0.071353208,-1.00475991,0.106317714,1.020845933
0.071579728,-0.980638564,0.229636982,1.014385137
0.071806248,-0.940768301,0.346984863,1.005443491
0.07203276,-0.887111545,0.456069648,0.994966417
0.07225928,-0.822140634,0.5554021,0.984386715
0.0724858,-0.748591185,0.644598365,0.975895814
0.07271232,-0.668726206,0.724985361,0.972798512
0.07293884,-0.581854403,0.79896915,0.976906249
0.073165352,-0.484879822,0.864952147,0.983250658
0.073391872,-0.378926039,0.918886244,0.987936872
0.073618392,-0.266798347,0.959635317,0.9920813
0.073844912,-0.150086105,0.987012446,0.996719407
0.074071424,-0.029983847,1.0004288,1.001756815
0.074297944,0.0920057,0.999025941,1.00651788
0.074524464,0.213869303,0.982057035,1.010176099
0.074750984,0.333158553,0.949220955,1.012015043
0.074977496,0.447215497,0.900889218,1.011603084
0.075204016,0.553480506,0.838187337,1.008898682
0.075430536,0.649807572,0.76294446,1.00433413
0.075657056,0.734777331,0.677536309,0.998953176
0.075883568,0.808118105,0.584556222,0.994760848
0.076110088,0.871110022,0.485671878,0.994709844
0.076336608,0.924676657,0.379621565,0.999139453
0.076563128,0.965605021,0.265319675,1.002787587
0.076789648,0.990928113,0.145973668,1.003246837
0.07701616,1.00072241,0.024935801,1.002067136
0.07724268,0.995661259,-0.095798865,1.000518765
0.0774692,0.976158142,-0.214682072,0.99897311
0.07769572,0.942530513,-0.33012858,0.997348647
0.077922232,0.895240366,-0.440433204,0.99543672
0.078148752,0.835046113,-0.543849468,0.993074255
0.078375272,0.76306814,-0.638733566,0.990253555
0.078601792,0.680768728,-0.723695517,0.987181262
0.078828304,0.589878023,-0.797745824,0.984354482
0.079054824,0.492268711,-0.860476494,0.982748281
0.079281344,0.389580011,-0.91235739,0.984168592
0.079507864,0.281995833,-0.954604924,0.990792211
0.079734376,0.167559355,-0.986494482,1.0012475
0.079960896,0.046602458,-1.00393879,1.010064883
0.080187416,-0.077030391,-1.00469315,1.015342007
0.080413936,-0.200040162,-0.988976181,1.018089953
0.080640456,-0.32008341,-0.957359493,1.018990588
0.080866968,-0.434990823,-0.910432756,1.018104819
0.081093488,-0.542557657,-0.849066317,1.015282422
0.081320008,-0.640665591,-0.77459681,1.010452618
0.081546528,-0.727502763,-0.688854158,1.003780321
0.08177304,-0.801771581,-0.594045758,0.995728031
0.08199956,-0.862818837,-0.492558539,0.98707026
0.08222608,-0.910697222,-0.386725664,0.978926169
0.0824526,-0.946205974,-0.27855289,0.972897458
0.082679112,-0.970907509,-0.169162497,0.971277341
0.082905632,-0.986231565,-0.057724152,0.975984778
0.083132152,-0.990712047,0.057641041,0.98483285
0.083358672,-0.980974436,0.175590709,0.993142941
0.083585184,-0.956086695,0.292774469,0.999818658
0.083811704,-0.916555285,0.406838506,1.00559116
0.084038224,-0.862792015,0.515990019,1.010655761
0.084264744,-0.795178056,0.618297338,1.014599739
0.084491264,-0.714443445,0.711599469,1.01680324
0.084717776,-0.621899903,0.79370749,1.016731069
0.084944296,-0.519489646,0.862699986,1.014120758
0.085170816,-0.409668118,0.917205155,1.009093263
0.085397336,-0.295168877,0.95660305,1.002214061
0.085623848,-0.17869027,0.98113656,0.994559162
0.085850368,-0.062476207,0.991957545,0.987883047
0.086076888,0.052428383,0.990896642,0.984624891
0.086303408,0.166864365,0.978979349,0.986244282
0.08652992,0.281379193,0.954399765,0.990053162
0.08675644,0.393324286,0.915310621,0.992497527
0.08698296,0.499664962,0.862484097,0.993543892
0.08720948,0.598776221,0.797360659,0.994316983
0.087435992,0.689564586,0.720984399,0.995317822
0.087662512,0.770863771,0.634210587,0.996454022
0.087889032,0.841355085,0.538033009,0.997357898
0.088115552,0.89970535,0.433773458,0.99762913
0.088342072,0.944764137,0.323130578,0.996992645
0.088568584,0.975752413,0.208115816,0.995404964
0.088795104,0.992413759,0.090900242,0.993147923
0.089021624,0.995120466,-0.026418302,0.990962669
0.089248144,0.984899342,-0.142217994,0.990252672
0.089474656,0.962996364,-0.256040722,0.992918848
0.089701176,0.929198325,-0.368577063,0.999258579
0.089927696,0.881175995,-0.478827298,1.005746715
0.090154216,0.818122089,-0.583064914,1.009288446
0.090380728,0.741715252,-0.678185761,1.010077441
0.090607248,0.654000342,-0.762512386,1.009141586
0.090833768,0.556753993,-0.834902167,1.007036637
0.091060288,0.451703161,-0.894368172,1.003930173
0.091286808,0.340704709,-0.940102756,0.999872891
0.09151332,0.225765839,-0.971598327,0.994973523
0.09173984,0.108958304,-0.988749385,0.989497258
0.09196636,-0.007719637,-0.991893351,0.983912013
0.09219288,-0.122501738,-0.981799483,0.978936901
0.092419392,-0.234045386,-0.959622383,0.975652361
0.092645912,-0.341758102,-0.92673856,0.975642959
0.092872432,-0.446190864,-0.884008288,0.98055694
0.093098952,-0.548129439,-0.830265224,0.989786224
