Unnamed: 0,Frequency (GHz),Re( S21 ),Im( S21 ),S2
0,0.0,0.0374427065,0.0,0.0014019562700451
1,0.000226619297,0.0334432237,-0.0162281133,0.0013818008727258
2,0.000453238594,0.0227402896,-0.0284738094,0.0013278785928393
3,0.000679857875,0.00842695963,-0.0344224945,0.0012559217762081
4,0.000906477188,-0.00618134579,-0.0338324122,0.0011828411510462
5,0.0011330965,-0.0186121855,-0.0278382711,0.0011213827869235
6,0.00135971575,-0.0274337176,-0.0180719513,0.0010792042851461
7,0.001586335,-0.0319802612,-0.00614096643,0.0010604485751146
8,0.00181295438,-0.0320133641,0.00652582804,0.0010674419126068
9,0.00203957362,-0.0274833068,0.0185814034,0.0011006007049764
10,0.002266193,-0.0185417049,0.0285445806,0.0011585879022285
11,0.00249281225,-0.00579155609,0.0347038433,0.0012378988617345
12,0.0027194315,0.00932926312,0.0352621451,0.0013304540274156
13,0.00294605075,0.0242004506,0.0289086085,0.0014213694546493
14,0.00317267,0.0351973958,0.0158272441,0.0014893583269028
15,0.0033992895,0.0388600528,-0.00111088692,0.0015113377733678
16,0.00362590875,0.0341278985,-0.0181179773,0.0014929745574696
17,0.003852528,0.0224022716,-0.0304464605,0.0014288487298182
18,0.00407914725,0.00726990029,-0.0359314159,0.0013439180988053
19,0.0043057665,-0.00774057768,-0.0346285254,0.0012590513141985
20,0.004532386,-0.0201892536,-0.0279541984,0.0011890431691116
21,0.004759005,-0.028797958,-0.01769129,0.0011423041268338
22,0.0049856245,-0.0330681615,-0.00547493715,0.0011234782417865
23,0.0052122435,-0.0329100229,0.007341119,0.0011369616354506
24,0.005438863,-0.028299557,0.0195863154,0.0011844886773445
25,0.0056654825,-0.0192800127,0.0299111959,0.0012663985298803
26,0.0058921015,-0.00623300951,0.0366607048,0.0013828576839844
27,0.006118721,0.00972699933,0.0378822796,0.0015296816236583
28,0.00634534,0.0262123179,0.0317159407,0.0016929865041765
29,0.0065719595,0.0380588919,0.0177571792,0.0017637966657967
30,0.006798579,0.04354674,-0.00153598958,0.0018986778286174
31,0.007025198,0.0382909812,-0.0213048868,0.0019200974428195
32,0.0072518175,0.0242418386,-0.0355950445,0.0018546739316654
33,0.0074784365,0.00614711596,-0.041222658,0.0017370945672106
34,0.007705056,-0.0111873522,-0.0384793803,0.0016058195575188
35,0.0079316755,-0.0247292984,-0.0296253785,0.0014892012506245
36,0.0081582945,-0.0332538858,-0.0172224306,0.0014024330365712
37,0.008384914,-0.0366105326,-0.00336615648,0.0013516621067035
38,0.008611533,-0.035079997,0.0103646936,0.0013380330629418
39,0.008838152,-0.0292502549,0.0227544587,0.0013733428024449
40,0.009064772,-0.0193154998,0.0329290554,0.00145741122206
41,0.009291391,-0.00572585454,0.0394816883,0.0015915891212315
42,0.00951801,0.0105204061,0.0408747047,0.0017814204288211
43,0.00974463,0.0273998864,0.0349443108,0.0019718586320199
44,0.009971249,0.0423086099,0.0210740417,0.0022341337052437
45,0.010197868,0.0500530116,0.000174190514,0.0025053343125649
46,0.010424487,0.0464141667,-0.0234923884,0.0027061671831918
47,0.010651107,0.0308397617,-0.0428099073,0.0027837790647473
48,0.010877726,0.00791149028,-0.0516534746,0.0027306731167033
49,0.011104345,-0.0152888922,-0.0485194959,0.0025878917070933
50,0.011330965,-0.0332470611,-0.0361799672,0.0024143570983802
51,0.011557584,-0.0435929149,-0.0188736878,0.0022565583206505
52,0.011784203,-0.0462646447,-0.000242655457,0.002140476230888
53,0.012010823,-0.0422132723,0.017187776,0.0020773800021001
54,0.012237442,-0.0326240063,0.0317306817,0.0020711619482091
55,0.012464061,-0.018758066,0.0420665853,0.0021214626388625
56,0.01269068,-0.00176519901,0.0474448167,0.0022541265592415
57,0.0129173,0.0170676857,0.0464902744,0.0024526515089412
58,0.013143919,0.0356230214,0.0381086431,0.002721268332588
59,0.013370538,0.050881248,0.0218074415,0.0030644659028134
60,0.013597158,0.058654882,-0.00119243935,0.0034418170940373
61,0.013823777,0.0554885864,-0.0277711935,0.0038502224090847
62,0.014050396,0.0392656364,-0.0515821539,0.0042025088028602
63,0.014277015,0.0124613438,-0.0654400587,0.0044376863719612
64,0.014503635,-0.0181417223,-0.0648169816,0.004530363191745
65,0.014730254,-0.0445502549,-0.0502067767,0.0045054456382586
66,0.014956873,-0.0611270629,-0.0261567701,0.0044206944408448
67,0.015183493,-0.0658400804,0.00153900869,0.0043372847348263
68,0.015410112,-0.059361618,0.0279105231,0.0043027989912935
69,0.015636731,-0.0436902717,0.0494005159,0.0043492508124059
70,0.015863351,-0.0212898105,0.0636005029,0.0044982800002588
71,0.01608997,0.00516664842,0.0688570663,0.0047679898353384
72,0.016316589,0.0327885896,0.0640579686,0.0051785149491158
73,0.016543208,0.058140412,0.0485309176,0.0057355574706277
74,0.016769828,0.0769579709,0.0227167327,0.0064385792296084
75,0.016996446,0.0845479742,-0.0110120652,0.0072696255212929
76,0.017223066,0.0768666267,-0.0476687588,0.0081807888657697
77,0.017449686,0.0523713268,-0.0797243789,0.0090987324617831
78,0.017676304,0.0138583397,-0.0987438634,0.0099424041383984
79,0.017902924,-0.0311957821,-0.0984068066,0.0106570764060404
80,0.018129544,-0.0726917312,-0.0772270113,0.0112480990591833
81,0.018356162,-0.101322807,-0.0390750617,0.011793171665218
82,0.018582782,-0.111158974,0.00861364417,0.01243051236662
83,0.018809402,-0.100263953,0.0573406145,0.0133408063424238
84,0.01903602,-0.0699075907,0.0992632881,0.0147402716019023
85,0.01926264,-0.0235193856,0.127816573,0.0168902378324658
86,0.01948926,0.0339367911,0.137723163,0.0201193754168896
87,0.019715878,0.0961126983,0.124952413,0.0248507562890293
88,0.019942498,0.15504387,0.0869285017,0.0315951660323838
89,0.020169118,0.200925246,0.0235542934,0.0409257592177338
90,0.020395736,0.22288394,-0.0612677708,0.0534309904487249
91,0.020622356,0.210930601,-0.158459306,0.0696010700962228
92,0.020848974,0.158945218,-0.253833324,0.0896949386979565
93,0.021075594,0.0676517263,-0.330285162,0.1136650443087363
94,0.021302214,-0.054166045,-0.371856511,0.1412112252040351
95,0.021528832,-0.191309735,-0.367926657,0.1719694396369658
96,0.021755452,-0.325960577,-0.315419614,0.2057398306540819
97,0.021982072,-0.441545367,-0.218299523,0.2426169928611922
98,0.02220869,-0.525165081,-0.085897781,0.2831767910824606
99,0.02243531,-0.569385469,0.071601972,0.3293266547026387
100,0.02266193,-0.567715824,0.243136659,0.3814166917696812
101,0.022888548,-0.516706467,0.416494012,0.4404528350714782
102,0.023115168,-0.41514051,0.578708768,0.507245481203138
103,0.023341788,-0.264515013,0.715594471,0.5820436390281599
104,0.023568406,-0.0702732578,0.811875343,0.6640799033331929
105,0.023795026,0.156647563,0.852441192,0.7511944448122199
106,0.024021646,0.398844481,0.824995458,0.8396944257447891
107,0.024248264,0.633203089,0.723678052,0.9246560748656568
108,0.024474884,0.834137619,0.55228287,1.0008019359264262
109,0.024701502,0.97879523,0.325171888,1.0637768590162375
110,0.024928122,1.05220175,0.0647875741,1.1113259524608254
111,0.025154742,1.04998052,-0.203404784,1.1438325985335571
112,0.02538136,0.977570295,-0.456194311,1.163756931055152
113,0.02560798,0.84689635,-0.67599684,1.1742051553333082
114,0.0258346,0.672463298,-0.851457119,1.177186112652817
115,0.026061218,0.467885405,-0.976721525,1.1729016896103397
116,0.026287838,0.245667145,-1.05094254,1.164832568514103
117,0.026514458,0.0178313516,-1.07501197,1.1559686927431638
118,0.026741076,-0.20513989,-1.0506891,1.146029959328022
119,0.026967696,-0.413700134,-0.981112778,1.1337300840264952
120,0.027194316,-0.59887898,-0.871142685,1.1175456103148496
121,0.027420934,-0.752669752,-0.727772474,1.096164529487822
122,0.027647554,-0.869001269,-0.560197055,1.0689839459542834
123,0.027874174,-0.944875121,-0.379131079,1.036529369348469
124,0.028100792,-0.981036901,-0.195328936,1.0005867943625757
125,0.028327412,-0.981672764,-0.0176945478,0.9639945126012462
126,0.02855403,-0.954208136,0.148421034,0.9325419701422236
127,0.02878065,-0.905744195,0.298217565,0.9093062628507274
128,0.02900727,-0.84148854,0.432601035,0.8952466184344028
129,0.029233888,-0.766209006,0.551457942,0.8911821026703834
130,0.029460508,-0.675831318,0.655780673,0.8867962614699499
131,0.029687128,-0.572036982,0.752791882,0.8939219263807703
132,0.029913746,-0.45565173,0.839917362,0.913079674041032
133,0.030140366,-0.32461372,0.91403228,0.9408290760942368
134,0.030366986,-0.178026453,0.970731556,0.9740131717819424
135,0.030593604,-0.0171458423,1.00439596,1.0091052243724985
136,0.030820224,0.153974503,1.009238,1.0422694882180972
137,0.031046844,0.328447342,0.980773449,1.0697942147302204
138,0.031273462,0.497362405,0.917230725,1.0886815647914097
139,0.031500082,0.651297331,0.820318103,1.097110003477242
140,0.031726702,0.781876266,0.695002258,1.0943586339592013
141,0.03195332,0.882807732,0.54915303,1.0809185420371643
142,0.03217994,0.966184795,0.389746159,1.0854151265444454
143,0.032406558,1.01278961,0.227303922,1.077409867080534
144,0.032633178,1.03567028,0.0767178014,1.0784985499269282
145,0.032859798,1.01294267,-0.0773186088,1.032031019973496
146,0.033086416,0.978315234,-0.228559062,1.0093399418987945
147,0.033313036,0.925799012,-0.369210303,0.993420058461528
148,0.033539656,0.856319547,-0.498602957,0.9818880753034293
149,0.033766276,0.771231055,-0.615722299,0.9739112896822584
150,0.033992892,0.671866298,-0.719239056,0.968709142063996
151,0.034219512,0.559745729,-0.807554126,0.9654589475533653
152,0.034446132,0.436799526,-0.878978848,0.963397641145232
153,0.034672752,0.305447578,-0.932012141,0.96194485387747
154,0.034899372,0.168509603,-0.965575576,0.9607316792709494
155,0.035125992,0.0290747583,-0.979139686,0.959559866270382
156,0.035352608,-0.109665975,-0.972896457,0.9585541421158535
157,0.035579228,-0.261113256,-0.958026469,0.9859948477635294
158,0.035805848,-0.400458544,-0.919902265,1.0065872226147303
159,0.036032468,-0.493177027,-0.883033156,1.022971134555879
160,0.036259088,-0.626150906,-0.790233254,1.0165335528120494
161,0.036485708,-0.738543212,-0.693657041,1.026606166520153
162,0.036712324,-0.837054312,-0.581690311,1.03902353914907
163,0.036938944,-0.918945968,-0.454456061,1.0509920034830926
164,0.037165564,-0.980725765,-0.313932896,1.060376889325782
165,0.037392184,-1.01906848,-0.163651079,1.0652822425873747
166,0.037618804,-1.03158891,-0.00853256509,1.0642484839020032
167,0.03784542,-1.01751745,0.145590633,1.056538393471843
168,0.03807204,-0.978062987,0.292778522,1.0423264694838668
169,0.03829866,-0.916301787,0.427874595,1.0226856339058072
170,0.03852528,-0.836651802,0.547199607,0.9994136476908018
171,0.0387519,-0.74408555,0.64888078,0.974709572372211
172,0.03897852,-0.643327057,0.732439756,0.9503376984376208
173,0.039205136,-0.540546656,0.796534061,0.926657197645934
174,0.039431756,-0.448064446,0.867248654,0.9528819756340984
175,0.039658376,-0.324277401,0.920492709,0.9524626601214736
176,0.039884996,-0.201589808,0.955716848,0.954033144240532
177,0.040111616,-0.075944595,0.977876306,0.9620096513459196
178,0.040338236,0.0536318123,0.985913575,0.974901948659863
179,0.040564852,0.186576724,0.977708697,0.99072517012801
180,0.040791472,0.320890844,0.950920999,1.0072216801021905
181,0.041018092,0.453196883,0.903720081,1.0220973995635625
182,0.041244712,0.579095006,0.835454404,1.0333350871371354
183,0.041471332,0.69380182,0.747077525,1.039485793795438
184,0.041697948,0.792914033,0.64120394,1.0398551563998486
185,0.041924568,0.873084784,0.521802902,1.0345553085879482
186,0.042151188,0.932398379,0.393660694,1.024335479162389
187,0.042377808,0.970329285,0.262202173,1.0102889008545333
188,0.042604428,0.990089893,0.135942459,0.9987583483797182
189,0.042831048,1.00883424,0.00361606525,1.01775959972427
190,0.043057664,0.997073531,-0.136742055,1.012854015826431
191,0.043284284,0.965638459,-0.268376082,1.0044833548895655
192,0.043510904,0.918593168,-0.392455965,0.9978350927603576
193,0.043737524,0.857019424,-0.508483529,0.9930377923775856
194,0.043964144,0.781719685,-0.615277946,0.9896526167504782
195,0.044190764,0.693635166,-0.711319029,0.9871045045293504
196,0.04441738,0.594050229,-0.794951141,0.9848429911521543
197,0.044644,0.484683633,-0.864606261,0.9824622106584788
198,0.04487062,0.367653638,-0.919022858,0.9797722110611232
199,0.04509724,0.245348603,-0.957403779,0.9768179330375324
200,0.04532386,0.120266736,-0.979480147,0.9738454461552352
201,0.045550476,-0.00503804069,-0.98549968,0.9712350011340966
202,0.045777096,-0.127564356,-0.976608336,0.9700365068663837
203,0.046003716,-0.245231837,-0.959118307,0.9800465807009408
204,0.046230336,-0.37318933,-0.93145752,1.0068833875903993
205,0.046456956,-0.498143941,-0.877498329,1.0181507033528037
206,0.046683576,-0.613168716,-0.806143463,1.025843157218721
207,0.046910192,-0.717852592,-0.719288826,1.0326887590495766
208,0.047136812,-0.810120761,-0.617790878,1.03796121634323
209,0.047363432,-0.887291312,-0.503211915,1.0405081037486483
210,0.047590052,-0.946769595,-0.37809968,1.0393320340325665
211,0.047816672,-0.986600459,-0.245920017,1.033857120460291
212,0.048043292,-1.00589991,-0.110728078,1.0240953361955818
213,0.048269908,-1.00505972,0.0233367383,1.0106896441209612
214,0.048496528,-0.985670328,0.152584374,0.9948279866885994
215,0.048723148,-0.950213909,0.274159372,0.9780698341124948
216,0.048949768,-0.901755452,0.386136442,0.9622642470521436
217,0.049176388,-0.844397008,0.487569809,0.9507306257676484
218,0.049403004,-0.784003079,0.583089769,0.9546545065939536
219,0.049629624,-0.710654259,0.680375874,0.967940805756103
220,0.049856244,-0.621616662,0.766599536,0.9740821230714376
221,0.050082864,-0.523039401,0.841141343,0.9810889739022824
222,0.050309484,-0.415471345,0.904471874,0.9906858093731808
223,0.050536104,-0.298994541,0.955275714,1.0019494253060104
224,0.05076272,-0.174440891,0.991396904,1.0132974457136592
225,0.05098934,-0.0437003672,1.01050782,1.023035776374567
226,0.05121596,0.0902800038,1.0107038,1.0296726504205678
227,0.05144258,0.2237629,0.991008162,1.032167012567028
228,0.0516692,0.352692097,0.951679945,1.0300864330014603
229,0.05189582,0.473238826,0.89426285,1.023661031323981
230,0.052122436,0.582267165,0.821416855,1.013760701115228
231,0.052349056,0.677677929,0.736776948,1.0020876465579238
232,0.052575676,0.759468853,0.645205736,0.9930833804444372
233,0.052802296,0.833685756,0.548806965,0.9962210245898028
234,0.053028916,0.898618758,0.438720435,0.999991292316052
235,0.053255532,0.9455145,0.320288181,0.9965821885985388
236,0.053482152,0.976237833,0.198871359,0.9925901240110429
237,0.053708772,0.992148161,0.0758110136,0.9901052831587414
238,0.053935392,0.9934448,-0.0479208156,0.9892289752148092
239,0.054162012,0.97991091,-0.171062425,0.9894877447839088
240,0.054388632,0.951313496,-0.291964859,0.990240846562632
241,0.054615248,0.907683611,-0.408643484,0.9908790346936576
242,0.054841868,0.84950304,-0.5189327,0.9909465620985316
243,0.055068488,0.777792513,-0.620696962,0.9902259119148846
244,0.055295108,0.694098711,-0.712040305,0.9887744165563546
245,0.055521728,0.600461006,-0.791489065,0.9870083597411062
246,0.055748348,0.499487221,-0.858328462,0.9862152326215884
247,0.055974964,0.394003093,-0.914083421,0.99078693784063
248,0.056201584,0.281244069,-0.962619007,1.0057335789853428
249,0.056428204,0.156392992,-0.996643424,1.017756882549156
250,0.056654824,0.0267892368,-1.01104462,1.0229288868392712
251,0.056881444,-0.103279807,-1.00735378,1.025428356614246
252,0.05710806,-0.231665894,-0.986250281,1.0263587032153982
253,0.05733468,-0.356072783,-0.948012054,1.025514681322664
254,0.0575613,-0.473905563,-0.893236041,1.0224571075837006
255,0.05778792,-0.582519174,-0.823150456,1.0169052612906502
256,0.05801454,-0.679546356,-0.7396788,1.0089079771223188
257,0.05824116,-0.763204932,-0.645312488,0.9989099753978748
258,0.058467776,-0.832489133,-0.542846024,0.9877199623357004
259,0.058694396,-0.887216926,-0.43508026,0.9764487064225572
260,0.058921016,-0.927992046,-0.324611098,0.9665416023840316
261,0.059147636,-0.956413984,-0.213695467,0.9603934614071004
262,0.059374256,-0.975937605,-0.102883279,0.963039177950928
263,0.059600876,-0.98774004,0.0130128432,0.9757997207073494
264,0.059827492,-0.984396517,0.134603888,0.9871547093464478
265,0.060054112,-0.96452862,0.255985349,0.995843957701756
266,0.060280732,-0.929449379,0.374951154,1.0044645160094174
267,0.060507352,-0.879213512,0.490079403,1.0131942209282103
268,0.060733972,-0.813596904,0.599300086,1.0211005152779924
269,0.060960588,-0.732852578,0.699938357,1.0269866046811056
270,0.061187208,-0.638091028,0.789070964,1.029793146241986
271,0.061413828,-0.53139168,0.863984585,1.0288464806908446
272,0.061640448,-0.415671021,0.922612429,1.0239960918444624
273,0.061867068,-0.294363558,0.963854849,1.015666074219232
274,0.062093688,-0.171019092,0.987728357,1.0048548370504238
275,0.062320304,-0.0489178635,0.995424271,0.993262436665286
276,0.062546924,0.0695156604,0.989539802,0.9840214467830474
277,0.062773544,0.184878901,0.973718107,0.9823071599346314
278,0.063000164,0.301064223,0.946571946,0.9866381153248208
279,0.063226784,0.414736629,0.903429747,0.9881917791987678
280,0.063453404,0.521360934,0.846237063,0.9879343902962184
281,0.06368002,0.620012403,0.777235031,0.9885096732874056
282,0.06390664,0.710168362,0.697290659,0.9905533655144172
283,0.06413326,0.790816784,0.606882513,0.9936975704412978
284,0.06435988,0.860513389,0.506673455,0.9972012826499024
285,0.0645865,0.917618692,0.39779231,1.000262785802927
286,0.064813116,0.960584283,0.281933188,1.0022084872424677
287,0.065039736,0.988233745,0.161302805,1.002624529657593
288,0.065266356,0.999983728,0.0384542421,1.0014461850002634
289,0.065492976,0.995997787,-0.0839471668,0.9990587185226444
290,0.065719596,0.977355242,-0.203437328,0.9966100154886582
291,0.065946216,0.946242034,-0.318581015,0.9968678500268872
292,0.066172832,0.90433687,-0.430897772,1.0034980643559608
293,0.066399452,0.84792763,-0.541460812,1.0121610766491165
294,0.066626072,0.774836719,-0.644518733,1.0157763382986102
295,0.066852692,0.688327014,-0.736142397,1.0156997068630615
296,0.067079312,0.591133475,-0.815223634,1.0140283586977417
297,0.067305928,0.485136449,-0.880950451,1.011431071265433
298,0.067532552,0.372138351,-0.932443619,1.0079380548988164
299,0.067759168,0.25414297,-0.968947113,1.0034471569914558
300,0.067985784,0.133360118,-0.990033507,0.9979512660556932
301,0.068212408,0.0120790731,-0.995737731,0.9916395329439834
302,0.068439024,-0.107507214,-0.986593485,0.984924505706487
303,0.068665648,-0.22346957,-0.963593304,0.9784507042296212
304,0.068892264,-0.334276706,-0.928126276,0.9731593003758384
305,0.069118888,-0.439021468,-0.881981134,0.970630570096801
306,0.069345504,-0.538209796,-0.827106416,0.9737748078987268
307,0.06957212,-0.634331822,-0.763094842,0.9846905982888446
308,0.069798744,-0.726397991,-0.685504794,0.9975708639258184
309,0.07002536,-0.808885396,-0.593981624,1.007109753511754
310,0.070251984,-0.879080951,-0.491396576,1.0142539133155883
311,0.0704786,-0.935811937,-0.3797732,1.019971664869932
312,0.070705216,-0.977788985,-0.260822326,1.0240995849273806
313,0.07093184,-1.00367618,-0.13662979,1.0260335738148365
314,0.071158456,-1.01247025,-0.00980756618,1.0251921954894376
315,0.07138508,-1.00382459,0.116651058,1.0212712768211876
316,0.071611696,-0.978231311,0.239669368,1.0143779037782985
317,0.071838312,-0.937026799,0.35643971,1.0050684889090704
318,0.072064936,-0.882253528,0.464736968,0.9943517370942798
319,0.072291552,-0.816446722,0.563171625,0.9837475290696858
320,0.072518176,-0.74237299,0.651530623,0.9756098089883082
321,0.072744792,-0.662117839,0.731422722,0.9733792309799192
322,0.072971416,-0.574400008,0.805099308,0.9781202649324788
323,0.073198032,-0.476356685,0.870198309,0.9841607883306486
324,0.073424648,-0.369725108,0.922938645,0.9885123979200476
325,0.073651272,-0.257181495,0.962523103,0.9925930451791836
326,0.073877888,-0.140169814,0.988757491,0.9972889527654096
327,0.074104512,-0.0198641289,1.00100064,1.0023968648973656
328,0.074331128,0.102204241,0.998375833,1.00720001079683
329,0.074557744,0.223988399,0.980148494,1.0108618731770511
330,0.074784368,0.343014628,0.946052849,1.012675028122995
331,0.075010984,0.456619799,0.89650774,1.012227768718708
332,0.075237608,0.562258482,0.832689047,1.0095056495747126
