Frequency (GHz),Re( S21 ),Im( S21 ),S2
0.0,0.0389769711,0.0,0.0015192042761302353
0.000226585453,0.0348133259,-0.0169045683,0.0014977320896289753
0.000453170906,0.0236631855,-0.0296698995,0.0014402492843475104
0.000679756375,0.00873535965,-0.0358767323,0.0013634464287407113
0.000906341813,-0.00651577162,-0.0352544487,0.0012853314329449295
0.00113292725,-0.0194976106,-0.0289726965,0.0012195739615903445
0.00135951275,-0.0286966171,-0.018734185,0.0011744655205982372
0.00158609825,-0.0334025696,-0.00622838503,0.0011545244359647722
0.00181268363,-0.0333585143,0.00703203864,0.0011622400437377577
0.00203926913,-0.0285179447,0.0196148977,0.0011980173816937233
0.0022658545,-0.0190613382,0.0299503487,0.001260358001226371
0.00249244,-0.00565653387,0.0362397656,0.0013453169861654005
0.0027190255,0.0101452563,0.0366204642,0.0014439846236161714
0.002945611,0.0255652387,0.0297765955,0.0015402270693585978
0.0031721965,0.036819756,0.0159839913,0.0016111824097780117
0.00339878175,0.0403845757,-0.00168415077,0.0016337503182851222
0.00362536725,0.0352102034,-0.0193060599,0.0016124823723317595
0.00385195275,0.0228455178,-0.031952817,0.0015429001977856059
0.00407853825,0.00703632412,-0.0374453664,0.0014516653219519427
0.0043051235,-0.00856289081,-0.0358823203,0.0013608640091357746
0.004531709,-0.0214312337,-0.0287554655,0.001286174574025706
0.0047582945,-0.0302501358,-0.0179299917,0.0012365553182805107
0.00498488,-0.0345081612,-0.00511769019,0.0012170039422860076
0.0052114655,-0.0341168717,0.00826027989,0.0012321931584553995
0.005438051,-0.0290610846,0.0209594537,0.0012838453375308007
0.0056646365,-0.0194156617,0.0315478593,0.0013722353456614436
0.005891222,-0.00563109946,0.0382825509,0.0014972629845395027
0.0061178075,0.0110509731,0.0391376764,0.0016538817204480407
0.006344393,0.0280432217,0.0322454013,0.0018261881883133925
0.0065709785,0.0399553217,0.0173732992,0.0018982592572432113
0.0067975635,0.0450691544,-0.00278789178,0.002039001018908031
0.007024149,0.0390325151,-0.0231041368,0.002057338372304842
0.0072507345,0.0240869187,-0.0374688245,0.00198409246187221
0.00747732,0.00523217348,-0.0427744351,0.0018570279374489275
0.0077039055,-0.0126054967,-0.039469935,0.0017167743159579357
0.007930491,-0.0263730939,-0.0299567878,0.001592949217152446
0.0081570765,-0.0348685011,-0.0168960392,0.0015012885096086378
0.008383662,-0.0379754156,-0.00245172367,0.0014481431389467617
0.008610247,-0.0360099524,0.0117408,0.001434563056490266
0.008836833,-0.029609438,0.0244464595,0.0014743482007609841
0.009063418,-0.0189739224,0.0347182639,0.0015653675794712648
0.009290004,-0.00462941499,0.0410923138,0.0017100097365873074
0.009516589,0.0123257805,0.0419925526,0.0019152993387979466
0.009743175,0.0295858122,0.0351842381,0.0021132508942111605
0.00996976,0.0445368811,0.0201876909,0.00239107664198948
0.010196346,0.051678963,-0.00178834063,0.002673913378964278
0.010422931,0.0468825065,-0.0260773208,0.002877996075828655
0.010649517,0.0299878325,-0.0452832319,0.002949841189357234
0.010876102,0.00605185097,-0.0533713847,0.002885129604958484
0.011102687,-0.0176075101,-0.0491865203,0.0027293381911439145
0.011329273,-0.035515897,-0.0358206667,0.002544499102547098
0.011555858,-0.0454508625,-0.0176813249,0.0023784101522132664
0.011782444,-0.0474873595,0.00153110293,0.002257393588464495
0.012009029,-0.0426735841,0.0192775726,0.0021926595852880437
0.012235615,-0.032267306,0.0338644497,0.002187979989981466
0.0124622,-0.0176163912,0.0439807661,0.0022446450256543467
0.012688786,0.000112234004,0.0488507934,0.0023864126122811378
0.012915371,0.0194928572,0.0470937155,0.0025977895214145323
0.013141957,0.0382733159,0.0376467146,0.002882121830155046
0.013368542,0.0532733873,0.020136442,0.0032435300908351655
0.013595127,0.0603867918,-0.00418599835,0.0036640872060827497
0.013821713,0.0555757023,-0.0311434306,0.004058571955675242
0.014048298,0.0376695991,-0.0547462478,0.004416150344533725
0.014274884,0.00947759021,-0.0675082654,0.004647190613505526
0.014501469,-0.021748364,-0.0652382448,0.004729019921261222
0.014728055,-0.0478987247,-0.0489614345,0.004691509896184181
0.01495464,-0.0635441765,-0.0236348715,0.004596469517884664
0.015181226,-0.0669656917,0.00477567362,0.004507210923384212
0.015407811,-0.0590978973,0.0312962979,0.004472019727526892
0.015634397,-0.0421197861,0.0524308868,0.004523074271744167
0.015860982,-0.0186235178,0.0658423007,0.004682043976716137
0.016087568,0.00860729907,0.0699539632,0.004967642564667377
0.016314153,0.036581777,0.0637332201,0.005400149752792774
0.016540738,0.0617249012,0.0466226824,0.005983637942321031
0.016767324,0.079653129,0.0192806423,0.006716364126991191
0.01699391,0.0856409818,-0.0155978007,0.007577669150344852
0.017220494,0.0757947862,-0.0526338816,0.00851517510738653
0.01744708,0.0489840657,-0.0839732364,0.009450943123992202
0.017673666,0.00862681214,-0.101129472,0.010301591994697636
0.017900252,-0.0372031704,-0.0981355906,0.011014670030222244
0.018126836,-0.0781187713,-0.0741623715,0.011602599775925718
0.018353422,-0.104943611,-0.0337554291,0.012152590483444449
0.018580008,-0.112167493,0.0151975155,0.012812510963277788
0.018806594,-0.0983523428,0.0640242621,0.013772289471698208
0.019033178,-0.0652077422,0.104907177,0.01525756542893099
0.019259764,-0.0165171139,0.131409198,0.017541192370588776
0.01948635,0.0424614102,0.138434291,0.02096702428084534
0.019712934,0.105118394,0.122178674,0.025977505137537514
0.01993952,0.163225457,0.080366686,0.03310135403148144
0.020166106,0.20675616,0.0133673549,0.04292679587496815
0.020392692,0.224792436,-0.0742751658,0.05604843953743159
0.020619276,0.207614154,-0.172743544,0.07294396893481564
0.020845862,0.149780691,-0.267213732,0.0938374339658053
0.021072448,0.0530384481,-0.340318948,0.11863006334468311
0.021299034,-0.0727376938,-0.376405984,0.14697223689035083
0.021525618,-0.21154891,-0.365672559,0.1784693617277966
0.021752204,-0.345288336,-0.306096524,0.21291911698253144
0.02197879,-0.45757398,-0.202611804,0.2504254902931748
0.022205374,-0.536146939,-0.065333657,0.29172202693606336
0.02243196,-0.574035883,0.0954836309,0.33863431874143707
0.022658546,-0.565256715,0.26840359,0.3915556409774793
0.022885132,-0.506850541,0.441139698,0.45150170406352397
0.023111716,-0.398060322,0.600675523,0.5192631038820673
0.023338302,-0.240889311,0.732799768,0.5950231601349085
0.023564888,-0.0413926132,0.822300136,0.6778908620931432
0.023791474,0.188773081,0.854336798,0.7655266405271253
0.024018058,0.431473911,0.817224264,0.8540252335439777
0.024244644,0.66307807,0.706122637,0.9382817053987587
0.02447123,0.857973456,0.526138544,1.0129402186830239
0.024697814,0.993944526,0.292916536,1.0737258178276041
0.0249244,1.05722785,0.0297476556,1.118615649829319
0.025150986,1.04488814,-0.237744883,1.1483138545053435
0.025377572,0.963621378,-0.486850858,1.165589918073955
0.025604156,0.826153517,-0.700878978,1.1737609754537937
0.025830742,0.647301257,-0.869431317,1.1749097322941346
0.026057328,0.440567225,-0.987444103,1.1691453362936752
0.026283914,0.218105584,-1.05472481,1.160014470601517
0.026510498,-0.00841688178,-1.07258618,1.150511957425891
0.026737084,-0.228893787,-1.04300261,1.1402468101940135
0.02696367,-0.434122503,-0.969218016,1.1278459101499614
0.027190254,-0.615432739,-0.856135309,1.1117251235495675
0.02741684,-0.765090942,-0.710751593,1.090531976482485
0.027643426,-0.877295673,-0.542227745,1.063658625312308
0.027870012,-0.949315071,-0.361177713,1.0316484443956455
0.028096596,-0.982128561,-0.178168476,0.9963205161720933
0.028323182,-0.980060875,-0.00183954358,0.9605227026263484
0.028549768,-0.950524807,0.162837282,0.9300133891315346
0.028776354,-0.900627732,0.311247081,0.9080050570784844
0.029002938,-0.835293829,0.44449228,0.8952891677450798
0.029229524,-0.759205759,0.562488854,0.8927870953729995
0.02945611,-0.66784656,0.66588825,0.889426189191896
0.029682694,-0.562773526,0.762152016,0.897589737059337
0.02990928,-0.444897234,0.848379016,0.9176805036099789
0.030135866,-0.312190413,0.921214759,0.9460994861685388
0.030362452,-0.163918763,0.976078153,0.9795979216273416
0.030589036,-0.00159724569,1.00725496,1.014565105638396
0.030815622,0.170403644,1.00899684,1.0471120250184642
0.031042208,0.344896585,0.977024853,1.0735312177243337
0.031268794,0.512784004,0.909925401,1.0909116701432828
0.031495378,0.664647639,0.809841394,1.0975995674641374
0.031721964,0.79233402,0.682139635,1.0931076808872935
0.03194855,0.889944851,0.53491497,1.078135862951513
0.032175136,0.96984607,0.37487182,1.0811302809245573
0.03240172,1.01338911,0.212834179,1.0722558760171965
0.032628306,1.03469586,0.0634625554,1.0746230186390378
0.032854892,1.00943482,-0.0887321159,1.0268320442205234
0.033081476,0.973612428,-0.238449305,1.0047792310110382
0.033308062,0.920431376,-0.377685636,0.989840357565978
0.033534648,0.850612998,-0.505942404,0.9795201885318472
0.033761232,0.765302837,-0.622240782,0.97287202310422
0.03398782,0.66565305,-0.725188434,0.9689922477816748
0.034214404,0.553066194,-0.813049138,0.9669311157481888
0.034440988,0.429445088,-0.883966029,0.9658190240333565
0.034667576,0.297274381,-0.936286092,0.9650037036715656
0.03489416,0.159503683,-0.968841732,0.9640957265553243
0.035120744,0.0193723198,-0.981094062,0.9629208452660933
0.035347332,-0.119797565,-0.973294795,0.9616542145540213
0.035573916,-0.271460921,-0.95642072,0.9884316252754867
0.035800504,-0.41051501,-0.916303575,1.0081348149930809
0.036027088,-0.500499129,-0.877944708,1.021286288434964
0.036253672,-0.634373307,-0.783999205,1.0170842460747482
0.03648026,-0.745554388,-0.686156094,1.0266615307993914
0.036706844,-0.842607617,-0.573223948,1.0385732907871252
0.036933428,-0.922903001,-0.445342124,1.0500795566636374
0.037160016,-0.983020544,-0.304502189,1.0590509730318476
0.0373866,-1.01970458,-0.154241785,1.0635879587129624
0.037613188,-1.03064895,0.000519611989,1.0622375281327217
0.037839772,-1.01517236,0.153974682,1.0542831232049705
0.038066356,-0.974571884,0.300245017,1.03993742731664
0.038292944,-0.911989093,0.434276223,1.0203199436141084
0.038519528,-0.831857681,0.552517712,0.9972630235124127
0.038746112,-0.739109159,0.653223038,0.9729826862916366
0.0389727,-0.638386011,0.736023962,0.9492679716786696
0.039199284,-0.535701454,0.799827933,0.9267007702247666
0.039425868,-0.442950875,0.869307339,0.9519007273025266
0.039652456,-0.319342554,0.922694921,0.9533455840344391
0.03987904,-0.196377948,0.957743168,0.9558362743113671
0.040105628,-0.0702919811,0.979586184,0.9645300544906446
0.040332212,0.0598316193,0.987088323,0.9779231800710125
0.040558796,0.193318531,0.978059947,0.9939733143536408
0.040785384,0.328019649,0.950146139,1.0103745755866904
0.041011968,0.460404724,0.901579261,1.0248176737468222
0.041238552,0.585957408,0.831846178,1.0353141478432861
0.04146514,0.699855864,0.742089689,1.0404953368953034
0.041691724,0.797756255,0.635118365,1.0397903799518982
0.041918308,0.876457572,0.515044332,1.0334485394414614
0.042144896,0.934245467,0.386713803,1.022362158040771
0.04237148,0.970819235,0.255495518,1.0077679467640734
0.042598068,0.989495277,0.12950331,0.9958720105062627
0.042824652,1.00686896,-0.00168283912,1.0137879345589855
0.043051236,0.994890869,-0.1411006,1.0097172205399352
0.043277824,0.963372827,-0.272004813,1.002073822097137
0.043504408,0.916421711,-0.395557016,0.9962941052989919
0.043730992,0.855006218,-0.511307657,0.9924711529254931
0.04395758,0.7797966,-0.618053675,0.9900730825525655
0.044184164,0.691630661,-0.714191735,0.9884228055776072
0.044410748,0.591744781,-0.797945261,0.9868785253930961
0.044637336,0.481874675,-0.867618799,0.9849655827845581
0.04486392,0.364215344,-0.921853483,0.9824666609242696
0.045090508,0.24126558,-0.9598068,0.9794381734189763
0.045317092,0.115635201,-0.981223702,0.9761714530768951
0.045543676,-0.0100406241,-0.986418724,0.9731227131901057
0.045770264,-0.132761657,-0.976622701,0.971417557677921
0.045996848,-0.250484705,-0.957947433,0.9804058718302264
0.046223432,-0.377654731,-0.92936492,1.0063422503732888
0.04645002,-0.502063215,-0.874858558,1.0174449683619755
0.046676604,-0.61645174,-0.803016424,1.0248481249627754
0.046903188,-0.720435679,-0.715843081,1.0314588841917636
0.047129776,-0.812006831,-0.614197612,1.036593800177165
0.04735636,-0.888527095,-0.499616981,1.0390975262526934
0.047582948,-0.947426915,-0.374617994,1.0379564006950013
0.047809532,-0.986767292,-0.242637783,1.0325827823001683
0.048036116,-1.00567377,-0.107704028,1.0229798893134376
0.048262704,-1.00454497,0.0260735452,1.0097904265115973
0.048489288,-0.98497057,0.15503943,0.9942042486208498
0.048715872,-0.949422002,0.276378751,0.9777873518860081
0.04894246,-0.900930822,0.388210893,0.9623840434734531
0.049169044,-0.843498886,0.489637911,0.9512356545716849
0.049395628,-0.782794774,0.585033178,0.9550314775624907
0.049622216,-0.709537983,0.682104826,0.9687111429721986
0.0498488,-0.620428562,0.7684533,0.9754520748262778
0.050075388,-0.521574795,0.84307313,0.9828125693072889
0.050301972,-0.413615197,0.906368911,0.9925821340166748
0.050528556,-0.296687275,0.956982732,1.0038392884931093
0.050755144,-0.171694174,0.992729068,1.014989891837691
0.050981728,-0.0406112932,1.01128221,1.0243409853978607
0.051208312,0.0935296044,1.01078057,1.0304251475887456
0.0514349,0.226930782,0.990332067,1.032255182747624
0.051661484,0.355522126,0.950305998,1.029477471910336
0.051888068,0.475517273,0.892353296,1.0224110818034202
0.052114656,0.583874166,0.819209814,1.0120137610761102
0.05234124,0.678618133,0.73451966,1.0000417013629213
0.052567828,0.759823799,0.643037856,0.9908298897758689
0.052794412,0.833339989,0.546932697,0.9935909123142138
0.053020996,0.897984385,0.437588155,0.9978593491001323
0.053247584,0.945013046,0.319709688,0.9952639417112554
0.053474168,0.976038158,0.198642388,0.9921092841823755
0.053700752,0.992339671,0.0757107884,0.9904701461205379
0.05392734,0.994017303,-0.0481263995,0.9903865489922274
0.054153924,0.980747521,-0.171575472,0.9913038425396682
0.054380508,0.952216387,-0.292908072,0.992511186314091
0.054607096,0.908418834,-0.41002968,0.993349116446822
0.05483368,0.849858999,-0.520662069,0.9933493082766427
0.055060268,0.777629077,-0.622583091,0.9923166865949862
0.055286852,0.693376184,-0.713857651,0.9903632784296397
0.055513436,0.599237859,-0.793027639,0.9879788478768181
0.055740024,0.497877538,-0.859428763,0.9864998415166517
0.055966608,0.392132074,-0.914571464,0.9902085262226448
0.056193192,0.279534012,-0.962322533,1.0042039213843523
0.05641978,0.155168891,-0.995941341,1.0159765394470481
0.056646364,0.0260132663,-1.01015949,1.0210988852606546
0.056872948,-0.103611544,-1.00643337,1.023643480299621
0.057099536,-0.231599033,-0.985450864,1.0247515174448816
0.05732612,-0.355710238,-0.947458088,1.0242066019346323
0.057552708,-0.473384023,-0.892995059,1.021532608630078
0.057779292,-0.581979573,-0.823227644,1.0164039772350533
0.058005876,-0.679107666,-0.740026355,1.0088262281145537
0.058232464,-0.762947559,-0.645847976,0.999208585887355
0.058459048,-0.832452357,-0.543474197,0.9883411294796502
0.058685632,-0.887402475,-0.435705543,0.9773224728370505
0.05891222,-0.928370953,-0.325143009,0.9675906026757024
0.059138804,-0.956910074,-0.214042306,0.9614909984804832
0.059365388,-0.976360202,-0.103029765,0.963894376525436
0.059591976,-0.988048196,0.0128156757,0.9764034791625021
0.05981856,-0.984791219,0.134396717,0.9878762225598839
0.060045148,-0.96495086,0.255877852,0.9966036373588735
0.060271732,-0.929818749,0.374930382,1.005135697338591
0.060498316,-0.879488528,0.490095526,1.0136936954888234
0.060724904,-0.813764215,0.599290431,1.021361218302732
0.060951488,-0.73292923,0.699835896,1.0269555375185155
0.061178072,-0.638126254,0.788815618,1.0294351952447944
0.06140466,-0.531466246,0.86353755,1.028153470897335
0.061631244,-0.41588676,0.921974361,1.022998519484656
0.061857832,-0.294822663,0.963076949,1.01443761231356
0.062084416,-0.171795413,0.986910582,1.0035061607914193
0.062311,-0.0500275306,0.994690955,0.9919128497767461
0.062537588,0.0681161806,0.988982141,0.9827254892764758
0.062764172,0.183162674,0.973363638,0.9809853369274254
0.062990756,0.298983097,0.946692109,0.9856168415345793
0.063217344,0.412623256,0.904227138,0.9878846684877125
0.063443928,0.51950264,0.847617745,0.9883388346058546
0.063670512,0.618577182,0.779039264,0.9895399049447229
0.0638971,0.709248185,0.69932878,0.9920937304620826
0.064123684,0.790421784,0.608951807,0.9955888998703077
0.064350272,0.860570371,0.508591533,0.9992467108823678
0.064576856,0.917986333,0.399432629,1.0022453326846383
0.06480344,0.961085796,0.283250988,1.0039170294759299
0.065030028,0.988700926,0.162342176,1.0038845031816725
0.065256612,1.00029755,0.0393298343,1.002142024402068
0.065483196,0.996112108,-0.0830863863,0.9991426792925966
0.065709784,0.977289677,-0.202449009,0.9960807140158465
0.065936368,0.946042359,-0.317329854,0.9956943812619462
0.066162952,0.904143989,-0.429169178,1.001662536190028
0.06638954,0.848153591,-0.539229453,1.0101329169088746
0.066616124,0.775701463,-0.642083645,1.0139841668768264
0.066842712,0.689851344,-0.733752787,1.0142880292488738
0.067069296,0.593282223,-0.813091516,1.013101609519
0.06729588,0.487809002,-0.879266381,1.011066991189073
0.067522464,0.375171155,-0.931349397,1.0081650948362977
0.067749048,0.257334739,-0.968509793,1.004232387033101
0.06797564,0.136507526,-0.990237951,0.9992055042553191
0.068202224,0.0150128594,-0.996496141,0.993229944975256
0.068428808,-0.104898989,-0.987771928,0.9866971796380594
0.068655392,-0.221233487,-0.965041161,0.9802486981944071
0.068881976,-0.332400799,-0.929700077,0.9748325243496444
0.069108568,-0.437443405,-0.883552492,0.972021738697404
0.069335152,-0.536783338,-0.828573704,0.9746707349147018
0.069561736,-0.632826805,-0.764537454,0.9849872836953101
0.06978832,-0.724829257,-0.687167645,0.9975768241380182
0.070014904,-0.807394385,-0.595904708,1.0069881139460934
0.070241488,-0.877720356,-0.493566036,1.01400045522952
0.07046808,-0.934625626,-0.382197589,1.0196000578133049
0.070694664,-0.976839125,-0.26350379,1.0236489234751298
0.070921248,-1.00303352,-0.139548317,1.025549975021123
0.071147832,-1.01220071,-0.0129189985,1.024717177846747
0.071374416,-1.00398219,0.113409095,1.0208418606659153
0.071601008,-0.978853583,0.236372516,1.0140263032721082
0.071827592,-0.93813467,0.353173018,1.0048278396992372
0.072054176,-0.88384676,0.461593032,0.9942532223534506
0.07228076,-0.81849438,0.560243905,0.9838062831812333
0.072507344,-0.74480474,0.648889601,0.9757918150124067
0.072733936,-0.664865136,0.729055524,0.973567606143213
0.07296052,-0.577543795,0.802996635,0.9783604309643252
0.073187104,-0.479928017,0.868575573,0.9847544275138307
0.073413688,-0.373530626,0.921945512,0.9895086556568939
0.073640272,-0.26102528,0.962156177,0.9938787057383337
0.073866856,-0.143909961,0.988951087,0.9987343293535031
0.074093448,-0.0234047864,1.00166106,1.0038726631467532
0.074320032,0.0989119336,0.999393582,1.0085711023512816
0.074546616,0.220943332,0.981417477,1.0119962201163077
0.0747732,0.340172648,0.947493851,1.0134620281301423
0.074999784,0.453909695,0.898083806,1.0125885338144387
0.075226376,0.559609056,0.834413826,1.0094087285771696
0.07545296,0.65518415,0.758402824,1.0044411138623974
0.075679544,0.739326894,0.672488809,0.9988454544219256
0.075906128,0.811937451,0.579250395,0.9947734444440335
0.076132712,0.87444222,0.480118692,0.9951631545263193
0.076359296,0.927447617,0.373553336,0.9997011771157076
0.076585888,0.967460513,0.258876026,1.0029966410517759
0.076812472,0.99187696,0.139482945,1.0032753957247147
0.077039056,1.00090754,0.0185242463,1.0021590513298346
0.07726564,0.995162904,-0.102108009,1.0007752509996573
0.077492224,0.974993408,-0.220873505,0.9993972508544394
0.077718816,0.940687716,-0.336160362,0.9978971680132678
0.0779454,0.892705023,-0.446229875,0.9960433594319461
0.078171984,0.831828713,-0.549309313,0.9936797291197683
0.078398568,0.759215355,-0.643745184,0.99081581719097
0.078625152,0.676369548,-0.728161514,0.9876949559324966
0.078851736,0.58506012,-0.801608562,0.984871630686122
0.079078328,0.487174392,-0.863755465,0.9834123915379359
0.079304912,0.384279877,-0.915188789,0.9852415433784216
