Unnamed: 0,Frequency (GHz),Re( S21 ),Im( S21 ),S2
0,0.0,0.0366250351,0.0,0.0013413931960762
1,0.000226585828,0.0327159055,-0.0158624239,0.0013219469646682
2,0.000453171656,0.02225798,-0.0278309546,0.0012699797076276
3,0.0006797575,0.00827771239,-0.0336472541,0.0012006582308815
4,0.000906343313,-0.00598669518,-0.0330826044,0.0011302992330651
5,0.00113292913,-0.0181272477,-0.0272497237,0.0010711445509034
6,0.001359515,-0.0267542973,-0.0177405942,0.0010305211065858
7,0.00158610075,-0.0312244017,-0.00611814903,0.0010123950090762
8,0.00181268663,-0.0313073732,0.00623307796,0.0010190028775395
9,0.00203927238,-0.0269510504,0.0180108659,0.0010507504081311
10,0.00226585825,-0.0182918645,0.027781304,0.0011063931588267
11,0.002492444,-0.00589810126,0.0338804573,0.0011826729853303
12,0.00271903,0.00885488652,0.034547478,0.0012719372514425
13,0.00294561575,0.0234343279,0.0284744203,0.0013599603355457
14,0.0031722015,0.0343061276,0.0157929566,0.0014263278690769
15,0.0033987875,0.0380450301,-0.000740712159,0.0014479729698123
16,0.00362537325,0.0335816555,-0.0174241029,0.0014313269479904
17,0.003851959,0.0222235639,-0.0296022873,0.0013701822058091
18,0.00407854475,0.00746535975,-0.0351131298,0.0012886634805485
19,0.0043051305,-0.00723347627,-0.0339797772,0.0012069484375102
20,0.0045317165,-0.0194724202,-0.0275721755,0.0011394000102481
21,0.0047583025,-0.0279904064,-0.0176262911,0.0010941489883791
22,0.004984888,-0.032291647,-0.00573614333,0.0010756538062749
23,0.005211474,-0.0322829001,0.00677988771,0.0010881525162267
24,0.00543806,-0.0279354621,0.0187894925,0.001133435071148
25,0.0056646455,-0.0192737971,0.0289885346,0.0012118143929073
26,0.0058912315,-0.00664184755,0.0357697904,0.0013235920441373
27,0.0061178175,0.00891782064,0.0372229889,0.0014650784276167
28,0.006344403,0.0251323693,0.0314930007,0.0016234450797217
29,0.006570989,0.0369703099,0.0180670545,0.001693222272408
30,0.006797575,0.0427186154,-0.000722895435,0.001825402679503
31,0.0070241605,0.0379562713,-0.020202959,0.0018488380833548
32,0.0072507465,0.0244486127,-0.034499146,0.0017879257376839
33,0.007477332,0.00678702863,-0.0403676666,0.0016756122643531
34,0.007703918,-0.0102874618,-0.0379911512,0.0015491594397877
35,0.007930504,-0.0237422492,-0.0295400862,0.0014363110897783
36,0.0081570895,-0.0323278755,-0.0175192636,0.0013520161314297
37,0.0083836755,-0.0358670466,-0.00398943806,0.0013023606478411
38,0.008610261,-0.0346171968,0.00949810725,0.0012885643556224
39,0.008836847,-0.0291350391,0.0217356663,0.0013212896928634
40,0.009063433,-0.0196145382,0.0318866037,0.0014014856043201
41,0.009290019,-0.00646109693,0.0385766327,0.0015299023640095
42,0.009516605,0.00938919466,0.040290527,0.0017114835423011
43,0.009743191,0.0260538291,0.0349081345,0.001897379865042
44,0.009969776,0.0409797095,0.0217198804,0.0021510897952946
45,0.010196362,0.0491318181,0.00146446179,0.0024160801981458
46,0.010422948,0.0462398194,-0.0218506418,0.0026155714452165
47,0.010649534,0.031499967,-0.0412880071,0.0026969474512907
48,0.01087612,0.00918500405,-0.0506597422,0.0026507737791689
49,0.011102705,-0.013773324,-0.0482255034,0.0025154036321923
50,0.011329291,-0.0318223424,-0.0365424789,0.0023480142399797
51,0.011555877,-0.0424813628,-0.0197433978,0.0021944679420342
52,0.011782463,-0.0455918498,-0.00144250668,0.0020806975937076
53,0.012009049,-0.0420400649,0.015833497,0.0020180666840452
54,0.012235635,-0.0329671577,0.0303935315,0.0020106002438581
55,0.01246222,-0.0195806548,0.0409078486,0.0020568541194772
56,0.012688806,-0.00302951224,0.0466390513,0.0021843790505763
57,0.012915392,0.0154894153,0.0462131649,0.0023755785964104
58,0.013141978,0.0336677581,0.0384977311,0.002615593235328
59,0.013368564,0.0491305701,0.0230781268,0.0029464128549478
60,0.01359515,0.0577561669,0.000657209777,0.0033362067396716
61,0.013821735,0.0555364676,-0.0255521238,0.0037372102641763
62,0.014048321,0.0404159613,-0.0495343283,0.0040870996079352
63,0.014274907,0.0145106325,-0.0641471744,0.004325418439054
64,0.014501493,-0.0157103296,-0.0646386668,0.004424971701822
65,0.014728079,-0.0423308499,-0.0511442125,0.0044076313255014
66,0.014954664,-0.0595687293,-0.0279321019,0.0043286358269686
67,0.01518125,-0.0651736781,-0.000684734434,0.0042480771783275
68,0.015407836,-0.0596374944,0.0256242808,0.0042132345048272
69,0.015634422,-0.0448378995,0.0473891646,0.0042561701530579
70,0.015861008,-0.0231561456,0.062147826,0.0043985593555746
71,0.016087594,0.00280425209,0.0681936145,0.0046582328883588
72,0.016314179,0.0302163623,0.0643595532,0.0050551806387484
73,0.016540765,0.0557339601,0.049898494,0.0055961340118964
74,0.016767351,0.0751721486,0.0251072682,0.0062812268416072
75,0.016993936,0.0838603526,-0.00785605796,0.0070942763848672
76,0.017220522,0.0776562393,-0.0442676283,0.0079901144175258
77,0.017447108,0.0547420382,-0.0768209323,0.0088981463857314
78,0.017673694,0.0174933095,-0.0971215069,0.0097386029797895
79,0.01790028,-0.0270238444,-0.0986145437,0.0104551163953146
80,0.018126866,-0.0689149499,-0.0793668032,0.011048359769907
81,0.018353452,-0.0987897143,-0.0427832901,0.0115898175632563
82,0.018580038,-0.110433146,0.00401667226,0.0122116133915015
83,0.018806624,-0.101566203,0.0526588,0.0130886428092772
84,0.01903321,-0.0731553137,0.0952861011,0.0144311409853848
85,0.019259796,-0.0283857733,0.12524879,0.016493011522303
86,0.019486382,0.027982939,0.137150139,0.019593205502797
87,0.019712966,0.0897875801,0.126808256,0.0241421433299754
88,0.019939552,0.149254099,0.0914444029,0.0306388648900393
89,0.020166138,0.196742624,0.0306404456,0.0396464970049719
90,0.020392724,0.221426234,-0.0521509275,0.051749296342533
91,0.02061931,0.213141948,-0.148377538,0.0674453837801761
92,0.020845896,0.165303648,-0.244317263,0.087016221041919
93,0.021072482,0.0779174566,-0.323072076,0.1104466963339626
94,0.021299068,-0.0410113819,-0.36849159,0.1374679853460757
95,0.021525654,-0.176869899,-0.369392037,0.1677334381712795
96,0.02175224,-0.312066972,-0.321957827,0.2010426373798107
97,0.021978826,-0.429914773,-0.229462102,0.2374795682978999
98,0.02220541,-0.517096043,-0.100663833,0.2775215249605097
99,0.022431996,-0.565835476,0.0543039702,0.323118707079629
100,0.022658582,-0.569317758,0.224676356,0.3746021745195853
101,0.022885168,-0.523746431,0.398319244,0.4329685441259692
102,0.023111754,-0.427576452,0.562337935,0.4990455754449725
103,0.02333834,-0.281928688,0.702600002,0.5731305479278013
104,0.023564926,-0.0917802975,0.803817809,0.654546693074749
105,0.023791512,0.132493407,0.850709617,0.7412613553547543
106,0.024018098,0.37406832,0.830542147,0.829727365970992
107,0.024244684,0.610257745,0.736701965,0.915144300567346
108,0.02447127,0.81553936,0.571995199,0.9922829553882592
109,0.024697856,0.966624081,0.349801362,1.0567231068261496
110,0.02492444,1.04766309,0.091889374,1.1060416072024597
111,0.025151026,1.0532161,-0.176445097,1.1403970255545497
112,0.025377612,0.987778842,-0.431674123,1.16204958917068
113,0.025604198,0.862656832,-0.65559876,1.1739865439098138
114,0.025830784,0.692094684,-0.836192906,1.1782136276657846
115,0.02605737,0.489752054,-0.967009425,1.1749643024360494
116,0.026283956,0.268294603,-1.04671824,1.1676010679476252
117,0.026510542,0.0399552844,-1.07591796,1.1591958814020462
118,0.026737128,-0.184553057,-1.05617487,1.1495651868675625
119,0.026963714,-0.395476073,-0.99049294,1.137477588505345
120,0.0271903,-0.58364892,-0.883626819,1.1214424170732251
121,0.027416884,-0.740859509,-0.742482305,1.100152785313834
122,0.02764347,-0.860799193,-0.576204062,1.072986371734751
123,0.027870056,-0.940202951,-0.395527899,1.0404239079564626
124,0.028096642,-0.979562938,-0.21133405,1.0042056301925946
125,0.028323228,-0.982885897,-0.0327532329,0.967137460786896
126,0.028549814,-0.957494617,0.134575084,0.934906394817584
127,0.0287764,-0.910597801,0.285642326,0.910779893588726
128,0.029002986,-0.847517192,0.421151906,0.8956543186629977
129,0.029229572,-0.773192346,0.541041493,0.8905523010606529
130,0.029456158,-0.683970392,0.646230042,0.8854287643159554
131,0.029682744,-0.581372499,0.744011164,0.8915465947501399
132,0.029909328,-0.466362536,0.832081139,0.9098530368638886
133,0.030135914,-0.336849064,0.907473087,0.9369746955469856
134,0.0303625,-0.191796005,0.965934932,0.9698160003918048
135,0.030589086,-0.0322359949,1.00193417,1.0049112403807816
136,0.030815672,0.138051167,1.00965488,1.0384611014178764
137,0.031042258,0.312437117,0.984444678,1.0667482761217952
138,0.031268844,0.482178271,0.92423588,1.086707846903924
139,0.03149543,0.637862802,0.830378175,1.0963968676916218
140,0.031722016,0.770962477,0.707503974,1.094945014167768
141,0.031948602,0.874881983,0.563241243,1.0826591819941973
142,0.032175188,0.961247623,0.404758543,1.087826470854633
143,0.032401774,1.01067948,0.242369175,1.0802158282832512
144,0.032628358,1.03613389,0.0904747769,1.0817591232616366
145,0.032854944,1.01570654,-0.0639220178,1.0357457997583952
146,0.03308153,0.982689142,-0.216361031,1.0124900455400792
147,0.033308116,0.931462348,-0.358236641,0.995955596696636
148,0.033534702,0.863007426,-0.488786221,0.9836937871706064
149,0.033761288,0.778787136,-0.60696876,0.97492047881502
150,0.033987872,0.680232525,-0.711483717,0.9689253676240116
151,0.03421446,0.568923056,-0.800799191,0.9649527879546336
152,0.034441044,0.446797192,-0.873309314,0.9622968886982356
153,0.034667632,0.316235304,-0.927583277,0.9604155032660312
154,0.034894216,0.179982707,-0.962579727,0.9589535056504424
155,0.035120804,0.04104238,-0.977760613,0.9577002932902
156,0.035347388,-0.097465843,-0.973268569,0.9567512979550084
157,0.035573976,-0.248687431,-0.960293055,0.9840081898186128
158,0.03580056,-0.388087749,-0.924060881,1.004500612718383
159,0.036027148,-0.480809927,-0.891173363,1.0253681488224753
160,0.036253732,-0.615608633,-0.797951519,1.0157006156985362
161,0.036480316,-0.729265332,-0.702914476,1.0259166850274248
162,0.036706904,-0.829301655,-0.592348337,1.0386177873324045
163,0.036933488,-0.912977397,-0.466268927,1.0509344397186269
164,0.037160076,-0.976763487,-0.326575726,1.0607186143488263
165,0.03738666,-1.01726675,-0.176726058,1.066063740231782
166,0.037613248,-1.0319972,-0.0215874631,1.0654842393709336
167,0.037839832,-1.020051,0.133021057,1.0581986442063973
168,0.03806642,-0.982495964,0.281114995,1.0443239596901397
169,0.038293004,-0.922294319,0.417434156,1.0248780854551065
170,0.038519592,-0.843801498,0.538152993,1.001609611901902
171,0.038746176,-0.752000749,0.641249597,0.9767061721492234
172,0.038972764,-0.65167135,0.726139724,0.9519544471816188
173,0.039199348,-0.54884088,0.791428804,0.9275858633600448
174,0.039425932,-0.457585156,0.862291396,0.9529306266071732
175,0.03965252,-0.333785921,0.916910946,0.9521387239524332
176,0.039879104,-0.211421922,0.953004658,0.9529171072718712
177,0.040105692,-0.0862419829,0.976113617,0.9602354729073466
178,0.040332276,0.0428228453,0.985297263,0.972644492554879
179,0.040558864,0.175327629,0.978505075,0.9882119592915172
180,0.040785448,0.309417009,0.953403234,1.004716612060165
181,0.041012036,0.441857815,0.908095837,1.0198763778533046
182,0.04123862,0.568355799,0.841795683,1.0316482861743648
183,0.041465208,0.684161365,0.755276382,1.038519186565673
184,0.041691792,0.784819007,0.650969625,1.0397023264211065
185,0.041918376,0.866851747,0.532701612,1.0352029587043503
186,0.042144964,0.928170681,0.405184448,1.0256752499690684
187,0.042371548,0.968058109,0.273816288,1.012111861974755
188,0.042598136,0.989240289,0.147129849,1.0002435418475664
189,0.04282472,1.0096817,0.0152256442,1.019688955556195
190,0.043051308,0.99954325,-0.12598379,1.0149586239633266
191,0.043277892,0.969249845,-0.258399874,1.00621575691574
192,0.04350448,0.923152685,-0.38321352,0.9990634817334996
193,0.043731064,0.862419486,-0.499926895,0.9936942701768452
194,0.043957652,0.787922025,-0.607376158,0.9897269147869416
195,0.044184236,0.700649083,-0.704085886,0.9866460723731458
196,0.04441082,0.601898491,-0.78845942,0.9839500504548137
197,0.044637408,0.493366688,-0.85898447,0.9812650085292702
198,0.044863992,0.377121568,-0.914436817,0.97841536933587
199,0.04509058,0.255486488,-0.954026401,0.975439719355587
200,0.045317164,0.130895406,-0.977457881,0.9725575164409148
201,0.045543752,0.0058482266,-0.984925091,0.9701116366357232
202,0.045770336,-0.116694614,-0.977456927,0.9690396770768924
203,0.045996924,-0.234334826,-0.961095154,0.978616705718734
204,0.046223508,-0.362267494,-0.935398817,1.0062086840540396
205,0.046450096,-0.488025725,-0.88305825,1.0179609811548382
206,0.04667668,-0.60397768,-0.813086033,1.0258979349978594
207,0.046903264,-0.709762573,-0.727465272,1.0329686319976144
208,0.047129852,-0.803312421,-0.627022743,1.0384683659721254
209,0.047356436,-0.881923437,-0.513277233,1.0412424666460294
210,0.047583024,-0.94295609,-0.388735563,1.0402815256090152
211,0.047809608,-0.984391093,-0.256834894,1.034989986753726
212,0.048036196,-1.0052669,-0.121626899,1.0253546427959663
213,0.04826278,-1.00589538,0.0127216727,1.0119873564616302
214,0.048489368,-0.987802982,0.142462343,0.996050250421142
215,0.048715952,-0.953437865,0.264662623,0.9790900664289984
216,0.04894254,-0.905854404,0.377319247,0.9629420154028422
217,0.049169124,-0.849126518,0.479378432,0.950819524637583
218,0.049395712,-0.789341629,0.575095654,0.9537952185220612
219,0.049622296,-0.717130959,0.672888875,0.9670562504550252
220,0.04984888,-0.628929257,0.759833574,0.9728990704881856
221,0.050075468,-0.531189978,0.835084438,0.9795288113174164
222,0.050302052,-0.424513519,0.899249136,0.98886073641051
223,0.05052864,-0.308928251,0.951101303,1.0000303528342167
224,0.050755224,-0.185172647,0.988530636,1.0114817275075512
225,0.050981812,-0.055022791,1.00920463,1.0215214927428664
226,0.051208396,0.0786828026,1.01115823,1.028631949521723
227,0.051434984,0.212283015,0.993304968,1.0317188379109712
228,0.051661568,0.341743439,0.955764949,1.0302752158365194
229,0.051888156,0.46319595,0.899944365,1.0244503481916556
230,0.05211474,0.57340914,0.828390837,1.0150294206611
231,0.052341324,0.670145512,0.74466598,1.0036224290231026
232,0.052567912,0.75317204,0.653621316,0.9944889465673334
233,0.052794496,0.828354359,0.55779469,0.997305860266497
234,0.053021084,0.894631803,0.448217422,1.0012649203233568
235,0.053247668,0.942747414,0.32988584,0.997597354036193
236,0.053474256,0.974495709,0.208496079,0.993112501817787
237,0.05370084,0.991344988,0.0854772329,0.9900712425769612
238,0.053927428,0.993578196,-0.0381863378,0.98865582796119
239,0.054154012,0.981045067,-0.161259919,0.9884541849609212
240,0.0543806,0.953554034,-0.282150894,0.9888744227426725
241,0.054607184,0.911140203,-0.398945719,0.989334156231308
242,0.054833768,0.854252636,-0.509546697,0.9893854025365584
243,0.055060356,0.783847153,-0.611864209,0.9887941695214012
244,0.05528694,0.701388478,-0.704013705,0.9875810938989836
245,0.055513528,0.608830929,-0.784494817,0.9861072180068666
246,0.055740112,0.508709311,-0.852510691,0.9855596413673922
247,0.0559667,0.403887093,-0.909412384,0.990155668064554
248,0.056193284,0.291922152,-0.959210336,1.005303011517544
249,0.056419872,0.167509109,-0.994920015,1.0179251378455745
250,0.056646456,0.0379149616,-1.01092374,1.0234043524087169
251,0.056873044,-0.0923649594,-1.00871837,1.0260440357004206
252,0.057099628,-0.221141428,-0.989006937,1.0270382526120012
253,0.057326212,-0.346103638,-0.952060878,1.026207643654966
254,0.0575528,-0.464641541,-0.898462474,1.023126578809055
255,0.057779384,-0.574090123,-0.829421401,1.0175193297629577
256,0.058005972,-0.672056317,-0.746843874,1.0094354653509323
257,0.058232556,-0.756722748,-0.653210342,0.9993130682364284
258,0.058459144,-0.827046752,-0.551317155,0.9879569353910436
259,0.058685728,-0.882810771,-0.443977296,0.9764706967570862
260,0.058912316,-0.924584448,-0.333807856,0.9662840862107814
261,0.0591389,-0.953918159,-0.223105371,0.959735860638997
262,0.059365488,-0.974233031,-0.112588525,0.9618061746531226
263,0.059592072,-0.987079084,0.00281487429,0.9743330415875476
264,0.059818656,-0.985046506,0.124203525,0.9857431346052336
265,0.060045244,-0.966470599,0.245586693,0.994378242510095
266,0.060271828,-0.932719052,0.364685714,1.0029604999594686
267,0.060498416,-0.883869529,0.480128407,1.0117486315030395
268,0.060725,-0.819662571,0.589901567,1.019830589047385
269,0.060951588,-0.740282059,0.691367686,1.026006804122274
270,0.061178172,-0.646749616,0.78160733,1.0291950841058766
271,0.06140476,-0.541053832,0.857868373,1.0286773945155514
272,0.061631344,-0.426040471,0.918007791,1.0242487872666015
273,0.061857932,-0.305109978,0.960824132,1.016275111308714
274,0.062084516,-0.181822568,0.986223161,1.0056955695269465
275,0.062311104,-0.059513744,0.995292246,0.994148540672622
276,0.062537688,0.0592715815,0.990539968,0.9846825485789522
277,0.062764272,0.174889192,0.975665331,0.9825090675937524
278,0.06299086,0.291308343,0.94962436,0.9866469758068152
279,0.063217444,0.405460685,0.907538772,0.9880249897639372
280,0.063444032,0.512600243,0.851254761,0.987393677248826
281,0.063670616,0.611753225,0.783136308,0.9875444852057714
282,0.063897204,0.702451944,0.704116344,0.9892185595173056
283,0.064123788,0.783756196,0.614682436,0.9921082718952844
284,0.064350376,0.85428822,0.515463233,0.9955107074055808
285,0.06457696,0.912450373,0.407519877,0.9986381333379342
286,0.064803548,0.956699312,0.292459697,1.0008062479506052
287,0.065030132,0.985821784,0.1724049,1.001568039352953
288,0.065256716,0.999160767,0.0498446189,1.0008067243453145
289,0.065483304,0.996781409,-0.0725825503,0.9988414039360772
290,0.065709888,0.979650319,-0.192387521,0.9967277057533273
291,0.065936476,0.949866772,-0.308022171,0.9971245423772532
292,0.06616306,0.909225643,-0.420845956,1.0038025885703172
293,0.066389648,0.854160011,-0.532165825,1.0127897896894509
294,0.066616232,0.782163382,-0.636283815,1.0166366493726322
295,0.06684282,0.696465433,-0.729024231,1.016540428749019
296,0.067069404,0.599901319,-0.809209824,1.0147021317960507
297,0.067295992,0.494405597,-0.876025856,1.0118581947254592
298,0.067522576,0.381809831,-0.928603888,1.008083927856965
299,0.06774916,0.264128953,-0.966201901,1.00331021730889
300,0.067975744,0.143570974,-0.988402843,0.9975528046257912
301,0.068202336,0.0224151183,-0.995245039,0.9910151251825146
302,0.06842892,-0.0971580222,-0.987256885,0.9841158382577188
303,0.068655504,-0.213229701,-0.96541518,0.9774933751629818
304,0.068882088,-0.324269086,-0.931084692,0.9720691438120104
305,0.06910868,-0.429344594,-0.8860237,0.9693747773587148
306,0.069335264,-0.528882384,-0.832196891,0.9722682414955894
307,0.069561848,-0.625382245,-0.769384623,0.983055650470092
308,0.069788432,-0.71817106,-0.69311446,0.9961773260826152
309,0.070015024,-0.801684976,-0.602728426,1.005980356252558
310,0.070241608,-0.873059332,-0.501088977,1.0133227600631929
311,0.070468192,-0.931098998,-0.390241176,1.0192335195224669
312,0.070694776,-0.974507749,-0.271873236,1.0235804093141587
313,0.07092136,-1.00192058,-0.148034513,1.0257590656666833
314,0.071147952,-1.0122838,-0.0213069264,1.0251724768550552
315,0.071374536,-1.0051856,0.105326973,1.0214918616887023
316,0.07160112,-0.981046677,0.22877492,1.0147905464737488
317,0.071827704,-0.941141009,0.346185923,1.0055910921049
318,0.072054296,-0.887468457,0.455269516,0.9948705943688352
319,0.07228088,-0.822548211,0.55455488,0.9841166743511148
320,0.072507464,-0.749167383,0.643729925,0.9756399840915744
321,0.072734048,-0.669531763,0.724303484,0.9728883186004262
322,0.072960632,-0.582574666,0.798637748,0.977215493995523
323,0.073187224,-0.485308558,0.864609718,0.9830743609280788
324,0.073413808,-0.379321367,0.918325663,0.9872067227871384
325,0.073640392,-0.267357111,0.958934486,0.9910351732423504
326,0.073866976,-0.150881976,0.986293256,0.995539757512746
327,0.074093568,-0.0310280677,0.999807656,1.00057808998141
328,0.074320152,0.0907439366,0.998610854,1.005458099756274
329,0.074546736,0.212461472,0.981938243,1.0093425901503337
330,0.07477332,0.331709772,0.949458718,1.0115032300264957
331,0.074999912,0.445852071,0.90149796,1.0114826410991509
332,0.075226496,0.552327514,0.839133084,1.0092100153847712
333,0.07545308,0.64896661,0.764152646,1.0050869272836933
