Unnamed: 0,Frequency (GHz),Re( S21 ),Im( S21 ),S2
0,0.0,0.0380781814,0.0,0.0014499478987313
1,0.000226493813,0.0340160839,-0.0164985415,0.001429295835519
2,0.000452987625,0.0231406149,-0.0289583225,0.0013740724999641
3,0.000679481437,0.00858408865,-0.0350230671,0.0013003018070421
4,0.00090597525,-0.00628678454,-0.0344352797,0.0012253121478696
5,0.001132469,-0.018950846,-0.0283382833,0.0011621928645067
6,0.00135896287,-0.0279409569,-0.0183889568,0.0011188508046799
7,0.00158545663,-0.0325703435,-0.00622698991,0.0010996026790472
8,0.0018119505,-0.0325906314,0.00668468047,0.0011068342080366
9,0.00203844425,-0.0279521458,0.0189642571,0.0011409655021793
10,0.002264938,-0.0188170653,0.0290946867,0.0012005827406756
11,0.002491432,-0.00581296161,0.0353302509,0.0012820171513362
12,0.00271792575,0.00958043337,0.0358483084,0.0013768859186985
13,0.0029444195,0.0246850196,0.0293338783,0.0014698266087715
14,0.00317091325,0.0358186103,0.0159999877,0.0015389724502234
15,0.00339740725,0.0394930914,-0.0012125487,0.0015611745426786
16,0.003623901,0.0346457362,-0.0184866674,0.0015420839083982
17,0.00385039475,0.0227084905,-0.0309890322,0.0014759956574812
18,0.0040768885,0.00732120126,-0.0365390666,0.0013887033758886
19,0.0043033825,-0.0079381587,-0.0351922326,0.0013015075989188
20,0.004529876,-0.0205899626,-0.0283837505,0.0012295838523156
21,0.00475637,-0.0293307547,-0.0179244801,0.0011815801581268
22,0.004982864,-0.0336492062,-0.00547996443,0.0011622990880441
23,0.0052093575,-0.0334512852,0.00756768789,0.0011762583815321
24,0.0054358515,-0.0287139118,0.0200177021,0.0012251971282225
25,0.0056623455,-0.01948951,0.0304890461,0.001309422932128
26,0.005888839,-0.00618165731,0.0372930691,0.0014289858899956
27,0.006115333,0.0100547243,0.0384485573,0.0015793890392003
28,0.0063418265,0.0267662518,0.0320870541,0.0017460112762373
29,0.0065683205,0.038710922,0.0178350657,0.0018166250506134
30,0.0067948145,0.0441805348,-0.00175246806,0.0019549907995153
31,0.007021308,0.0387545303,-0.0217767525,0.0019761405682198
32,0.007247802,0.0244467743,-0.0362034291,0.0019083330522738
33,0.007474296,0.00607805932,-0.0418385416,0.0017874063683123
34,0.0077007895,-0.0114926249,-0.0389943123,0.001652636818842
35,0.0079272835,-0.0252008513,-0.0299648512,0.0015329752136828
36,0.008153777,-0.0338083394,-0.017347388,0.0014439356834081
37,0.008380271,-0.0371638313,-0.00326887495,0.0013918359003335
38,0.008606765,-0.0355541632,0.0106650433,0.0013778416694431
39,0.008833259,-0.0295797661,0.0232235715,0.0014142968357463
40,0.009059752,-0.0194394272,0.0335065573,0.0015005807119622
41,0.009286246,-0.00560278213,0.0400862023,0.0016382947824327
42,0.00951274,0.0109084789,0.0414101295,0.0018337937371185
43,0.009739234,0.0279545058,0.0352889486,0.0020267642878156
44,0.009965728,0.0429947488,0.0211108401,0.0022942159941028
45,0.010192221,0.0506977998,-0.000124231417,0.0025702823380058
46,0.010418715,0.0468475297,-0.0240620673,0.0027736741217421
47,0.010645209,0.0309575889,-0.0435014442,0.0028507479579871
48,0.010871703,0.00771372626,-0.0522985309,0.0027946379071124
49,0.011098197,-0.0157245807,-0.0489931591,0.0026475920767887
50,0.011324691,-0.0338129178,-0.0364190489,0.0024696605329301
51,0.011551184,-0.0441835672,-0.0188664496,0.0023081305310262
52,0.011777678,-0.0467903353,-1.22386236e-05,0.0021893356272703
53,0.012004172,-0.0426037088,0.0175956748,0.0021246837751825
54,0.012230666,-0.032829199,0.0322548114,0.0021181291654311
55,0.01245716,-0.0187521316,0.0426374376,0.0021695935246376
56,0.012683653,-0.00153325149,0.0479840264,0.0023048176496874
57,0.012910147,0.0175085813,0.0469115227,0.0025072413811713
58,0.013136641,0.0362212211,0.0383243822,0.0027807351289867
59,0.013363135,0.0515440218,0.0217455905,0.0031296568895125
60,0.013589629,0.0592455864,-0.00155316514,0.0035124518298319
61,0.013816122,0.055865109,-0.0283835232,0.0039265347928268
62,0.014042616,0.039316006,-0.0523126945,0.0042823663336423
63,0.01426911,0.0121664582,-0.0661072209,0.0045181873602537
64,0.014495604,-0.0186968129,-0.0652629286,0.0046088206620663
65,0.014722098,-0.0452206396,-0.050352376,0.0045802680146784
66,0.014948592,-0.0617678724,-0.0260058716,0.0044915754184983
67,0.015175085,-0.0663414299,0.0019274574,0.0044049004132054
68,0.015401579,-0.0596558191,0.0284526758,0.0043683715126718
69,0.015628073,-0.0437462628,0.0500054844,0.0044142839790453
70,0.015854567,-0.0211067982,0.0641790032,0.0045644413820011
71,0.016081061,0.00556319254,0.0693266019,0.0048371268422381
72,0.016307554,0.0333513655,0.0643459633,0.0052527165737195
73,0.016534048,0.0587950945,0.0485757105,0.0058164627878437
74,0.016760542,0.0776020736,0.0224822089,0.006527531544043
75,0.016987036,0.0850584731,-0.0115184225,0.0073676179029919
76,0.01721353,0.077118963,-0.0483776554,0.0082877319961965
77,0.017440024,0.0522771403,-0.0804995969,0.0092130844990083
78,0.017666518,0.0134082399,-0.0994059667,0.0100613271127774
79,0.017893012,-0.031910412,-0.0987876058,0.0107772654537059
80,0.018119504,-0.0735025853,-0.0772295296,0.011367030288021
81,0.018345998,-0.102039859,-0.0387025513,0.011910020301869
82,0.018572492,-0.111627527,0.00927165989,0.0125466684612515
83,0.018798986,-0.100393772,0.0581462607,0.0134598970897803
84,0.01902548,-0.0696748197,0.100066908,0.0148679665769079
85,0.019251974,-0.0229543354,0.128481299,0.017034345706383
86,0.019478468,0.034763474,0.138136953,0.0202903169086728
87,0.019704962,0.0971039981,0.125033766,0.0250626290871475
88,0.019931456,0.156084284,0.0866230726,0.0318658604184575
89,0.02015795,0.20187813,0.0228400771,0.0412764484942308
90,0.020384442,0.223597631,-0.0623671524,0.0538855622872969
91,0.020610936,0.211253583,-0.159860447,0.0701834388453776
92,0.02083743,0.158755288,-0.255384207,0.0904243346529817
93,0.021063924,0.0668962151,-0.331776559,0.1145507886965859
94,0.021290418,-0.0554374158,-0.373063028,0.1422493299311109
95,0.021516912,-0.192945302,-0.368666023,0.1731425260785077
96,0.021743406,-0.327745199,-0.315603733,0.2070226317510848
97,0.0219699,-0.443258286,-0.217948049,0.2439792601705642
98,0.022196394,-0.526641905,-0.0851384997,0.2846002602331959
99,0.022422888,-0.570553839,0.0726369321,0.3308078071025379
100,0.022649382,-0.568565607,0.244299367,0.3829490301798792
101,0.022875874,-0.517289042,0.417672902,0.4420386060383794
102,0.023102368,-0.415537119,0.57984823,0.5088950671009531
103,0.023328862,-0.26480332,0.716695666,0.583773475946206
104,0.023555356,-0.0705002397,0.81297946,0.665905886179649
105,0.02378185,0.156479567,0.853599906,0.7531186544117164
106,0.024008344,0.398767978,0.826239765,0.8416880495454637
107,0.024234838,0.633256316,0.72500515,0.9266460292804144
108,0.024461332,0.834335387,0.553670645,1.0026667211351556
109,0.024687826,0.979122639,0.326614469,1.0653581535624763
110,0.02491432,1.05264521,0.0663217381,1.1124605110805492
111,0.025140812,1.05057061,-0.201712266,1.1443864448506271
112,0.025367306,0.978414655,-0.454294473,1.1636787053171167
113,0.0255938,0.848167479,-0.673914671,1.1735490562222537
114,0.025820294,0.6743747,-0.84933275,1.1761473562226523
115,0.026046788,0.470639408,-0.974734962,1.1716096985077318
116,0.026273282,0.24928017,-1.0493356,1.163245804582589
117,0.026499776,0.0222021528,-1.07412457,1.1542365274666393
118,0.02672627,-0.200219691,-1.05083418,1.144340398520408
119,0.026952764,-0.408553243,-0.982510865,1.1322433522088653
120,0.027179258,-0.593902469,-0.873878717,1.116384154709862
121,0.027405752,-0.748270929,-0.731773198,1.09540139649767
122,0.027632244,-0.865525782,-0.565246344,1.0686383087120777
123,0.027858738,-0.942551017,-0.38491714,1.036563624313514
124,0.028085232,-0.979956329,-0.201517895,1.0009238687523871
125,0.028311726,-0.981808186,-0.0240106527,0.9645238255396904
126,0.02853822,-0.955311596,0.142264828,0.9328595267379368
127,0.028764714,-0.90785253,0.292411894,0.9097009319800682
128,0.028991208,-0.844409525,0.427238643,0.8955603039832071
129,0.029217702,-0.769944608,0.546850801,0.8918604979426152
130,0.029444196,-0.680637777,0.651535988,0.8877669271386379
131,0.02967069,-0.577480614,0.749034643,0.8945367559599544
132,0.029897184,-0.461740702,0.836861908,0.9135423289448532
133,0.030123676,-0.331323117,0.911834121,0.9412164720784384
134,0.03035017,-0.18526946,0.969559193,0.9743698015395028
135,0.030576664,-0.0247642733,1.00441229,1.0094573175351214
136,0.030803158,0.146206304,1.01056743,1.0426228139061455
137,0.031029652,0.320799291,0.983471274,1.0701279318892858
138,0.031256146,0.4901115,0.921272218,1.0889517820908896
139,0.03148264,0.644695699,0.825614929,1.0972725552967737
140,0.031709134,0.776160419,0.701430559,1.094429825121308
141,0.031935628,0.878180981,0.556480348,1.0808722131003234
142,0.032162122,0.962270975,0.397753388,1.0841731869929292
143,0.032388614,1.00983202,0.235893309,1.0754063618482497
144,0.032615108,1.03531468,0.0840397924,1.0789391733301372
145,0.032841602,1.01345384,-0.0674967095,1.031644491604073
146,0.033068096,0.980142951,-0.218803659,1.0085552455867768
147,0.03329459,0.929187119,-0.359689862,0.9927654989410992
148,0.033521084,0.861295283,-0.489594191,0.9815320363789948
149,0.033747576,0.7777192,-0.607535183,0.9739461526314837
150,0.033974072,0.67969662,-0.712169349,0.969172676894508
151,0.034200564,0.568665504,-0.801842809,0.9663323457845846
152,0.03442706,0.446503222,-0.874781907,0.964608512070938
153,0.034653552,0.315619618,-0.929387391,0.9633766658162528
154,0.034880048,0.17886357,-0.96450007,0.96225256170315
155,0.03510654,0.0393684655,-0.979537785,0.9610441483185308
156,0.035333036,-0.0996181145,-0.974654853,0.9598758512129868
157,0.035559528,-0.2510162,-0.96068871,0.985931930183904
158,0.035786024,-0.390128642,-0.923478425,1.0050127587492448
159,0.036012516,-0.475612581,-0.89379257,1.0250724853926865
160,0.036239008,-0.617012918,-0.797177434,1.016196802257699
161,0.036465504,-0.73028487,-0.701753199,1.0257735436576505
162,0.036691996,-0.829790711,-0.591117978,1.037973087976694
163,0.036918492,-0.912966907,-0.465187371,1.0499078634150385
164,0.037144984,-0.976356506,-0.325803041,1.0594196483333758
165,0.03737148,-1.01660168,-0.176365569,1.064583789707516
166,0.037597972,-1.03122568,-0.0216926634,1.063896974736848
167,0.037824468,-1.01932669,0.132438451,1.0565668442496354
168,0.03805096,-0.981972992,0.280081898,1.0427168266047144
169,0.038277456,-0.922123432,0.416023076,1.0233868236079604
170,0.038503948,-0.844111919,0.536492586,1.00034922663083
171,0.03873044,-0.752877414,0.63951993,0.9758101413785322
172,0.038956936,-0.653134763,0.724601507,0.9516323625857372
173,0.039183428,-0.550518692,0.790698051,0.9282742380965896
174,0.039409924,-0.460230887,0.859399378,0.9503797602555936
175,0.039636416,-0.336969495,0.916122675,0.9528291962097106
176,0.039862912,-0.214627102,0.953023374,0.9543183443032623
177,0.040089404,-0.0893420056,0.976837933,0.9621943413123428
178,0.0403159,0.0399991237,0.986627638,0.9750340259622268
179,0.040542392,0.172917292,0.980283558,0.9908562439577526
180,0.040768884,0.307480037,0.955430448,1.007391314119002
181,0.04099538,0.440356463,0.910171688,1.0223263161426397
182,0.041221872,0.567160249,0.8437711,1.033620417240952
183,0.041448368,0.683086395,0.7570979,1.039804253218506
184,0.04167486,0.783683538,0.652698159,1.0401747744941867
185,0.041901356,0.865542412,0.534493089,1.0348465291595397
186,0.042127848,0.926691294,0.407234639,1.0245968055768548
187,0.042354344,0.966566145,0.276232302,1.0105543973283804
188,0.042580836,0.987585604,0.149404123,0.9976469171974438
189,0.042807332,1.00743473,0.0198350195,1.015318163208738
190,0.043033824,0.998819649,-0.120777935,1.0122280008113471
191,0.043260316,0.969636619,-0.252849907,1.0041282483756595
192,0.043486812,0.924753606,-0.377552837,0.9977153765367518
193,0.043713304,0.865267813,-0.494500279,0.9932189141448808
194,0.0439398,0.791913688,-0.602539122,0.9901806827822924
195,0.044166292,0.705551803,-0.700129092,0.9879840921812952
196,0.044392788,0.607395947,-0.785556674,0.986029124497969
197,0.04461928,0.499122471,-0.857170403,0.9838643408363285
198,0.044845776,0.382843226,-0.913619578,0.9812696689989852
199,0.045072268,0.26097098,-0.954029799,0.9782787097821408
200,0.045298764,0.136043191,-0.978078961,0.975146203768302
201,0.045525256,0.0106344549,-0.985984981,0.9722794743885904
202,0.045751748,-0.112330206,-0.978770316,0.9706094066627424
203,0.045978244,-0.230199993,-0.961826146,0.9781015719064134
204,0.046204736,-0.356791466,-0.936817586,1.0049273396492964
205,0.046431232,-0.482688516,-0.88549763,1.0170942562138992
206,0.046657724,-0.598750889,-0.816281259,1.0248177208729154
207,0.04688422,-0.704703093,-0.731503189,1.0317033648009364
208,0.047110712,-0.798597872,-0.631977856,1.0371545716372852
209,0.047337208,-0.877785146,-0.519147515,1.0400209048689166
210,0.0475637,-0.939627051,-0.395430386,1.0392641851430655
211,0.047790196,-0.982067883,-0.264188707,1.0342529997264336
212,0.048016688,-1.00408447,-0.129423738,1.0249361268530734
213,0.04824318,-1.00592256,0.00471938169,1.0119024692804894
214,0.048469676,-0.989045203,0.134492815,0.9962987308639354
215,0.048696168,-0.95584482,0.256956637,0.9796660332191822
216,0.048922664,-0.909307599,0.370105952,0.9638187253049711
217,0.049149156,-0.853308201,0.47286132,0.9517327138459988
218,0.049375652,-0.793781996,0.56864959,0.953452213380912
219,0.049602144,-0.723195434,0.666622639,0.9673973785857726
220,0.04982864,-0.635998428,0.754737854,0.9741232286789964
221,0.050055132,-0.5388515,0.831094503,0.981079011969067
222,0.050281624,-0.43258822,0.896337509,0.9905534981230936
223,0.05050812,-0.317262948,0.949259758,1.0017498663318691
224,0.050734612,-0.19362393,0.987734616,1.0131098979133124
225,0.050961108,-0.0634674281,1.00940883,1.0229343005115974
226,0.0511876,0.0703358725,1.01230395,1.0297064221459389
227,0.051414096,0.204090238,0.995339215,1.0323529781637129
228,0.051640588,0.333739102,0.958660185,1.0304111385080008
229,0.051867084,0.455415875,0.903706849,1.0240896881315245
230,0.052093576,0.565922916,0.833046079,1.0142345165912174
231,0.052320072,0.66307044,0.750197351,1.0024584738492108
232,0.052546564,0.746509969,0.659838378,0.992663818898052
233,0.052773056,0.821530879,0.565068185,0.9942150388497067
234,0.052999552,0.888732493,0.45741266,0.9990717856422706
235,0.053226044,0.938439488,0.340229452,0.9964247526459225
236,0.05345254,0.971863091,0.219575375,0.992731212954465
237,0.053679032,0.990487933,0.0969578177,0.990467163831759
238,0.053905528,0.994537354,-0.0266735237,0.9898160253678956
239,0.05413202,0.983756304,-0.150088206,0.990302935240039
240,0.054358516,0.957844675,-0.271648765,0.9912594729518808
241,0.054585008,0.91675806,-0.389353722,0.992041661410217
242,0.054811504,0.86091274,-0.500994861,0.9921665966427168
243,0.055037996,0.791281998,-0.604376137,0.9913977153339149
244,0.055264488,0.709386349,-0.697538435,0.9897888604497992
245,0.055490984,0.617240608,-0.778945208,0.987741605230373
246,0.055717476,0.517396867,-0.847766936,0.9864082957562436
247,0.055943972,0.41277808,-0.905116439,0.9896215114765272
248,0.056170464,0.301838458,-0.955078304,1.0032810214993342
249,0.05639696,0.178683534,-0.992070794,1.0161322656305196
250,0.056623452,0.0497551076,-1.00962353,1.0218152430619487
251,0.056849948,-0.0800967515,-1.00903213,1.02456132897319
252,0.05707644,-0.208681673,-0.991070509,1.025768794455598
253,0.057302936,-0.333768636,-0.955978513,1.0252964196949916
254,0.057529428,-0.452799857,-0.904246569,1.0226895680474923
255,0.05775592,-0.56311357,-0.836969733,1.0176152266762362
256,0.057982416,-0.662270248,-0.755949438,1.0100614341984977
257,0.058208908,-0.748371542,-0.663590848,1.000412778424817
258,0.058435404,-0.820277393,-0.562652349,0.9894326673020944
259,0.058661896,-0.877675831,-0.455943346,0.9781991990832164
260,0.058888392,-0.921045184,-0.346091628,0.9681036459412842
261,0.059114884,-0.95179683,-0.235416889,0.9613383172244874
262,0.05934138,-0.97309339,-0.124922208,0.9625163037132872
263,0.059567872,-0.987097681,-0.0101799723,0.9744654636716064
264,0.059794368,-0.986951709,0.110973634,0.9863888233411866
265,0.06002086,-0.97012496,0.232653305,0.9952699983424248
266,0.060247352,-0.937970042,0.352234364,1.0038568468719662
267,0.060473848,-0.890651286,0.468312681,1.0125764804388615
268,0.06070034,-0.827917695,0.578900874,1.020573931612077
269,0.060926836,-0.749924183,0.681377351,1.0266613747039943
270,0.061153328,-0.65765202,0.772818089,1.0297539780956924
271,0.061379824,-0.553053677,0.850449562,1.029132827149212
272,0.061606316,-0.438947648,0.91209811,1.024597999950304
273,0.061832812,-0.31871599,0.956528068,1.0165258271534927
274,0.062059304,-0.195900723,0.983608425,1.0058626270029034
275,0.062285796,-0.0738178864,0.994365394,0.9942116171373384
276,0.062512292,0.044951506,0.991165578,0.9844298409037422
277,0.062738784,0.160380036,0.977650464,0.9815221857067764
278,0.06296528,0.276400417,0.953607082,0.9857636573583286
279,0.063191772,0.390996516,0.913911998,0.9881134156124902
280,0.063418268,0.499146998,0.859708428,0.9882463067866432
281,0.06364476,0.59959811,0.793382525,0.9889737244909476
282,0.063871256,0.691821575,0.715890586,0.991116422758904
283,0.064097748,0.774829686,0.627697289,0.994364928924808
284,0.064324244,0.847177625,0.529411137,0.9979860802802736
285,0.064550736,0.907191634,0.422096282,1.0011619320778136
286,0.064777228,0.95325923,0.307391793,1.0031928739839475
287,0.065003724,0.984121621,0.187472463,1.003641289302954
288,0.065230216,0.999104619,0.0648836344,1.002419925720088
289,0.065456712,0.998273551,-0.0576927997,0.999878541763374
290,0.065683204,0.982580841,-0.17773594,0.9970551734679508
291,0.0659097,0.954070866,-0.293571115,0.9964352169123332
292,0.066136192,0.914808393,-0.4062123,1.0018828285745325
293,0.066362688,0.861943901,-0.51748538,1.0107384069848422
294,0.06658918,0.792311072,-0.622423351,1.0151676626838584
295,0.066815676,0.708706081,-0.716482282,1.0156111696663062
296,0.067042168,0.613994896,-0.798333287,1.014325769446275
297,0.067268664,0.51007247,-0.867142379,1.0121098301096807
298,0.067495152,0.39868626,-0.921991289,1.0090186709046691
299,0.067721648,0.281779945,-0.962041676,1.004924123765092
300,0.067948144,0.161530897,-0.98675096,0.999769687746546
301,0.06817464,0.0402401835,-0.996030927,0.9936968799085928
302,0.068401128,-0.0798480213,-0.990303934,0.9870775882014016
303,0.068627624,-0.196723968,-0.970476687,0.980525319596161
304,0.06885412,-0.308757037,-0.937872529,0.9749357885498752
305,0.069080616,-0.414891273,-0.894217789,0.9717602225756092
306,0.069307104,-0.515306771,-0.841512442,0.9736842582792498
307,0.0695336,-0.61230582,-0.780037045,0.9833762087782044
308,0.069760096,-0.705968618,-0.70565635,0.9963425738961524
309,0.069986584,-0.790971696,-0.616989911,1.0063127741489044
310,0.07021308,-0.864071488,-0.516766727,1.0136673865088266
311,0.070439576,-0.92400831,-0.407128692,1.019545128798687
312,0.070666072,-0.96951133,-0.289755136,1.0239102578367474
313,0.07089256,-0.999209225,-0.166634008,1.0261859679472447
314,0.071119056,-1.01199949,-0.0402820222,1.0257656090727814
315,0.071345552,-1.00739026,0.0863594338,1.022293087749124
316,0.071572048,-0.985710204,0.210207805,1.0158119275526396
317,0.071798536,-0.94814378,0.328389257,1.0068161316657005
318,0.072025032,-0.896612048,0.438564628,0.9962520975515328
319,0.072251528,-0.833563626,0.539187968,0.985551983426237
320,0.072478016,-0.761732996,0.629809976,0.9768977630642566
321,0.072704512,-0.683437347,0.711687863,0.9735862216159052
322,0.072931008,-0.598114491,0.787271082,0.9775367008976398
323,0.073157504,-0.50261122,0.855145514,0.9838918885842128
324,0.073383992,-0.397872061,0.911222935,0.988629414194402
325,0.073610488,-0.286684424,0.954271853,0.9928227283922652
326,0.073836984,-0.170639172,0.984077811,0.9975268651233974
327,0.07406348,-0.0509054512,1.00003493,1.0026612261819805
328,0.074289968,0.0710484087,1.00124931,1.0075480571542783
329,0.074516464,0.1932403,0.986919045,1.0113510149278022
330,0.07474296,0.313233405,0.956672907,1.0133382169957246
331,0.074969448,0.428358763,0.910806715,1.0130601019279817
332,0.075195944,0.536022723,0.850376844,1.010461136383735
