Unnamed: 0,Frequency (GHz),Re( S21 ),Im( S21 ),S2
0,0.0,0.0381926261,0.0,0.0014586766884144
1,0.000226442,0.0341189839,-0.016547,0.0014379082713684
2,0.000452884,0.023212105,-0.0290438179,0.0013823451767393
3,0.000679326,0.00861314312,-0.0351275206,0.001308128937909
4,0.000905768,-0.00630149664,-0.0345393047,0.0012326724290633
5,0.00113221,-0.0190032572,-0.0284257494,0.0011691470131609
6,0.001358652,-0.028020598,-0.0184485,0.0011255010645276
7,0.001585094,-0.0326648764,-0.00625229347,0.0011060853238622
8,0.001811536,-0.032687448,0.00669573434,0.0011133021151045
9,0.002037978,-0.0280387439,0.0190100931,0.0011475547991604
10,0.00226442,-0.018882012,0.0291706454,0.0012074569302206
11,0.002490862,-0.00584587874,0.0354280323,0.0012893197708926
12,0.002717304,0.00958781224,0.0359556153,0.001384732415151
13,0.002943746,0.0247369949,0.0294335559,0.001478253129601
14,0.003170188,0.0359114483,0.0160721671,0.0015479466742938
15,0.00339663,0.0396088995,-0.0011846032,0.0015702682043425
16,0.003623072,0.0347646698,-0.018515978,0.0015514237075995
17,0.003849514,0.0228008907,-0.0310672745,0.0014850561615716
18,0.004075956,0.00736899907,-0.0366462767,0.0013972517432666
19,0.004302398,-0.00793953054,-0.0353044979,0.0013094437171666
20,0.00452884,-0.0206339862,-0.0284812152,0.0012369410057705
21,0.004755282,-0.0294052642,-0.0179941338,0.0011884584138841
22,0.004981724,-0.0337403454,-0.00551577285,0.001168834657844
23,0.005208166,-0.0335459225,0.0075662788,0.0011825774912553
24,0.005434608,-0.0288021658,0.0200480819,0.0012314903426397
25,0.00566105,-0.0195631236,0.0305476263,0.0013158732775533
26,0.005887492,-0.00623311894,0.0373754837,0.0014357785535291
27,0.006113934,0.010032977,0.0385497212,0.0015867416320802
28,0.006340376,0.0267842188,0.0321992673,0.0017541871913831
29,0.006566818,0.0387724265,0.017934911,0.0018249620892758
30,0.00679326,0.0442951396,-0.00168299268,0.0019648918565444
31,0.007019702,0.0388975963,-0.0217705388,0.00198697935756
32,0.007246144,0.0245768651,-0.0362681001,0.0019193973830072
33,0.007472586,0.0061593987,-0.0419536605,0.0017980478216948
34,0.007699028,-0.0114730094,-0.0391260609,0.0016624785862429
35,0.00792547,-0.0252363402,-0.0300834607,0.0015418874743785
36,0.008151912,-0.0338822678,-0.0174349528,0.0014519856504091
37,0.008378354,-0.0372577347,-0.0033187049,0.0013991525971888
38,0.008604796,-0.0356531963,0.0106524704,0.0013846255320292
39,0.008831238,-0.0296714064,0.023240583,0.0014205170559338
40,0.00905768,-0.0195204876,0.0335490219,0.0015065863065884
41,0.009284122,-0.00566984201,0.0401505791,0.0016442161104837
42,0.009510564,0.0108610289,0.0414949656,0.0018397941189118
43,0.009737006,0.0279283468,0.0354058184,0.0020335645315548
44,0.009963448,0.0430136025,0.0212427676,0.0023014251753356
45,0.01018989,0.0507840887,4.70095938e-06,0.0025790236871884
46,0.010416332,0.0470053665,-0.0239806492,0.0027845760158527
47,0.010642774,0.031149609,-0.0435132273,0.0028636990909143
48,0.010869216,0.00787467137,-0.0524098575,0.0028088036123558
49,0.011095658,-0.0156439003,-0.0491637401,0.0026618049572166
50,0.0113221,-0.0338211991,-0.0365944803,0.0024830294969889
51,0.011548542,-0.0442596897,-0.0190074258,0.0023202023678827
52,0.011774984,-0.0469045192,-0.000102477788,0.0022000444230802
53,0.012001426,-0.0427309237,0.017556414,0.0021341595127946
54,0.012227868,-0.0329529457,0.0322591662,0.0021265504342263
55,0.01245431,-0.0188603066,0.0426736139,0.0021767484883322
56,0.012680752,-0.00162977038,0.0480492711,0.0023113886047328
57,0.012907194,0.0174283087,0.0470057167,0.0025132833466231
58,0.013133636,0.0361648165,0.0384514555,0.0027864083825471
59,0.013360078,0.0515295826,0.0219062082,0.0031351798406319
60,0.01358652,0.0595138334,-0.00159931637,0.0035444541788143
61,0.013812962,0.0561089478,-0.0285347346,0.0039624451019155
62,0.014039404,0.0395447686,-0.0522042811,0.0042890756887953
63,0.014265846,0.0124368863,-0.0661305264,0.0045279226627802
64,0.014492288,-0.0184700508,-0.0654222667,0.0046212157567205
65,0.01471873,-0.0451022163,-0.0505966172,0.0045942275872553
66,0.014945172,-0.0617735162,-0.026264146,0.0045057726688209
67,0.015171614,-0.0664483458,0.00170916028,0.0044183038884191
68,0.015398056,-0.0598278269,0.0283012744,0.0043803310042404
69,0.015624498,-0.0439514369,0.0499275699,0.004424491041694
70,0.01585094,-0.0213226229,0.0641720518,0.0045727064795574
71,0.016077382,0.00535201561,0.0693875775,0.0048432799824081
72,0.016303824,0.0331569873,0.0644769967,0.0052566689102641
73,0.016530266,0.0586397238,0.0487830155,0.0058183998086135
74,0.016756708,0.0775215402,0.0227631126,0.0065277484902204
75,0.01698315,0.0850980133,-0.0111888256,0.0073668616859141
76,0.017209592,0.0773163736,-0.0480580367,0.0082873965181133
77,0.017436034,0.0526325479,-0.080278717,0.0092148575016118
78,0.017662476,0.0138623733,-0.0993711352,0.0100667879044452
79,0.017888918,-0.0314672068,-0.0989795104,0.0107871285828176
80,0.01811536,-0.0731860548,-0.0776173025,0.0113806442645651
81,0.018341802,-0.101925671,-0.0392002612,0.0119255028869484
82,0.018568244,-0.111734487,0.00876455382,0.0125614129888168
83,0.018794686,-0.100697823,0.0577134006,0.0134708881657554
84,0.019021128,-0.0701330081,0.0997660086,0.0148718952971299
85,0.01924757,-0.0235207789,0.128351167,0.0170272491103245
86,0.019474012,0.0341357142,0.138209656,0.0202671559955824
87,0.019700454,0.0964690298,0.125341654,0.025016803938009
88,0.019926896,0.155520827,0.0871966258,0.0317899791816691
89,0.020153338,0.201498866,0.0236835442,0.0411627032651593
90,0.02037978,0.223537013,-0.0613054745,0.0537271573846323
91,0.020606222,0.211633086,-0.158709988,0.0699774233808435
92,0.020832664,0.159630001,-0.25434646,0.0901738589337916
93,0.021059106,0.0682104006,-0.331076652,0.1142644082495416
94,0.021285548,-0.0538515039,-0.372877896,0.1419379097976785
95,0.02151199,-0.191316679,-0.369067103,0.1728125981804016
96,0.021738432,-0.326292753,-0.31655103,0.2066715152543799
97,0.021964874,-0.442144126,-0.219328389,0.2435963703776392
98,0.022191316,-0.525925517,-0.0867936835,0.2841307929272154
99,0.022417758,-0.570284963,0.0707759187,0.3302341696917403
100,0.0226442,-0.568780661,0.242333606,0.3822370169245602
101,0.022870642,-0.518026948,0.4156937,0.4411531710738847
102,0.023097084,-0.416843951,0.577969134,0.5078071993420004
103,0.023323526,-0.266713977,0.71507895,0.582474250260259
104,0.023549968,-0.0729971677,0.811842561,0.6644169303432605
105,0.02377641,0.153514475,0.853191376,0.7515022181152989
106,0.024002852,0.395584792,0.826777697,0.8400486879183071
107,0.024229294,0.630222678,0.726591527,0.9251158709736832
108,0.024455736,0.83185935,0.55622375,1.0013748382464849
109,0.024682178,0.977540672,0.32986325,1.0643955291147742
110,0.02490862,1.05212379,0.0698778704,1.1118473862556033
111,0.025135062,1.05108094,-0.198241591,1.144070870833495
112,0.025361504,0.979781568,-0.451213658,1.1635656861582797
113,0.025587946,0.850155234,-0.671403587,1.1735466985340617
114,0.025814388,0.67677021,-0.8474738,1.1762297588298842
115,0.02604083,0.473308325,-0.973520041,1.1717620407429474
116,0.026267272,0.252092302,-1.04870462,1.1633319087370038
117,0.026493714,0.0250463989,-1.07406068,1.1542336664199204
118,0.026720156,-0.197436303,-1.05133939,1.1442956067078802
119,0.026946598,-0.405938238,-0.983585,1.1322253052955449
120,0.02717304,-0.591588438,-0.875495911,1.116469970153
121,0.027399482,-0.746401608,-0.733857036,1.0956615097116909
122,0.027625924,-0.864221931,-0.567656457,1.0691133991951616
123,0.027852366,-0.941872597,-0.387466282,1.037254108666428
124,0.028078808,-0.979878366,-0.204011068,1.0017821280213306
125,0.02830525,-0.982227802,-0.0263013355,0.9654632152708348
126,0.028531692,-0.955996335,0.14026998,0.9336046598226329
127,0.028758134,-0.908728898,0.290761769,0.9103306163723038
128,0.028984576,-0.845319033,0.425864935,0.8959252104146093
129,0.029211018,-0.770831883,0.54580909,0.8920893545759538
130,0.02943746,-0.681756198,0.650558174,0.8880174512696295
131,0.029663902,-0.578648686,0.748003066,0.8943428885549269
132,0.029890344,-0.463038266,0.835826814,0.9130108987816774
133,0.030116786,-0.332847267,0.910848975,0.9404331584079196
134,0.030343228,-0.187086076,0.968723416,0.9734262565397868
135,0.03056967,-0.0268826224,1.00386417,1.0084659471968898
136,0.030796112,0.143852636,1.01045239,1.0417076133408605
137,0.031022554,0.318350434,0.983899593,1.069405407933554
138,0.031248996,0.487754911,0.92228353,1.0885117629138787
139,0.031475438,0.64262265,0.827163041,1.0971625666893905
140,0.03170188,0.774532378,0.703397751,1.0946688006821927
141,0.031928322,0.877094507,0.558669031,1.081405860408052
142,0.032154764,0.961466372,0.399965197,1.0843897432980911
143,0.032381206,1.00932491,0.23804681,1.075403057697684
144,0.032607648,1.03543758,0.0849515051,1.0793477402950116
145,0.03283409,1.01404238,-0.0654439479,1.0325648587528022
146,0.033060532,0.980801225,-0.216944471,1.0090359464589704
147,0.033286974,0.930007815,-0.357980847,0.9930648227799116
148,0.033513416,0.862290978,-0.488017678,0.9817069847807082
149,0.033739856,0.778900623,-0.60609597,0.974038505360029
150,0.0339663,0.681069553,-0.710893929,0.9692259143126768
151,0.03419274,0.570220232,-0.80077219,0.96638721325953
152,0.034419184,0.4482086,-0.873959661,0.9646964381691948
153,0.034645624,0.317424387,-0.9288463,0.9635136904860158
154,0.034872068,0.180704683,-0.964254737,0.9624413802850696
155,0.035098508,0.0411785021,-0.979580641,0.9612739012571704
156,0.035324952,-0.0978980884,-0.974952757,0.9601169140942752
157,0.035551392,-0.24922277,-0.960977137,0.9855890469231896
158,0.035777836,-0.38813746,-0.92381525,1.004085303987814
159,0.036004276,-0.4658086,-0.899548233,1.026164675327382
160,0.03623072,-0.615357041,-0.798365057,1.016051052146889
161,0.03645716,-0.728770912,-0.703022718,1.0253479842014193
162,0.036683604,-0.828398824,-0.592616975,1.0374394906627336
163,0.036910044,-0.911762595,-0.466961682,1.0493642420974032
164,0.037136488,-0.975436449,-0.327848047,1.058960607959444
165,0.037362928,-1.01606691,-0.178623393,1.0642982821237803
166,0.037589372,-1.03115356,-0.0240549669,1.0638563057332335
167,0.037815812,-1.01974499,0.130114064,1.056809514280696
168,0.038042256,-0.982848406,0.277942359,1.0432429441032258
169,0.038268696,-0.923362494,0.414190292,1.0241518933129454
170,0.03849514,-0.845584333,0.535039306,1.001279923180017
171,0.03872158,-0.75444144,0.638462245,0.9768159246797136
172,0.038948024,-0.654660344,0.723932564,0.9526585232258122
173,0.039174464,-0.551666915,0.790531754,0.9292768391879336
174,0.039400908,-0.461981922,0.857638121,0.9489704428472248
175,0.039627348,-0.338599414,0.91562742,0.9530231354169996
176,0.039853792,-0.216152951,0.952635467,0.9542364312123164
177,0.040080232,-0.090918012,0.976519167,0.961855768424406
178,0.040306676,0.0383007154,0.986426771,0.9745047193456382
179,0.040533116,0.171074837,0.980283618,0.9902225715737464
180,0.04075956,0.305524617,0.955722332,1.0067504674765149
181,0.040986,0.438368946,0.910828173,1.0217752935476687
182,0.041212444,0.565255642,0.844823539,1.0332407528613166
183,0.041438884,0.681388855,0.758523524,1.0396487081795895
184,0.041665328,0.782300532,0.654421926,1.0402621795970326
185,0.041891768,0.864541352,0.536401987,1.035158840975536
186,0.042118212,0.92609632,0.409196347,1.025096044315687
187,0.042344652,0.966363251,0.278073043,1.0111825501265688
188,0.042571096,0.987423003,0.150704056,0.9977158993483892
189,0.042797536,1.00704396,0.0221871492,1.0146298069621047
190,0.04302398,0.999200523,-0.118722543,1.0124967273798602
191,0.04325042,0.970240951,-0.251004338,1.0043706806922026
192,0.043476864,0.925540328,-0.375834614,0.9978765558348766
193,0.043703304,0.866241872,-0.492893875,0.99331935281858
194,0.043929748,0.793084264,-0.601059973,0.9902557409471824
195,0.044156188,0.706916511,-0.698811352,0.9880682592084812
196,0.044382632,0.608935714,-0.784442186,0.9861522469611484
197,0.044609072,0.500798047,-0.856296718,0.9840427531365856
198,0.044835516,0.384599447,-0.91300863,0.9815014930871828
199,0.045061956,0.262746602,-0.953683496,0.9785479874053284
200,0.0452884,0.137778535,-0.977978468,0.9754248085783732
201,0.04551484,0.0122685377,-0.986092448,0.9725288330199288
202,0.045741284,-0.110894561,-0.978989005,0.9707170755702726
203,0.045967724,-0.228845865,-0.961639106,0.9771202001160776
204,0.046194168,-0.354633361,-0.937099814,1.0039208821329908
205,0.046420608,-0.480772972,-0.886284113,1.0166421795619096
206,0.046647052,-0.596974492,-0.817314565,1.024381642259797
207,0.046873492,-0.703043044,-0.732801318,1.031267293379323
208,0.047099936,-0.797105551,-0.633563221,1.0367796144389083
209,0.047326376,-0.876542926,-0.52101016,1.039779087943867
210,0.04755282,-0.938721061,-0.397517323,1.039217252450052
211,0.04777926,-0.981562197,-0.266406357,1.0344366936294784
212,0.048005704,-1.00400245,-0.13165389,1.0253536663581344
213,0.048232144,-1.00623691,0.00259755272,1.0125194663264812
214,0.048458588,-0.989683151,0.132579505,0.997050064519334
215,0.048685028,-0.9567011,0.255317003,0.980463766762112
216,0.048911472,-0.910252333,0.368771642,0.9645518336753188
217,0.049137912,-0.854122758,0.471812248,0.95213248309634
218,0.049364356,-0.794235289,0.567350328,0.952696088974621
219,0.049590796,-0.724224329,0.665073276,0.9668233411648725
220,0.04981724,-0.637243271,0.753451943,0.9737688168452546
221,0.05004368,-0.540204823,0.82992053,0.980589336907942
222,0.050270124,-0.434110433,0.895243347,0.9899125183872098
223,0.050496564,-0.319007963,0.948292911,1.0010255255102634
224,0.050723008,-0.195607141,0.986982644,1.0123968931674243
225,0.050949448,-0.0656542629,1.00896788,1.022326665108637
226,0.051175892,0.0680279136,1.01225388,1.0292857146038237
227,0.051402332,0.201777816,0.995720088,1.0321727806764576
228,0.051628776,0.331549227,0.959460378,1.0304891068762003
229,0.051855216,0.45346266,0.904862344,1.02440424560345
230,0.05208166,0.564288855,0.834448814,1.0147267350632176
231,0.0523081,0.661790013,0.751691282,1.0030058047413437
232,0.052534544,0.745466411,0.661189973,0.9928923503249616
233,0.052760984,0.820223093,0.566449463,0.9936309164234748
234,0.052987428,0.887677133,0.459324062,0.9989492863832794
235,0.053213868,0.937804341,0.342204601,0.9965809709440134
236,0.053440312,0.971488118,0.221528843,0.9928641916961006
237,0.053666752,0.990321696,0.0989083052,0.9905199144058529
238,0.053893196,0.994581401,-0.0247119665,0.98980284450342
239,0.054119636,0.984030902,-0.148124188,0.990257591161593
240,0.05434608,0.958370507,-0.269712597,0.9912189136679216
241,0.05457252,0.917544365,-0.387492329,0.9920379667770975
242,0.054798964,0.861947954,-0.499262571,0.992217390206316
243,0.055025404,0.792532325,-0.602823257,0.9915033653499936
244,0.055251848,0.710798562,-0.696201861,0.9899316270011312
245,0.055478288,0.618740737,-0.777839661,0.9878746378478982
246,0.055704732,0.518880844,-0.846859753,0.9864087715213734
247,0.055931172,0.414164484,-0.904191434,0.9890943691259628
248,0.056157616,0.303590119,-0.953936756,1.0021622948022375
249,0.056384056,0.180890396,-0.991345584,1.0154874022813378
250,0.0566105,0.0520378873,-1.00933301,1.0214610667903077
251,0.05683694,-0.077800788,-1.00908589,1.0243072960105128
252,0.057063384,-0.206396982,-0.991463065,1.0255987234379025
253,0.057289824,-0.331548005,-0.956725299,1.0252473773661197
254,0.057516268,-0.450719953,-0.905346096,1.0228000295747637
255,0.057742708,-0.561259091,-0.838389456,1.0179086471621224
256,0.057969152,-0.660714746,-0.757623315,1.0105370630134338
257,0.058195592,-0.747159421,-0.665424287,1.0010366821185137
258,0.058422036,-0.819414675,-0.564540386,0.9901462570303844
259,0.058648476,-0.877128005,-0.457784653,0.9789203256776104
260,0.05887492,-0.920736969,-0.34779653,0.968718992363348
261,0.05910136,-0.951582193,-0.236916959,0.9616383154964968
262,0.059327804,-0.972691655,-0.126323923,0.9620867892287488
263,0.059554244,-0.986611307,-0.0119806826,0.97354540785581
264,0.059780688,-0.986843705,0.108940326,0.9857284927271132
265,0.060007128,-0.970310986,0.230604678,0.9946819270677758
266,0.060233572,-0.938406587,0.350162536,1.0032207241429398
267,0.060460012,-0.891377807,0.466220498,1.0119159475674973
268,0.060686456,-0.828987241,0.576842189,1.0199667567511037
269,0.060912896,-0.751364946,0.679444849,1.0261945849102156
270,0.06113934,-0.659447193,0.771122992,1.0295012691466114
271,0.06136578,-0.5551368,0.849095166,1.0291394676388077
272,0.061592224,-0.441210449,0.911154568,1.0248693070940482
273,0.061818664,-0.321027458,0.956017733,1.017028534600401
274,0.062045108,-0.198127881,0.983496666,1.0065203492626658
275,0.062271548,-0.0758451,0.994552374,0.9948869038230458
276,0.062497992,0.0431732275,0.991458058,0.984853008345898
277,0.062724432,0.158629388,0.977832377,0.9813194402467248
278,0.062950876,0.274384946,0.953985095,0.985374660073582
279,0.063177316,0.389040142,0.914690197,0.9880103885752788
280,0.06340376,0.497366339,0.860711217,0.988197074239884
281,0.0636302,0.597947299,0.794542491,0.9888387423858804
282,0.063856644,0.690273941,0.717217743,0.9908794044976854
283,0.064083084,0.773399413,0.629219234,0.9940634964642914
284,0.064309528,0.845908463,0.531143129,0.9976741512589332
285,0.064535968,0.906142473,0.424027681,1.0008936556287933
286,0.064762412,0.952487409,0.309482008,1.0030113775792453
287,0.064988852,0.983666122,0.189654976,1.0035680494920796
288,0.065215296,0.998974085,0.0670766309,1.002448496914482
289,0.065441736,0.998438597,-0.0555737875,0.9999680778364236
290,0.06566818,0.982956827,-0.175756618,0.997094512516706
291,0.06589462,0.954503238,-0.291701466,0.996166176619034
292,0.066121064,0.915275753,-0.404177904,1.00108948211155
293,0.066347504,0.862859786,-0.515264034,1.010024035029919
294,0.066573948,0.793704152,-0.620398462,1.0148605325540043
295,0.066800388,0.710388482,-0.714747369,1.0155155968506866
296,0.067026832,0.61588341,-0.796878934,1.0143284101662045
297,0.067253272,0.512128294,-0.865976572,1.0121908127682215
298,0.067479712,0.400868207,-0.921136618,1.0091879884038728
299,0.06770616,0.284031212,-0.961517751,1.0051901148782871
300,0.0679326,0.163783014,-0.986562729,1.0001308939268516
301,0.06815904,0.0424207561,-0.996158421,0.9941311202773088
302,0.06838548,-0.0778016821,-0.990701675,0.987542910585395
303,0.068611928,-0.194855496,-0.971076548,0.9809583263970024
304,0.068838368,-0.30708158,-0.938586295,0.9752433299371236
305,0.069064808,-0.413375974,-0.894934118,0.9717867714408864
306,0.069291248,-0.513788104,-0.842126191,0.9731547373800832
307,0.069517696,-0.610498488,-0.780721664,0.982234720489215
308,0.069744136,-0.704026937,-0.706802189,0.9952232623967936
309,0.069970576,-0.789201021,-0.618541539,1.005431887015931
310,0.070197016,-0.862523615,-0.518606246,1.0128994248228809
311,0.070423464,-0.922705889,-0.409226626,1.018852589022624
312,0.070649904,-0.968512297,-0.292091042,1.0233332462568618
313,0.070876344,-0.998586416,-0.16915597,1.0257885724063658
314,0.071102784,-1.01181126,-0.0429002345,1.0256024559829424
315,0.071329232,-1.00765884,0.0837623924,1.022392476210717
316,0.071555672,-0.986409068,0.20775573,1.0161652927804616
317,0.071782112,-0.949197531,0.326188684,1.007375010426148
318,0.072008552,-0.897905588,0.436684638,0.9969279180268168
319,0.072235,-0.834953547,0.537642181,0.986206540438318
320,0.07246144,-0.763064444,0.628521502,0.9773066241733652
321,0.07268788,-0.684642613,0.710429609,0.9734457368793604
322,0.07291432,-0.599452674,0.785851657,0.976906335175396
323,0.073140768,-0.504300356,0.853815377,0.9833195470633788
324,0.073367208,-0.399763435,0.910146356,0.988177193303078
325,0.073593648,-0.288692445,0.953416288,0.992345946023777
326,0.073820088,-0.172768116,0.983427286,0.9969780487555152
327,0.074046536,-0.0531661771,0.999622583,1.0020719508310203
328,0.074272976,0.0686749816,1.00113297,1.006983476718781
329,0.074499416,0.190810531,0.98715359,1.01088086899039
330,0.074725856,0.310833186,0.957287729,1.013017065612888
331,0.074952304,0.426088721,0.911793888,1.0129196923575725
332,0.075178744,0.533974528,0.851683736,1.0104939827197406
333,0.075405184,0.632260501,0.778691471,1.0061137481329148
