Unnamed: 0,Frequency (GHz),Re( S21 ),Im( S21 ),S2
0,0.0,0.0387279131,0.0,0.0014998512530811
1,0.000226526719,0.0345928259,-0.0167906694,0.0014785901826478
2,0.000453053438,0.0235202033,-0.0294704698,0.001421708553506
3,0.000679580188,0.0086974334,-0.0356381536,0.0013457233397646
4,0.000906106875,-0.00644608913,-0.0350270234,0.001268444433336
5,0.00113263362,-0.0193384811,-0.0287994035,0.0012033824932108
6,0.00135916038,-0.0284797996,-0.0186449587,0.0011587334701808
7,0.001585687,-0.033166416,-0.00623888662,0.0011389348565422
8,0.00181221375,-0.0331448019,0.00692110509,0.001146479588657
9,0.0020387405,-0.0283672754,0.0194179639,0.0011817596356411
10,0.00226526725,-0.0190084893,0.0296982564,0.0012433090986683
11,0.002491794,-0.00572334882,0.0359794982,0.0013272810124391
12,0.00271832075,0.00996003859,0.0364104584,0.0014249238496124
13,0.00294484725,0.0252948403,0.0296734311,0.0015203414590489
14,0.003171374,0.036527615,0.016021356,0.0015909505056669
15,0.00339790075,0.0401392095,-0.00151465763,0.001613450327021
16,0.0036244275,0.0350752547,-0.019046694,0.0015930500445995
17,0.00385095425,0.0228406861,-0.0316672735,0.0015245131524425
18,0.004077481,0.00715162233,-0.0371917672,0.0014343732494099
19,0.0043040075,-0.00835655537,-0.0357025377,0.0013445032158717
20,0.0045305345,-0.0211716723,-0.0286745895,0.001270471790972
21,0.004757061,-0.0299777538,-0.0179581903,0.0012211623217444
22,0.004983588,-0.0342627466,-0.0052531953,0.0012015318654357
23,0.0052101145,-0.033937104,0.00802989397,0.0012162062250762
24,0.0054366415,-0.0289842058,0.0206600316,0.0012669210915697
25,0.005663168,-0.0194725357,0.0312217176,0.0013539752964819
26,0.0058896945,-0.00583690265,0.0379900672,0.001477314638406
27,0.0061162215,0.0107101081,0.0389537588,0.0016321017401622
28,0.006342748,0.0276269428,0.0322434083,0.0018028853472749
29,0.006569275,0.0395699702,0.0175715964,0.0018745435416733
30,0.0067958015,0.0448265783,-0.00241309055,0.0020152451280885
31,0.0070223285,0.0390054286,-0.0226621088,0.0020349946355327
32,0.007248855,0.0242643747,-0.0370799266,0.0019636808362433
33,0.007475382,0.0055478164,-0.0425170772,0.0018384801204388
34,0.0077019085,-0.0122295842,-0.0393717065,0.001699694002427
35,0.007928435,-0.0260021053,-0.0300117899,0.001576817013034
36,0.008154962,-0.0345511511,-0.0170833059,0.001485621382808
37,0.0083814885,-0.0377485938,-0.00274326629,0.0014324818438152
38,0.008608015,-0.0359026007,0.0113799144,0.0014184991887749
39,0.008834542,-0.0296397433,0.0240492877,0.0014568826217672
40,0.009061069,-0.0191639178,0.0343355909,0.0015461885478973
41,0.009287596,-0.00498204026,0.0407876074,0.0016884496425687
42,0.009514122,0.0118341809,0.0418378487,0.001890453421418
43,0.009740649,0.0290328041,0.0352734551,0.0020871203486006
44,0.009967176,0.0440354981,0.0205554701,0.002361652443947
45,0.010193702,0.051396586,-0.00117727136,0.0026429950203104
46,0.010420229,0.0469472073,-0.0253747366,0.0028479175307885
47,0.010646756,0.0303989295,-0.0447039008,0.0029225336614822
48,0.010873283,0.00667379284,-0.0530730411,0.0028612872024735
49,0.011099809,-0.0169524122,-0.0492041521,0.0027084328632786
50,0.011326336,-0.034962032,-0.0360993221,0.0025255047376485
51,0.011552863,-0.0450711548,-0.0181355551,0.0023603073537906
52,0.011779389,-0.0473118499,0.000983115868,0.00223937765777
53,0.012005916,-0.0427096076,0.0187074393,0.0021740788665091
54,0.012232443,-0.0325092115,0.0333378091,0.0021682583479397
55,0.01245897,-0.0180402361,0.0435559079,0.002222567231537
56,0.012685496,-0.000474316301,0.0485962443,0.0023618199360186
57,0.012912023,0.0188020375,0.0470787361,0.0025699240069248
58,0.01313855,0.0375717506,0.0379314572,0.002850431888464
59,0.013365076,0.0526995063,0.0207443591,0.0032075663987334
60,0.013591603,0.0601124726,-0.00330725778,0.0036244473161091
61,0.01381813,0.0557498746,-0.0301643349,0.004017935617875
62,0.014044657,0.0383281261,-0.0539186038,0.0043762610860788
63,0.014271183,0.0104853576,-0.0670855492,0.0046104136354654
64,0.01449771,-0.0206554588,-0.0653437376,0.0046964520217761
65,0.014724237,-0.0469880998,-0.0495448001,0.0046625687397637
66,0.014950764,-0.0629896075,-0.0245338734,0.0045696015970112
67,0.01517729,-0.066832833,0.00374958292,0.0044806869388798
68,0.015403817,-0.0593764298,0.0303100031,0.0044442567037163
69,0.015630344,-0.0427563563,0.0516196825,0.0044926976254533
70,0.01585687,-0.0195382554,0.0653149113,0.0046477810622024
71,0.016083397,0.00751796085,0.0697965026,0.0049280715105339
72,0.016309924,0.0354454331,0.0640122667,0.0053539490157185
73,0.016536451,0.0607114732,0.0473723449,0.0059300220394388
74,0.016762977,0.0789683312,0.0204670709,0.0066548983237385
75,0.016989504,0.0854974315,-0.0141109852,0.0075089306964118
76,0.01721603,0.0763492212,-0.0511072315,0.0084411526894411
77,0.017442558,0.0502496883,-0.0827634186,0.0093748146326059
78,0.017669084,0.0104098404,-0.100590006,0.0102267140842335
79,0.01789561,-0.0352787897,-0.0984805301,0.0109430078114738
80,0.018122138,-0.076494433,-0.0753786415,0.011533337874377
81,0.018348664,-0.103985459,-0.0356195644,0.0120817290514864
82,0.018575192,-0.112087548,0.0130300093,0.0127333995590103
83,0.018801718,-0.0992016345,0.0619256645,0.0136757522112381
84,0.019028244,-0.0669096336,0.103223339,0.0151319567827951
85,0.019254772,-0.01889796,0.130438924,0.0173714457864393
86,0.019481298,0.0396568887,0.138422355,0.0207334171851102
87,0.019707824,0.102225028,0.123306565,0.0256544653217
88,0.019934352,0.160670415,0.0827250183,0.0326584109090075
89,0.020160878,0.205047116,0.016890388,0.042329604986708
90,0.020387404,0.22445412,-0.0698763877,0.0552623615429751
91,0.020613932,0.209071785,-0.168017164,0.0719407786816891
92,0.020840458,0.153209239,-0.26292339,0.0926017799240512
93,0.021066984,0.0582452267,-0.33729884,0.1171630138986799
94,0.021293512,-0.0663189441,-0.375351638,0.1452870544958219
95,0.021520038,-0.204732865,-0.366969585,0.1765822223261804
96,0.021746566,-0.33894825,-0.309764236,0.2108397980827262
97,0.021973092,-0.452483743,-0.208357438,0.2481543596492139
98,0.022199618,-0.532833934,-0.0726333261,0.2891876012822653
99,0.022426146,-0.572912276,0.0871326253,0.3358205703831704
100,0.022652672,-0.566580057,0.259629875,0.3884206329826389
101,0.022879198,-0.510742605,0.432603151,0.4480034948173148
102,0.023105726,-0.404506952,0.593082786,0.5153730652658521
103,0.023332252,-0.249703482,0.726908088,0.5907471973227401
104,0.023558778,-0.052149117,0.818884313,0.6732910484813617
105,0.023785306,0.17679958,0.854096532,0.7607389774626034
106,0.024011832,0.419321835,0.820631206,0.8492663775687815
107,0.02423836,0.652006567,0.713239789,0.93382356002389
108,0.024464886,0.849250317,0.536501586,1.009060052705116
109,0.024691412,0.988570094,0.305561393,1.0706385956432691
110,0.02491794,1.05571735,0.0434033126,1.116422970635676
111,0.025144466,1.04720604,-0.224378005,1.1469859793402617
112,0.025370992,0.969284534,-0.474860102,1.1650046243230476
113,0.02559752,0.834421754,-0.69102031,1.1737687323809325
114,0.025824046,0.65736711,-0.862141252,1.1754190557098796
115,0.026050572,0.451701701,-0.982873142,1.1700740399512457
116,0.0262771,0.229634687,-1.05281174,1.1611446493554156
117,0.026503626,0.00292030629,-1.07319152,1.1517485667887375
118,0.026730152,-0.218239784,-1.0459187,1.1415745303300568
119,0.02695668,-0.424577504,-0.974173725,1.1292805033832456
120,0.027183206,-0.607361972,-0.862787604,1.1132910146477897
121,0.027409734,-0.758779347,-0.718680263,1.0922474178594956
122,0.02763626,-0.872907221,-0.550946116,1.0655086392094282
123,0.027862786,-0.946858644,-0.370180249,1.0335747084672209
124,0.028089314,-0.981451571,-0.187002912,0.9982172753148478
125,0.02831584,-0.980891168,-0.0101861479,0.9622512410694448
126,0.028542366,-0.952461302,0.15515773,0.931256452986288
127,0.028768894,-0.903444648,0.304292321,0.9088060486194108
128,0.02899542,-0.838740647,0.438178211,0.8954860175251391
129,0.029221946,-0.763183355,0.556866169,0.8925487635257926
130,0.029448474,-0.672624111,0.660698116,0.8889451951844897
131,0.029675,-0.568216681,0.757342696,0.8964381557512042
132,0.029901528,-0.45111984,0.844101787,0.9160169368582188
133,0.030128054,-0.319287032,0.917679667,0.9440801800286
134,0.03035458,-0.171890751,0.973578095,0.9774007373431732
135,0.030581108,-0.0103072394,1.00612819,1.0124001738967252
136,0.030807634,0.161257356,1.00955391,1.0452030320603989
137,0.03103416,0.335762978,0.979464114,1.0720867280092334
138,0.031260688,0.5041942,0.914262056,1.0900868983549872
139,0.031487214,0.657118618,0.815885723,1.0974743911174627
140,0.03171374,0.786285937,0.689525723,1.093691297402641
141,0.031940268,0.885620177,0.543132365,1.0793158638200044
142,0.032166794,0.96702832,0.383515626,1.0822280070681942
143,0.03239332,1.01201963,0.221491665,1.073242289169809
144,0.032619848,1.03517532,0.0706493706,1.076579276703279
145,0.032846374,1.01108122,-0.0807291344,1.0288024265776614
146,0.033072902,0.976123095,-0.231059819,1.0062049365486918
147,0.033299428,0.923756242,-0.370905727,0.9908966529553612
148,0.033525954,0.854664981,-0.499764442,0.9802167272353016
149,0.03375248,0.770028055,-0.616669953,0.9732250364201054
150,0.033979008,0.671021223,-0.720257878,0.9690408925374784
151,0.034205536,0.55904758,-0.808826447,0.9667344180705
152,0.03443206,0.435989231,-0.88054657,0.9654488714867362
153,0.034658588,0.30429399,-0.933775663,0.9645318211612096
154,0.034885116,0.166872486,-0.967337608,0.963588474434982
155,0.03511164,0.0269271694,-0.980665922,0.9624307230240065
156,0.035338168,-0.112238623,-0.973966241,0.9612077471006062
157,0.035564696,-0.263780713,-0.95805347,0.9874467159298292
158,0.03579122,-0.402741015,-0.918921053,1.006616226809859
159,0.036017748,-0.489895672,-0.884922922,1.0230863473253495
160,0.036244276,-0.627829134,-0.789022267,1.0167255593210092
161,0.0364708,-0.739779651,-0.692026854,1.0261750986908191
162,0.036697328,-0.837717295,-0.579966068,1.0381309063734976
163,0.036923856,-0.919071615,-0.452860445,1.0497752161443064
164,0.037150384,-0.980424047,-0.31262663,1.058966721721015
165,0.037376908,-1.0184865,-0.162731037,1.0637961410853456
166,0.037603436,-1.03088188,-0.00803580415,1.0627820246606714
167,0.037829964,-1.01683152,0.14567633,1.0551679331877792
168,0.038056488,-0.977526009,0.292504489,1.0411159743566192
169,0.038283016,-0.916020036,0.427326232,1.0217004149087592
170,0.038509544,-0.836698353,0.546494544,0.9987204205346804
171,0.038736068,-0.744491935,0.648161829,0.9743819978526694
172,0.038962596,-0.644072413,0.73190856,0.9505194133889162
173,0.039189124,-0.541182637,0.796720564,0.927642303690752
174,0.039415648,-0.449682415,0.865283847,0.9509304102393517
175,0.039642176,-0.326067686,0.920274973,0.9532261617835456
176,0.039868704,-0.203277931,0.956000566,0.9552589994239612
177,0.040095228,-0.0774925724,0.978552818,0.9635707163929104
178,0.040321756,0.0523093268,0.986898184,0.9767042912527668
179,0.040548284,0.185544446,0.978886962,0.9926464258150364
180,0.040774808,0.32016176,0.952157915,1.0091082476634448
181,0.041001336,0.452720135,0.904886723,1.0237755020960968
182,0.041227864,0.57875973,0.836463273,1.0346336321475456
183,0.041454388,0.693463802,0.74791193,1.0402642997206202
184,0.041680916,0.792440414,0.641929269,1.0400349961393658
185,0.041907444,0.872396886,0.52254945,1.0341342543977994
186,0.042133968,0.931511104,0.394580573,1.0234067654643073
187,0.042360496,0.969375372,0.263349861,1.0090417611288578
188,0.042587024,0.988784909,0.136796057,0.9964087574768856
189,0.042813552,1.00698996,0.00669008773,1.014073536814637
190,0.043040076,0.996455729,-0.133291423,1.0106906233022863
191,0.043266604,0.965822995,-0.264682472,1.002870868654801
192,0.043493132,0.919655442,-0.388679326,0.9968377504600296
193,0.043719656,0.858983099,-0.504885495,0.992761327429039
194,0.043946184,0.784497917,-0.612130284,0.9901404663672596
195,0.044172712,0.697037935,-0.708841145,0.9883176516739752
196,0.044399236,0.597821474,-0.793265462,0.986660607977606
197,0.044625764,0.48855409,-0.863719225,0.9846959984903286
198,0.044852292,0.371394515,-0.91883713,0.982195557238722
199,0.045078816,0.2488098,-0.957754552,0.9792000984527608
200,0.045305344,0.123387612,-0.980183005,0.9759832260858924
201,0.045531872,-0.00225789356,-0.986394465,0.9729791386659646
202,0.045758396,-0.125169858,-0.977513373,0.9711998877455772
203,0.045984924,-0.242931783,-0.959200203,0.9790808806268002
204,0.046211452,-0.369570166,-0.932128012,1.0054447383523395
205,0.046437976,-0.4946073,-0.878915966,1.0171296565030032
206,0.046664504,-0.609632432,-0.808081865,1.0246480026881128
207,0.046891032,-0.714347303,-0.721849144,1.0313582559969068
208,0.047117556,-0.806798458,-0.621060729,1.0366401809371892
209,0.047344084,-0.884357154,-0.507203281,1.0393427440881449
210,0.047570612,-0.944430411,-0.382739037,1.0384379716653165
211,0.047797136,-0.985026777,-0.251059741,1.0333087449579947
212,0.048023664,-1.00520051,-0.116173826,1.0239244231517386
213,0.048250192,-1.00527287,0.0177970156,1.0108902769223036
214,0.04847672,-0.986769378,0.147154048,0.9953681192012932
215,0.048703244,-0.952119291,0.269022346,0.9789041669416864
216,0.048929772,-0.904325724,0.381462812,0.9633188920270715
217,0.0491563,-0.847298861,0.483483344,0.9516715037773196
218,0.049382824,-0.78684622,0.578856945,0.9542023367030216
219,0.049609352,-0.714782178,0.676185727,0.9681406993849422
220,0.04983588,-0.626401424,0.763270855,0.9749611420816588
221,0.050062404,-0.52816844,0.838546097,0.982121457805967
222,0.050288932,-0.420852304,0.902556896,0.9917256122992631
223,0.05051546,-0.30455628,0.954029799,1.0029273850674187
224,0.050741984,-0.180112511,0.990816057,1.0141569754277524
225,0.050968512,-0.0494129062,1.01058173,1.023717068308923
226,0.05119504,0.0845855623,1.01141584,1.0301167187525129
227,0.051421564,0.218132317,0.992342591,1.0323255256323818
228,0.051648092,0.34716326,0.953631461,1.029935292502822
229,0.05187462,0.467855722,0.896840334,1.023211561297373
230,0.052101144,0.57709837,0.824629545,1.0130564151435637
231,0.052327672,0.672820151,0.740579247,1.0011445766787497
232,0.0525542,0.754866123,0.6493873,0.9915267290543412
233,0.052780724,0.828744531,0.553792298,0.9935034069865308
234,0.053007252,0.894406855,0.445257157,0.9982175581307136
235,0.05323378,0.942531645,0.327638716,0.9957130300485346
236,0.053460304,0.974491715,0.206708938,0.9923626876527292
237,0.053686832,0.991687417,0.0838901624,0.99048149238363
238,0.05391336,0.994282722,-0.0398690104,0.9901876692580046
239,0.054139888,0.981983185,-0.163309053,0.9909608224145012
240,0.054366412,0.954475999,-0.284743339,0.9921032017719168
241,0.05459294,0.911733806,-0.40211615,0.992955931094068
242,0.054819468,0.854218364,-0.513174236,0.99303680988902
243,0.055045992,0.78297013,-0.615698814,0.9921272540332235
244,0.05527252,0.699583948,-0.707736909,0.990309232660141
245,0.055499048,0.606147408,-0.787790537,0.9880286104118668
246,0.055725572,0.505272746,-0.855111063,0.9865154779153704
247,0.0559521,0.399856627,-0.91097486,0.9897605177078368
248,0.056178628,0.288024008,-0.959397733,1.003401839269923
249,0.056405152,0.164250463,-0.994381785,1.0157733489355003
250,0.05663168,0.0351928025,-1.00993109,1.021199339896392
251,0.056858208,-0.094508633,-1.00743103,1.0238491619183896
252,0.057084732,-0.222709745,-0.987636864,1.0250262056497197
253,0.05731126,-0.347189307,-0.950800836,1.024562644633439
254,0.057537788,-0.465399444,-0.897436917,1.021989662469974
255,0.057764312,-0.574695766,-0.828670442,1.016969924902802
256,0.05799084,-0.672666252,-0.746331751,1.0094909691304534
257,0.058217368,-0.75744921,-0.652846932,0.9999384223514368
258,0.058443892,-0.827947438,-0.550984025,0.9890803558959644
259,0.05867042,-0.883889616,-0.443548709,0.977996310528194
260,0.058896948,-0.92579639,-0.333156168,0.9680919880134764
261,0.059123472,-0.955132782,-0.222096637,0.9616055474177692
262,0.05935,-0.97511977,-0.111231573,0.9632310286769072
263,0.059576528,-0.987607181,0.00404091878,0.9753842729873532
264,0.059803056,-0.985608041,0.125403509,0.9871492505533708
265,0.06002958,-0.966938555,0.246965989,0.9959623688682364
266,0.060256108,-0.932945967,0.366208822,1.0044970786521927
267,0.060482636,-0.883782208,0.48170048,1.0131063436095855
268,0.06070916,-0.819236338,0.591412902,1.0209173981517117
269,0.060935688,-0.73953402,0.692702472,1.0267472814522711
270,0.061162216,-0.645742655,0.782655597,1.0295333600018757
271,0.06138874,-0.539897382,0.858545661,1.0285898351123808
272,0.061615268,-0.424878985,0.918278158,1.0237569273545033
273,0.061841796,-0.304096878,0.960717261,1.015452566792689
274,0.06206832,-0.181081846,0.985835373,1.0046620176088168
275,0.062294848,-0.0590994097,0.994754493,0.9930292415705756
276,0.062521376,0.0593724437,0.989927828,0.9834821917197072
277,0.0627479,0.174529523,0.97497189,0.9810307406887796
278,0.062974428,0.290295422,0.949326634,0.985492490055928
279,0.063200956,0.404307276,0.907999396,0.987927276562905
280,0.06342748,0.511707723,0.852324069,0.9883011123745616
281,0.063654008,0.611323774,0.784602642,0.9893180624909832
282,0.063880536,0.702594459,0.705742359,0.9917112511043876
283,0.06410706,0.784479439,0.616209924,0.9951226606498405
284,0.064333588,0.855490565,0.516652942,0.9987943692812744
285,0.064560116,0.913933337,0.408200234,1.0019015755176104
286,0.06478664,0.958207428,0.292566925,1.0037568806783308
287,0.065013168,0.987100422,0.171997771,1.0039504763415463
288,0.065239696,1.00001085,0.0490870476,1.002431238359807
289,0.065466224,0.997097611,-0.0734662935,0.9996009421425356
290,0.065692748,0.979411542,-0.193167046,0.996560476263184
291,0.065919276,0.949080408,-0.308441848,0.9958899944471016
292,0.066145804,0.908077896,-0.420470744,1.0014011117637005
293,0.066372328,0.853346586,-0.530883908,1.0100381196112078
294,0.066598856,0.782028675,-0.634547412,1.014219266598153
295,0.066825384,0.69703728,-0.727146089,1.0146024044577944
296,0.067051908,0.601170421,-0.807440758,1.0133664527649318
297,0.067278432,0.496289283,-0.874610841,1.0112471756153814
298,0.06750496,0.384135693,-0.927742124,1.0082656792806215
299,0.067731488,0.266660482,-0.966003358,1.0042703003277489
300,0.067958016,0.146055371,-0.988870859,0.9991977471773456
301,0.068184544,0.0246317387,-0.996280611,0.9931817784059184
302,0.068411072,-0.0953597873,-0.988689482,0.9866003808513296
303,0.0686376,-0.211913913,-0.967041135,0.9800760633050598
304,0.06886412,-0.323417544,-0.932697117,0.9745228198271036
305,0.069090648,-0.42885679,-0.88742274,0.9714372657982115
306,0.069317176,-0.528504252,-0.833212793,0.9735603028009402
307,0.069543704,-0.624701381,-0.770169139,0.9834123180913084
308,0.069770232,-0.717225134,-0.694111168,0.996202206383642
309,0.06999676,-0.800721407,-0.603979051,1.0059454656749205
310,0.07022328,-0.872126341,-0.502553582,1.013164457447079
311,0.070449808,-0.930225551,-0.391946852,1.0189419105259636
312,0.070676336,-0.973761559,-0.273851186,1.0232060458597172
313,0.070902864,-1.00139201,-0.150286138,1.025371880966795
314,0.071129392,-1.01206315,-0.0237968955,1.0248381118233605
315,0.07135592,-1.00534821,0.102663741,1.0212648670663191
316,0.07158244,-0.981645167,0.226023868,1.0147140228001394
317,0.071808968,-0.942203224,0.343446285,1.0057022659962953
318,0.072035496,-0.888990581,0.45264855,0.99519496292382
319,0.072262024,-0.824481785,0.552157342,0.9846479441212912
320,0.072488552,-0.751405776,0.641613662,0.9762787314712124
321,0.07271508,-0.671990037,0.722378552,0.973401382216878
322,0.0729416,-0.585459888,0.796831131,0.9777031317877116
323,0.073168128,-0.488745868,0.863283396,0.9841307452963663
324,0.073394656,-0.383016765,0.917727292,0.9889252247527184
325,0.073621184,-0.271030545,0.959041595,0.993218337263141
326,0.073847712,-0.154351786,0.98699981,0.997993098781426
327,0.07407424,-0.03418025,1.00097668,1.0031226033938847
328,0.074300768,0.0879605114,1.00008857,1.0079141994103944
329,0.074527288,0.210032344,0.983575583,1.0115345129999245
330,0.074753816,0.329559803,0.951137304,1.0132718348137872
331,0.074980344,0.443865716,0.903157771,1.0127107331578813
332,0.075206872,0.550380886,0.840781391,1.00983246712604
333,0.0754334,0.646963537,0.765858889,1.0051016560678647
