Frequency (GHz),Re( S21 ),Im( S21 ),S2
0,0.037239321,0,0.001386767
0.00022654,0.033266101,-0.01613057,0.001366829
0.00045308,0.022632539,-0.028306564,0.001313493
0.00067962,0.008409767,-0.03422847,0.001242312
0.00090616,-0.006110672,-0.033655182,0.001170012
0.0011327,-0.018472556,-0.027711859,0.001109182
0.00135924,-0.027253866,-0.018018156,0.001067427
0.00158578,-0.031792618,-0.006168644,0.001048823
0.00181232,-0.03185099,0.006418789,0.001055686
0.002038861,-0.027377715,0.018408896,0.001088427
0.002265401,-0.018519821,0.028332915,0.001145738
0.002491941,-0.00586989,0.034492295,0.001224174
0.002718481,0.009152973,0.035099808,0.001315773
0.002945021,0.023955369,0.028844306,0.001405854
0.003171561,0.034940783,0.015890621,0.00147337
0.003398101,0.038657483,-0.000928017,0.001495262
0.003624641,0.034037538,-0.017861687,0.001477594
0.003851181,0.022439448,-0.030180488,0.001414391
0.004077721,0.007418094,-0.035713118,0.001330455
0.004304261,-0.00751743,-0.034495544,0.001246454
0.004530801,-0.019932959,-0.027923919,0.001177068
0.004757341,-0.028549103,-0.017765397,0.001130661
0.004983881,-0.032863084,-0.005643503,0.001111831
0.005210421,-0.032780685,0.007096613,0.001124935
0.005436962,-0.028274935,0.01929416,0.001171737
0.005663502,-0.019381547,0.029612649,0.001252553
0.005890042,-0.006468121,0.036410935,0.001367593
0.006116582,0.009376458,0.037747625,0.001512801
0.006343122,0.02580443,0.031760629,0.001674606
0.006569662,0.037695628,0.017992821,0.001744702
0.006796202,0.043339122,-0.001130314,0.001879557
0.007022742,0.038309027,-0.02084416,0.001902061
0.007249282,0.024472315,-0.035204772,0.00183827
0.007475822,0.00651552,-0.040986605,0.001722354
0.007702362,-0.01077042,-0.038424105,0.001592414
0.007928902,-0.024338152,-0.029738134,0.001476702
0.008155442,-0.03294158,-0.017471544,0.001390403
0.008381982,-0.036413211,-0.003712706,0.001339706
0.008608522,-0.035021801,0.009964043,0.001325809
0.008835062,-0.029341767,0.022341063,0.001360062
0.009061602,-0.019568371,0.03255536,0.001442773
0.009288142,-0.006132588,0.039210316,0.001575057
0.009514682,0.009994709,0.040774323,0.00176244
0.009741222,0.026825931,0.035095524,0.001951326
0.009967762,0.041813038,0.021503262,0.00221072
0.010194302,0.049795937,0.000841166,0.002480343
0.010420842,0.046522237,-0.022741621,0.0026815
0.010647383,0.031314634,-0.042196117,0.002761119
0.010873923,0.008614677,-0.051347781,0.002710807
0.011100463,-0.014550177,-0.048567861,0.002570545
0.011327003,-0.032628398,-0.036525711,0.00239874
0.011553543,-0.043182787,-0.019418659,0.002241837
0.011780083,-0.046099279,-0.000887032,0.00212593
0.012006623,-0.042297717,0.016532786,0.00206243
0.012233163,-0.032944426,0.031144414,0.00205531
0.012459703,-0.019278951,0.041617852,0.002103724
0.012686243,-0.002452724,0.047205854,0.002234409
0.012912783,0.016287213,0.046529476,0.002430265
0.013139323,0.034857057,0.038479239,0.002695666
0.013365863,0.050278649,0.022521943,0.00303518
0.013592403,0.058600247,-0.000422052,0.003434167
0.013818943,0.055696465,-0.026653593,0.00381251
0.014045483,0.040016148,-0.050630186,0.004164708
0.014272023,0.01361585,-0.064935021,0.004401948
0.014498563,-0.016867785,-0.0649096,0.004497778
0.014725104,-0.04346136,-0.050861698,0.004475802
0.014951644,-0.060438316,-0.027203562,0.004392824
0.015178184,-0.065647803,0.000316898,0.004309734
0.015404724,-0.059668671,0.026717288,0.004274164
0.015631264,-0.044439621,0.048408605,0.004318273
0.015857804,-0.02238466,0.062949747,0.004463744
0.016084344,0.003856357,0.068656661,0.004728609
0.016310884,0.03142415,0.064385921,0.005133024
0.016537424,0.056927182,0.049420871,0.005683126
0.016763964,0.076136969,0.024121432,0.006378682
0.016990504,0.084362127,-0.009255606,0.007202635
0.017217044,0.077493005,-0.045859657,0.008108274
0.017443584,0.053828705,-0.078267403,0.009023316
0.017670124,0.015938239,-0.098045029,0.009866855
0.017896664,-0.028909769,-0.098727502,0.010582894
0.018123204,-0.070704937,-0.07858175,0.01117428
0.018349744,-0.100076646,-0.041235156,0.011715673
0.018576284,-0.110932909,0.006033196,0.01234251
0.018802824,-0.101153582,0.054779764,0.01323287
0.019029364,-0.071849272,0.097148627,0.014600174
0.019255904,-0.026320471,0.126527831,0.016702059
0.019482444,0.030579997,0.137576342,0.019862386
0.019708984,0.092609085,0.126180694,0.02449801
0.019935524,0.1519133,0.089647308,0.031114291
0.020162064,0.198778689,0.027689332,0.040279666
0.020388604,0.222349331,-0.056053292,0.052581197
0.020615144,0.212521747,-0.152803004,0.068514251
0.020841684,0.16289328,-0.248627201,0.088349706
0.021068226,0.073770113,-0.326517165,0.112055489
0.021294766,-0.046500448,-0.370381773,0.139344949
0.021521306,-0.183033615,-0.369265825,0.169858554
0.021747846,-0.318119764,-0.319675535,0.203392632
0.021974386,-0.435109973,-0.225195259,0.240033593
0.022200926,-0.520869255,-0.094853036,0.280301879
0.022427466,-0.567798555,0.061205864,0.326141357
0.022654006,-0.569226146,0.232094809,0.377886406
0.022880546,-0.521512687,0.405670017,0.436543645
0.023107086,-0.423244238,0.569035769,0.502937391
0.023333626,-0.275676042,0.708062291,0.577349488
0.023560166,-0.083941765,0.807478666,0.659068016
0.023786706,0.141393617,0.852062523,0.746002698
0.024013246,0.383299261,0.829225779,0.834533716
0.024239786,0.618920565,0.732616901,0.919790189
0.024466326,0.822687864,0.56540513,0.996498283
0.024692866,0.971453667,0.341355085,1.060245521
0.024919406,1.04969573,0.082519718,1.108670629
0.025145946,1.05239952,-0.185718685,1.14203618
0.025372486,0.984458148,-0.439955771,1.162718926
0.025599026,0.857448339,-0.662260354,1.173806431
0.025825566,0.685733259,-0.840916038,1.177369885
0.026052106,0.482949197,-0.969722331,1.173601326
0.026278646,0.261612505,-1.04756296,1.165829258
0.026505186,0.033819504,-1.0751915,1.157180521
0.026731726,-0.189855814,-1.0542326,1.147451605
0.026958266,-0.399790823,-0.98769486,1.135373839
0.027184806,-0.586927593,-0.880307257,1.119424866
0.027411346,-0.743133545,-0.738935113,1.098272567
0.027637886,-0.862159193,-0.572676897,1.071277302
0.027864426,-0.940786242,-0.392217994,1.038913708
0.028090966,-0.979540288,-0.208382189,1.002922313
0.028317506,-0.982443213,-0.030241465,0.966109213
0.028544046,-0.956758559,0.136683762,0.934069391
0.028770586,-0.909785211,0.287418455,0.910318498
0.028997126,-0.846694648,0.422704548,0.895570962
0.029223666,-0.772450268,0.542562127,0.891053078
0.029450208,-0.683343828,0.647615612,0.886364768
0.029676748,-0.580643475,0.745373964,0.892729191
0.029903288,-0.465457529,0.833467185,0.91131826
0.030129828,-0.335686266,0.908839405,0.938674333
0.030356368,-0.190314859,0.967181146,0.971659115
0.030582908,-0.030426325,1.00291908,1.006772442
0.030809448,0.140125364,1.01022518,1.040190032
0.031035988,0.314630777,0.984473586,1.068180767
0.031262528,0.484280765,0.923670471,1.087694998
0.031489068,0.639643729,0.829272687,1.096837289
0.031715608,0.772238731,0.706026137,1.094825564
0.031942148,0.875570059,0.56160146,1.082019128
0.032168688,0.961170256,0.403105766,1.08634252
0.032395228,1.0100137,0.240985736,1.078201799
0.032621768,1.03576231,0.089055561,1.080734456
0.032848308,1.01489234,-0.064063683,1.034110617
0.033074848,0.981933117,-0.21607095,1.010879302
0.033301388,0.931002498,-0.357592314,0.994637914
0.033527928,0.862959683,-0.487952679,0.982797231
0.033754468,0.779174566,-0.606137455,0.974515619
0.033981008,0.680994928,-0.710828602,0.969031393
0.034207548,0.569936216,-0.800442636,0.965535704
0.034434088,0.44790715,-0.873301089,0.963275607
0.034660628,0.317295998,-0.927897871,0.961671209
0.034887168,0.180889621,-0.96313858,0.960356979
0.035113708,0.041743126,-0.978461623,0.959129636
0.035340248,-0.096970134,-0.974007845,0.958094489
0.035566788,-0.248263344,-0.960805416,0.984781735
0.035793328,-0.387554318,-0.924340487,1.004603685
0.036019868,-0.477396041,-0.89348352,1.02621978
0.036246408,-0.615007102,-0.798563063,1.015936701
0.036472948,-0.72864151,-0.703526676,1.025868234
0.036699488,-0.828616738,-0.593088746,1.038359959
0.036926028,-0.912272096,-0.467208296,1.050523969
0.037152568,-0.976106882,-0.327751696,1.060205819
0.037379108,-1.01673698,-0.178143889,1.065489332
0.037605648,-1.03166831,-0.023225989,1.064878948
0.037832188,-1.01998639,0.131202623,1.057586364
0.038058728,-0.982747793,0.279170156,1.043729201
0.038285268,-0.922903776,0.415429205,1.024332804
0.038511808,-0.844796181,0.536169767,1.001158606
0.038738348,-0.753387272,0.639382064,0.976401805
0.038964888,-0.653428972,0.724513292,0.951888932
0.039191428,-0.550743818,0.790340066,0.927956173
0.039417968,-0.460143566,0.860245883,0.951755081
0.039644508,-0.336608648,0.916035771,0.952426916
0.039871048,-0.214315072,0.952661514,0.95349491
0.040097588,-0.089142948,0.976268113,0.961045894
0.040324128,0.040006299,0.985921741,0.973642183
0.040550668,0.172682136,0.979546189,0.989329856
0.040777208,0.307003736,0.954785228,1.005866126
0.041003748,0.439701885,0.909733474,1.020952741
0.041230288,0.566444218,0.843614638,1.03254471
0.041456828,0.682455003,0.757231712,1.039144697
0.041683368,0.78327322,0.653055608,1.039998564
0.041909908,0.865441203,0.53494674,1.03515649
0.042136452,0.926909685,0.407631129,1.025324701
0.042362992,0.967018604,0.276463121,1.011556838
0.042589532,0.988295078,0.149678096,0.999130694
0.042816072,1.00868022,0.018956618,1.01779514
0.043042612,0.999465346,-0.122046523,1.013826332
0.043269152,0.969867051,-0.254367679,1.005345013
0.043495692,0.924500644,-0.379203439,0.998496689
0.043722232,0.864505529,-0.496109426,0.993494372
0.043948772,0.790692031,-0.603928804,0.989923888
0.044175312,0.703989267,-0.701159835,0.987226002
0.044401852,0.605654061,-0.786154628,0.984855941
0.044628392,0.4973692,-0.857339263,0.982406733
0.044854932,0.381216168,-0.91342932,0.979678889
0.045081472,0.259553879,-0.953594029,0.976709788
0.045308012,0.134859368,-0.977519453,0.97373133
0.045534552,0.009663058,-0.985403299,0.971113036
0.045761092,-0.113094568,-0.978256881,0.969776907
0.045987632,-0.230854213,-0.9617787,0.978311935
0.046214172,-0.358176321,-0.936673045,1.00564667
0.046440712,-0.484112829,-0.885018587,1.017623131
0.046667252,-0.600242376,-0.81558305,1.025466621
0.046893792,-0.706252277,-0.730521142,1.032453418
0.047120332,-0.800130844,-0.630650222,1.03792907
0.047346872,-0.879196465,-0.51745075,1.040741703
0.047573412,-0.940806568,-0.393384963,1.039868728
0.047799952,-0.98292017,-0.261852026,1.034698544
0.048026492,-1.00454116,-0.126880109,1.025201504
0.048253032,-1.00594342,0.007373712,1.011976536
0.048479572,-0.988619387,0.137158319,0.996180697
0.048706112,-0.954986572,0.259533554,0.979357018
0.048932652,-0.908064008,0.372491032,0.963329812
0.049159192,-0.851824105,0.474956542,0.951188023
0.049385732,-0.7923069,0.570745885,0.953501089
0.049612272,-0.721066177,0.668732643,0.967139779
0.049838812,-0.633490443,0.756367862,0.973402484
0.050065352,-0.536171436,0.832290173,0.980186741
0.050291892,-0.429819316,0.897135556,0.98959685
0.050518432,-0.31446743,0.949688792,1.000798566
0.050744972,-0.190851033,0.987832069,1.012236313
0.050971512,-0.060747363,1.00921822,1.022211658
0.051198052,0.072997399,1.01186776,1.029204984
0.051424592,0.206708893,0.994685173,1.03212716
0.051651132,0.336341739,0.95779109,1.030489537
0.051877672,0.458022594,0.902594864,1.024462185
0.052104212,0.568526506,0.831645429,1.014856508
0.052330752,0.665626168,0.748478293,1.003277951
0.052557292,0.749010265,0.657861352,0.993797936
0.052783832,0.824256063,0.562655032,0.995978742
0.053010372,0.891176224,0.45408988,1.000392681
0.053236912,0.940239251,0.336354315,0.997184074
0.053463452,0.972965837,0.215349838,0.993038073
0.053689992,0.990841269,0.092545427,0.990331076
0.053916532,0.994124591,-0.031091778,0.989250401
0.054143072,0.982618093,-0.154333234,0.989357064
0.054369612,0.956078529,-0.275569826,0.990024883
0.054596152,0.914500475,-0.392852575,0.990644264
0.054822692,0.858310401,-0.504034519,0.990747541
0.055049232,0.788465261,-0.606977105,0.990098674
0.055275772,0.706446946,-0.699758172,0.988728787
0.055502312,0.614230812,-0.780854642,0.987013462
0.055728852,0.514353752,-0.849443555,0.986114135
0.055955392,0.409715086,-0.906740785,0.990045303
0.056181932,0.298339456,-0.956819355,1.004509709
0.056408472,0.1745684,-0.993386507,1.017290879
0.056635012,0.045288481,-1.01035786,1.022874052
0.056861552,-0.084816687,-1.00913942,1.025556239
0.057088092,-0.213555202,-0.990470648,1.026637929
0.057314632,-0.338652611,-0.954606593,1.025959338
0.057541172,-0.457523137,-0.902085006,1.023084779
0.057767712,-0.567501962,-0.834058225,1.0177116
0.057994252,-0.66617316,-0.75238055,1.009863171
0.058220792,-0.751678228,-0.65949434,0.999952943
0.058447332,-0.822925746,-0.558175266,0.988766411
0.058673872,-0.87964946,-0.451233238,0.977394608
0.058900416,-0.922371566,-0.341289222,0.967247639
0.059126956,-0.952567756,-0.230652303,0.960585815
0.059353496,-0.973530829,-0.120196283,0.962209421
0.059580036,-0.987151027,-0.005159772,0.974493773
0.059806576,-0.986258924,0.116124444,0.986191552
0.060033116,-0.968746543,0.237690538,0.994966656
0.060259656,-0.935981512,0.357089162,1.00357406
0.060486196,-0.888079941,0.472935587,1.012354051
0.060712736,-0.824781656,0.583230734,1.020422869
0.060939276,-0.746249735,0.685344338,1.026585529
0.061165816,-0.653478801,0.776351392,1.029756027
0.061392356,-0.548433423,0.853484392,1.029214827
0.061618896,-0.43394205,0.914576471,1.024755824
0.061845436,-0.313394219,0.958400607,1.01674766
0.062071976,-0.190343976,0.984835327,1.006131451
0.062298516,-0.068121962,0.994928896,0.99452411
0.062525056,0.050696723,0.99111414,0.984877396
0.062751596,0.166259706,0.977072299,0.982312567
0.062978136,0.282543212,0.95219481,0.986505623
0.063204676,0.397004753,0.911443114,0.988341324
0.063431216,0.504737496,0.856324136,0.988050966
0.063657756,0.60463202,0.789222896,0.988452659
0.063884296,0.696195424,0.711086035,0.990331418
0.064110836,0.778469205,0.622389555,0.993383061
0.064337376,0.850045741,0.523747325,0.996889022
0.064563916,0.909291983,0.416216493,1.000048079
0.064790456,0.954630017,0.301413178,1.002168373
0.065016996,0.984820127,0.181477889,1.002804907
0.065243536,0.9991889,0.058922764,1.00185035
0.065470076,0.99779284,-0.063594222,0.999634777
0.065696616,0.981582463,-0.183565587,0.997200456
0.065923156,0.952622712,-0.299369574,0.997112173
0.066149696,0.912858546,-0.412188321,1.003209937
0.066376236,0.859072685,-0.523616314,1.012179922
0.066602776,0.788397491,-0.628299117,1.016330384
0.066829316,0.703859985,-0.721860111,1.016500898
0.067055856,0.60831511,-0.803046107,1.014930323
0.0672824,0.503679335,-0.871032417,1.012390344
0.067508936,0.391742617,-0.924925685,1.008949801
0.06773548,0.274483144,-0.963934362,1.004510451
0.067962016,0.154092878,-0.98757875,0.999056403
0.06818856,0.032859273,-0.995831013,0.992759138
0.068415096,-0.087006584,-0.98916316,0.986013903
0.06864164,-0.203540534,-0.968513131,0.979446434
0.068868176,-0.315161079,-0.935218334,0.973959838
0.06909472,-0.420869023,-0.891017914,0.971043658
0.069321256,-0.5209589,-0.837896347,0.973468464
0.0695478,-0.617840946,-0.775897682,0.983744647
0.069774336,-0.711237133,-0.700693607,0.99682979
0.07000088,-0.795673788,-0.611251235,1.006724849
0.070227416,-0.868090272,-0.510379851,1.014068313
0.07045396,-0.927259624,-0.400175303,1.019950683
0.070680496,-0.971897364,-0.282321632,1.02428999
0.07090704,-1.00063312,-0.158838138,1.026496195
0.071133576,-1.01238763,-0.032274637,1.025970366
0.07136012,-1.00670636,0.094407044,1.022370385
0.071586656,-0.983961403,0.218118533,1.015755737
0.0718132,-0.94538027,0.335996509,1.006637509
0.072039736,-0.892920315,0.445723504,0.995976131
0.07226628,-0.829063118,0.545787871,0.985230054
0.072492816,-0.756571174,0.635803342,0.976645831
0.07271936,-0.677715182,0.717149973,0.973601952
0.072945896,-0.591685772,0.792252243,0.977755669
0.07317244,-0.495384395,0.859345019,0.98387956
0.073398976,-0.390078872,0.914413571,0.988313705
0.07362552,-0.278544188,0.956418633,0.992323466
0.073852056,-0.162306681,0.985184371,0.996931704
0.0740786,-0.042514719,1.00010967,1.002026853
0.074305136,0.079371087,1.00031149,1.006922847
0.07453168,0.201375663,0.985002697,1.010782471
0.074758216,0.321074337,0.953826666,1.012874039
0.07498476,0.435813844,0.90708822,1.012742745
0.075211296,0.543013334,0.845847428,1.010321352
0.07543784,0.640482187,0.771880865,1.006017502
0.075664376,0.726744235,0.687540174,1.000868674
0.07589092,0.801489055,0.59542042,0.996910182
0.076117456,0.865995288,0.497161508,0.997117404
0.076344,0.921082377,0.391410828,1.001595181
0.076570536,0.963363051,0.277205914,1.004911487
0.07679708,0.989938378,0.157906964,1.004912602
0.077023616,1.00095892,0.036866546,1.003277902
0.07725016,0.997121215,-0.08392781,1.001294595
0.077476696,0.978863299,-0.20293574,0.999356273
0.07770324,0.946525991,-0.31859538,0.997414468
0.077929776,0.900578439,-0.429240435,0.995288876
0.07815632,0.841766059,-0.533170164,0.992840522
0.078382856,0.77117157,-0.628779054,0.990068689
0.0786094,0.690202415,-0.714698374,0.987173139
0.078835936,0.600531042,-0.789936364,0.984636992
0.07906248,0.503980279,-0.854068577,0.983429256
0.079289016,0.402142048,-0.907553673,0.985371896
0.07951556,0.295102715,-0.951583862,0.992597459
0.079742096,0.180824071,-0.985263884,1.003442266
0.07996864,0.05977618,-1.00437307,1.012338455
0.080195176,-0.064118683,-1.00671351,1.017583297
0.08042172,-0.187568069,-0.992502153,1.020242304
0.080648256,-0.308207303,-0.962285221,1.020984588
0.0808748,-0.423834532,-0.916643918,1.019871783
0.081101336,-0.532218337,-0.856453896,1.016769634
0.08132788,-0.63122648,-0.783065498,1.011638443
0.081554416,-0.719044685,-0.698317885,1.004673128
0.08178096,-0.794378698,-0.604423404,0.996365167
0.082007496,-0.856583595,-0.503767371,0.987517019
0.08223404,-0.905719459,-0.398676574,0.979270749
0.082460576,-0.942602932,-0.291145414,0.97326594
0.08268712,-0.968824863,-0.182257563,0.971839434
0.082913656,-0.9857952,-0.071079694,0.976844499
0.0831402,-0.991903245,0.044287652,0.985833444
0.083366736,-0.983756185,0.162387922,0.994146069
0.08359328,-0.960483313,0.279887795,1.000865372
0.083819816,-0.922566235,0.394487172,1.006748587
0.08404636,-0.870363712,0.504408181,1.011960604
0.084272904,-0.804208755,0.607712328,1.016065995
0.08449944,-0.724788427,0.702219844,1.018430973
0.084725984,-0.633376122,0.785713494,1.018511007
0.08495252,-0.531883955,0.856235266,1.016039372
0.085179064,-0.422749192,0.912367404,1.011131159
0.0854056,-0.308702886,0.953442752,1.004350553
0.085632144,-0.192457825,0.979667187,0.996787812
0.08585868,-0.076276094,0.992176235,0.990231724
0.086085224,0.038810369,0.992800593,0.987159262
0.08631176,0.153686345,0.982498825,0.988923434
0.086538304,0.268809468,0.959352553,0.992615851
0.08676484,0.381409913,0.921583772,0.994790171
0.086991384,0.488482326,0.870045602,0.995594332
0.08721792,0.588448107,0.806179821,0.996197078
0.087444464,0.68023777,0.731011629,0.997101425
0.087671,0.762701452,0.645371497,0.998217874
0.087897544,0.834531307,0.550218284,0.999182662
0.08812408,0.894392967,0.446830153,0.999595965
0.088350624,0.941116691,0.336857915,0.999173881
0.08857716,0.973885775,0.222270831,0.997857825
0.088803704,0.992392004,0.105214633,0.995912009
0.08903024,0.996955872,-0.012219495,0.994070327
0.089256784,0.988563776,-0.128410205,0.99374752
0.08948332,0.968414426,-0.242923155,0.99683816
0.089709864,0.936165273,-0.356445909,1.003459104
0.0899364,0.889401317,-0.467819482,1.00988977
0.090162944,0.827403903,-0.573203325,1.01315927
0.09038948,0.751914561,-0.669500053,1.013605828
0.090616024,0.664991856,-0.755036533,1.012294335
0.09084256,0.56842649,-0.828663826,1.009792411
0.091069104,0.463962108,-0.889399588,1.006292465
0.09129564,0.353463322,-0.936450124,1.001875155
0.091522184,0.238930568,-0.969326138,0.996680978
0.09174872,0.122416064,-0.987934411,0.991000093
0.091975264,0.005889604,-0.992612898,0.985315053
0.0922018,-0.108912058,-0.984122276,0.98035849
0.092428344,-0.220674425,-0.96359992,0.977222008
0.09265488,-0.328845501,-0.932401061,0.977511102
0.092881424,-0.434034169,-0.891320348,0.982837623
0.09310796,-0.537007511,-0.839050531,0.99238286
