Unnamed: 0,Frequency (GHz),Re( S21 ),Im( S21 ),S2
0,0.0,0.0381122194,0.0,0.0014525412675937
1,0.000226449406,0.0340457521,-0.016513506,0.0014318091164666
2,0.000452898813,0.0231596138,-0.0289827641,0.0013763683262413
3,0.000679348188,0.00859108474,-0.03505015,0.0013023197520323
4,0.000905797625,-0.00628917711,-0.0344599597,0.0012270425712465
5,0.001132247,-0.0189594626,-0.0283587147,0.0011636779215167
6,0.00135869638,-0.0279531796,-0.018405607,0.0011201466187883
7,0.00158514588,-0.0325854421,-0.00624075532,0.0011007580638165
8,0.00181159525,-0.0326095335,0.00667346036,0.0011079167482641
9,0.00203804463,-0.0279763788,0.0189568345,0.0011420393450214
10,0.002264494,-0.0188471805,0.0290949922,0.0012017347839176
11,0.0024909435,-0.00584669784,0.0353435911,0.0012833533074762
12,0.00271739275,0.00955024641,0.0358790457,0.0013785131268344
13,0.00294384225,0.0246698838,0.0293813366,0.001471866107108
14,0.00317029175,0.0358298197,0.016054526,0.0015415237848191
15,0.003396741,0.0395284891,-0.00116799481,0.001563865662405
16,0.0036231905,0.0347007476,-0.0184666198,0.0015451579308366
17,0.00384963975,0.0227637533,-0.0309975855,0.001479038771133
18,0.00407608925,0.00736327376,-0.0365686491,0.0013914838974636
19,0.0043025385,-0.00791396946,-0.0352318138,0.0013039116162516
20,0.004528988,-0.0205816831,-0.0284248292,0.0012315765942779
21,0.0047554375,-0.0293344576,-0.0179630928,0.0011831831056276
22,0.004981887,-0.0336619206,-0.00551547343,0.0011635453456377
23,0.0052083365,-0.0334724411,0.0075342264,0.0011771688806394
24,0.0054347855,-0.0287466832,0.0199870486,0.0012258539067399
25,0.005661235,-0.0195374805,0.030466035,0.0013098924329091
26,0.0058876845,-0.00624583336,0.0372876078,0.0014293761298075
27,0.006114134,0.00998073816,0.0384748094,0.0015799260925848
28,0.0063405835,0.0267026275,0.032156717,0.0017470847636218
29,0.0065670325,0.038682878,0.0179363601,0.0018180780639997
30,0.006793482,0.0442158915,-0.00164339924,0.0019577458222018
31,0.0070199315,0.0388467871,-0.0217029098,0.0019800891617796
32,0.007246381,0.0245599933,-0.0361902155,0.0019129249688324
33,0.0074728305,0.00617397437,-0.0418795049,0.0017920108901905
34,0.0076992795,-0.0114327678,-0.039064955,0.0016567788887207
35,0.007925729,-0.0251770243,-0.0300426446,0.0015364430471646
36,0.0081521785,-0.0338118598,-0.0174193177,0.0014466744922683
37,0.008378628,-0.0371857733,-0.00333091826,0.0013938767523737
38,0.008605077,-0.0355896987,0.0106133251,0.001379269323235
39,0.008831527,-0.0296254866,0.0231763497,0.0014148126417034
40,0.009057976,-0.0195032042,0.0334673636,0.0015004394004015
41,0.009284425,-0.00568927266,0.040063452,0.0016374480095561
42,0.009510875,0.0108001679,0.0414174534,0.0018320490728093
43,0.009737324,0.0278443769,0.0353600085,0.0020256395260693
44,0.009963774,0.0429107323,0.0212478098,0.0022928003678192
45,0.010190223,0.0506949984,6.25649554e-05,0.0025699867771496
46,0.010416673,0.0469581075,-0.0238869544,0.0027756504504892
47,0.010643122,0.0311538689,-0.0434144922,0.0028553816804222
48,0.010869571,0.00791942701,-0.0523314103,0.0028012938281536
49,0.011096021,-0.0155771766,-0.0491157584,0.0026550061540347
50,0.01132247,-0.0337474383,-0.0365768597,0.0024767562573257
51,0.01154892,-0.0441881642,-0.019017091,0.0023142436054684
52,0.011775369,-0.0468422174,-0.000136040515,0.0021942118379705
53,0.012001818,-0.0426842049,0.0175026096,0.0021282826907551
54,0.012228268,-0.0329279117,0.0321903676,0.0021204671351461
55,0.012454717,-0.0188609026,0.0425960012,0.002170152965117
56,0.012681167,-0.00166278915,0.0479735434,0.002304225734109
57,0.012907616,0.0173633453,0.0469450913,0.0025053273571723
58,0.013134065,0.0360738002,0.0384215713,0.0027775362020305
59,0.013360515,0.0514271818,0.0219216198,0.003125312442546
60,0.013586964,0.0592113845,-0.00130782544,0.0035076984617883
61,0.013813414,0.0559664778,-0.0281167831,0.0039228001292303
62,0.014039863,0.0395632088,-0.0521152243,0.0042812440943917
63,0.014266312,0.0124977436,-0.0660651624,0.0045207992780297
64,0.014492762,-0.0183894355,-0.0653980225,0.0046150726849191
65,0.014719211,-0.045026619,-0.0506120995,0.004588981034369
66,0.014945661,-0.0617177002,-0.0263067,0.004501116982867
67,0.01517211,-0.0664166138,0.00165302621,0.0044138990843092
68,0.015398559,-0.0598189868,0.0282410365,0.0043758673243729
69,0.015625009,-0.0439634994,0.0498689115,0.0044196976136886
70,0.015851458,-0.0213541724,0.0641198605,0.0045673571894283
71,0.016077908,0.00530217029,0.0693468526,0.0048370989753102
72,0.016304357,0.0330900773,0.0644544587,0.0052493304620299
73,0.016530806,0.0585617237,0.0487881415,0.0058097582337391
74,0.016757256,0.07744468,0.0228036493,0.0065176848816997
75,0.016983706,0.0850409567,-0.0111110704,0.007355420201885
76,0.017210154,0.0773000121,-0.0479533933,0.0082748197996446
77,0.017436604,0.0526714101,-0.0801717713,0.0092017903553018
78,0.017663054,0.0139537854,-0.0992942005,0.0100540463799234
79,0.017889502,-0.0313467532,-0.0989585444,0.0107754124459484
80,0.018115952,-0.0730704963,-0.0776594356,0.0113702853672388
81,0.018342402,-0.101845369,-0.0392926,0.0119163876015061
82,0.01856885,-0.111705869,0.00864606444,0.0125529555993457
83,0.0187953,-0.100723341,0.0575930662,0.0134621526965198
84,0.01902175,-0.0702064037,0.0996630713,0.0148616669014362
85,0.0192482,-0.0236326233,0.128278941,0.0170139875881211
86,0.019474648,0.033995267,0.138177559,0.0202487159895997
87,0.019701098,0.0963099003,0.125358313,0.0249903035340019
88,0.019927548,0.155355692,0.0872721747,0.0317518235136661
89,0.020153996,0.201347768,0.0238268562,0.0411086427549573
90,0.020380446,0.22342889,-0.0610930771,0.0536528329561786
91,0.020606896,0.211600929,-0.158442497,0.069878978009258
92,0.020833346,0.159700647,-0.254056662,0.0900490841588008
93,0.021059794,0.0683912188,-0.33081159,0.1141136668872775
94,0.021286244,-0.0535794497,-0.372683704,0.1417639006573144
95,0.021512694,-0.190993488,-0.368973136,0.1726196875480806
96,0.021739142,-0.325964749,-0.316560954,0.2064638551880231
97,0.021965592,-0.441848308,-0.219423816,0.2433767383104647
98,0.022192042,-0.525674164,-0.0869370773,0.283891382106565
99,0.02241849,-0.570076644,0.0705966949,0.3299712733651064
100,0.02264494,-0.568607688,0.242134184,0.3819436659140511
101,0.02287139,-0.517879844,0.415476024,0.4408198593403128
102,0.02309784,-0.41672039,0.57772696,0.5074243237525937
103,0.023324288,-0.2666215,0.714804351,0.5820322844707811
104,0.023550738,-0.0729526952,0.811535597,0.6639121209350904
105,0.023777188,0.153492406,0.852866709,0.7509415420201595
106,0.024003636,0.395488441,0.826462805,0.8394518750130785
107,0.024230086,0.630064666,0.726317763,0.9245189761910156
108,0.024456536,0.831672728,0.556008875,1.0008253955777275
109,0.024682984,0.977364659,0.329698354,1.0639426812924957
110,0.024909434,1.051983,0.0697274357,1.1115301475782975
111,0.025135884,1.05097044,-0.198423192,1.1439106288772625
112,0.025362334,0.979664087,-0.451460093,1.1635579389291122
113,0.025588782,0.849975646,-0.671719432,1.1736655941195198
114,0.025815232,0.676471293,-0.847831368,1.1764314388178434
115,0.026041682,0.472848207,-0.97387296,1.1720139690822764
116,0.02626813,0.25146839,-1.04899335,1.1636233995134144
117,0.02649458,0.0242812261,-1.07421708,1.1545319129046456
118,0.02672103,-0.198298573,-1.05130875,1.1445724118803988
119,0.026947478,-0.406836301,-0.983334482,1.132462479301571
120,0.027173928,-0.592455149,-0.875018299,1.1166601271614658
121,0.027400378,-0.747173965,-0.733168721,1.095805307426597
122,0.027626828,-0.86485064,-0.566791296,1.0692190027297692
123,0.027853276,-0.942325175,-0.386466384,1.0373330014008162
124,0.028079726,-0.980136454,-0.202917799,1.0018431016106986
125,0.028306176,-0.982283175,-0.0251502059,0.965512768744893
126,0.028532624,-0.955864191,0.141437635,0.9336809562304776
127,0.028759074,-0.908385754,0.291908652,0.9103753391826056
128,0.028985524,-0.84477669,0.426959485,0.8959420577988214
129,0.029211972,-0.770084977,0.546792209,0.8920125916241902
130,0.029438422,-0.680784523,0.651449978,0.887854640592538
131,0.029664872,-0.577519357,0.748756349,0.8941646778775032
132,0.029891322,-0.461769015,0.836393833,0.9127852670945024
133,0.03011777,-0.331468523,0.911197722,0.9401526703177908
134,0.03034422,-0.18563962,0.968830585,0.9730947709451866
135,0.03057067,-0.02541738,1.00371885,1.008097573051387
136,0.030797118,0.145286202,1.01005721,1.041323647964569
137,0.031023568,0.319707274,0.983272195,1.069036950508629
138,0.031250018,0.489001274,0.92144841,1.088189418265151
139,0.031476466,0.643736005,0.826146007,1.096913269015404
140,0.031702916,0.77549541,0.702218771,1.0945043332758184
141,0.031929366,0.877886891,0.557351172,1.0813257223194193
142,0.032155816,0.96212852,0.398528844,1.0845165284973668
143,0.032382264,1.00981724,0.236495093,1.0756607872142965
144,0.032608714,1.03559017,0.0835057572,1.0794202116861744
145,0.032835164,1.01398706,-0.0672396719,1.0326909313246635
146,0.033061612,0.980490863,-0.218745232,1.0092118089492186
147,0.033288062,0.929401636,-0.359752864,0.9932095241556792
148,0.033514512,0.861383379,-0.489704996,0.9817923087248176
149,0.03374096,0.777704656,-0.607637763,0.9740481829877226
150,0.033967412,0.679616988,-0.712233841,0.9691562946438056
151,0.03419386,0.568557441,-0.801864028,0.9662434831168532
152,0.034420308,0.44639051,-0.874773562,0.964493272192228
153,0.03464676,0.315507114,-0.929370582,0.9632744176716278
154,0.034873208,0.178738385,-0.964489758,0.9621879035593068
155,0.035099656,0.0392059349,-0.979535043,0.961026005796395
156,0.035326108,-0.0998416618,-0.974640191,0.959891859343502
157,0.035552556,-0.251159728,-0.960442543,0.9855310873733408
158,0.035779004,-0.390067518,-0.923060596,1.0041935324865556
159,0.036005456,-0.470386207,-0.89792347,1.0275297417126876
160,0.036231904,-0.617087483,-0.797015011,1.0160298894346056
161,0.036458352,-0.730310619,-0.701439083,1.025370387384044
162,0.036684804,-0.829725266,-0.59079057,1.0374775146396955
163,0.036911252,-0.912828803,-0.464912295,1.04939986562858
164,0.0371377,-0.976195276,-0.325614929,1.0589822988723911
165,0.037364152,-1.01648009,-0.176261812,1.0642999997359317
166,0.0375906,-1.03119874,-0.0216307547,1.0638387309264792
167,0.037817052,-1.01941836,0.132532299,1.0567786029833148
168,0.0380435,-0.982162058,0.280290604,1.0432051308654802
169,0.038269948,-0.922342658,0.416413069,1.0241158228005038
170,0.0384964,-0.844263196,0.537091911,1.0012480649817663
171,0.038722848,-0.752855301,0.640309274,0.9767870706142076
172,0.038949296,-0.652845323,0.725538909,0.9526137242358844
173,0.039175748,-0.549709737,0.791825175,0.92916790271639
174,0.039402196,-0.459772289,0.859165549,0.9495559983207708
175,0.039628644,-0.33613947,0.91655159,0.953056560423409
176,0.039855096,-0.213583276,0.953210652,0.9542283628731572
177,0.040081544,-0.0882608518,0.976740479,0.961811941277611
178,0.040307992,0.0410026312,0.986275613,0.9744208005638488
179,0.040534444,0.173767343,0.979746044,0.9900974002269296
180,0.040760892,0.308146268,0.954795718,1.006588985593463
181,0.04098734,0.440856516,0.909523845,1.0215880923232423
182,0.041213792,0.567549527,0.843166947,1.0330429661112246
183,0.04144024,0.683438182,0.756551087,1.0394572958563466
184,0.041666692,0.784063756,0.652177215,1.040091093237984
185,0.04189314,0.865986526,0.533931613,1.0350156305743303
186,0.042119588,0.927197754,0.406549752,1.024978375873906
187,0.04234604,0.967098653,0.275311917,1.0110764562766292
188,0.042572488,0.987838745,0.147964597,0.9977189080885476
189,0.042798936,1.00725985,0.0191066936,1.014937471162347
190,0.043025388,0.998833776,-0.121810198,1.0125066364152175
191,0.043251836,0.969426274,-0.254015267,1.0043110565906044
192,0.043478284,0.924296796,-0.378718823,0.997752513990371
193,0.043704736,0.864589334,-0.495587945,0.9931221276958866
194,0.043931184,0.791055739,-0.603499472,0.9899807949091148
195,0.044157632,0.704561174,-0.700939,0.9877219296292582
196,0.044384084,0.606313229,-0.786213875,0.985747988902922
197,0.044610532,0.497974247,-0.857685626,0.9836029837222288
198,0.04483698,0.381638795,-0.914004624,0.9810526225424336
199,0.045063432,0.259706944,-0.954289258,0.9781156846960096
200,0.04528988,0.134708598,-0.978204131,0.9750297282805908
201,0.045516328,0.0092119202,-0.985951662,0.9721855392743332
202,0.04574278,-0.113888018,-0.978505194,0.970442895328946
203,0.045969228,-0.231764212,-0.960941255,0.977122745524956
204,0.04619568,-0.357718349,-0.935991943,1.004043334572201
205,0.046422128,-0.483699769,-0.884683549,1.0166304484018889
206,0.046648576,-0.599696338,-0.815306544,1.0243604584998345
207,0.046875028,-0.705510736,-0.730404675,1.0312363878731172
208,0.047101476,-0.799254417,-0.630803823,1.0367210862054252
209,0.047327924,-0.878306329,-0.51793313,1.039676734713053
210,0.047554376,-0.940039575,-0.394186765,1.039057608267346
211,0.047780824,-0.982394218,-0.262902677,1.0342162171335978
212,0.048007272,-1.00432813,-0.128065154,1.0250756763783406
213,0.048233724,-1.00605845,0.00618403312,1.012191847082032
214,0.048460172,-0.989022732,0.136084571,0.996684974876998
215,0.04868662,-0.955595076,0.258672565,0.9800734451591252
216,0.048913072,-0.908747971,0.37192136,0.9641483728208664
217,0.04913952,-0.852295697,0.474714458,0.9517617717589496
218,0.049365968,-0.792181194,0.570095599,0.9525600361264344
219,0.04959242,-0.721712649,0.667659938,0.966638940536761
220,0.049818868,-0.634374499,0.755666673,0.97346312566439
221,0.050045316,-0.537068546,0.831754267,0.9802577837752614
222,0.050271768,-0.430749655,0.896677971,0.989576648959296
223,0.050498216,-0.315466702,0.949299753,1.0006892611166178
224,0.050724668,-0.191937923,0.987533927,1.0120634232615953
225,0.050951116,-0.0619193316,1.00904405,1.0220038984661932
226,0.051177564,0.0717619732,1.01184607,1.0289822501720025
227,0.051404016,0.205442131,0.994832754,1.0318986776210457
228,0.051630464,0.335079074,0.958110213,1.0302531660876029
229,0.051856912,0.456798732,0.903076649,1.024212515525877
230,0.052083364,0.567378461,0.832263768,1.0145812975322863
231,0.052309812,0.664588332,0.749154389,1.0029099495885054
232,0.05253626,0.747961283,0.65837425,0.9929027339300688
233,0.052762712,0.822507858,0.563338101,0.9938689925100344
234,0.05298916,0.889580548,0.455778092,0.9990872205271408
235,0.053215608,0.939194322,0.338386416,0.9965913410103648
236,0.05344206,0.97235769,0.2175349,0.9928009100201464
237,0.053668508,0.990655839,0.0948108956,0.990388097269268
238,0.053894956,0.994368434,-0.0288371965,0.989600166437592
239,0.054121408,0.983271003,-0.152196273,0.9899855708557166
240,0.054347856,0.957081437,-0.273650795,0.9908896346541172
241,0.054574304,0.915758312,-0.391223133,0.9916688257914252
242,0.054800756,0.859710097,-0.502722859,0.9918317238448834
243,0.055027204,0.789895713,-0.605964899,0.9911286962358586
244,0.055253656,0.707817078,-0.698988855,0.9895904353226692
245,0.055480104,0.615469754,-0.780248523,0.987590775732502
246,0.055706552,0.515378892,-0.848880529,0.9862135548344676
247,0.055933004,0.410482854,-0.905860305,0.9890790656026784
248,0.056159452,0.299635828,-0.955295563,1.0023712421087323
249,0.0563859,0.176643401,-0.992188215,1.015640345101733
250,0.056612352,0.0476554595,-1.00959945,1.021562092260459
251,0.0568388,-0.0822320431,-1.008775,1.0243891095374005
252,0.057065248,-0.210800573,-0.990565121,1.025656140518873
253,0.0572917,-0.335837394,-0.95523721,1.0252648825772952
254,0.057518148,-0.454802603,-0.903282344,1.02276440067771
255,0.057744596,-0.565044343,-0.835786581,1.0178143185359712
256,0.057971048,-0.664122045,-0.75453651,1.0103834355779622
257,0.058197496,-0.750125647,-0.661926389,1.0008350307417475
258,0.058423944,-0.821896315,-0.56071043,0.9899097389213642
259,0.058650396,-0.879101694,-0.453703314,0.9786664855282524
260,0.058876844,-0.922197938,-0.34354195,0.9684701082612543
261,0.059103296,-0.952551126,-0.232561275,0.9614383942734936
262,0.059329744,-0.97323072,-0.121892892,0.962035911471842
263,0.059556192,-0.986690581,-0.00738528371,0.9736128450495948
264,0.059782644,-0.986307859,0.113612719,0.9857110426437368
265,0.060009092,-0.969166636,0.235214293,0.9946097319670464
266,0.06023554,-0.936677694,0.354634225,1.0031305359785083
267,0.060461992,-0.889076948,0.470484048,1.011813058887461
268,0.06068844,-0.826132894,0.580818951,1.0198462123895558
269,0.060914888,-0.747990847,0.683052897,1.02605156729587
270,0.06114134,-0.655604661,0.774282753,1.029331253118184
271,0.061367788,-0.550895751,0.851737797,1.0289434033082672
272,0.061594236,-0.43665427,0.913227856,1.0246520684835896
273,0.061820688,-0.31624642,0.95748812,1.016795298103951
274,0.062047136,-0.193214118,0.984351158,1.0062788976504589
275,0.062273584,-0.070887588,0.99480015,0.9946523885724804
276,0.062500036,0.0481006391,0.991137743,0.9846676970809626
277,0.062726484,0.163522974,0.976997018,0.9812629362066972
278,0.062952932,0.279269755,0.952549219,0.98534161067527
279,0.063179384,0.393753767,0.912581027,0.987846159867065
280,0.063405832,0.501780331,0.857994258,0.98793764733944
281,0.063632284,0.601991296,0.791279674,0.9885170429453058
282,0.063858732,0.693886638,0.713464081,0.9905096612721176
283,0.06408518,0.776522279,0.625033438,0.9936536484014538
284,0.064311632,0.848490238,0.526592672,0.9972355261853963
285,0.06453808,0.908142328,0.419187903,1.000440985926797
286,0.064764528,0.953877687,0.304433048,1.0025621224710402
287,0.06499098,0.984433234,0.184477821,1.003140858644607
288,0.065217428,0.999118209,0.0618495941,1.0020625678457025
289,0.065443876,0.997970402,-0.0607777424,0.9996388572392824
290,0.065670328,0.981901109,-0.180871487,0.9968442826650212
291,0.065896776,0.952902377,-0.296686769,0.9960459789919096
292,0.066123224,0.913138092,-0.409057379,1.00114911437575
293,0.066349676,0.860065758,-0.519993722,1.0101065790035275
294,0.066576124,0.790237308,-0.624791205,1.014839052800439
295,0.066802572,0.706329286,-0.718682051,1.0154049506908365
296,0.067029024,0.611307979,-0.800275743,1.0141387100232666
297,0.067255472,0.507115126,-0.868761897,1.0119129846970345
298,0.06748192,0.395509869,-0.923247457,1.008813923333364
299,0.067708368,0.278433651,-0.962908804,1.0047186628299003
300,0.067934824,0.158060089,-0.987211943,0.9995704121365232
301,0.068161272,0.0366853438,-0.996067941,0.9934971575377036
302,0.06838772,-0.0834456906,-0.98989737,0.9868599864126278
303,0.068614168,-0.200317636,-0.969602048,0.9802552867784228
304,0.068840616,-0.312290907,-0.936497569,0.9745533073377924
305,0.069067064,-0.418283761,-0.892296791,0.9711548679452028
306,0.06929352,-0.518387973,-0.839004397,0.9726544687363822
307,0.069519968,-0.614824474,-0.777101696,0.9818961797554532
308,0.069746416,-0.707991123,-0.702599585,0.9948976070889732
309,0.069972864,-0.792650104,-0.613802731,1.0050479799542693
310,0.070199312,-0.865379274,-0.51342243,1.0124838794958722
311,0.070425768,-0.924912393,-0.403675675,1.0184169853116922
312,0.070652216,-0.970014572,-0.286254346,1.0228698204962308
313,0.070878664,-0.99933666,-0.16312921,1.0252848991751795
314,0.071105112,-1.01177752,-0.0367932916,1.0250474962841132
315,0.07133156,-1.00683343,0.0898302421,1.0217830281613094
316,0.071558008,-0.98480916,0.213665336,1.0155019574278985
317,0.071784464,-0.946867049,0.331829727,1.0066681762028629
318,0.072010912,-0.89490819,0.441963375,0.9961922933704668
319,0.07223736,-0.831368923,0.542486548,0.985465940891136
320,0.072463808,-0.758980811,0.632892311,0.9766045487891384
321,0.072690256,-0.680128634,0.71433574,0.9728505082280536
322,0.072916704,-0.594487011,0.789299905,0.9764091462807232
323,0.07314316,-0.49886778,0.856685877,0.9827797537733876
324,0.073369608,-0.393971682,0.912333786,0.987566623295003
325,0.073596056,-0.282650203,0.954889059,0.9917042522538466
326,0.073822504,-0.166561022,0.984168589,0.9963303856239356
327,0.074048952,-0.0468758866,0.999614477,1.0014264513725195
328,0.0742754,0.0749615803,1.00036144,1.006342249159947
329,0.074501856,0.197000206,0.985613942,1.0102439238288217
330,0.074728304,0.316828161,0.954989195,1.0123844461693898
331,0.074954752,0.431790739,0.908760011,1.0122879998788863
332,0.0751812,0.539289474,0.847955048,1.009860900195879
