Frequency (GHz),Re( S21 ),Im( S21 ),S2
0.0,0.0382038467,0.0,0.001459533902677101
0.000226377547,0.034130726,-0.0165484846,0.0014387587998435133
0.000452755094,0.0232247263,-0.0290483031,0.0013831918246993815
0.000679132625,0.00862559304,-0.0351362117,0.0013089542279189135
0.000905510188,-0.00629124278,-0.0345525779,0.0012334603752524706
0.00113188775,-0.0189971235,-0.0284428913,0.0011698887667778678
0.00135826525,-0.0280200709,-0.0184681788,0.001126198001429796
0.00158464275,-0.032670591,-0.00627285242,0.0011067161937723807
0.00181102038,-0.0327001326,0.0066759414,0.0011138668656338166
0.00203739788,-0.0280591752,0.0189932138,0.0011480594833568054
0.0022637755,-0.0189104509,0.029159829,0.001207900780550552
0.002490153,-0.00588137051,0.0354275852,0.0012897043121791567
0.0027165305,0.0095489705,0.0359708816,0.0013850871606910886
0.002942908,0.0247029494,0.0294686891,0.0014786393463314192
0.0031692855,0.0358944833,0.016125774,0.001548454518473055
0.003395663,0.0396179222,-0.0011227607,0.0015708403510347176
0.00362204075,0.0348045975,-0.0184643082,0.0015522906844415935
0.00384841825,0.0228614025,-0.0310390666,0.0014860673796662418
0.00407479575,0.00743571157,-0.0366474874,0.0013983281392853906
0.0043011735,-0.00788017549,-0.0353327021,0.0013104970034405411
0.004527551,-0.0205907598,-0.0285294242,0.0012379074343248418
0.0047539285,-0.0293826405,-0.0180545021,0.0011893046088311448
0.004980306,-0.0337398946,-0.00558097893,0.0011695278134362132
0.0052066835,-0.0335682221,0.00750247994,0.001183112740205031
0.005433061,-0.0288474895,0.0199920107,0.0012318581422815248
0.0056594385,-0.0196309686,0.0305070635,0.0013160558515672182
0.005885816,-0.00632031821,0.0373609178,0.0014357846011340144
0.0061121935,0.00993532594,0.0385732986,0.0015866100664187989
0.006338571,0.0266942251,0.0322715417,0.001754034057384309
0.0065649485,0.0387163013,0.0180451162,0.001824578205023884
0.006791326,0.0443049148,-0.00154541654,0.001965313787717364
0.007017704,0.0389782786,-0.0216522869,0.0019881277306191296
0.0072440815,0.0247039124,-0.0362041667,0.0019210249743082625
0.007470459,0.00629643118,-0.0419553109,0.001799893158320135
0.0076968365,-0.0113561694,-0.0391829535,0.0016642664284246586
0.007923214,-0.0251557585,-0.030176796,0.0015434512025359383
0.0081495915,-0.0338429697,-0.0175467711,0.0014532357741509135
0.008375969,-0.0372594073,-0.00343491742,0.0014000620900295126
0.008602347,-0.0356938504,0.0105435671,0.0013852177635697825
0.008828724,-0.0297462344,0.0231459737,0.001420574559500835
0.009055102,-0.0196296908,0.0334796011,0.0015062084507187256
0.009281479,-0.00580859417,0.0401197299,0.001643332493480712
0.009507857,0.0107053919,0.0415183268,0.0018383768760041835
0.009734234,0.0277707223,0.0355096385,0.0020321474434643995
0.009960612,0.042900905,0.0214210432,0.0022993487415952914
0.010186989,0.0507660881,0.000239666115,0.002577253140823641
0.010413367,0.0471155345,-0.0237491447,0.002783895465202228
0.010639744,0.0313703045,-0.0433638319,0.002864517921474178
0.010866122,0.00813823659,-0.0523899719,0.002810940050477604
0.0110925,-0.0154119665,-0.0492656529,0.0026646332670604003
0.011318877,-0.0336664394,-0.0367762446,0.002485921308752901
0.011545255,-0.0441949293,-0.0192230884,0.002322718903466213
0.011771632,-0.0469239987,-0.000316863618,0.002201962056550014
0.01199801,-0.04282251,0.0173671693,0.0021353859321949623
0.012224387,-0.0331035852,0.0321123675,0.0021270514995487154
0.012450765,-0.0190534499,0.0425809324,0.00217616975714518
0.012677142,-0.0018575124,0.0480272025,0.0023100625322921594
0.01290352,0.0171881542,0.0470705889,0.002511072984195781
0.013129897,0.0359438173,0.0386170745,0.0027832364450343294
0.013356275,0.0513740703,0.022174146,0.003130987850018658
0.013582652,0.0594821535,-0.00125410862,0.0035396993734283207
0.01380903,0.0562496558,-0.0281769671,0.003957965252572956
0.014035408,0.0398605056,-0.0519394316,0.00428656446161871
0.014261785,0.0128611308,-0.0660448521,0.004527331174365582
0.014488163,-0.0180493537,-0.0655503124,0.004622622624725298
0.01471454,-0.0447899289,-0.0509000346,0.0045969512531482525
0.014940918,-0.0616272353,-0.0266634934,0.00450885801101341
0.015167295,-0.0664772242,0.00129549974,0.004420899656913406
0.015393673,-0.0600115843,0.0279366169,0.004381844814013372
0.01562005,-0.0442575179,0.0496566892,0.004424514672974217
0.015846428,-0.0217136499,0.0640270412,0.004570944596806267
0.016072805,0.00491773104,0.06939172,0.004839394883140179
0.016299183,0.0327266343,0.0646481141,0.005250411249292555
0.01652556,0.0582757667,0.0491290614,0.005809729658517799
0.016751938,0.077300407,0.0232670698,0.006516709459443721
0.016978316,0.085099794,-0.0105830841,0.007353976607910109
0.017204694,0.0775990337,-0.0474560186,0.008273683732537281
0.01743107,0.0531958528,-0.0798244625,0.009201743568533174
0.017657448,0.0146203358,-0.0992057174,0.010055528583753425
0.017883826,-0.0306745116,-0.09918309,0.010778211003846634
0.018110204,-0.072541289,-0.0781733841,0.011373316591427655
0.01833658,-0.101573877,-0.0400058329,0.011917719154833854
0.018562958,-0.111751646,0.00785699114,0.012550162693483352
0.018789336,-0.101093516,0.0568555482,0.013452452338364779
0.019015714,-0.0708681718,0.0990934148,0.014841802630999174
0.01924209,-0.0245222915,0.127978876,0.016979935482634347
0.019468468,0.0329697207,0.138232827,0.020195316943447936
0.019694846,0.0952720046,0.125834763,0.024911142439768587
0.019921224,0.154467016,0.088201575,0.03163957686442488
0.020147602,0.200801998,0.0251787379,0.04095541124302891
0.020373978,0.223424613,-0.0594377145,0.05345139959918328
0.020600356,0.212293968,-0.156703815,0.06962481448473924
0.020826734,0.161144376,-0.252535403,0.08974163968480178
0.021053112,0.0704946145,-0.329828113,0.11375607479864436
0.021279488,-0.0510485508,-0.372497231,0.14136014164144753
0.021505866,-0.188355029,-0.369720221,0.1721706587658797
0.021732244,-0.323554337,-0.318241388,0.20596499002767613
0.021958622,-0.439962208,-0.221925467,0.24281765737140334
0.022185,-0.524524868,-0.0900685117,0.2832386739502704
0.022411376,-0.56984508,0.0670223236,0.32921540706094954
0.022637754,-0.569428265,0.238364652,0.3810662563039913
0.022864132,-0.519839764,0.411790997,0.4398052054458297
0.02309051,-0.419849366,0.574449241,0.5062654206160782
0.023316886,-0.270862609,0.712300718,0.5807388658176025
0.023543264,-0.0781251118,0.810194373,0.6625184551346256
0.023769642,0.147727683,0.85304451,0.7495084043656887
0.02399602,0.389629602,0.828402996,0.8380627505364544
0.024222396,0.624717712,0.7300632,0.923264495680755
0.024448774,0.827445686,0.56135112,0.999781443205265
0.024675152,0.974737942,0.336198628,1.0631435730434777
0.02490153,1.05121815,0.0768110901,1.1109595424517729
0.025127908,1.0520891,-0.19134447,1.1435041805383912
0.025354284,0.982503474,-0.444892347,1.1632422768412372
0.025580662,0.85426724,-0.666047335,1.1733915697978199
0.02580704,0.681919813,-0.843334734,1.1762281049328058
0.026033418,0.479187667,-0.970716119,1.171910603891325
0.026259794,0.258384913,-1.04725277,1.1635011275386904
0.026486172,0.0314498134,-1.07396841,1.154397236440823
0.02671255,-0.191198602,-1.05258393,1.1444898351009993
0.026938928,-0.400138736,-0.986097693,1.1324996681876
0.027165304,-0.586494207,-0.87914753,1.1168758343496599
0.027391682,-0.742251813,-0.738443732,1.0962368992318747
0.02761806,-0.861191928,-0.572903335,1.0698697681064795
0.027844438,-0.940037549,-0.393056661,1.0381641322863964
0.028070816,-0.979200244,-0.209639087,1.0027816646478531
0.028297192,-0.982574582,-0.0317317955,0.9664597160381286
0.02852357,-0.957106709,0.135192126,0.9343301633452107
0.028749948,-0.910495877,0.286137342,0.9108773205208242
0.028976326,-0.847562075,0.421663463,0.8961615470074581
0.029202702,-0.773466229,0.54211545,0.8921391685321829
0.02942908,-0.685013294,0.64718467,0.8880912100397393
0.029655458,-0.582343102,0.744885743,0.8939782585716444
0.029881836,-0.46722585,0.833085239,0.9123310103479095
0.030108212,-0.337581694,0.908610344,0.939534157347708
0.03033459,-0.192366704,0.967163026,0.9724092676693004
0.030560968,-0.0326263048,1.00318515,1.007444920945425
0.030787346,0.137826338,1.01084423,1.040802156770783
0.031013724,0.312310934,0.985487998,1.0687247136980003
0.0312401,0.482022136,0.925087512,1.0881322444523525
0.031466478,0.637511551,0.83108443,1.0971223074468506
0.031692856,0.770310819,0.708239138,1.0949814344634339
0.031919234,0.873942077,0.564130306,1.0820177560987276
0.03214561,0.959185719,0.405778587,1.0846935052012636
0.032371988,1.00795519,0.24400492,1.0755120660321422
0.032598366,1.03512108,0.0898404717,1.0795469606156447
0.032824744,1.01491928,-0.0595325343,1.033605267555899
0.03305112,0.98232156,-0.211343765,1.009621834245209
0.033277498,0.932233632,-0.352717996,0.9934695293341673
0.033503876,0.865193248,-0.483140171,0.9819837812186987
0.033730252,0.78244251,-0.601667941,0.9742205926822796
0.033956632,0.685206652,-0.706992865,0.9693470671059574
0.034183008,0.574890196,-0.797483861,0.9664792460123859
0.034409388,0.453325093,-0.871367097,0.9647842576776662
0.034635764,0.32287851,-0.92701751,0.9636119960664201
0.03486214,0.186372608,-0.963234603,0.9625556494292892
0.03508852,0.0469265394,-0.979387343,0.9614016677286593
0.035314896,-0.0922012404,-0.975571275,0.9602403813364242
0.035541272,-0.243459329,-0.962217212,0.9851344079461831
0.035767652,-0.382300049,-0.925712645,1.0030972285782984
0.035994028,-0.442442119,-0.90635848,1.0172407229331204
0.036220408,-0.610276043,-0.802144289,1.0158723090350534
0.036446784,-0.724235356,-0.707398415,1.024929368424959
0.03667316,-0.824461699,-0.597681344,1.036960082083613
0.03689954,-0.908565164,-0.47268188,1.0489188169146813
0.037125916,-0.973136544,-0.33412376,1.0586334202648016
0.037352296,-1.01480627,-0.185287938,1.0641633855996049
0.037578672,-1.03102529,-0.0308855772,1.0639670674985615
0.037805048,-1.02076709,0.123371691,1.0571860261672676
0.038031428,-0.984952986,0.271537423,1.0438649567197973
0.038257804,-0.92640996,0.408330232,1.0249689923523755
0.03848418,-0.849385083,0.529866219,1.0022132292602728
0.03871056,-0.758793116,0.63404417,0.9777790023999784
0.038936936,-0.659371614,0.720297754,0.9535997797664094
0.039163316,-0.556370914,0.787805974,0.9301868466152841
0.039389692,-0.467422873,0.853559434,0.9470478495739745
0.039616068,-0.344406813,0.913488925,0.9530780689384727
0.039842448,-0.222073883,0.95116514,0.9540319330619172
0.040068824,-0.0970498845,0.975702763,0.9614145618072976
0.040295204,0.0319558233,0.986345887,0.9738993834445977
0.04052158,0.164579764,0.981047988,0.989541653477144
0.040747956,0.29900682,0.957436621,1.00608996163841
0.040974336,0.43201381,0.913560092,1.0212279737257646
0.041200712,0.559284329,0.84857595,1.0328801035833828
0.041427092,0.676026523,0.763222456,1.0395203771421415
0.041653468,0.777740538,0.65992105,1.040376136681632
0.041879844,0.860920668,0.54250133,1.035492089641335
0.042106224,0.923484623,0.415667802,1.0256035705369633
0.0423326,0.964769959,0.28464967,1.0118065084199706
0.042558976,0.986540377,0.156890064,0.9978764076332262
0.042785356,1.00643182,0.0294818096,1.0137741854058029
0.043011732,1.00011206,-0.111689821,1.0126987486724555
0.043238112,0.972037971,-0.24429822,1.0045394373609653
0.043464488,0.928146183,-0.369445264,0.9979451401094992
0.043690864,0.86962992,-0.486876547,0.9933049697778494
0.043917244,0.797226667,-0.595498145,0.9901883992743699
0.04414362,0.711770356,-0.693804622,0.9879818931889297
0.04437,0.614432395,-0.780094862,0.9860751617442352
0.044596376,0.506842017,-0.852703869,0.9839927184041974
0.044822752,0.391072839,-0.91024524,0.9814843623461774
0.045049132,0.269517064,-0.951796114,0.9785552904126811
0.045275508,0.144708797,-0.976983964,0.9754383018423404
0.045501884,0.0192159805,-0.985978603,0.9725230594804078
0.045728264,-0.104108498,-0.979675889,0.9706034268437563
0.04595464,-0.222222239,-0.962631762,0.9760426327173978
0.04618102,-0.347259521,-0.939193368,1.0026733574203328
0.046407396,-0.473874837,-0.889660835,1.016053762474674
0.046633772,-0.59058392,-0.821633875,1.023871591110082
0.046860152,-0.697234631,-0.738018274,1.0308071034236452
0.047086528,-0.792023063,-0.63962841,1.0364250352030302
0.047312908,-0.872349262,-0.527824163,1.0395915819585952
0.047539284,-0.93556565,-0.404924154,1.0392466559525382
0.04776566,-0.979551375,-0.27420041,1.0347067611085587
0.04799204,-1.00317824,-0.139601961,1.0258552887245431
0.048218416,-1.00656903,-0.00527278241,1.0132090143894843
0.048444792,-0.99107933,0.124989003,0.997860489224183
0.048671172,-0.95902276,0.248160765,0.9813084194834027
0.048897548,-0.913327694,0.362156063,0.9653244905950176
0.049123928,-0.857696772,0.465781331,0.9525960010073518
0.049350304,-0.798008919,0.561446249,0.9520401253197186
0.04957668,-0.729143262,0.659245849,0.9662549859437316
0.04980306,-0.642954826,0.748391449,0.9734806692130098
0.050029436,-0.546509445,0.825550318,0.9802059010241091
0.050255816,-0.440995961,0.891591609,0.9894130348575224
0.050482192,-0.326448679,0.945465863,1.00047443811918
0.050708568,-0.203525811,0.985119522,1.011883228368716
0.050934948,-0.0739102364,1.00820363,1.0219372825898807
0.051161324,0.0596324019,1.01268685,1.0290906795192856
0.0513877,0.193477288,0.997386992,1.032214272782643
0.05161408,0.323586524,0.962322891,1.0307735850570003
0.051840456,0.446057111,0.908809304,1.0249012973106308
0.052066836,0.557612777,0.839310825,1.0153746700358324
0.052293212,0.655950129,0.757240474,1.0036837071988614
0.052519588,0.740407765,0.667121351,0.9932545554323606
0.052745968,0.815472782,0.572828472,0.9931283165166742
0.052972344,0.883757353,0.466678321,0.9988157142729457
0.053198724,0.935012341,0.349976867,0.9967318852574358
0.0534251,0.969691634,0.229521573,0.9929820175219843
0.053651476,0.989487052,0.1070522,0.9905447996004906
0.053877856,0.994724631,-0.0164919365,0.989749075487606
0.054104232,0.985180974,-0.139927566,0.9901612752582731
0.054330608,0.96054846,-0.261664987,0.9911219094300819
0.054556988,0.920744419,-0.379739136,0.9919720965296741
0.054783364,0.86613059,-0.491955698,0.9922026077284154
0.055009744,0.797621548,-0.596107244,0.9915439801831918
0.05523612,0.716683149,-0.690199554,0.990010160402355
0.055462496,0.625280321,-0.772643328,0.9879531921327787
0.055688876,0.525896013,-0.842501163,0.9863748261456488
0.055915252,0.421488464,-0.900514662,0.9885791817620535
0.056141632,0.311592609,-0.950746834,1.0010094963444505
0.056368008,0.189657047,-0.989351511,1.0147862077947432
0.056594384,0.0610405244,-1.00864041,1.021081422303995
0.056820764,-0.0687603354,-1.00960934,1.024039003139556
0.05704714,-0.197461605,-0.993189394,1.025416257803263
0.057273516,-0.322884381,-0.959647179,1.025177031656411
0.057499896,-0.442514241,-0.909425139,1.0228729369329754
0.057726272,-0.553698182,-0.843541026,1.0181431392952378
0.057952652,-0.653962791,-0.763712525,1.0109241528543853
0.058179028,-0.741338551,-0.672281146,1.0015447864658529
0.058405404,-0.814593315,-0.571974874,0.9907175253300051
0.058631784,-0.873319447,-0.465608478,0.9794781112938622
0.05885816,-0.91790092,-0.355834872,0.9691605550681028
0.05908454,-0.94960016,-0.245019108,0.9617748271571414
0.059310916,-0.97130233,-0.134507507,0.9615204857027839
0.059537292,-0.985900283,-0.020691203,0.9724274939010673
0.059763672,-0.987362683,0.0999145508,0.9848679852425242
0.059990048,-0.972013712,0.221630067,0.9939305429144434
0.060216424,-0.941234171,0.34135586,1.0024455878143967
0.060442804,-0.895345628,0.457700819,1.011133833291985
0.06066918,-0.834110081,0.56877625,1.019246049789889
0.06089556,-0.757613778,0.672037125,1.0256125339936988
0.061121936,-0.666729271,0.764587462,1.0291219078557932
0.061348312,-0.56329155,0.843623698,1.0289983141285979
0.061574692,-0.450022906,0.90688771,1.024965934473729
0.061801068,-0.330251813,0.95302546,1.0173237873979986
0.062027448,-0.207516178,0.981770992,1.0069372448643916
0.062253824,-0.0851721615,0.994003534,0.9952973226990711
0.0624802,0.0340589248,0.991889656,0.9850051000383304
0.06270658,0.149605989,0.9790048,0.9808323503677081
0.062932956,0.265198737,0.95618248,0.9846153051653455
0.063159332,0.380110443,0.918174446,0.9875282621650632
0.063385712,0.488952756,0.865283549,0.987790417770031
0.063612088,0.590112448,0.800082326,0.9883644296621228
0.063838468,0.683089316,0.723680258,0.9903241294522944
0.064064844,0.76697284,0.636566579,0.9934643467974288
0.06429122,0.840373993,0.539311767,0.9970856301354265
0.0645176,0.901639342,0.432912886,1.000367069907042
0.064743976,0.949139297,0.318935752,1.0025854190134598
0.064970356,0.981561005,0.199492827,1.003259394561062
0.065196732,0.998149991,0.077093035,1.0022467405788114
0.065423108,0.998874307,-0.0455861688,0.9998279799705924
0.065649488,0.984559357,-0.165982053,0.9969071693743482
0.065875864,0.957096875,-0.282223046,0.9956842758282837
0.06610224,0.918791294,-0.394820303,1.0000605135912064
0.06632862,0.867698371,-0.506058037,1.008995199848347
0.066554996,0.799905121,-0.611866117,1.0142283477346825
0.066781376,0.717688203,-0.707121611,1.0150973294686048
0.067007752,0.624108374,-0.79025209,1.0140096282462918
0.067234128,0.521144152,-0.860442221,1.0119520428432118
0.067460504,0.410529882,-0.916792512,1.0090432940742042
0.067686888,0.294169217,-0.958448052,1.0051581966129879
0.067913264,0.174205214,-0.984820306,1.0002184916947194
0.06813964,0.052925922,-0.995752931,0.9943250528146408
0.068366016,-0.067408964,-0.99159801,0.9878105818635134
0.068592392,-0.184748784,-0.973197997,0.9812464545542906
0.068818776,-0.297401428,-0.941818774,0.9754702124353023
0.069045152,-0.404204607,-0.89912492,0.9718069860850309
0.069271528,-0.505071402,-0.847117901,0.9727058593128914
0.069497904,-0.602033973,-0.78661716,0.9812114610526304
0.06972428,-0.696040809,-0.713972926,0.9942301468543759
0.069950664,-0.782148123,-0.626881421,1.0047360023074023
0.07017704,-0.856571019,-0.527875304,1.0123662471637909
0.070403416,-0.917953134,-0.419267803,1.0184234468528688
0.070629792,-0.96507442,-0.30275315,1.0230281059732589
0.070856168,-0.996574104,-0.180251539,1.0256505620752714
0.071082544,-1.01130199,-0.0542004704,1.0256694059695413
0.071308928,-1.00867355,0.0725131705,1.0226804903655644
0.071535304,-0.988898695,0.196814492,1.0166565732339212
0.07176168,-0.953047156,0.315786272,1.0080198511433462
0.071988056,-0.902944922,0.427001864,0.9976401240250606
0.072214432,-0.840976298,0.528789997,0.9868599947250447
0.072440816,-0.769848645,0.620509624,0.9776991296849575
0.072667192,-0.69204694,0.70310694,0.9732883362395272
0.072893568,-0.60766834,0.779073894,0.9762169437506789
0.073119944,-0.513527513,0.847911537,0.9826644811856675
0.07334632,-0.409771591,0.905412316,0.9876842187551552
0.073572704,-0.299265385,0.949905813,0.9918808242303891
0.07379908,-0.183779195,0.981184006,0.9964968461450561
0.074025456,-0.0644892752,0.998722255,1.0016050092481064
0.074251832,0.0572042428,1.00165796,1.006590994225683
0.074478208,0.179399878,0.989161491,1.010624771503758
0.074704592,0.299721748,0.960786998,1.0129447817500277
0.074930968,0.415522397,0.916726589,1.0130465013882006
0.075157344,0.524179459,0.857926428,1.0108018610983718
0.07538372,0.623415709,0.786062717,1.0065417412853948
0.075610096,0.711611092,0.703407466,1.0011724094819736
0.07583648,0.78819412,0.612558722,0.9964781587008478
0.076062856,0.854137421,0.515549004,0.9953415094779232
0.076289232,0.910813093,0.411741734,0.9991117458975534
0.076515608,0.955795228,0.299428016,1.0032016546332683
0.076741984,0.985534012,0.181139082,1.0040886558366189
0.07696836,0.999664128,0.0604819879,1.002986439670336
0.077194744,0.998859704,-0.0603490919,1.0013627211681222
0.07742112,0.983574688,-0.179780692,0.9997402640902963
0.077647496,0.95411253,-0.296261072,0.99810134268559
0.077873872,0.910872042,-0.408118069,0.9962482351415387
0.078100248,0.854519069,-0.513612032,0.9940001586997957
0.078326632,0.786070764,-0.611067712,0.9913109946644586
0.078553008,0.706892908,-0.699025214,0.9883338331884423
0.078779384,0.618640959,-0.776385725,0.9854914301362154
0.07900576,0.52315253,-0.842579484,0.9836287565031072
0.079232136,0.422167391,-0.897845447,0.9843517527223767
0.07945852,0.316314995,-0.943335712,0.989937441596397
