Frequency (GHz),Re( S21 ),Im( S21 ),S2
0,0.037868232,0,0.001434003
0.000226453,0.03382929,-0.016403934,0.00141351
0.000452906,0.023016935,-0.028790876,0.001358694
0.000679359,0.008548015,-0.034820139,0.001285511
0.000905812,-0.006230729,-0.034238741,0.001211113
0.001132265,-0.018815981,-0.028185993,0.001148491
0.001358718,-0.027753662,-0.018308697,0.001105474
0.001585171,-0.032364287,-0.006233894,0.001086308
0.001811624,-0.032403141,0.006588902,0.001093377
0.002038077,-0.027820015,0.018792057,0.001127095
0.00226453,-0.018771699,0.028874114,0.001186091
0.002490983,-0.005873431,0.035103779,0.001266773
0.002717436,0.009416878,0.035668027,0.001360886
0.002943889,0.024449907,0.029248754,0.001453288
0.003170342,0.035568994,0.01603665,0.001522327
0.003396795,0.039285891,-0.001066349,0.001544518
0.003623248,0.03453365,-0.018266352,0.001526233
0.003849701,0.022704786,-0.03074879,0.001460995
0.004076154,0.007416621,-0.036325093,0.001374519
0.004302608,-0.007766457,-0.03503773,0.00128796
0.004529061,-0.020371456,-0.028310344,0.001216472
0.004755514,-0.029097846,-0.017942676,0.001168624
0.004981967,-0.033435401,-0.005590587,0.001149181
0.00520842,-0.033290453,0.007372606,0.00116261
0.005434873,-0.028640918,0.019758795,0.001210712
0.005661326,-0.019533446,0.030202864,0.001293768
0.005887779,-0.006358178,0.037033565,0.001411911
0.006114232,0.009756598,0.038284026,0.001560858
0.006340685,0.026400792,0.032084379,0.001726409
0.006567138,0.038373891,0.01801151,0.00179697
0.006793591,0.043971442,-0.001424336,0.001935516
0.007020044,0.038735215,-0.021393672,0.001958106
0.007246497,0.024603009,-0.035871595,0.001892079
0.00747295,0.006348057,-0.041621864,0.001772677
0.007699403,-0.01117509,-0.038911652,0.001638999
0.007925856,-0.024888171,-0.030008823,0.00151995
0.008152309,-0.033538688,-0.017500779,0.001431121
0.008378762,-0.036966637,-0.003510282,0.001378854
0.008605215,-0.035454132,0.010362352,0.001364374
0.008831668,-0.029593283,0.022883616,0.001399422
0.009058121,-0.019590018,0.033171527,0.001484119
0.009284574,-0.005897823,0.039810419,0.001619654
0.009511027,0.010484304,0.041257862,0.001812132
0.00973748,0.027472153,0.035348464,0.002004233
0.009963933,0.042545565,0.02142055,0.002268965
0.010190386,0.050436694,0.000408192,0.002544027
0.010416839,0.04689486,-0.023441849,0.002748648
0.010643292,0.03131495,-0.042989291,0.002828705
0.010869745,0.008256716,-0.05203696,0.002776019
0.011096198,-0.015156812,-0.049009297,0.00263164
0.011322651,-0.033337735,-0.036658634,0.00245526
0.011549104,-0.04385889,-0.019252192,0.002294249
0.011775557,-0.046637047,-0.000474847,0.00217524
0.01200201,-0.042625513,0.017113589,0.002109809
0.012228463,-0.033021968,0.031804785,0.002101995
0.012454916,-0.019096948,0.042264991,0.002151023
0.012681369,-0.002022877,0.047747381,0.002283904
0.012907822,0.016919043,0.046872273,0.002483264
0.013134275,0.035606984,0.038540598,0.002753235
0.013360728,0.050756864,0.022352491,0.003075893
0.013587181,0.058978129,-0.000806127,0.00347907
0.013813634,0.055984657,-0.027524069,0.003891856
0.014040087,0.03986894,-0.051569294,0.004248924
0.01426654,0.013040352,-0.065713726,0.004488345
0.014492993,-0.017738212,-0.065336987,0.004583566
0.014719446,-0.044419695,-0.050850298,0.004558862
0.014945899,-0.061279181,-0.026780229,0.004472319
0.015172352,-0.066218302,0.001045113,0.004385956
0.015398805,-0.059883807,0.027605904,0.004348156
0.015625258,-0.044276763,0.049305815,0.004391495
0.015851711,-0.02187309,0.063713804,0.004537881
0.016078164,0.00464391,0.06916599,0.0048055
0.016304617,0.032379009,0.064547367,0.005214763
0.01653107,0.057906516,0.049176544,0.005771497
0.016757523,0.076970607,0.02346707,0.006475178
0.016983976,0.084872708,-0.010250882,0.007308457
0.01721043,0.077530257,-0.047040518,0.008223751
0.017436882,0.053318877,-0.079401545,0.009147508
0.017663336,0.01493098,-0.098867744,0.009997765
0.017889788,-0.030228788,-0.09901645,0.010718037
0.018116242,-0.072053753,-0.078231171,0.011311859
0.018342694,-0.101155274,-0.040288858,0.011855582
0.018569148,-0.111499697,0.007401245,0.012486961
0.0187956,-0.101070344,0.056316353,0.013386746
0.019022054,-0.071090847,0.098574877,0.014770915
0.019248506,-0.024965616,0.12758024,0.0169
0.01947496,0.032365639,0.138034686,0.020101109
0.019701412,0.094590373,0.125889614,0.024795534
0.019927866,0.15380311,0.0885313,0.031493188
0.020154318,0.200255796,0.025773814,0.040766673
0.020380772,0.223092586,-0.058619559,0.053206555
0.020607224,0.212259755,-0.155737758,0.069308453
0.020833678,0.161467716,-0.251529157,0.08933874
0.02106013,0.071195453,-0.328917146,0.113255282
0.021286584,-0.050006922,-0.371828645,0.140757234
0.021513036,-0.187073797,-0.369423836,0.171470576
0.02173949,-0.322187215,-0.318396121,0.205180691
0.021965942,-0.438684553,-0.222538561,0.241967548
0.022192396,-0.523504853,-0.091072552,0.282351541
0.022418848,-0.569187462,0.065754771,0.328298057
0.022645302,-0.569186747,0.236980572,0.380133344
0.022871754,-0.520007372,0.410439819,0.438868512
0.023098208,-0.420366943,0.573256373,0.505331236
0.02332466,-0.271637291,0.711350501,0.579806353
0.023551114,-0.079051592,0.809524119,0.661578453
0.023777566,0.146744639,0.852651298,0.748548225
0.02400402,0.388662577,0.828259885,0.837073036
0.024230472,0.623819232,0.730138123,0.922252113
0.024456926,0.826660752,0.561612904,0.998777053
0.024683378,0.974116862,0.336607844,1.062208501
0.024909832,1.05081153,0.077303566,1.110180713
0.025136284,1.05192423,-0.190863341,1.142973401
0.025362738,0.982558429,-0.444529027,1.163027122
0.02558919,0.854459286,-0.665887296,1.173506562
0.025815644,0.682107329,-0.843402386,1.176597993
0.026042096,0.47918424,-0.971003413,1.172465164
0.02626855,0.258082151,-1.04771006,1.164302766
0.026495002,0.030796846,-1.0744468,1.155384372
0.026721456,-0.19220078,-1.05290568,1.145551511
0.026947908,-0.401415169,-0.986099958,1.133527265
0.027174362,-0.587904215,-0.878714442,1.117770437
0.027400814,-0.743616164,-0.737533212,1.096920238
0.027627268,-0.862333834,-0.57155627,1.070296211
0.02785372,-0.940823376,-0.391380489,1.038327312
0.028080174,-0.979561448,-0.207772523,1.002710052
0.028306626,-0.982508838,-0.029796701,0.96621146
0.02853308,-0.956758916,0.13707523,0.934177242
0.028759532,-0.909825206,0.287855268,0.910642561
0.028985986,-0.846679628,0.423205197,0.895969031
0.029212438,-0.772398591,0.543319643,0.891795818
0.029438892,-0.683510721,0.648283541,0.887458455
0.029665344,-0.580687881,0.745919347,0.893594087
0.029891798,-0.465401173,0.833952308,0.912074704
0.03011825,-0.335565776,0.909256935,0.939352564
0.030344704,-0.190162942,0.967524409,0.972265427
0.030571156,-0.030271076,1.00318992,1.007306354
0.03079761,0.140261263,1.01043034,1.040642694
0.031024062,0.314726859,0.984622061,1.068533599
0.031250516,0.484312713,0.923773944,1.087917104
0.031476968,0.639582336,0.829358816,1.09690161
0.031703422,0.77207762,0.706150949,1.094753014
0.031929874,0.875332713,0.561781168,1.081805439
0.032156328,0.960491598,0.403292835,1.085189221
0.03238278,1.00906396,0.241347104,1.0764585
0.032609234,1.03556812,0.088260032,1.080191164
0.032835688,1.014709,-0.062756561,1.033572741
0.03306214,0.981815159,-0.214579254,1.010005263
0.033288594,0.931225181,-0.355939865,0.993873525
0.033515046,0.863623321,-0.486255944,0.982290084
0.0337415,0.780303001,-0.604551077,0.974354778
0.033967952,0.68253839,-0.709507823,0.969260005
0.034194404,0.571783483,-0.799509764,0.966152214
0.03442086,0.449907452,-0.872818887,0.964229525
0.034647312,0.319294602,-0.927860677,0.962874479
0.034873764,0.182758957,-0.963481307,0.961697065
0.035100216,0.043399781,-0.979085147,0.960491266
0.035326672,-0.095556498,-0.974795878,0.959358048
0.035553124,-0.24682492,-0.96130234,0.98502473
0.035779576,-0.385814458,-0.924609184,1.003754939
0.036006028,-0.466318727,-0.900379002,1.028135502
0.036232484,-0.613381982,-0.799743235,1.015826698
0.036458936,-0.727054477,-0.704741776,1.025269183
0.036685388,-0.827016592,-0.594590485,1.037494288
0.03691184,-0.910753548,-0.469109356,1.049535613
0.037138296,-0.974818647,-0.330088913,1.059230085
0.037364748,-1.01584148,-0.180877104,1.064650439
0.0375912,-1.03130198,-0.026243979,1.06427252
0.037817652,-1.02023172,0.128059983,1.057272122
0.038044108,-0.9836182,0.27608043,1.043725167
0.03827056,-0.924349427,0.412556618,1.024624826
0.038497012,-0.846717477,0.533644557,1.001706999
0.038723464,-0.755657196,0.637290716,0.977157255
0.03894992,-0.65591079,0.722942591,0.952864954
0.039176372,-0.552961767,0.789616168,0.929260409
0.039402824,-0.463320822,0.857266426,0.949571909
0.039629276,-0.339869887,0.915088117,0.952897802
0.039855732,-0.217499182,0.952163637,0.953921486
0.040082184,-0.092354223,0.976146281,0.961390864
0.040308636,0.036758266,0.986190975,0.973923809
0.040535088,0.169426367,0.980237663,0.98957117
0.040761544,0.303796768,0.955926239,1.006087451
0.040987996,0.436618865,0.911333144,1.021164133
0.041214448,0.563566327,0.845658362,1.03274507
0.0414409,0.679856777,0.759681821,1.039321706
0.041667356,0.781015873,0.655857623,1.040135016
0.041893808,0.863571703,0.538036406,1.03523926
0.04212026,0.925470412,0.410933077,1.025361477
0.042346712,0.966063321,0.27982536,1.011580572
0.042573168,0.987433791,0.152487993,0.99827808
0.04279962,1.00750041,0.023632906,1.01561559
0.043026072,0.999690175,-0.117460489,1.013177412
0.043252524,0.970809698,-0.249898344,1.004920652
0.04347898,0.9261446,-0.374868661,0.998270333
0.043705432,0.866852224,-0.492026418,0.993522774
0.043931884,0.793698728,-0.600244224,0.990250799
0.044158336,0.707559049,-0.698010802,0.987858888
0.044384792,0.609646499,-0.783642113,0.985763815
0.044611244,0.501620531,-0.8555094,0.983519491
0.044837696,0.385567009,-0.912270963,0.980900228
0.045064148,0.26387161,-0.953046858,0.97792654
0.045290604,0.139050052,-0.977497816,0.974836897
0.045517056,0.013656541,-0.985814214,0.972016166
0.045743508,-0.109419718,-0.978949666,0.970315123
0.04596996,-0.227323949,-0.961960793,0.977044745
0.046196416,-0.353378505,-0.937663972,1.004090092
0.046422868,-0.479613274,-0.886978984,1.016760611
0.04664932,-0.595956683,-0.818172097,1.024569948
0.046875772,-0.702203512,-0.733781874,1.031525611
0.047102228,-0.796456218,-0.634619713,1.037084687
0.04732868,-0.876079917,-0.522100031,1.040104463
0.047555132,-0.938429952,-0.398606032,1.039537544
0.047781584,-0.981424332,-0.267468274,1.034732997
0.04800804,-1.00399613,-0.132671118,1.025609855
0.048234492,-1.0063405,0.001635231,1.012723876
0.048460944,-0.989875615,0.131674975,0.997192032
0.0486874,-0.956965566,0.254465073,0.980535568
0.048913852,-0.910579264,0.367957145,0.964547057
0.049140304,-0.854534566,0.471011966,0.952081597
0.049366756,-0.794808805,0.566641808,0.952803975
0.049593212,-0.724755526,0.664508224,0.966841752
0.049819664,-0.637791216,0.752873957,0.97359683
0.050046116,-0.540831745,0.829358339,0.980334231
0.050272568,-0.434833229,0.894727647,0.989617499
0.050499024,-0.319831967,0.947855294,1.000722145
0.050725476,-0.19652696,0.986658514,1.012117869
0.050951928,-0.066649705,1.00879335,1.022106206
0.05117838,0.066993102,1.01225877,1.029155893
0.051404836,0.200752571,0.995920062,1.032158365
0.051631288,0.330588728,0.959851921,1.030604617
0.05185774,0.452617764,0.905419409,1.024647146
0.052084192,0.56359452,0.83512944,1.015079965
0.052310648,0.661258221,0.752450049,1.003443511
0.0525371,0.745104909,0.662009835,0.993438347
0.052763552,0.820125222,0.567264855,0.994394795
0.052990004,0.887716711,0.459940225,0.99958597
0.05321646,0.937851191,0.342699826,0.997008027
0.053442912,0.971520364,0.221945941,0.993111818
0.053669364,0.990317404,0.099281021,0.990585282
0.053895816,0.994531512,-0.024342176,0.98968547
0.054122272,0.983947277,-0.147713929,0.989971649
0.054348724,0.958286285,-0.269229472,0.990797113
0.054575176,0.917505026,-0.386923671,0.9915254
0.054801628,0.862002552,-0.498619139,0.991669445
0.055028084,0.792720377,-0.602138638,0.990976535
0.055254536,0.711141646,-0.695522785,0.989474385
0.055480988,0.619241893,-0.77721858,0.987529243
0.05570744,0.519531012,-0.846346259,0.986214463
0.055933896,0.414947838,-0.903859437,0.98914359
0.056160348,0.304365605,-0.95387429,1.002514583
0.0563868,0.181544974,-0.991410911,1.015854172
0.056613252,0.052616734,-1.00947773,1.021813808
0.056839708,-0.077305377,-1.00929797,1.024658513
0.05706616,-0.205993533,-0.991711855,1.025925739
0.057292612,-0.331227392,-0.956977665,1.025517837
0.057519064,-0.450460285,-0.905578077,1.022986122
0.05774552,-0.561032176,-0.838591516,1.017992833
0.057971972,-0.660494208,-0.757799029,1.010511967
0.058198424,-0.746926248,-0.665590107,1.00090901
0.058424876,-0.819159567,-0.564716995,0.989927681
0.058651332,-0.876852393,-0.457995892,0.978630356
0.058877784,-0.920452833,-0.348066747,0.968383878
0.059104236,-0.951319695,-0.237270638,0.961306518
0.059330688,-0.972523987,-0.126756564,0.961870132
0.059557144,-0.986552656,-0.012375823,0.973439304
0.059783596,-0.986788034,0.108570121,0.985538095
0.060010048,-0.97028327,0.230203703,0.994443369
0.0602365,-0.938439727,0.34973985,1.002987084
0.060462956,-0.891483843,0.465797096,1.011710377
0.060689408,-0.829168081,0.576438308,1.019800829
0.06091586,-0.75161612,0.679080188,1.026076694
0.061142312,-0.659758508,0.770815492,1.029437812
0.061368768,-0.555491924,0.848859191,1.029133204
0.06159522,-0.441589177,0.910999537,1.024921158
0.061821672,-0.321406335,0.955943644,1.017130283
0.062048124,-0.198487446,0.983495831,1.006661316
0.06227458,-0.076174296,0.994613528,0.995058594
0.062501032,0.042878322,0.991581321,0.985072067
0.062727484,0.158412561,0.978035688,0.981648346
0.062953936,0.274319798,0.95417583,0.985702866
0.063180392,0.389033377,0.91477263,0.988155933
0.063406844,0.497341901,0.860714078,0.988177691
0.063633296,0.597877562,0.794497609,0.98868403
0.063859748,0.690144122,0.717155874,0.990611457
0.064086204,0.773204744,0.629174352,0.993705941
0.064312656,0.845659554,0.531148255,0.99725855
0.064539108,0.905863941,0.424109668,1.00045849
0.06476556,0.952214897,0.309654504,1.002599122
0.064992016,0.983438611,0.189914361,1.003218966
0.065218468,0.998826087,0.067402758,1.002196684
0.06544492,0.998393595,-0.05521176,0.999838109
0.065671376,0.983028114,-0.175394356,0.997107453
0.065897828,0.95470494,-0.291385114,0.996366807
0.06612428,0.915591836,-0.404001892,1.001525939
0.066350732,0.86315012,-0.515273035,1.01053443
0.066577188,0.793896377,-0.62049818,1.015289449
0.06680364,0.710489333,-0.714883506,1.015853519
0.067030092,0.615896642,-0.797020197,1.014569868
0.067256544,0.512062371,-0.866088688,1.012317487
0.067483,0.400744677,-0.92118907,1.009185599
0.067709448,0.283884943,-0.961492658,1.005058792
0.067935904,0.163652122,-0.986458957,0.999883291
0.06816236,0.042340897,-0.995992243,0.9937933
0.068388808,-0.077806734,-0.990503371,0.987150816
0.068615264,-0.194776624,-0.970883548,0.980552797
0.06884172,-0.306925803,-0.938437998,0.974869325
0.069068168,-0.413166404,-0.8948704,0.97149951
0.069294624,-0.513580263,-0.842184126,0.973038789
0.069521072,-0.610390723,-0.78087163,0.982337337
0.069747528,-0.704023182,-0.706934452,0.99540496
0.069973984,-0.789239943,-0.618639469,1.00561448
0.070200432,-0.862596989,-0.518680096,1.013102607
0.070426888,-0.922813892,-0.409266591,1.019084622
0.070653344,-0.968643188,-0.292082846,1.023582015
0.070879792,-0.998720884,-0.169091776,1.026035433
0.071106248,-1.0119288,-0.042781469,1.02583015
0.071332696,-1.00774157,0.083925687,1.022586593
0.071559152,-0.986444116,0.207948118,1.016314414
0.071785608,-0.949180067,0.326392025,1.007474554
0.072012056,-0.897838175,0.43688035,0.996977829
0.072238512,-0.834848225,0.537814438,0.986215929
0.072464968,-0.76294452,0.62866652,0.977305934
0.072691416,-0.684527278,0.71057725,0.973497623
0.072917872,-0.599291801,0.786038041,0.977006465
0.07314432,-0.504041314,0.853971362,0.983324733
0.073370776,-0.399457842,0.910211861,0.988052199
0.073597232,-0.288391709,0.953395963,0.99213364
0.07382368,-0.172498927,0.983342052,0.996717471
0.074050136,-0.052942284,0.999493659,1.00179046
0.074276592,0.06884867,1.000983,1.006707106
0.07450304,0.190936953,0.987003446,1.010632722
0.074729496,0.310924649,0.957156122,1.012821979
0.074955944,0.426162779,0.911690533,1.012794342
0.0751824,0.534052014,0.851610482,1.010451967
0.075408856,0.632359147,0.778641105,1.006160061
0.075635304,0.719534934,0.695091963,1.000883358
0.07586176,0.795127869,0.603561699,0.996515053
0.076088216,0.860257447,0.505915284,0.99599315
0.076314664,0.916079402,0.401176691,1.000144208
0.07654112,0.95969975,0.287932605,1.003928795
0.076767568,0.987837851,0.16912736,1.004427684
0.076994024,1.00038409,0.048263554,1.003097698
0.07722048,0.998027563,-0.072564885,1.001324679
0.077446928,0.981213093,-0.191799551,0.999566202
0.077673384,0.95026207,-0.307881176,0.99778882
0.07789984,0.905608177,-0.419136405,0.995801496
0.078126288,0.847959042,-0.523840845,0.993443768
0.078352744,0.778368473,-0.620350838,0.990692642
0.078579192,0.698227644,-0.707251191,0.98772609
0.078805648,0.609204352,-0.783496141,0.984996145
0.079032104,0.513132632,-0.84858638,0.983403942
0.079258552,0.411690563,-0.902865052,0.984654422
0.079485008,0.305269808,-0.947521091,0.990985874
0.079711464,0.191979885,-0.982178271,1.001530432
0.079937912,0.071682602,-1.00284147,1.010829409
0.080164368,-0.051918734,-1.00688207,1.016507058
0.080390816,-0.175382376,-0.994354606,1.01950006
0.080617272,-0.296291798,-0.965803683,1.020565584
0.080843728,-0.412457854,-0.921786129,1.019811149
0.081070176,-0.521656096,-0.863117874,1.017097547
0.081296632,-0.621731043,-0.791074574,1.012348471
0.081523088,-0.710812628,-0.707431078,1.005713322
0.081749536,-0.78752619,-0.614360034,0.997635751
0.081975992,-0.851135194,-0.51423806,0.988871901
0.082202448,-0.901603758,-0.409415334,0.980510252
0.082428896,-0.939643025,-0.30195266,0.974104423
0.082655352,-0.966749489,-0.193113998,0.971897591
0.0828818,-0.984490335,-0.082294956,0.975993679
0.083108256,-0.991786718,0.032504275,0.984697422
0.083334712,-0.985189915,0.150380209,0.993213376
0.08356116,-0.963458002,0.26800549,1.000078264
0.083787616,-0.927026629,0.382927358,1.006011732
0.084014072,-0.876292944,0.493348271,1.01128184
0.08424052,-0.811583459,0.597366273,1.015514175
0.084466976,-0.733533561,0.692829788,1.0180846
0.084693424,-0.643345058,0.777520537,1.018431049
0.08491988,-0.542858422,0.849442124,1.016247188
0.085146336,-0.43445769,0.907110393,1.011602749
0.085372784,-0.320848018,0.949768484,1.005003624
0.08559924,-0.204754397,0.977517545,0.997464914
0.085825696,-0.088517413,0.991376579,0.990662854
0.086052144,0.026615538,0.993125618,0.98700688
0.0862786,0.141299888,0.984002411,0.988226403
0.086505048,0.256329715,0.962464333,0.992042515
0.086731504,0.369333148,0.926418245,0.994657739
0.08695796,0.477142692,0.8764081,0.995756306
0.087184408,0.578008294,0.813881934,0.99649739
0.087410864,0.670821607,0.739912987,0.997472857
0.08763732,0.754434824,0.655340374,0.998642909
0.087863768,0.827539027,0.56110388,0.999658405
0.088090224,0.888782501,0.458453894,1.000114307
0.088316672,0.936959684,0.349017173,0.999706436
0.088543128,0.971207619,0.234751627,0.998352566
0.088769584,0.991162002,0.117807761,0.996280783
0.088996032,0.997076154,0.000310515,0.994160953
0.089222488,0.989873528,-0.116018184,0.99330982
0.089448944,0.970814347,-0.230536982,0.995627796
0.089675392,0.939934134,-0.343889922,1.001736455
0.089901848,0.894977391,-0.455417156,1.008389316
0.090128296,0.834783494,-0.561512768,1.01216007
0.090354752,0.760860145,-0.658863425,1.013009173
0.090581208,0.675276399,-0.745655417,1.012000216
0.090807656,0.579837501,-0.820701957,1.00976323
0.091034112,0.476269066,-0.882994592,1.006511673
0.091260568,0.366408646,-0.93169719,1.00231495
0.091487016,0.252242863,-0.966260433,0.997285686
0.091713472,0.135831609,-0.986524105,0.991680036
0.09193992,0.019176815,-0.992765009,0.985950113
0.092166376,-0.095931172,-0.985688806,0.980785212
0.092392832,-0.208094552,-0.966392875,0.977218531
0.09261928,-0.316614121,-0.936233044,0.976776814
0.092845736,-0.421918243,-0.896192074,0.981175237
0.093072192,-0.524922729,-0.845360041,0.99017747
0.09329864,-0.624229252,-0.78128618,1.000070254
