Unnamed: 0,Frequency (GHz),Re( S21 ),Im( S21 ),S2
0,0.0,0.0383467972,0.0,0.0014704768554979
1,0.000226377547,0.0342577212,-0.0166120585,0.0014495519494243
2,0.000452755094,0.0233088303,-0.0291590877,0.0013935539654504
3,0.000679132625,0.0086528128,-0.0352687165,0.0013187535329092
4,0.000905510188,-0.00632112985,-0.0346804485,0.0012426901907417
5,0.00113188775,-0.0190745983,-0.0285445023,0.001178628911861
6,0.00135826525,-0.0281295795,-0.0185291711,0.0011346034244998
7,0.00158464275,-0.0327940956,-0.00628556684,0.001114961056722
8,0.00181102038,-0.0328189917,0.00671296287,0.0011221500866986
9,0.00203739788,-0.0281550661,0.0190752652,0.0011565734895457
10,0.0022637755,-0.0189666264,0.029276209,0.0012168293304088
11,0.002490153,-0.00588484062,0.0355609246,0.0012992107075296
12,0.0027165305,0.00960404705,0.0360974148,0.0013952610749818
13,0.002942908,0.0248110574,0.0295614433,0.0014894674992852
14,0.0031692855,0.0360356532,0.0161609855,0.0015597457538818
15,0.003395663,0.0397607945,-0.00115442311,0.0015822534719881
16,0.00362204075,0.0349165723,-0.018556973,0.0015635282681038
17,0.00384841825,0.0229192916,-0.0311687291,0.001496783601155
18,0.00407479575,0.00743178884,-0.0367849022,0.0014083605152259
19,0.0043011735,-0.00793919899,-0.0354517102,0.0013198546367076
20,0.004527551,-0.0206900798,-0.0286116432,0.0012467055287344
21,0.0047539285,-0.0295037068,-0.0180898383,0.0011977109646605
22,0.004980306,-0.0338640586,-0.00556661095,0.0011777616223328
23,0.0052066835,-0.033677455,0.00756377354,0.0011913816454414
24,0.005433061,-0.028925674,0.0200927407,0.0012404128451917
25,0.0056594385,-0.0196639951,0.0306343101,0.0013251336585957
26,0.005885816,-0.00629815552,0.0374959558,0.0014456134643096
27,0.0061121935,0.0100158555,0.0386920869,0.001597394950074
28,0.006338571,0.0268244818,0.0323466919,0.001765861300712
29,0.0065649485,0.0388689265,0.0180551577,0.0018367821668342
30,0.006791326,0.044449497,-0.00160970457,0.0019783489323556
31,0.007017704,0.0390763655,-0.021777086,0.0020012038153409
32,0.0072440815,0.0247330889,-0.0363571905,0.0019335709875885
33,0.007470459,0.00625570118,-0.0420999452,0.0018115391830964
34,0.0076968365,-0.0114510199,-0.0392912999,0.0016749321045819
35,0.007923214,-0.0252816584,-0.0302339438,0.0015532536091558
36,0.0081495915,-0.0339767449,-0.017548779,0.0014623788383905
37,0.008375969,-0.0373807326,-0.00338584627,0.0014087831246767
38,0.008602347,-0.0357862748,0.0106344027,0.0013937479848468
39,0.008828724,-0.0297980383,0.0232660566,0.0014292324762426
40,0.009055102,-0.0196316652,0.03361376,0.0015152871398624
41,0.009281479,-0.00575614674,0.0402490087,0.001653115926625
42,0.009507857,0.010810392,0.0416212231,0.0018491907875336
43,0.009734234,0.02791523,0.0355624072,0.0020439448718115
44,0.009960612,0.0430628695,0.0214034542,0.0023125185812655
45,0.010186989,0.0509096608,0.000145318423,0.0025918146802151
46,0.010413367,0.0472014472,-0.0239049159,0.0027994216219604
47,0.010639744,0.0313724503,-0.0435435995,0.0028802756952423
48,0.010866122,0.00805727392,-0.0525477193,0.0028261824666535
49,0.0110925,-0.0155515121,-0.0493663773,0.0026788887363224
50,0.011318877,-0.0338295437,-0.0368048884,0.0024990378370866
51,0.011545255,-0.0443490483,-0.0191822983,0.0023347986531859
52,0.011771632,-0.0470445901,-0.000220164526,0.0022132419300955
53,0.01199801,-0.042893745,0.0175008792,0.002146154132898
54,0.012224387,-0.0331172198,0.0322621651,0.0021375975442211
55,0.012450765,-0.019008467,0.0427254736,0.0021867879120343
56,0.012677142,-0.00175788533,0.0481460616,0.0023211334084244
57,0.01290352,0.017331548,0.0471434034,0.0025228830402114
58,0.013129897,0.0361119285,0.0386263579,0.002796066904608
59,0.013356275,0.0515393354,0.0221093036,0.0031451243991506
60,0.013582652,0.0596105605,-0.00139115332,0.0035553542306839
61,0.01380903,0.056200631,-0.0280407667,0.0039447955219219
62,0.014035408,0.039826896,-0.0521470793,0.0043054995245153
63,0.014261785,0.0127329286,-0.066217944,0.0045469435783198
64,0.014488163,-0.0182438605,-0.0656458512,0.004642216225716
65,0.01471454,-0.0450052433,-0.0508977734,0.0046160552615699
66,0.014940918,-0.0618170463,-0.0265682545,0.0045272193604331
67,0.015167295,-0.0666064173,0.00146027678,0.0044385472338159
68,0.015393673,-0.0600601509,0.0281383283,0.0043989872456493
69,0.01562005,-0.0442198329,0.0498605184,0.0044414649168206
70,0.015846428,-0.0215961486,0.0642000958,0.0045880459350824
71,0.016072805,0.00509819854,0.069505915,0.0048570638483404
72,0.016299183,0.0329445079,0.064681381,0.0052690216488403
73,0.01652556,0.0584975816,0.0490687527,0.0058297095445824
74,0.016751938,0.077486515,0.0231132675,0.0065383831413717
75,0.016978316,0.0852096155,-0.0108127985,0.0073775951850594
76,0.017204694,0.0775992423,-0.047724627,0.0082992824278232
77,0.01743107,0.0530722067,-0.0800784156,0.0092292117690138
78,0.017657448,0.0143867051,-0.0993859544,0.0100845452156332
79,0.017883826,-0.0309752431,-0.099242039,0.0108084479899816
80,0.018110204,-0.0728460252,-0.0780893713,0.0114044932974682
81,0.01833658,-0.101817176,-0.0397896022,0.0119499497718492
82,0.018562958,-0.11188063,0.00816718396,0.0125839782630333
83,0.018789336,-0.101076983,0.0572040528,0.0134888601491274
84,0.019015714,-0.0706991255,0.0994179547,0.014882296063196
85,0.01924209,-0.0242171083,0.128218919,0.0170265595239424
86,0.019468468,0.0333740301,0.138336226,0.0202507373090387
87,0.019694846,0.0957200751,0.125763193,0.0249787134907048
88,0.019921224,0.154888675,0.0879360959,0.0317232586053896
89,0.020147602,0.201117948,0.0247272775,0.0410598672602927
90,0.020373978,0.223555863,-0.0600343384,0.0535813456688004
91,0.020600356,0.212177366,-0.157370418,0.0697846831041926
92,0.020826734,0.160749495,-0.253168762,0.0899348221953676
93,0.021053112,0.0698365346,-0.330313504,0.113984152489695
94,0.021279488,-0.0519058555,-0.372730911,0.1416225498500768
95,0.021505866,-0.189308643,-0.369631499,0.1724652073674884
96,0.021732244,-0.324481428,-0.317804754,0.2062880587819197
97,0.021958622,-0.440740436,-0.221162319,0.2431649032709278
98,0.022185,-0.525050163,-0.0890401453,0.2836058211413716
99,0.022411376,-0.570039153,0.0682291836,0.3295998574476799
100,0.022637754,-0.56924051,0.23964335,0.3814636934242825
101,0.022864132,-0.51925236,0.413023412,0.4402113522256913
102,0.02309051,-0.418878049,0.575513721,0.5066748629933122
103,0.023316886,-0.269558966,0.713079631,0.5811445962980855
104,0.023543264,-0.0765770599,0.810584962,0.6629120267234696
105,0.023769642,0.14939715,0.852970362,0.7498779468785335
106,0.02399602,0.391271174,0.827830076,0.8383957663335041
107,0.024222396,0.626172006,0.729010522,0.9235477222847766
108,0.024448774,0.82856524,0.559894919,1.0000026772582742
109,0.024675152,0.975411415,0.334463567,1.0632933061626657
110,0.02490153,1.05138743,0.0749504343,1.1110330955637633
111,0.025127908,1.05175376,-0.193173766,1.1435020755447602
112,0.025354284,0.981712759,-0.446552217,1.1631688236910072
113,0.025580662,0.85310483,-0.667432666,1.1732542146131966
114,0.02580704,0.68048805,-0.844376743,1.176036070312091
115,0.026033418,0.477593839,-0.971380472,1.1716758964337006
116,0.026259794,0.256729424,-1.04753351,1.163236451720292
117,0.026486172,0.0298213009,-1.07388353,1.154115145992629
118,0.02671255,-0.192725316,-1.05216932,1.1442033253765622
119,0.026938928,-0.401504993,-0.985402465,1.1322242774320062
120,0.027165304,-0.587658286,-0.878226995,1.1166249158511878
121,0.027391682,-0.743189514,-0.737356484,1.0960252382163984
122,0.02761806,-0.861894488,-0.571704984,1.0697086971752223
123,0.027844438,-0.940509498,-0.391795516,1.0380618421859182
124,0.028070816,-0.979454577,-0.208353728,1.0027425443777471
125,0.028297192,-0.982625961,-0.030449681,0.9664809623041752
126,0.02852357,-0.956967652,0.136452496,0.9344063706390232
127,0.028749948,-0.910176039,0.28736338,0.910998134134754
128,0.028976326,-0.847065389,0.422841907,0.8963150515571179
129,0.029202702,-0.772794366,0.543231368,0.8923114513004934
130,0.02942908,-0.684170902,0.648210227,0.888266321530885
131,0.029655458,-0.581327677,0.745787442,0.8941407766911197
132,0.029881836,-0.466045558,0.833828628,0.9124686430038936
133,0.030108212,-0.336256564,0.909157217,0.9396353220562712
134,0.03033459,-0.190930143,0.967475295,0.9724627659413374
135,0.030560968,-0.0311256573,1.00323212,1.0074434931420515
136,0.030787346,0.139332026,1.01060843,1.0407428122563296
137,0.031013724,0.313756734,0.984969497,1.0686081981507798
138,0.0312401,0.483344346,0.924307108,1.0879653867094914
139,0.031466478,0.638656378,0.830080688,1.0969159177506322
140,0.031692856,0.771239638,0.707063675,1.094749619726877
141,0.031919234,0.874635458,0.562840998,1.0817771734205055
142,0.03214561,0.959638774,0.404412001,1.0844556431170471
143,0.032371988,1.00818229,0.24261497,1.075293553537745
144,0.032598366,1.03514969,0.0884525999,1.0793587431361653
145,0.032824744,1.01477206,-0.0608647019,1.0334668456940197
146,0.03305112,0.982002914,-0.212617427,1.0095358933685916
147,0.033277498,0.931759775,-0.35392651,0.9934402527888306
148,0.033503876,0.864573359,-0.48427704,0.9820113445637044
149,0.033730252,0.781680822,-0.602724373,0.9743015772908388
150,0.033956632,0.684304297,-0.707956374,0.969474598379892
151,0.034183008,0.573848784,-0.798335195,0.9666415104739668
152,0.034409388,0.452150464,-0.872081399,0.9649660085772124
153,0.034635764,0.321584255,-0.927567542,0.9637979780358268
154,0.03486214,0.18498151,-0.963592649,0.9627289522487172
155,0.03508852,0.0454706773,-0.979529858,0.961546325207621
156,0.035314896,-0.0936821699,-0.975483596,0.9603445950222638
157,0.035541272,-0.244937345,-0.96187216,0.9851923551587144
158,0.035767652,-0.383723378,-0.925125778,1.003101335943836
159,0.035994028,-0.44382447,-0.905654728,1.017190646519535
160,0.036220408,-0.611473799,-0.801169634,1.0157729893071863
161,0.036446784,-0.72525841,-0.706248879,1.0247872403644849
162,0.03667316,-0.825288832,-0.596392989,1.0367862535522785
163,0.03689954,-0.909180582,-0.471292228,1.0487256948590626
164,0.037125916,-0.973532259,-0.332671613,1.0584354614096647
165,0.037352296,-1.01498294,-0.183811188,1.0639769213250148
166,0.037578672,-1.03099048,-0.0294184368,1.0638068142743862
167,0.037805048,-1.02053416,0.12480019,1.0570650591509416
168,0.038031428,-0.984538853,0.272904575,1.0437936601224862
169,0.038257804,-0.925831199,0.409619778,1.0249517715705467
170,0.03848418,-0.848657429,0.531066239,1.002250782002495
171,0.03871056,-0.757928848,0.635145485,0.9778659257464924
172,0.038936936,-0.658381224,0.721292257,0.953728356123892
173,0.039163316,-0.555265486,0.788685322,0.93034429708106
174,0.039389692,-0.466192335,0.854337275,0.947227472667178
175,0.039616068,-0.343046337,0.914101899,0.9532630710845238
176,0.039842448,-0.220612749,0.951596618,0.9542061084103748
177,0.040068824,-0.0955102369,0.975931227,0.9615639651864196
178,0.040295204,0.0335446447,0.986350596,0.9740127414176044
179,0.04052158,0.166179568,0.980812967,0.9896097250560096
180,0.040747956,0.300573707,0.956955731,1.0061088244334662
181,0.040974336,0.433500558,0.91283834,1.0211965687602669
182,0.041200712,0.560645163,0.847631335,1.0328018788691788
183,0.041427092,0.677222729,0.762085557,1.039405020862208
184,0.041653468,0.778744102,0.658630013,1.0402358704241663
185,0.041879844,0.861716211,0.541098177,1.0353420654529195
186,0.042106224,0.924068868,0.414193481,1.0254595125096988
187,0.0423326,0.965149999,0.283139735,1.01168263010557
188,0.042558976,0.986734629,0.155371174,0.997785429777906
189,0.042785356,1.00645089,0.0279485919,1.0137245177709848
190,0.043011732,0.999942064,-0.113209307,1.0127004785480005
191,0.043238112,0.971692204,-0.245785788,1.0045963928971586
192,0.043464488,0.92762959,-0.370890528,0.9980564400036868
193,0.043690864,0.86894244,-0.488268048,0.993466650730884
194,0.043917244,0.796365619,-0.596819818,0.9903920942828064
195,0.04414362,0.710733473,-0.695034742,0.9882153622296485
196,0.04437,0.613221288,-0.781205595,0.986322529715683
197,0.044596376,0.505465746,-0.8536641,0.9842380160081464
198,0.044822752,0.389549136,-0.911022723,0.9817109311806812
199,0.045049132,0.26787287,-0.952361882,0.9787490287686188
200,0.045275508,0.1429791,-0.97731477,0.9755871826969628
201,0.045501884,0.0174408648,-0.986061156,0.9726207871370282
202,0.045728264,-0.10588719,-0.97950691,0.9706458837438444
203,0.04595464,-0.223970875,-0.962220192,0.9760306507407824
204,0.04618102,-0.348954111,-0.938531339,1.002610045868933
205,0.046407396,-0.475458711,-0.888754964,1.015946371900423
206,0.046633772,-0.592019677,-0.820513606,1.0237298755863076
207,0.046860152,-0.698495269,-0.736713886,1.0306429906406034
208,0.047086528,-0.79308778,-0.638170898,1.036250321839455
209,0.047312908,-0.873203397,-0.526245713,1.039418722983218
210,0.047539284,-0.936200023,-0.403256953,1.0390866532080447
211,0.04776566,-0.979961336,-0.272475272,1.0345669939063789
212,0.04799204,-1.00336444,-0.137848213,1.0257423292838068
213,0.048218416,-1.0065341,-0.00351701397,1.0131232638500751
214,0.048444792,-0.990828395,0.12672247,0.9977994927411769
215,0.048671172,-0.958562732,0.249849096,0.9812670819513212
216,0.048897548,-0.912666142,0.363778651,0.965294393676544
217,0.049123928,-0.856843054,0.46731922,0.9525672725694554
218,0.049350304,-0.796969652,0.562887311,0.9520027510938118
219,0.04957668,-0.727908731,0.660565317,0.9661976586893408
220,0.04980306,-0.641539574,0.749547839,0.9733949879576712
221,0.050029436,-0.544938743,0.826515257,0.980085703676196
222,0.050255816,-0.439297944,0.892341197,0.98925549546602
223,0.050482192,-0.324655652,0.945979774,1.000279025192636
224,0.050708568,-0.201675147,0.985383332,1.0116531759008938
225,0.050934948,-0.0720427856,1.00821102,1.021679623806448
226,0.051161324,0.0614754707,1.01244164,1.0288173079036762
227,0.0513877,0.19525744,0.99690038,1.031935835519498
228,0.05161408,0.3252711,0.961614966,1.0305046313303912
229,0.051840456,0.447620392,0.907904446,1.0246544984008006
230,0.052066836,0.559037149,0.838234723,1.015159984804935
231,0.052293212,0.657226086,0.75601846,1.0035100399796508
232,0.052519588,0.741532505,0.665774107,0.9931256175232224
233,0.052745968,0.816447437,0.571364284,0.9930435624147016
234,0.052972344,0.884566009,0.465099156,0.9987742491901006
235,0.053198724,0.935636163,0.348300278,0.9967281131682396
236,0.0534251,0.970118463,0.227765977,0.993007172532247
237,0.053651476,0.989703596,0.105236128,0.9905878505717636
238,0.053877856,0.994716287,-0.0183461551,0.9897970730300196
239,0.054104232,0.984934807,-0.14179109,0.9902012872435154
240,0.054330608,0.960055947,-0.263503134,0.9911413229978888
241,0.054556988,0.920004964,-0.38151297,0.991961280062862
242,0.054783364,0.865153134,-0.493624419,0.9921550123031097
243,0.055009744,0.796424687,-0.597632587,0.9914569911073604
244,0.05523612,0.715294421,-0.691549003,0.9898861322640192
245,0.055462496,0.623733044,-0.773792267,0.9877973826465052
246,0.055688876,0.524226308,-0.843435645,0.986196909255877
247,0.055915252,0.419729143,-0.90123111,0.9883900671153466
248,0.056141632,0.309765726,-0.951244295,1.000820513774354
249,0.056368008,0.18778792,-0.989619792,1.0146116356160495
250,0.056594384,0.0591631792,-1.00868058,1.020936794242188
251,0.056820764,-0.0706198886,-1.00943041,1.0239369212986444
252,0.05704714,-0.199283823,-0.992800236,1.025366350711151
253,0.057273516,-0.324651748,-0.959055007,1.0251852639312256
254,0.057499896,-0.444210321,-0.908635437,1.022941166655104
255,0.057726272,-0.555304825,-0.842558563,1.0182683807529056
256,0.057952652,-0.655460238,-0.762542069,1.0110985305938174
257,0.058179028,-0.742704928,-0.670929909,1.0017575528662337
258,0.058405404,-0.815804601,-0.570453286,0.9909540985209668
259,0.058631784,-0.874351501,-0.463931888,0.9797233440041976
260,0.05885816,-0.918730378,-0.354023308,0.969398010067286
261,0.05908454,-0.950207889,-0.243097201,0.9619912814518708
262,0.059310916,-0.971673369,-0.132499978,0.9617053801938108
263,0.059537292,-0.986015856,-0.0186212491,0.9725740192014568
264,0.059763672,-0.987200379,0.102007523,0.9849701230463392
265,0.059990048,-0.971568942,0.223697618,0.9939868333578732
266,0.060216424,-0.940514803,0.343353063,1.0024594205336108
267,0.060442804,-0.894367158,0.459586859,1.0111126942744828
268,0.06066918,-0.832894325,0.570515275,1.0192006356255312
269,0.06089556,-0.756188452,0.673598647,1.025556112178387
270,0.061121936,-0.665126026,0.765948057,1.029069056484628
271,0.061348312,-0.561543167,0.844767451,1.0289627746734271
272,0.061574692,-0.448162109,0.907805502,1.0249601054048
273,0.061801068,-0.328308433,0.953713715,1.0173562773580167
274,0.062027448,-0.205516279,0.982230842,1.0070143679100347
275,0.062253824,-0.083137624,0.994237483,0.9954200371265408
276,0.0624802,0.0361106955,0.99190098,0.9851715364544542
277,0.06270658,0.151663139,0.978793085,0.9810376109751504
278,0.062932956,0.267248482,0.955735862,0.9848527890441876
279,0.063159332,0.382123679,0.917479277,0.9877867297769376
280,0.063385712,0.490894884,0.864337325,0.9880567985255292
281,0.063612088,0.591948807,0.798888266,0.98862585166121
282,0.063838468,0.684783518,0.722246885,0.9905690294166596
283,0.064064844,0.768487513,0.634909213,0.9936827663892044
284,0.06429122,0.841673315,0.537454844,0.9972716785221536
285,0.0645176,0.902691841,0.430888802,1.0005177194969646
286,0.064743976,0.949920714,0.316783726,1.002701291944713
287,0.064970356,0.982057273,0.197256476,1.0033466047761352
288,0.065196732,0.998356044,0.0748163015,1.0023122695614688
289,0.065423108,0.998795152,-0.0478624627,0.999882570994412
290,0.065649488,0.984206796,-0.168222427,0.996961802238356
291,0.065875864,0.956486225,-0.284400851,0.9957497426642749
292,0.06610224,0.917934775,-0.396917224,1.0001475338621668
293,0.06632862,0.866598368,-0.508053184,1.0091107691928012
294,0.066554996,0.798569262,-0.613729537,1.0143768107974591
295,0.066781376,0.71613133,-0.708826065,1.015278472230953
296,0.067007752,0.622345507,-0.791773379,1.0142190137761646
297,0.067234128,0.519192278,-0.861754954,1.0121822222783714
298,0.067460504,0.408408701,-0.917869508,1.0092821007686694
299,0.067686888,0.291904658,-0.959262133,1.0053921691698064
300,0.067913264,0.171830595,-0.985345721,1.0004319432710638
301,0.06813964,0.0504812822,-0.995969236,0.9945030789109798
302,0.068366016,-0.0698770359,-0.99149251,0.98794019753227
303,0.068592392,-0.187191337,-0.972767949,0.981318079249514
304,0.068818776,-0.299769282,-0.941071868,0.975477883171805
305,0.069045152,-0.406453311,-0.898079515,0.971751109285498
306,0.069271528,-0.50716418,-0.845798016,0.9725897893446088
307,0.069497904,-0.603940964,-0.785046279,0.981042348168995
308,0.06972428,-0.697729468,-0.712175488,0.9940203362236012
309,0.069950664,-0.783587277,-0.624894261,1.0045018581070109
310,0.07017704,-0.857742965,-0.525740862,1.0121264479834944
311,0.070403416,-0.918851018,-0.417026162,1.0181980130720865
312,0.070629792,-0.96569705,-0.300439656,1.0228347792761008
313,0.070856168,-0.996924698,-0.177897438,1.0255063519293552
314,0.071082544,-1.01138508,-0.0518325865,1.0255863970698862
315,0.071308928,-1.00849402,0.0748708472,1.0226658321362063
316,0.071535304,-0.98846066,0.199140176,1.0167112860649463
317,0.07176168,-0.952353895,0.318058372,1.0081390693209615
318,0.071988056,-0.901999176,0.429198086,0.9978135105307424
319,0.072214432,-0.839780867,0.53088659,0.9870724760210998
320,0.072440816,-0.768407702,0.62248069,0.9779326059157968
321,0.072667192,-0.690365136,0.704925597,0.973524118310105
322,0.072893568,-0.605748832,0.780708134,0.9764368379631264
323,0.073119944,-0.511381447,0.849316537,0.9828495643574862
324,0.07334632,-0.40742892,0.906542361,0.9878173771398208
325,0.073572704,-0.296769232,0.950725079,0.9919501529014262
326,0.07379908,-0.18117927,0.981666625,0.9964952905166236
327,0.074025456,-0.0618405268,0.998853028,1.0015316222996702
328,0.074251832,0.059844628,1.00143421,1.0064518564587823
329,0.074478208,0.181975469,0.988592863,1.0104309200923067
330,0.074704592,0.302181363,0.959895194,1.0127123596088354
331,0.074930968,0.417823285,0.91554296,1.0127952090937529
332,0.075157344,0.526289999,0.856488287,1.0105533488156144
333,0.07538372,0.625315666,0.784408689,1.0063166735237223
