Frequency (GHz),Re( S21 ),Im( S21 ),S2
0,-0.04223688,-6.29E-05,1.78E-03
0.000226463,-0.038129095,0.018610274,1.80E-03
0.000452926,-0.026512334,0.033818737,1.85E-03
0.000679389,-0.009534595,0.04271872,1.92E-03
0.000905852,0.009657937,0.043628253,2.00E-03
0.001132315,0.027528532,0.036340345,2.08E-03
0.001358778,0.040672306,0.022187548,2.15E-03
0.00158524,0.046652306,0.003733614,2.19E-03
0.001811703,0.044285581,-0.015605918,2.20E-03
0.002038166,0.033931658,-0.032223679,2.19E-03
0.002264629,0.017437352,-0.042975582,2.15E-03
0.002491092,-0.002182877,-0.045765795,2.10E-03
0.002717555,-0.021285124,-0.039948467,2.05E-03
0.002944018,-0.036256839,-0.026472209,2.02E-03
0.003170481,-0.044189543,-0.007747382,2.01E-03
0.003396944,-0.043541629,0.012821073,2.06E-03
0.003623407,-0.034083046,0.031409286,2.15E-03
0.00384987,-0.017488793,0.044442013,2.28E-03
0.004076333,0.003318676,0.049351737,2.45E-03
0.004302796,0.024550432,0.045016442,2.63E-03
0.004529258,0.042243172,0.032006979,2.81E-03
0.004755721,0.05298863,0.012520182,2.96E-03
0.004982184,0.054573461,-0.00997768,3.08E-03
0.005208647,0.04641955,-0.031347148,3.14E-03
0.00543511,0.02974562,-0.047510237,3.14E-03
0.005661573,0.007413589,-0.055201981,3.10E-03
0.005888036,-0.016524831,-0.052611265,3.04E-03
0.006114499,-0.037543852,-0.039789781,2.99E-03
0.006340962,-0.051460028,-0.018696757,3.00E-03
0.006567425,-0.055223774,0.007065552,3.10E-03
0.006793888,-0.047529522,0.032676246,3.33E-03
0.00702035,-0.029073149,0.053402394,3.70E-03
0.007246813,-0.002696625,0.065069981,4.24E-03
0.007473276,0.02697606,0.064566307,4.90E-03
0.007699739,0.054634631,0.05141902,5.63E-03
0.007926202,0.074974798,0.027312953,6.37E-03
0.008152665,0.083726622,-0.003908236,7.03E-03
0.008379128,0.078497015,-0.036796752,7.52E-03
0.008605591,0.059336674,-0.065158039,7.77E-03
0.008832054,0.028962106,-0.083111055,7.75E-03
0.009058516,-0.0075835,-0.086205237,7.49E-03
0.009284979,-0.043512814,-0.072209239,7.11E-03
0.009511442,-0.071269304,-0.04186422,6.83E-03
0.009737905,-0.083805703,0.000903151,7.02E-03
0.009964368,-0.075894587,0.049260832,8.19E-03
0.010190831,-0.045201976,0.09430141,1.09E-02
0.010417294,0.006864979,0.126430571,1.60E-02
0.010643757,0.075415254,0.136955664,2.44E-02
0.01087022,0.150816709,0.118759826,3.68E-02
0.011096683,0.222269043,0.069217868,5.42E-02
0.011323146,0.277761608,-0.010269715,7.73E-02
0.011549608,0.30603081,-0.113437481,1.07E-01
0.011776071,0.298980653,-0.231438592,1.43E-01
0.012002534,0.251155764,-0.351472706,1.87E-01
0.012228997,0.161947608,-0.459782004,2.38E-01
0.01245546,0.03535898,-0.542815447,2.96E-01
0.012681923,-0.120343298,-0.588653445,3.61E-01
0.012908386,-0.293336898,-0.588235319,4.32E-01
0.013134849,-0.469298482,-0.536494732,5.08E-01
0.013361312,-0.632647514,-0.433059365,5.88E-01
0.013587775,-0.768040597,-0.282390684,6.70E-01
0.013814238,-0.861940742,-0.093528561,7.52E-01
0.0140407,-0.904025674,0.120621376,8.32E-01
0.014267163,-0.888306558,0.344455898,9.08E-01
0.014493626,-0.813814521,0.561195612,9.77E-01
0.014720089,-0.684730351,0.754591882,1.04E+00
0.014946552,-0.509907424,0.910615861,1.09E+00
0.015173015,-0.30187276,1.01889431,1.13E+00
0.015399478,-0.075413473,1.0735693,1.16E+00
0.015625941,0.154328063,1.07383156,1.18E+00
0.015852404,0.372142285,1.02655816,1.19E+00
0.016078867,0.558867037,0.925110757,1.17E+00
0.01630533,0.722636759,0.790295482,1.15E+00
0.016531792,0.849090278,0.632359564,1.12E+00
0.016758255,0.937047184,0.460834324,1.09E+00
0.016984718,0.988087058,0.285003126,1.06E+00
0.017211182,1.00585699,0.112418085,1.02E+00
0.017437644,0.995188296,-0.05154613,9.93E-01
0.017664108,0.961201251,-0.20369561,9.65E-01
0.01789057,0.90853548,-0.342692405,9.43E-01
0.018117032,0.840792954,-0.468486577,9.26E-01
0.018343496,0.760227978,-0.581489921,9.16E-01
0.018569958,0.668543398,-0.681558371,9.11E-01
0.018796422,0.566184103,-0.778243124,9.26E-01
0.019022884,0.456483543,-0.84401387,9.21E-01
0.019249348,0.340421259,-0.907161474,9.39E-01
0.01947581,0.20769085,-0.961716413,9.68E-01
0.019702274,0.063874066,-0.992648304,9.89E-01
0.019928736,-0.085268416,-1.00118399,1.01E+00
0.0201552,-0.236477837,-0.985988498,1.03E+00
0.020381662,-0.385402143,-0.946057558,1.04E+00
0.020608124,-0.527121484,-0.881537139,1.05E+00
0.020834588,-0.656681657,-0.793933034,1.06E+00
0.02106105,-0.769592941,-0.686067998,1.06E+00
0.021287514,-0.86224252,-0.561854661,1.06E+00
0.021513976,-0.932179391,-0.425963521,1.05E+00
0.02174044,-0.97827816,-0.28347069,1.04E+00
0.021966902,-1.00090802,-0.139437899,1.02E+00
0.022193366,-1.00184965,0.001673872,1.00E+00
0.022419828,-0.984290302,0.136303693,9.87E-01
0.022646292,-0.952978551,0.264381379,9.78E-01
0.022872754,-0.90610534,0.388125598,9.72E-01
0.023099216,-0.843661845,0.502580762,9.64E-01
0.02332568,-0.769081533,0.606594443,9.59E-01
0.023552142,-0.68393141,0.700310647,9.58E-01
0.023778606,-0.588913083,0.78354913,9.61E-01
0.024005068,-0.484418303,0.855643868,9.67E-01
0.024231532,-0.370874703,0.915420771,9.76E-01
0.024457994,-0.249044105,0.961272597,9.86E-01
0.024684458,-0.120267518,0.991347194,9.97E-01
0.02491092,0.01337773,1.00383413,1.01E+00
0.025137384,0.149061397,0.997333348,1.02E+00
0.025363846,0.283382118,0.971238017,1.02E+00
0.025590308,0.412753314,0.926053703,1.03E+00
0.025816772,0.534297705,0.863605678,1.03E+00
0.026043234,0.647164285,0.785156965,1.04E+00
0.026269698,0.748253584,0.689738035,1.04E+00
0.02649616,0.8328076,0.580477953,1.03E+00
0.026722624,0.899310112,0.461858451,1.02E+00
0.026949086,0.947633326,0.337461382,1.01E+00
0.02717555,0.978228986,0.210272104,1.00E+00
0.027402012,0.991954267,0.082757965,9.91E-01
0.027628476,0.989890397,-0.043139461,9.82E-01
0.027854938,0.97314769,-0.165956929,9.75E-01
0.0280814,0.942711651,-0.284586042,9.70E-01
0.028307864,0.899375319,-0.398106664,9.67E-01
0.028534326,0.843771398,-0.505628407,9.68E-01
0.02876079,0.776493073,-0.606211424,9.70E-01
0.028987252,0.69824177,-0.698969841,9.76E-01
0.029213716,0.609579802,-0.783505082,9.85E-01
0.029440178,0.509601295,-0.859210491,9.98E-01
0.029666642,0.397667766,-0.922699332,1.01E+00
0.029893104,0.276195258,-0.970605791,1.02E+00
0.030119568,0.148212761,-1.00133896,1.02E+00
0.03034603,0.016598523,-1.01398945,1.03E+00
0.030572492,-0.115676239,-1.00812292,1.03E+00
0.030798956,-0.245572329,-0.983893156,1.03E+00
0.031025418,-0.370148212,-0.942095876,1.02E+00
0.031251882,-0.486747921,-0.884123504,1.02E+00
0.031478344,-0.59315908,-0.811858654,1.01E+00
0.031704808,-0.687721968,-0.727518022,1.00E+00
0.03193127,-0.769396484,-0.633482873,9.93E-01
0.032157734,-0.837805986,-0.532117724,9.85E-01
0.032384196,-0.893311739,-0.42549035,9.79E-01
0.03261066,-0.936856508,-0.314687818,9.77E-01
0.032837122,-0.968465924,-0.199471265,9.78E-01
0.033063584,-0.986574769,-0.080531009,9.80E-01
0.033290048,-0.990396857,0.040097088,9.82E-01
0.03351651,-0.979967654,0.160704851,9.86E-01
0.033742972,-0.955285013,0.279892653,9.91E-01
0.033969436,-0.916237295,0.396165788,9.96E-01
0.0341959,-0.862787008,0.507777512,1.00E+00
0.034422364,-0.795160174,0.612730145,1.01E+00
0.034648824,-0.713995993,0.708866,1.01E+00
0.034875288,-0.620450616,0.794022202,1.02E+00
0.035101752,-0.516227186,0.866228878,1.02E+00
0.035328216,-0.403522938,0.923934937,1.02E+00
0.035554676,-0.284847528,0.966240346,1.01E+00
0.03578114,-0.162605494,0.993051946,1.01E+00
0.036007604,-0.038451359,1.00467491,1.01E+00
0.036234064,0.086303145,1.00065303,1.01E+00
0.036460528,0.209157333,0.98041147,1.00E+00
0.036686992,0.327291429,0.944786251,1.00E+00
0.036913456,0.438771397,0.895356953,9.94E-01
0.037139916,0.542376459,0.833669126,9.89E-01
0.03736638,0.637252927,0.761061251,9.85E-01
0.037592844,0.722713768,0.678670704,9.83E-01
0.037819308,0.798107386,0.58748436,9.82E-01
0.038045768,0.86273545,0.488420099,9.83E-01
0.038272232,0.915821135,0.382431298,9.85E-01
0.038498696,0.956542909,0.270611674,9.88E-01
0.038725156,0.984141469,0.15425989,9.92E-01
0.03895162,0.998069048,0.034825902,9.97E-01
0.039178084,0.998018086,-0.086346835,1.00E+00
0.039404548,0.983433366,-0.20818913,1.01E+00
0.039631008,0.953088582,-0.329011858,1.02E+00
0.039857472,0.90636766,-0.445794761,1.02E+00
0.040083936,0.844127238,-0.555419743,1.02E+00
0.0403104,0.768009126,-0.655473173,1.02E+00
0.04053686,0.679929435,-0.744145811,1.02E+00
0.040763324,0.581945658,-0.820103765,1.01E+00
0.040989788,0.476181626,-0.882455528,1.01E+00
0.041216248,0.36473608,-0.930725217,9.99E-01
0.041442712,0.249594539,-0.964802742,9.93E-01
0.041669176,0.132565409,-0.984878123,9.88E-01
0.04189564,0.015236675,-0.991367877,9.83E-01
0.0421221,-0.101062141,-0.984856129,9.80E-01
0.042348564,-0.215345323,-0.966012836,9.80E-01
0.042575028,-0.327082992,-0.935329616,9.82E-01
0.042801492,-0.435903817,-0.892576993,9.87E-01
0.043027952,-0.54057771,-0.836939633,9.93E-01
0.043254416,-0.638912976,-0.768254757,9.98E-01
0.04348088,-0.728779137,-0.687291145,1.00E+00
0.04370734,-0.808418989,-0.59520179,1.01E+00
0.043933804,-0.876280606,-0.493331522,1.01E+00
0.044160268,-0.93096453,-0.383266509,1.01E+00
0.044386732,-0.971293449,-0.266872287,1.01E+00
0.044613192,-0.996416092,-0.14626725,1.01E+00
0.044839656,-1.00590038,-0.023737658,1.01E+00
0.04506612,-0.999792218,0.098385058,1.01E+00
0.045292584,-0.978633106,0.217881575,1.01E+00
0.045519044,-0.943413019,0.332829177,1.00E+00
0.045745508,-0.895401239,0.441813797,9.97E-01
0.045971972,-0.83572799,0.544008613,9.94E-01
0.046198432,-0.764951944,0.638698518,9.93E-01
0.046424896,-0.683506012,0.724561632,9.92E-01
0.04665136,-0.592520356,0.800056756,9.91E-01
0.046877824,-0.493561983,0.864153206,9.90E-01
0.047104284,-0.388105929,0.916264653,9.90E-01
0.047330748,-0.277447373,0.955944538,9.91E-01
0.047557212,-0.162816659,0.982739151,9.92E-01
0.047783676,-0.04550314,0.996176243,9.94E-01
0.048010136,0.073059753,0.99581939,9.97E-01
0.0482366,0.191259146,0.981361985,1.00E+00
0.048463064,0.307320714,0.952730715,1.00E+00
0.048689524,0.419394523,0.910182416,1.00E+00
0.048915988,0.525712848,0.854338348,1.01E+00
0.049142452,0.624773085,0.786065459,1.01E+00
0.049368916,0.715323031,0.706159413,1.01E+00
0.049595376,0.795883656,0.615244865,1.01E+00
0.04982184,0.86450845,0.514439702,1.01E+00
0.050048304,0.919520676,0.405776709,1.01E+00
0.050274768,0.960074723,0.291661263,1.01E+00
0.050501228,0.985993207,0.17434676,1.00E+00
0.050727692,0.997478426,0.055803862,9.98E-01
0.050954156,0.994943738,-0.062259309,9.94E-01
0.051180616,0.978919208,-0.178356394,9.90E-01
0.05140708,0.949993491,-0.291177869,9.87E-01
0.051633544,0.908785582,-0.399544954,9.86E-01
0.051860008,0.855940044,-0.502371669,9.85E-01
0.052086468,0.79213649,-0.598657608,9.86E-01
0.052312932,0.718068361,-0.687517464,9.88E-01
0.052539396,0.634318829,-0.768179655,9.92E-01
0.05276586,0.541197658,-0.839753091,9.98E-01
0.05299232,0.438998312,-0.900762916,1.00E+00
0.053218784,0.328747988,-0.94925797,1.01E+00
0.053445248,0.212372392,-0.983605027,1.01E+00
0.053671708,0.092173711,-1.00287187,1.01E+00
0.053898172,-0.029530469,-1.00669205,1.01E+00
0.054124636,-0.150493622,-0.995119154,1.01E+00
0.0543511,-0.268574059,-0.968576431,1.01E+00
0.05457756,-0.381790638,-0.927827299,1.01E+00
0.054804024,-0.488386601,-0.873932838,1.00E+00
0.055030488,-0.586893618,-0.808189094,9.98E-01
0.055256952,-0.676177144,-0.732039571,9.93E-01
0.055483412,-0.755470574,-0.646968305,9.89E-01
0.055709876,-0.82437247,-0.554337442,9.87E-01
0.05593634,-0.882717788,-0.455173552,9.86E-01
0.0561628,-0.93018496,-0.350075036,9.88E-01
0.056389264,-0.965911329,-0.239630803,9.90E-01
0.056615728,-0.988783002,-0.125013769,9.93E-01
0.056842192,-0.998032808,-0.007898837,9.96E-01
0.057068652,-0.993333578,0.109955475,9.99E-01
0.057295116,-0.974608123,0.226845995,1.00E+00
0.05752158,-0.941942036,0.341071844,1.00E+00
0.057748044,-0.895613194,0.45088771,1.01E+00
0.057974504,-0.836153746,0.554518282,1.01E+00
0.058200968,-0.764403522,0.650221407,1.01E+00
0.058427432,-0.681528032,0.736387968,1.01E+00
0.058653892,-0.588986337,0.811655521,1.01E+00
0.058880356,-0.488431096,0.875018835,1.00E+00
0.05910682,-0.381521434,0.925876021,1.00E+00
0.059333284,-0.269697458,0.963896573,1.00E+00
0.059559744,-0.154177934,0.988670766,1.00E+00
0.059786208,-0.036383696,0.999561191,1.00E+00
0.060012672,0.081780471,0.996147394,9.99E-01
0.060239136,0.198281407,0.978610814,9.97E-01
0.060465596,0.311359435,0.947582662,9.95E-01
0.06069206,0.419583321,0.903854251,9.93E-01
0.060918524,0.521742463,0.848231316,9.92E-01
0.061144984,0.616736412,0.781508625,9.91E-01
0.061371448,0.703510702,0.704498947,9.91E-01
0.061597912,0.781030118,0.618081927,9.92E-01
0.061824376,0.848295689,0.523252249,9.93E-01
0.062050836,0.904394984,0.421143174,9.95E-01
0.0622773,0.948566198,0.31299296,9.98E-01
0.062503764,0.980208457,0.200046495,1.00E+00
0.062730228,0.998738289,0.08346913,1.00E+00
0.062956688,1.00336456,-0.035472374,1.01E+00
0.063183152,0.993233144,-0.154983521,1.01E+00
0.063409616,0.967995107,-0.27271238,1.01E+00
0.063636076,0.928076625,-0.386243999,1.01E+00
0.06386254,0.874469697,-0.493486315,1.01E+00
0.064089004,0.808462441,-0.59274441,1.00E+00
0.064315468,0.731486022,-0.682678819,1.00E+00
0.064541928,0.645033836,-0.762257516,9.97E-01
0.064768392,0.550609291,-0.830718696,9.93E-01
0.064994856,0.449682951,-0.887535155,9.90E-01
0.06522132,0.343660057,-0.932383299,9.87E-01
0.06544778,0.233843103,-0.965109587,9.86E-01
0.065674244,0.121380471,-0.985685408,9.86E-01
0.065900708,0.007207985,-0.994087934,9.88E-01
0.066127168,-0.107892767,-0.990072787,9.92E-01
0.066353632,-0.222948045,-0.973029792,9.96E-01
0.066580096,-0.336392164,-0.942288876,1.00E+00
0.06680656,-0.446168572,-0.89765799,1.00E+00
0.06703302,-0.550171316,-0.839569151,1.01E+00
0.067259488,-0.646493137,-0.768896759,1.01E+00
0.067485944,-0.733457565,-0.686803401,1.01E+00
0.067712408,-0.809610724,-0.594681978,1.01E+00
0.067938872,-0.873748243,-0.494130939,1.01E+00
0.068165336,-0.924956083,-0.386910111,1.01E+00
0.0683918,-0.962654173,-0.274877161,1.00E+00
0.068618264,-0.98661685,-0.159892038,9.99E-01
0.068844728,-0.996961296,-0.043704767,9.96E-01
0.069071184,-0.994067669,0.072175503,9.93E-01
0.069297648,-0.978392839,0.186564714,9.92E-01
0.069524112,-0.950206637,0.298499674,9.92E-01
0.069750576,-0.909521699,0.406878084,9.93E-01
0.06997704,-0.856438279,0.510212123,9.94E-01
0.070203504,-0.791494489,0.606855154,9.95E-01
0.070429968,-0.715608895,0.695337772,9.96E-01
0.070656432,-0.62986213,0.774439514,9.96E-01
0.070882888,-0.535394669,0.843106389,9.97E-01
0.071109352,-0.433416605,0.900381088,9.99E-01
0.071335816,-0.325253427,0.945396423,1.00E+00
0.07156228,-0.212376356,0.977415025,1.00E+00
0.071788744,-0.096397936,0.995889664,1.00E+00
0.072015208,0.020973757,1.00053,1.00E+00
0.072241672,0.138028696,0.99133569,1.00E+00
0.072468128,0.253173262,0.968558192,1.00E+00
0.072694592,0.364994168,0.932551444,1.00E+00
0.072921056,0.472125918,0.883604288,1.00E+00
0.07314752,0.572973192,0.822030187,1.00E+00
0.073373984,0.665702403,0.748541355,1.00E+00
0.073600448,0.748620749,0.664419413,1.00E+00
0.073826912,0.820476353,0.571289241,1.00E+00
0.074053368,0.880460083,0.470833033,9.97E-01
0.074279832,0.928075075,0.364654183,9.94E-01
0.074506296,0.963024199,0.254250824,9.92E-01
0.07473276,0.985140443,0.14103584,9.90E-01
0.074959224,0.994352698,0.026364274,9.89E-01
0.075185688,0.990682364,-0.088443905,9.89E-01
0.075412152,0.974247873,-0.202101946,9.90E-01
0.075638616,0.94525975,-0.313378125,9.92E-01
0.075865072,0.903966367,-0.421123117,9.94E-01
0.076091536,0.850543022,-0.524215162,9.98E-01
0.076318,0.785060287,-0.621339619,1.00E+00
0.076544464,0.707750618,-0.71077323,1.01E+00
0.076770928,0.619415045,-0.790544748,1.01E+00
0.076997392,0.521501899,-0.858873308,1.01E+00
0.077223856,0.415852368,-0.914441764,1.01E+00
0.077450312,0.304446399,-0.956405282,1.01E+00
0.077676776,0.189267755,-0.984315813,1.00E+00
0.07790324,0.072242759,-0.998062253,1.00E+00
0.078129704,-0.044809002,-0.997822702,9.98E-01
0.078356168,-0.160215542,-0.984023809,9.94E-01
0.078582632,-0.272493601,-0.957289159,9.91E-01
0.078809096,-0.380383492,-0.918378949,9.88E-01
0.079035552,-0.482874066,-0.868093789,9.87E-01
0.079262016,-0.579174042,-0.807140172,9.87E-01
0.07948848,-0.668559194,-0.735998452,9.89E-01
0.079714944,-0.750082135,-0.654957473,9.92E-01
0.079941408,-0.822407782,-0.564447105,9.95E-01
0.080167872,-0.884032488,-0.465375364,9.98E-01
0.080394336,-0.933642685,-0.359115481,1.00E+00
0.0806208,-0.97025913,-0.247292519,1.00E+00
0.080847256,-0.993207216,-0.131635085,1.00E+00
0.08107372,-1.00207019,-0.013932874,1.00E+00
0.081300184,-0.99668771,0.103977978,1.00E+00
0.081526648,-0.977178693,0.220247149,1.00E+00
0.081753112,-0.943957686,0.333069056,1.00E+00
0.081979576,-0.897729516,0.440762371,1.00E+00
0.08220604,-0.83944273,0.54185921,9.98E-01
0.082432496,-0.770183265,0.635172784,9.97E-01
0.08265896,-0.691014171,0.719787598,9.96E-01
0.082885424,-0.602848053,0.794899583,9.95E-01
0.083111888,-0.506529629,0.859578431,9.95E-01
0.083338352,-0.403128862,0.912731171,9.96E-01
0.083564816,-0.294104785,0.953378677,9.95E-01
0.08379128,-0.181142151,0.980901897,9.95E-01
0.084017736,-0.065918297,0.995039046,9.94E-01
0.0842442,0.049993191,0.995755851,9.94E-01
0.084470664,0.165104106,0.983151674,9.94E-01
0.084697128,0.277969241,0.957430482,9.94E-01
0.084923592,0.387154579,0.91891557,9.94E-01
0.085150056,0.491240263,0.868079484,9.95E-01
0.08537652,0.588853955,0.805568516,9.96E-01
0.085602984,0.678726435,0.732196331,9.97E-01
0.08582944,0.759735644,0.648884654,9.98E-01
0.086055904,0.830875456,0.556567073,1.00E+00
0.086282368,0.8911165,0.456164032,1.00E+00
0.086508832,0.93927449,0.348759621,1.00E+00
0.086735296,0.974154592,0.235871181,1.00E+00
0.08696176,0.994906545,0.119457692,1.00E+00
0.087188224,1.00122404,0.001643484,1.00E+00
0.08741468,0.99328351,-0.115552843,1.00E+00
0.087641144,0.971582949,-0.230333284,9.97E-01
0.087867608,0.936818123,-0.341130674,9.94E-01
0.088094072,0.889804363,-0.446585268,9.91E-01
0.088320536,0.831431448,-0.545518458,9.89E-01
0.088547,0.762635112,-0.636911333,9.87E-01
0.088773464,0.684371591,-0.719892621,9.87E-01
0.08899992,0.597579837,-0.793723583,9.87E-01
0.089226384,0.503125548,-0.857757747,9.89E-01
0.089452848,0.401762754,-0.911326587,9.92E-01
0.089679312,0.294221401,-0.953564167,9.96E-01
0.089905776,0.181484818,-0.983350277,1.00E+00
0.09013224,0.065047599,-0.999557793,1.00E+00
0.090358704,-0.053143375,-1.00141799,1.01E+00
0.090585168,-0.170962974,-0.988679349,1.01E+00
0.090811624,-0.286333382,-0.961553156,1.01E+00
0.091038088,-0.397321224,-0.920606852,1.01E+00
0.091264552,-0.502175689,-0.866692245,1.00E+00
0.091491016,-0.599357545,-0.800891399,1.00E+00
0.09171748,-0.687569797,-0.724469721,9.98E-01
0.091943944,-0.765787244,-0.638811827,9.95E-01
0.092170408,-0.833271682,-0.545343637,9.92E-01
0.092396864,-0.88955301,-0.445430875,9.90E-01
0.092623328,-0.934348166,-0.340275019,9.89E-01
0.092849792,-0.967389762,-0.230871812,9.89E-01
0.093076256,-0.988233507,-0.118137613,9.91E-01
0.09330272,-0.996248126,-0.003190546,9.93E-01
0.093529184,-0.990874171,0.112479545,9.94E-01
0.093755648,-0.971883893,0.22713232,9.96E-01
0.093982104,-0.939424336,0.339001924,9.97E-01
0.094208568,-0.893924475,0.446415007,9.98E-01
0.094435032,-0.836014867,0.547802389,9.99E-01
0.094661496,-0.766508877,0.641688943,9.99E-01
0.09488796,-0.686406732,0.726703703,9.99E-01
0.095114424,-0.596899092,0.801618278,9.99E-01
0.095340888,-0.499345601,0.865399063,9.98E-01
0.095567352,-0.395217061,0.917257369,9.98E-01
0.095793808,-0.28600204,0.956662536,9.97E-01
0.096020272,-0.173106939,0.983282208,9.97E-01
0.096246736,-0.057831902,0.996838987,9.97E-01
0.0964732,0.058490451,0.996996284,9.97E-01
0.096699664,0.174287677,0.983445883,9.98E-01
0.096926128,0.287734598,0.956178963,9.97E-01
0.097152592,0.3969827,0.915632904,9.96E-01
0.097379048,0.50038445,0.862608612,9.94E-01
0.097605512,0.596560597,0.798099577,9.93E-01
0.097831976,0.684360445,0.723178804,9.91E-01
0.09805844,0.762802064,0.638952553,9.90E-01
0.098284904,0.831029952,0.546559334,9.89E-01
0.098511368,0.888301313,0.447179377,9.89E-01
0.098737832,0.933991671,0.34203729,9.89E-01
0.098964296,0.967606068,0.232383907,9.90E-01
