Frequency (GHz),Re( S21 ),Im( S21 ),S2
0,-0.042037059,-5.77E-05,1.77E-03
0.000226517,-0.03793991,0.018542225,1.78E-03
0.000453033,-0.026360175,0.033685442,1.83E-03
0.00067955,-0.009441369,0.042537548,1.90E-03
0.000906066,0.009677025,0.043422587,1.98E-03
0.001132583,0.027473895,0.036158707,2.06E-03
0.001359099,0.040548556,0.022032859,2.13E-03
0.001585616,0.046474271,0.003637268,2.17E-03
0.001812132,0.044079818,-0.015625762,2.19E-03
0.002038649,0.033729501,-0.032160018,2.17E-03
0.002265165,0.017270947,-0.042833865,2.13E-03
0.002491682,-0.002284611,-0.045563549,2.08E-03
0.002718198,-0.021301391,-0.039714005,2.03E-03
0.002944715,-0.036178973,-0.026240919,2.00E-03
0.003171231,-0.044023689,-0.007556058,2.00E-03
0.003397748,-0.043303043,0.0129397,2.04E-03
0.003624264,-0.033807255,0.03142963,2.13E-03
0.003850781,-0.017215995,0.044353459,2.26E-03
0.004077297,0.003544978,0.049160767,2.43E-03
0.004303814,0.024690371,0.04474669,2.61E-03
0.00453033,0.042268004,0.031696886,2.79E-03
0.004756847,0.052886326,0.012218137,2.95E-03
0.004983364,0.0543526,-0.010220124,3.06E-03
0.00520988,0.046109527,-0.031483509,3.12E-03
0.005436397,0.029393718,-0.047507864,3.12E-03
0.005662913,0.007079597,-0.055048753,3.08E-03
0.00588943,-0.016779121,-0.052320577,3.02E-03
0.006115946,-0.037664514,-0.039399404,2.97E-03
0.006342463,-0.051409889,-0.018266011,2.98E-03
0.006568979,-0.054992504,0.007464071,3.08E-03
0.006795496,-0.047136989,0.032968108,3.31E-03
0.007022012,-0.028571533,0.05352423,3.68E-03
0.007248529,-0.00215697,0.064977944,4.23E-03
0.007475045,0.027459938,0.064258568,4.88E-03
0.007701562,0.054973915,0.050928172,5.62E-03
0.007928078,0.075097479,0.026707355,6.35E-03
0.008154595,0.083591715,-0.004532289,7.01E-03
0.008381111,0.078104757,-0.037328146,7.49E-03
0.008607627,0.058734272,-0.065487906,7.74E-03
0.008834144,0.028241105,-0.083154008,7.71E-03
0.00906066,-0.008298513,-0.085910797,7.45E-03
0.009287177,-0.044074375,-0.071579896,7.07E-03
0.009513693,-0.071531102,-0.040964369,6.79E-03
0.00974021,-0.08364743,0.001948642,7.00E-03
0.009966727,-0.075247295,0.050276727,8.19E-03
0.010193243,-0.044067964,0.095084123,1.10E-02
0.01041976,0.008400702,0.126777276,1.61E-02
0.010646276,0.077191934,0.136686683,2.46E-02
0.010872793,0.152599379,0.117783166,3.72E-02
0.011099309,0.223789856,0.067520075,5.46E-02
0.011325826,0.278754473,-0.012603666,7.79E-02
0.011552342,0.306277275,-0.116226353,1.07E-01
0.011778859,0.298310429,-0.234430835,1.44E-01
0.012005375,0.249495596,-0.354366452,1.88E-01
0.012231892,0.159326777,-0.46225813,2.39E-01
0.012458408,0.031906784,-0.544571221,2.98E-01
0.012684925,-0.124405824,-0.589429498,3.63E-01
0.012911441,-0.297712237,-0.587842464,4.34E-01
0.013137958,-0.473636001,-0.534839749,5.10E-01
0.013364474,-0.636571348,-0.43015933,5.90E-01
0.013590991,-0.771184862,-0.278377891,6.72E-01
0.013817507,-0.863987029,-0.088645443,7.54E-01
0.014044024,-0.904737651,0.126038715,8.34E-01
0.01427054,-0.887559175,0.350007355,9.10E-01
0.014497057,-0.811612248,0.566455722,9.80E-01
0.014723573,-0.681209564,0.759155333,1.04E+00
0.01495009,-0.505322874,0.914142013,1.09E+00
0.015176606,-0.296569675,1.02114475,1.13E+00
0.015403123,-0.0697864,1.0744288,1.16E+00
0.015629639,0.159888431,1.07332361,1.18E+00
0.015856156,0.377190053,1.02496576,1.19E+00
0.016082672,0.563243687,0.922247708,1.17E+00
0.016309189,0.72609508,0.786724508,1.15E+00
0.016535705,0.851542652,0.628346086,1.12E+00
0.016762222,0.938505113,0.456661284,1.09E+00
0.016988738,0.988639772,0.280914307,1.06E+00
0.017215254,1.00564754,0.108595796,1.02E+00
0.017441772,0.994386196,-0.054989096,9.92E-01
0.017668288,0.959974229,-0.206714466,9.64E-01
0.017894804,0.907028794,-0.345298856,9.42E-01
0.01812132,0.839110374,-0.47072944,9.26E-01
0.018347838,0.758428514,-0.583428204,9.16E-01
0.018574354,0.666664243,-0.683253169,9.11E-01
0.01880087,0.564170241,-0.779818952,9.26E-01
0.019027386,0.454400659,-0.845339775,9.21E-01
0.019253904,0.338208139,-0.908475459,9.40E-01
0.01948042,0.205088675,-0.962701619,9.69E-01
0.019706936,0.061073273,-0.993271053,9.90E-01
0.019933454,-0.088238567,-1.00138628,1.01E+00
0.02015997,-0.239544451,-0.985699117,1.03E+00
0.020386486,-0.388457924,-0.945226669,1.04E+00
0.020613002,-0.530037582,-0.880150914,1.06E+00
0.02083952,-0.659324467,-0.79202044,1.06E+00
0.021066036,-0.771839142,-0.683699727,1.06E+00
0.021292552,-0.863995612,-0.559137821,1.06E+00
0.021519068,-0.933378875,-0.423030317,1.05E+00
0.021745586,-0.978909314,-0.280465126,1.04E+00
0.021972102,-1.00100422,-0.136496603,1.02E+00
0.022198618,-1.00148499,0.004437832,1.00E+00
0.022425134,-0.983587682,0.138818681,9.87E-01
0.022651652,-0.952034771,0.266711861,9.78E-01
0.022878168,-0.904882967,0.390222818,9.71E-01
0.023104684,-0.842272818,0.504409552,9.64E-01
0.0233312,-0.767589688,0.608199775,9.59E-01
0.023557718,-0.682356715,0.701737642,9.58E-01
0.023784234,-0.58724767,0.784830928,9.61E-01
0.02401075,-0.48263815,0.856793106,9.67E-01
0.024237266,-0.368950695,0.916425288,9.76E-01
0.024463784,-0.246954262,0.962096155,9.87E-01
0.0246903,-0.118009135,0.99193567,9.98E-01
0.024916816,0.015781764,1.00412536,1.01E+00
0.025143332,0.151559457,0.997271001,1.02E+00
0.02536985,0.28589952,0.970786035,1.02E+00
0.025596366,0.415204495,0.925208032,1.03E+00
0.025822882,0.536622643,0.862393737,1.03E+00
0.026049398,0.649320245,0.783555865,1.04E+00
0.026275916,0.750095427,0.68776679,1.04E+00
0.026502432,0.834254444,0.578255773,1.03E+00
0.026728948,0.900344312,0.45949477,1.02E+00
0.026955464,0.948263705,0.335049927,1.01E+00
0.027181982,0.978487372,0.207891926,1.00E+00
0.027408498,0.991888583,0.080468401,9.90E-01
0.027635014,0.989555955,-0.045302086,9.81E-01
0.02786153,0.97259742,-0.16797848,9.74E-01
0.028088048,0.941988885,-0.286470115,9.69E-01
0.028314564,0.898509383,-0.399867684,9.67E-01
0.02854108,0.842776716,-0.507283986,9.68E-01
0.028767596,0.775371492,-0.607777059,9.71E-01
0.028994114,0.696986794,-0.700460672,9.76E-01
0.02922063,0.608158171,-0.784941554,9.86E-01
0.029447146,0.507936478,-0.860556662,9.99E-01
0.029673662,0.395750433,-0.923851669,1.01E+00
0.02990018,0.274068624,-0.971498191,1.02E+00
0.030126696,0.145922288,-1.00192332,1.03E+00
0.030353212,0.01420125,-1.01422441,1.03E+00
0.03057973,-0.118109584,-1.00798047,1.03E+00
0.030806246,-0.247961909,-0.983366251,1.03E+00
0.031032762,-0.372413814,-0.941200495,1.02E+00
0.031259278,-0.488816708,-0.882899463,1.02E+00
0.031485796,-0.59497416,-0.810364008,1.01E+00
0.031712312,-0.689247847,-0.725823283,1.00E+00
0.031938828,-0.770622909,-0.631663263,9.93E-01
0.032165344,-0.838749409,-0.530242622,9.85E-01
0.032391862,-0.894016623,-0.423609346,9.79E-01
0.032618378,-0.937373459,-0.312802285,9.77E-01
0.032844894,-0.968795478,-0.197560266,9.78E-01
0.03307141,-0.986703753,-0.078615196,9.80E-01
0.033297928,-0.990340948,0.042000052,9.83E-01
0.033524444,-0.979737222,0.162597895,9.86E-01
0.03375096,-0.954871953,0.28178069,9.91E-01
0.033977476,-0.915621519,0.398044765,9.97E-01
0.034203992,-0.861943841,0.509628117,1.00E+00
0.034430508,-0.794066846,0.614516854,1.01E+00
0.034657028,-0.712642133,0.71053952,1.01E+00
0.034883544,-0.618842304,0.795525134,1.02E+00
0.03511006,-0.514391959,0.867504001,1.02E+00
0.035336576,-0.401507556,0.924934804,1.02E+00
0.035563092,-0.282711625,0.966939151,1.01E+00
0.035789608,-0.160402417,0.993447483,1.01E+00
0.036016124,-0.036213148,1.00476313,1.01E+00
0.03624264,0.088525005,1.00040829,1.01E+00
0.03646916,0.211277783,0.979844511,1.00E+00
0.036695676,0.329250008,0.943950236,9.99E-01
0.036922192,0.44054091,0.894311965,9.94E-01
0.037148708,0.543952763,0.832467198,9.89E-01
0.037375224,0.638645351,0.75974226,9.85E-01
0.03760174,0.723938048,0.677260339,9.83E-01
0.037828256,0.79918015,0.585995555,9.82E-01
0.038054772,0.863667846,0.486854196,9.83E-01
0.038281292,0.916615307,0.380783498,9.85E-01
0.038507808,0.957191825,0.268876851,9.89E-01
0.038734324,0.984630823,0.152436167,9.93E-01
0.03896084,0.998382449,0.032913916,9.98E-01
0.039187356,0.998131812,-0.088350847,1.00E+00
0.039413872,0.98329556,-0.210283667,1.01E+00
0.039640388,0.952634394,-0.331144333,1.02E+00
0.039866908,0.905575693,-0.447876573,1.02E+00
0.040093424,0.84301734,-0.557372749,1.02E+00
0.04031994,0.766616642,-0.657236278,1.02E+00
0.040546456,0.678301513,-0.745670736,1.02E+00
0.040772972,0.58013761,-0.821356893,1.01E+00
0.040999488,0.474253953,-0.883419812,1.01E+00
0.041226004,0.362747312,-0.931399941,9.99E-01
0.04145252,0.247597918,-0.965203464,9.93E-01
0.04167904,0.130602717,-0.985031545,9.87E-01
0.041905556,0.013335722,-0.991308987,9.83E-01
0.042132072,-0.10289041,-0.984623134,9.80E-01
0.042358588,-0.21711047,-0.965639353,9.80E-01
0.042585104,-0.328815371,-0.934827209,9.82E-01
0.04281162,-0.437625378,-0.891916692,9.87E-01
0.043038136,-0.542267859,-0.836083293,9.93E-01
0.043264652,-0.640534222,-0.767190933,9.99E-01
0.043491172,-0.730300128,-0.686020672,1.00E+00
0.043717688,-0.809808254,-0.593726158,1.01E+00
0.043944204,-0.877500832,-0.49165681,1.01E+00
0.04417072,-0.931974292,-0.381409436,1.01E+00
0.044397236,-0.972051919,-0.264863759,1.02E+00
0.044623752,-0.996889412,-0.144151419,1.01E+00
0.044850268,-1.00606775,-0.021570031,1.01E+00
0.045076784,-0.999650598,0.100543603,1.01E+00
0.045303304,-0.978197753,0.21997267,1.01E+00
0.04552982,-0.942717314,0.334806591,1.00E+00
0.045756336,-0.894486666,0.443653405,9.97E-01
0.045982852,-0.834621966,0.545705795,9.94E-01
0.046209368,-0.763661683,0.640239656,9.93E-01
0.046435884,-0.682053506,0.725914776,9.92E-01
0.0466624,-0.590948343,0.801204085,9.91E-01
0.046888916,-0.491909027,0.865101159,9.90E-01
0.047115436,-0.38639462,0.917028487,9.90E-01
0.047341952,-0.275686324,0.956535578,9.91E-01
0.047568468,-0.161007419,0.983160555,9.93E-01
0.047794984,-0.04364739,0.996421754,9.95E-01
0.0480215,0.074956596,0.995875478,9.97E-01
0.048248016,0.193182856,0.981210768,1.00E+00
0.048474532,0.309247881,0.952355981,1.00E+00
0.048701048,0.421294838,0.909574568,1.00E+00
0.048927568,0.527554691,0.853495479,1.01E+00
0.049154084,0.62653023,0.784988284,1.01E+00
0.0493806,0.716964006,0.70483923,1.01E+00
0.049607116,0.79735136,0.61367768,1.01E+00
0.049833632,0.8657341,0.512659967,1.01E+00
0.050060148,0.920462549,0.403850287,1.01E+00
0.050286664,0.960722446,0.289656311,1.01E+00
0.050513184,0.986357212,0.172321334,1.00E+00
0.0507397,0.997581065,0.053803593,9.98E-01
0.050966216,0.994812965,-0.064201236,9.94E-01
0.051192732,0.978584886,-0.180218816,9.90E-01
0.051419248,0.949484587,-0.29295063,9.87E-01
0.051645764,0.90812552,-0.401225686,9.86E-01
0.05187228,0.855146408,-0.503964663,9.85E-01
0.052098796,0.791219056,-0.600171566,9.86E-01
0.052325316,0.71702683,-0.688963771,9.89E-01
0.052551832,0.633134902,-0.769568741,9.93E-01
0.052778348,0.53983438,-0.841072142,9.99E-01
0.053004864,0.437428325,-0.901961446,1.00E+00
0.05323138,0.326981664,-0.95027113,1.01E+00
0.053457896,0.21044746,-0.984385848,1.01E+00
0.053684412,0.090134896,-1.00339055,1.01E+00
0.053910928,-0.031635962,-1.00692964,1.01E+00
0.054137448,-0.152616635,-0.995067477,1.01E+00
0.054363964,-0.270664036,-0.96823889,1.01E+00
0.05459048,-0.383799404,-0.927218556,1.01E+00
0.054816996,-0.490273207,-0.873079538,1.00E+00
0.055043512,-0.588626981,-0.807126045,9.98E-01
0.055270028,-0.677740395,-0.730806768,9.93E-01
0.055496544,-0.756862521,-0.645603061,9.90E-01
0.05572306,-0.825606644,-0.55286628,9.87E-01
0.05594958,-0.883810461,-0.453599095,9.87E-01
0.056176096,-0.931132376,-0.348382413,9.88E-01
0.056402612,-0.966683388,-0.237816319,9.91E-01
0.056629128,-0.98934859,-0.123098172,9.94E-01
0.056855644,-0.998376846,-0.0059107,9.97E-01
0.05708216,-0.99344629,0.111991405,9.99E-01
0.057308676,-0.974478781,0.228905633,1.00E+00
0.057535192,-0.941559076,0.343126714,1.00E+00
0.057761712,-0.894967854,0.452902228,1.01E+00
0.057988228,-0.835244477,0.556449354,1.01E+00
0.058214744,-0.763241827,0.65202409,1.01E+00
0.05844126,-0.680137634,0.738018453,1.01E+00
0.058667776,-0.587403357,0.813079178,1.01E+00
0.058894292,-0.486698121,0.87621516,1.00E+00
0.059120808,-0.379676878,0.926840603,1.00E+00
0.059347324,-0.267766446,0.964628875,1.00E+00
0.059573844,-0.152181551,0.989157975,1.00E+00
0.05980036,-0.034362104,0.999786258,1.00E+00
0.060026876,0.083773792,0.99611634,9.99E-01
0.060253392,0.200204983,0.978353143,9.97E-01
0.060479908,0.313193232,0.947134197,9.95E-01
0.060706424,0.421324015,0.903245568,9.93E-01
0.06093294,0.523395002,0.847482383,9.92E-01
0.06115946,0.618308485,0.780627966,9.92E-01
0.061385976,0.705006421,0.703485668,9.92E-01
0.061612492,0.782447755,0.616930127,9.93E-01
0.061839008,0.849626124,0.521953762,9.94E-01
0.062065524,0.90562284,0.419690013,9.96E-01
0.06229204,0.949672878,0.311379373,9.99E-01
0.062518556,0.981168509,0.198264107,1.00E+00
0.062745072,0.999509513,0.081510164,1.01E+00
0.062971592,1.00388348,-0.037593868,1.01E+00
0.063198108,0.993440449,-0.1572133,1.01E+00
0.063424624,0.967863977,-0.27497232,1.01E+00
0.06365114,0.927612841,-0.388457805,1.01E+00
0.063877656,0.873699903,-0.495591551,1.01E+00
0.064104172,0.807423592,-0.594693244,1.01E+00
0.064330688,0.730221748,-0.684436619,1.00E+00
0.064557204,0.643590748,-0.763803601,9.98E-01
0.064783724,0.549032748,-0.832045436,9.94E-01
0.06501024,0.448013157,-0.88864702,9.90E-01
0.065236756,0.341928899,-0.933293581,9.88E-01
0.065463272,0.23207137,-0.965839446,9.87E-01
0.065689788,0.119572006,-0.98625654,9.87E-01
0.065916304,0.005348636,-0.994511068,9.89E-01
0.06614282,-0.109823771,-0.990332901,9.93E-01
0.066369336,-0.224951744,-0.973086119,9.97E-01
0.066595856,-0.338437527,-0.942101836,1.00E+00
0.066822372,-0.448209018,-0.897209644,1.01E+00
0.067048888,-0.552161217,-0.83885783,1.01E+00
0.0672754,-0.648391306,-0.767929196,1.01E+00
0.06750192,-0.735223293,-0.685592711,1.01E+00
0.06772844,-0.811205328,-0.593249619,1.01E+00
0.067954952,-0.875136197,-0.492507428,1.01E+00
0.068181472,-0.926110744,-0.385135323,1.01E+00
0.068407984,-0.963560462,-0.272996396,1.00E+00
0.068634504,-0.987273574,-0.157951504,1.00E+00
0.068861016,-0.997381687,-0.041743599,9.97E-01
0.069087536,-0.994273663,0.074132346,9.94E-01
0.069314056,-0.978402317,0.188509896,9.93E-01
0.069540568,-0.950019002,0.300430954,9.93E-01
0.069767088,-0.909125566,0.408777803,9.94E-01
0.0699936,-0.855834782,0.512047052,9.95E-01
0.07022012,-0.790701747,0.608597577,9.96E-01
0.070446632,-0.714649796,0.696974039,9.96E-01
0.070673152,-0.628752291,0.775965273,9.97E-01
0.070899672,-0.534142017,0.844517469,9.99E-01
0.071126184,-0.432024717,0.901669443,1.00E+00
0.071352704,-0.32372579,0.946549416,1.00E+00
0.071579216,-0.210719585,0.978414416,1.00E+00
0.071805736,-0.094623745,0.996717393,1.00E+00
0.072032248,0.022848928,1.00116944,1.00E+00
0.072258768,0.139987677,0.991775215,1.00E+00
0.07248528,0.255201995,0.968785346,1.00E+00
0.0727118,0.367080271,0.932545185,1.00E+00
0.07293832,0.47424221,0.883333027,1.01E+00
0.073164832,0.575066447,0.821468472,1.01E+00
0.073391352,0.66770637,0.747694016,1.00E+00
0.073617864,0.750481904,0.663318157,1.00E+00
0.073844384,0.822162092,0.56997484,1.00E+00
0.074070896,0.881953061,0.469345331,9.98E-01
0.074297416,0.929368258,0.363026589,9.96E-01
0.074523936,0.964115381,0.252512008,9.93E-01
0.074750448,0.986029267,0.139209121,9.92E-01
0.074976968,0.995040953,0.0244701,9.91E-01
0.07520348,0.991172552,-0.090388879,9.91E-01
0.07543,0.974542558,-0.204084277,9.91E-01
0.075656512,0.945359826,-0.315390497,9.93E-01
0.075883032,0.903865278,-0.423163563,9.96E-01
0.076109544,0.850217164,-0.526277184,1.00E+00
0.076336064,0.784476161,-0.623394489,1.00E+00
0.076562584,0.706888914,-0.712764502,1.01E+00
0.076789096,0.618288994,-0.792408824,1.01E+00
0.077015616,0.520148098,-0.86056155,1.01E+00
0.077242128,0.41431573,-0.91592586,1.01E+00
0.077468648,0.302769989,-0.95767194,1.01E+00
0.07769516,0.187491164,-0.985363483,1.01E+00
0.07792168,0.070398964,-0.998896778,1.00E+00
0.0781482,-0.04669353,-0.998455763,9.99E-01
0.078374712,-0.162122771,-0.984470308,9.95E-01
0.078601232,-0.274414569,-0.957566023,9.92E-01
0.078827744,-0.38231951,-0.918498755,9.90E-01
0.079054264,-0.484837174,-0.868059993,9.89E-01
0.079280776,-0.58118099,-0.80693841,9.89E-01
0.079507296,-0.670615494,-0.735590756,9.91E-01
0.079733816,-0.752162635,-0.65429461,9.94E-01
0.079960328,-0.824457109,-0.563497007,9.97E-01
0.080186848,-0.885986686,-0.464134246,1.00E+00
0.08041336,-0.93544656,-0.357599705,1.00E+00
0.08063988,-0.971865714,-0.245527893,1.00E+00
0.080866392,-0.994575143,-0.129654258,1.01E+00
0.081092912,-1.00316465,-0.011776726,1.01E+00
0.081319424,-0.997483015,0.106260829,1.01E+00
0.081545944,-0.977660656,0.222603083,1.01E+00
0.081772464,-0.944126844,0.33544299,1.00E+00
0.081998976,-0.897601485,0.443104655,1.00E+00
0.082225496,-0.839043856,0.544131935,1.00E+00
0.082452008,-0.769541502,0.637354195,9.98E-01
0.082678528,-0.690148592,0.721867561,9.97E-01
0.08290504,-0.601763844,0.796865225,9.97E-01
0.08313156,-0.50523144,0.861401379,9.97E-01
0.08335808,-0.401639581,0.914376616,9.97E-01
0.083584592,-0.292462349,0.954826117,9.97E-01
0.083811112,-0.179382846,0.982149661,9.97E-01
0.084037624,-0.064066574,0.996094465,9.96E-01
0.084264144,0.05192396,0.996626258,9.96E-01
0.084490656,0.167107835,0.983838618,9.96E-01
0.084717176,0.280040205,0.957929313,9.96E-01
0.084943688,0.389284998,0.919216633,9.97E-01
0.085170208,0.493418783,0.868170738,9.97E-01
0.085396728,0.591066062,0.805438757,9.98E-01
0.08562324,0.680956364,0.731833279,9.99E-01
0.08584976,0.761966169,0.648272395,1.00E+00
0.086076272,0.833082676,0.555681944,1.00E+00
0.086302792,0.893254757,0.454980403,1.00E+00
0.086529304,0.941276312,0.347271949,1.01E+00
0.086755824,0.975951672,0.234107226,1.01E+00
0.086982344,0.996450603,0.117469072,1.01E+00
0.087208856,1.00249326,-0.000513999,1.00E+00
0.087435376,0.99427098,-0.117831305,1.00E+00
0.087661888,0.972290874,-0.232693002,9.99E-01
0.087888408,0.937251568,-0.343539923,9.96E-01
0.08811492,0.889968872,-0.449017584,9.94E-01
0.08834144,0.831332147,-0.547950983,9.91E-01
0.088567952,0.762276232,-0.639324546,9.90E-01
0.088794472,0.68375504,-0.722268641,9.89E-01
0.089020992,0.596702456,-0.796046197,9.90E-01
0.089247504,0.501977146,-0.860008538,9.92E-01
0.089474024,0.400323838,-0.913472652,9.95E-01
0.089700536,0.292478085,-0.955546796,9.99E-01
0.089927056,0.179452643,-0.985093296,1.00E+00
0.090153568,0.062779158,-1.00099206,1.01E+00
0.090380088,-0.055573057,-1.00250268,1.01E+00
0.090606608,-0.173476011,-0.989402592,1.01E+00
0.09083312,-0.288859576,-0.961924613,1.01E+00
0.09105964,-0.399801344,-0.920652568,1.01E+00
0.091286152,-0.504562914,-0.866448045,1.01E+00
0.091512672,-0.601620018,-0.800401449,1.00E+00
0.091739184,-0.68969208,-0.723780453,1.00E+00
0.091965704,-0.767771244,-0.637966275,9.96E-01
0.092192224,-0.835135043,-0.544374645,9.94E-01
0.092418736,-0.891323805,-0.444352478,9.92E-01
0.092645256,-0.936054409,-0.339077055,9.91E-01
0.092871768,-0.969040453,-0.229521573,9.92E-01
0.093098288,-0.98980701,-0.116599068,9.93E-01
0.0933248,-0.997699499,-0.001447868,9.95E-01
0.09355132,-0.992157459,0.114418954,9.97E-01
0.093777832,-0.972962618,0.229247898,9.99E-01
0.094004352,-0.940268755,0.341269791,1.00E+00
0.094230872,-0.89450562,0.448806942,1.00E+00
0.094457384,-0.836307347,0.550282657,1.00E+00
0.094683904,-0.766493082,0.6442132,1.00E+00
0.094910416,-0.686075032,0.729221523,1.00E+00
0.095136936,-0.596257687,0.804077864,1.00E+00
0.095363448,-0.498414487,0.867754221,1.00E+00
0.095589968,-0.394024909,0.919473886,1.00E+00
0.095816488,-0.284578234,0.958718836,1.00E+00
0.096043,-0.171472877,0.985163689,1.00E+00
0.09626952,-0.056003541,0.998526812,1.00E+00
0.096496032,0.060489405,0.998462021,1.00E+00
0.096722552,0.176416323,0.984669507,1.00E+00
0.096949064,0.289946765,0.957161844,1.00E+00
0.097175584,0.399245709,0.916396081,9.99E-01
0.097402096,0.502688229,0.86317718,9.98E-01
0.097628616,0.59891206,0.798489511,9.96E-01
0.097855136,0.686774909,0.723389208,9.95E-01
0.098081648,0.76529336,0.63896662,9.94E-01
0.098308168,0.83360368,0.546345949,9.93E-01
0.09853468,0.890950561,0.446698785,9.93E-01
0.0987612,0.936694324,0.341245323,9.94E-01
0.098987712,0.970324397,0.231235772,9.95E-01
0.099214232,0.991443753,0.117908746,9.97E-01
