Frequency (GHz),Re( S21 ),Im( S21 ),S2
0,-0.04234172,-5.55E-05,1.79E-03
0.000226391,-0.038224731,0.018650461,1.81E-03
0.000452782,-0.026590053,0.033887055,1.86E-03
0.000679172,-0.009586805,0.042808905,1.92E-03
0.000905563,0.009636767,0.043730598,2.01E-03
0.001131954,0.027549747,0.036471888,2.09E-03
0.001358345,0.040736452,0.022301178,2.16E-03
0.001584736,0.046754327,0.003822115,2.20E-03
0.001811126,0.044418588,-0.015555857,2.21E-03
0.002037517,0.034081832,-0.032224231,2.20E-03
0.002263908,0.017585374,-0.04303398,2.16E-03
0.002490299,-0.002059833,-0.045881573,2.11E-03
0.00271669,-0.021210099,-0.04011197,2.06E-03
0.00294308,-0.036250103,-0.026664795,2.03E-03
0.003169471,-0.044264287,-0.007936766,2.02E-03
0.003395862,-0.043646708,0.012596674,2.06E-03
0.003622253,-0.034285359,0.031316441,2.16E-03
0.003848644,-0.017723458,0.044436961,2.29E-03
0.004075034,0.003089729,0.049446769,2.45E-03
0.004301425,0.024368992,0.045207311,2.64E-03
0.004527816,0.042148102,0.032270405,2.82E-03
0.004754207,0.053008173,0.01281655,2.97E-03
0.004980598,0.054718565,-0.009698865,3.09E-03
0.005206989,0.046679009,-0.031139474,3.15E-03
0.005433379,0.03008545,-0.047421243,3.15E-03
0.00565977,0.007780624,-0.055263408,3.11E-03
0.005886161,-0.016198967,-0.052831575,3.05E-03
0.006112552,-0.037327275,-0.040142626,3.00E-03
0.006338943,-0.051404502,-0.019130614,3.01E-03
0.006565333,-0.055357993,0.006621869,3.11E-03
0.006791724,-0.04785325,0.032305624,3.33E-03
0.007018115,-0.029547054,0.053182833,3.70E-03
0.007244506,-0.003247961,0.065051429,4.24E-03
0.007470897,0.026434839,0.064786658,4.90E-03
0.007697287,0.054206129,0.051866192,5.63E-03
0.007923678,0.074753337,0.027930101,6.37E-03
0.008150069,0.08377979,-0.003217172,7.03E-03
0.00837646,0.07884939,-0.03615433,7.52E-03
0.00860285,0.059961718,-0.064694636,7.78E-03
0.008829241,0.029771464,-0.082953557,7.77E-03
0.009055632,-0.006731689,-0.086422399,7.51E-03
0.009282023,-0.042783227,-0.072817467,7.13E-03
0.009508413,-0.070835248,-0.042810075,6.85E-03
0.009734804,-0.083817966,-0.000253109,7.03E-03
0.009961195,-0.076451227,0.048085768,8.16E-03
0.010187586,-0.046322879,0.093340688,1.09E-02
0.010413977,0.005256358,0.125926226,1.59E-02
0.010640367,0.073492989,0.137106702,2.42E-02
0.010866758,0.148837462,0.119725049,3.65E-02
0.011093149,0.220545262,0.071039736,5.37E-02
0.01131954,0.276623964,-0.007667813,7.66E-02
0.011545931,0.305790931,-0.11025621,1.06E-01
0.011772321,0.299853295,-0.227978721,1.42E-01
0.011998712,0.253257573,-0.348116457,1.85E-01
0.012225103,0.165265515,-0.456945091,2.36E-01
0.012451494,0.03974149,-0.540904582,2.94E-01
0.012677885,-0.115178309,-0.588023841,3.59E-01
0.012904275,-0.287782758,-0.589149296,4.30E-01
0.013130666,-0.46382755,-0.539085388,5.06E-01
0.013357057,-0.627770007,-0.437309772,5.85E-01
0.013583448,-0.76425463,-0.288125426,6.67E-01
0.013809839,-0.859682322,-0.100421026,7.49E-01
0.014036229,-0.903620124,0.113025106,8.29E-01
0.01426262,-0.889932632,0.336698294,9.05E-01
0.014489011,-0.817479253,0.553855419,9.75E-01
0.014715402,-0.690266013,0.748227477,1.04E+00
0.014941793,-0.51698643,0.905706882,1.09E+00
0.015168183,-0.310042202,1.01579511,1.13E+00
0.015394574,-0.084145792,1.07247818,1.16E+00
0.015620965,0.145572245,1.07476473,1.18E+00
0.015847356,0.364037424,1.02919567,1.19E+00
0.016073747,0.551535904,0.929759085,1.17E+00
0.016300137,0.716581821,0.796195865,1.15E+00
0.016526528,0.844490647,0.639182448,1.12E+00
0.016752919,0.933964252,0.468195707,1.09E+00
0.01697931,0.98647815,0.292549759,1.06E+00
0.0172057,1.00560093,0.119859658,1.03E+00
0.017432092,0.996118724,-0.044422425,9.94E-01
0.017658482,0.963137865,-0.197024316,9.66E-01
0.017884872,0.911314189,-0.336541444,9.44E-01
0.018111264,0.844286382,-0.462878525,9.27E-01
0.018337654,0.764355361,-0.57643801,9.17E-01
0.018564046,0.673223674,-0.677076936,9.12E-01
0.018790436,0.571453869,-0.77422899,9.26E-01
0.019016826,0.462171823,-0.840739906,9.20E-01
0.019243218,0.346505463,-0.904303133,9.38E-01
0.019469608,0.214599863,-0.95976913,9.67E-01
0.019696,0.071182236,-0.991734743,9.89E-01
0.01992239,-0.077690296,-1.00138319,1.01E+00
0.02014878,-0.228811949,-0.987395883,1.03E+00
0.020375172,-0.377875,-0.948728204,1.04E+00
0.020601562,-0.519983768,-0.885467291,1.05E+00
0.020827954,-0.650185943,-0.799051821,1.06E+00
0.021054344,-0.763969839,-0.692238748,1.06E+00
0.021280734,-0.857682943,-0.568886518,1.06E+00
0.021507126,-0.928817451,-0.433624297,1.05E+00
0.021733516,-0.97618264,-0.291505635,1.04E+00
0.021959908,-1.00007236,-0.147594392,1.02E+00
0.022186298,-1.00220191,-0.006378533,1.00E+00
0.022412688,-0.985678375,0.128529683,9.88E-01
0.02263908,-0.955267072,0.256840795,9.79E-01
0.02286547,-0.909417629,0.380956173,9.72E-01
0.023091862,-0.847840548,0.495959252,9.65E-01
0.023318252,-0.77401042,0.600557268,9.60E-01
0.023544642,-0.689546824,0.694887221,9.58E-01
0.023771034,-0.595173895,0.778782189,9.61E-01
0.023997424,-0.49129194,0.851597548,9.67E-01
0.024223816,-0.378321439,0.91218102,9.75E-01
0.024450206,-0.257002801,0.958945334,9.86E-01
0.024676596,-0.12864323,0.990047038,9.97E-01
0.024902988,0.004721483,1.00366867,1.01E+00
0.025129378,0.140301242,0.998385251,1.02E+00
0.02535577,0.274724334,0.973543525,1.02E+00
0.02558216,0.404411077,0.929587305,1.03E+00
0.02580855,0.526431382,0.868284047,1.03E+00
0.026034942,0.639887571,0.790982902,1.04E+00
0.026261332,0.741862178,0.696667552,1.04E+00
0.026487724,0.827504694,0.58827424,1.03E+00
0.026714114,0.895183802,0.47029388,1.02E+00
0.026940504,0.944722652,0.346328229,1.01E+00
0.027166896,0.976535738,0.219379738,1.00E+00
0.027393286,0.991450667,0.091938645,9.91E-01
0.027619678,0.990529656,-0.03402764,9.82E-01
0.027846068,0.974875569,-0.157030731,9.75E-01
0.028072458,0.945475459,-0.275942743,9.70E-01
0.02829885,0.903128088,-0.389832556,9.68E-01
0.02852524,0.848471224,-0.49780643,9.68E-01
0.028751632,0.782097101,-0.598923683,9.70E-01
0.028978022,0.704702497,-0.692290366,9.76E-01
0.029204412,0.616878986,-0.777483284,9.85E-01
0.029430804,0.517792225,-0.853974521,9.97E-01
0.029657194,0.406682014,-0.918492317,1.01E+00
0.029883586,0.285855711,-0.967593014,1.02E+00
0.030109976,0.158333957,-0.999628723,1.02E+00
0.030336366,0.026981827,-1.0136615,1.03E+00
0.030562758,-0.105247587,-1.00922203,1.03E+00
0.030789148,-0.235324368,-0.986420453,1.03E+00
0.03101554,-0.360303611,-0.946005404,1.02E+00
0.03124193,-0.477513075,-0.889326334,1.02E+00
0.03146832,-0.584712744,-0.818227708,1.01E+00
0.031694712,-0.680205941,-0.734898806,1.00E+00
0.031921102,-0.762910545,-0.641705811,9.94E-01
0.032147494,-0.832402825,-0.541010797,9.86E-01
0.032373884,-0.888994277,-0.434905767,9.79E-01
0.032600274,-0.933609128,-0.324548334,9.77E-01
0.032826666,-0.966359317,-0.209732011,9.78E-01
0.033053056,-0.985701382,-0.091052435,9.80E-01
0.033279448,-0.990779281,0.029472947,9.83E-01
0.033505838,-0.981610954,0.150109649,9.86E-01
0.033732228,-0.958199203,0.26945433,9.91E-01
0.03395862,-0.920431554,0.386025608,9.96E-01
0.034185012,-0.868258715,0.498094976,1.00E+00
0.0344114,-0.801881492,0.603680968,1.01E+00
0.034637792,-0.721906781,0.70063597,1.01E+00
0.034864184,-0.629449308,0.786795199,1.02E+00
0.035090572,-0.526171029,0.860172927,1.02E+00
0.035316964,-0.414231658,0.919185221,1.02E+00
0.035543356,-0.296119004,0.962884367,1.01E+00
0.035769744,-0.174249455,0.991125107,1.01E+00
0.035996136,-0.050317984,1.00420725,1.01E+00
0.036222528,0.074396707,1.00171542,1.01E+00
0.03644892,0.197465584,0.983010352,1.01E+00
0.036675308,0.316040605,0.948837757,1.00E+00
0.0369017,0.428131491,0.900748372,9.95E-01
0.037128092,0.532479644,0.840285361,9.90E-01
0.03735448,0.628208697,0.768791258,9.86E-01
0.037580872,0.714617193,0.687409222,9.83E-01
0.037807264,0.791047394,0.597129762,9.82E-01
0.038033652,0.856799722,0.498870075,9.83E-01
0.038260044,0.911097288,0.393576413,9.85E-01
0.038486436,0.953116596,0.282329917,9.88E-01
0.038712828,0.982088089,0.16641286,9.92E-01
0.038939216,0.997445405,0.047266368,9.97E-01
0.039165608,0.998870969,-0.073755719,1.00E+00
0.039392,0.985841393,-0.19558835,1.01E+00
0.039618388,0.957143366,-0.316626787,1.02E+00
0.03984478,0.912065804,-0.433915883,1.02E+00
0.040071172,0.851375163,-0.544311702,1.02E+00
0.04029756,0.776667535,-0.645357847,1.02E+00
0.040523952,0.689830303,-0.735207796,1.02E+00
0.040750344,0.59289974,-0.812491596,1.01E+00
0.040976736,0.487986445,-0.876279771,1.01E+00
0.041203124,0.377183199,-0.926057935,1.00E+00
0.041429516,0.262479872,-0.961681664,9.94E-01
0.041655908,0.14569509,-0.983309269,9.88E-01
0.041882296,0.028432759,-0.991332769,9.84E-01
0.042108688,-0.087956369,-0.986316144,9.81E-01
0.04233508,-0.202455789,-0.9689219,9.80E-01
0.042561468,-0.31450361,-0.939662337,9.82E-01
0.04278786,-0.423744202,-0.898362994,9.87E-01
0.043014252,-0.529027045,-0.844208062,9.93E-01
0.043240644,-0.62819469,-0.776959717,9.98E-01
0.043467032,-0.719094038,-0.697334588,1.00E+00
0.043693424,-0.799947321,-0.606461227,1.01E+00
0.043919816,-0.869191587,-0.505660713,1.01E+00
0.044146204,-0.925411642,-0.39648971,1.01E+00
0.044372596,-0.967406631,-0.28078407,1.01E+00
0.044598988,-0.994291246,-0.160635129,1.01E+00
0.044825376,-1.00559103,-0.038312167,1.01E+00
0.045051768,-1.00130403,0.083859861,1.01E+00
0.04527816,-0.98192215,0.203651994,1.01E+00
0.045504552,-0.948392689,0.319114327,1.00E+00
0.04573094,-0.901960135,0.428788602,9.97E-01
0.045957332,-0.843770862,0.531809211,9.95E-01
0.046183724,-0.774411082,0.627475083,9.93E-01
0.046410112,-0.694279492,0.714503527,9.93E-01
0.046636504,-0.604443431,0.79132849,9.92E-01
0.046862896,-0.506454229,0.856868684,9.91E-01
0.047089284,-0.401796639,0.910507262,9.90E-01
0.047315676,-0.291772753,0.95178628,9.91E-01
0.047542068,-0.177611664,0.980247021,9.92E-01
0.047768456,-0.06059264,0.995411694,9.95E-01
0.047994848,0.057866871,0.996833086,9.97E-01
0.04822124,0.176171035,0.984184742,1.00E+00
0.048447632,0.292560011,0.957365453,1.00E+00
0.04867402,0.405189097,0.916595697,1.00E+00
0.048900412,0.512281179,0.862460256,1.01E+00
0.049126804,0.612312019,0.795804799,1.01E+00
0.049353192,0.704022229,0.717428327,1.01E+00
0.049579584,0.785967827,0.627937376,1.01E+00
0.049805976,0.856215179,0.52836895,1.01E+00
0.050032364,0.913027287,0.420682371,1.01E+00
0.050258756,0.955480933,0.307264715,1.01E+00
0.050485148,0.983342171,0.19038035,1.00E+00
0.05071154,0.996774137,0.072017789,9.99E-01
0.050937928,0.996161401,-0.046096463,9.94E-01
0.05116432,0.982011735,-0.162458047,9.91E-01
0.051390712,0.954899311,-0.275740921,9.88E-01
0.0516171,0.915430009,-0.384751558,9.86E-01
0.051843492,0.864238501,-0.488392055,9.85E-01
0.052069884,0.80199492,-0.58564949,9.86E-01
0.052296272,0.72938931,-0.675623298,9.88E-01
0.052522664,0.647016108,-0.757535517,9.92E-01
0.052749056,0.555200338,-0.830520689,9.98E-01
0.052975448,0.454201072,-0.893159807,1.00E+00
0.053201836,0.344953775,-0.943509877,1.01E+00
0.053428228,0.229314938,-0.97988224,1.01E+00
0.05365462,0.109560877,-1.00127876,1.01E+00
0.053881008,-0.011997867,-1.00727892,1.01E+00
0.0541074,-0.13311559,-0.997888625,1.01E+00
0.054333792,-0.251645297,-0.973482609,1.01E+00
0.05456018,-0.365589887,-0.934777796,1.01E+00
0.054786572,-0.473168552,-0.882793307,1.00E+00
0.055012964,-0.572878599,-0.818790555,9.99E-01
0.055239356,-0.66354531,-0.74418956,9.94E-01
0.055465744,-0.744355857,-0.660463393,9.90E-01
0.055692136,-0.814866781,-0.568986535,9.88E-01
0.055918528,-0.874890506,-0.470816702,9.87E-01
0.056144916,-0.924126983,-0.366579086,9.88E-01
0.056371308,-0.961751282,-0.256834865,9.91E-01
0.0565977,-0.986634195,-0.142697513,9.94E-01
0.056824088,-0.99795872,-0.025815584,9.97E-01
0.05705048,-0.995359123,0.092049368,9.99E-01
0.057276872,-0.978734195,0.209190741,1.00E+00
0.057503264,-0.948149681,0.32391119,1.00E+00
0.057729652,-0.903856218,0.434471846,1.01E+00
0.057956044,-0.846352458,0.539100289,1.01E+00
0.058182436,-0.776439309,0.636050463,1.01E+00
0.058408824,-0.695240796,0.723697066,1.01E+00
0.058635216,-0.604178965,0.800650597,1.01E+00
0.058861608,-0.50488019,0.865865171,1.00E+00
0.059087996,-0.39899829,0.918697953,1.00E+00
0.059314388,-0.287985176,0.95879674,1.00E+00
0.05954078,-0.173053756,0.985760808,1.00E+00
0.059767172,-0.055574533,0.998946726,1.00E+00
0.05999356,0.062594101,0.997871697,1.00E+00
0.060219952,0.179414272,0.982640624,9.98E-01
0.060446344,0.293093085,0.953834355,9.96E-01
0.060672732,0.402167767,0.91221875,9.94E-01
0.060899124,0.505403161,0.858583033,9.93E-01
0.061125516,0.601682186,0.793708861,9.92E-01
0.061351904,0.689935505,0.718393087,9.92E-01
0.061578296,0.769114971,0.633499205,9.93E-01
0.061804688,0.838204801,0.540002346,9.94E-01
0.06203108,0.896270931,0.439017355,9.96E-01
0.062257468,0.942525268,0.331772864,9.98E-01
0.06248386,0.976346254,0.2195144,1.00E+00
0.062710252,0.997150838,0.103408061,1.01E+00
0.06293664,1.00416195,-0.015312347,1.01E+00
0.063163032,0.996497869,-0.134921357,1.01E+00
0.063389424,0.973725379,-0.253107995,1.01E+00
0.063615812,0.936183691,-0.367443383,1.01E+00
0.063842204,0.884806573,-0.475795835,1.01E+00
0.064068596,0.820845008,-0.576428294,1.01E+00
0.064294988,0.745705307,-0.66796118,1.00E+00
0.064521376,0.660864413,-0.749324858,9.98E-01
0.064747768,0.567815483,-0.819721103,9.94E-01
0.06497416,0.468024671,-0.878588974,9.91E-01
0.065200548,0.362898231,-0.925572991,9.88E-01
0.06542694,0.253747523,-0.960492313,9.87E-01
0.065653332,0.141735107,-0.983298659,9.87E-01
0.06587972,0.027816955,-0.993966401,9.89E-01
0.066106112,-0.087223217,-0.992275596,9.92E-01
0.066332504,-0.202456743,-0.977638066,9.97E-01
0.066558896,-0.31638819,-0.949350834,1.00E+00
0.066785284,-0.426994622,-0.907144666,1.01E+00
0.067011676,-0.532158852,-0.851378262,1.01E+00
0.067238064,-0.629948199,-0.782872617,1.01E+00
0.067464456,-0.718657136,-0.702747762,1.01E+00
0.067690848,-0.796801686,-0.61235863,1.01E+00
0.06791724,-0.863138855,-0.513269007,1.01E+00
0.068143632,-0.916710675,-0.40721184,1.01E+00
0.068370024,-0.956885338,-0.29602623,1.00E+00
0.068596408,-0.983384669,-0.181569606,1.00E+00
0.0688228,-0.996273577,-0.065603279,9.97E-01
0.069049192,-0.995895445,0.050335188,9.94E-01
0.069275584,-0.98269546,0.165027544,9.93E-01
0.069501976,-0.956958711,0.277501196,9.93E-01
0.069728368,-0.918699384,0.386685878,9.94E-01
0.06995476,-0.867970943,0.491128355,9.95E-01
0.070181144,-0.805245459,0.589176238,9.96E-01
0.070407536,-0.731397092,0.679325163,9.96E-01
0.070633928,-0.647482574,0.760322392,9.97E-01
0.07086032,-0.554625034,0.831089914,9.98E-01
0.071086712,-0.454014599,0.890651464,9.99E-01
0.071313104,-0.34695214,0.938117623,1.00E+00
0.071539488,-0.234882787,0.972720683,1.00E+00
0.07176588,-0.119396478,0.993876398,1.00E+00
0.071992272,-0.002187657,1.00124764,1.00E+00
0.072218664,0.115033537,0.994786143,1.00E+00
0.072445056,0.230658352,0.974703074,1.00E+00
0.072671448,0.343257099,0.941332459,1.00E+00
0.07289784,0.451471835,0.894954085,1.00E+00
0.073124224,0.553738415,0.835842133,1.01E+00
0.073350616,0.648227632,0.764627397,1.00E+00
0.073577008,0.733198345,0.682513893,1.00E+00
0.0738034,0.807328105,0.591087639,1.00E+00
0.074029792,0.869745195,0.492023498,9.99E-01
0.074256184,0.919905245,0.386928469,9.96E-01
0.074482568,0.957475305,0.277309358,9.94E-01
0.07470896,0.982259154,0.164585754,9.92E-01
0.074935352,0.994161844,0.050119195,9.91E-01
0.075161744,0.993181407,-0.064765871,9.91E-01
0.075388136,0.979413867,-0.178776279,9.91E-01
0.075614528,0.953051865,-0.290672153,9.93E-01
0.07584092,0.914334655,-0.399295479,9.95E-01
0.076067304,0.863439977,-0.503532171,9.99E-01
0.076293696,0.800430954,-0.602107644,1.00E+00
0.076520088,0.725479424,-0.693349183,1.01E+00
0.07674648,0.639287174,-0.775290906,1.01E+00
0.076972872,0.54321295,-0.846102715,1.01E+00
0.077199264,0.439044982,-0.904395342,1.01E+00
0.077425656,0.328736275,-0.949253321,1.01E+00
0.07765204,0.214259818,-0.980163395,1.01E+00
0.077878432,0.097540297,-0.996951163,1.00E+00
0.078104824,-0.019593328,-0.999736071,1.00E+00
0.078331216,-0.135448486,-0.988889992,9.96E-01
0.078557608,-0.248511195,-0.964991271,9.93E-01
0.078784,-0.357483566,-0.92876476,9.90E-01
0.079010384,-0.461311162,-0.880994022,9.89E-01
0.079236776,-0.559167266,-0.822391927,9.89E-01
0.079463168,-0.650319695,-0.753458261,9.91E-01
0.07968956,-0.733850181,-0.674482703,9.93E-01
0.079915952,-0.808454275,-0.585846901,9.97E-01
0.080142344,-0.872615695,-0.488386363,1.00E+00
0.080368736,-0.924970448,-0.383421302,1.00E+00
0.08059512,-0.964486182,-0.272550732,1.00E+00
0.080821512,-0.990440428,-0.157490388,1.01E+00
0.081047904,-1.00237203,-0.040018931,1.01E+00
0.081274296,-1.00007534,0.078035988,1.01E+00
0.081500688,-0.983618438,0.194826335,1.01E+00
0.08172708,-0.953362405,0.30853942,1.00E+00
0.081953472,-0.909960687,0.417473972,1.00E+00
0.082179856,-0.854317188,0.520128727,1.00E+00
0.082406248,-0.787490666,0.615275621,9.99E-01
0.08263264,-0.710538268,0.701963663,9.98E-01
0.082859032,-0.624375284,0.779379547,9.97E-01
0.083085424,-0.52982223,0.846606374,9.97E-01
0.083311816,-0.427888244,0.902545333,9.98E-01
0.0835382,-0.319972396,0.946165681,9.98E-01
0.083764592,-0.207734868,0.976776063,9.97E-01
0.083990984,-0.092856608,0.994052351,9.97E-01
0.084217376,0.023075797,0.99791503,9.96E-01
0.084443768,0.13856481,0.988429546,9.96E-01
0.08467016,0.252157658,0.96576649,9.96E-01
0.084896552,0.3624143,0.930214763,9.97E-01
0.085122936,0.46790579,0.88220942,9.97E-01
0.085349328,0.567244112,0.822358251,9.98E-01
0.08557572,0.659135997,0.751440704,9.99E-01
0.085802112,0.742431223,0.670353353,1.00E+00
0.086028504,0.816105664,0.580018282,1.00E+00
0.086254896,0.879131973,0.481335193,1.00E+00
0.086481288,0.930330932,0.375332952,1.01E+00
0.086707672,0.968470573,0.263445586,1.01E+00
0.086934064,0.992612064,0.14757359,1.01E+00
0.087160456,1.00234795,0.029829698,1.01E+00
0.087386848,0.997769952,-0.087744497,1.00E+00
0.08761324,0.979312599,-0.203313485,1.00E+00
0.087839632,0.947625518,-0.315269083,9.97E-01
0.088066016,0.903489172,-0.422210187,9.95E-01
0.088292408,0.847768545,-0.522916973,9.92E-01
0.0885188,0.781383991,-0.616330981,9.90E-01
0.088745192,0.705282509,-0.701542616,9.90E-01
0.088971584,0.620406866,-0.77778101,9.90E-01
0.089197976,0.527635992,-0.844379127,9.91E-01
0.089424368,0.427737355,-0.900672138,9.94E-01
0.089650752,0.321430027,-0.945823371,9.98E-01
0.089877144,0.20963794,-0.978735209,1.00E+00
0.090103536,0.093773134,-0.998250961,1.01E+00
0.090329928,-0.024273999,-1.00352848,1.01E+00
0.09055632,-0.142396599,-0.994232595,1.01E+00
0.090782712,-0.258511901,-0.970501602,1.01E+00
0.091009104,-0.370670915,-0.932840347,1.01E+00
0.091235488,-0.477100968,-0.882042229,1.01E+00
0.09146188,-0.576232374,-0.819135427,1.00E+00
0.091688272,-0.666729093,-0.745337069,1.00E+00
0.091914664,-0.747517288,-0.661993384,9.97E-01
0.092141056,-0.817804158,-0.570505023,9.94E-01
0.092367448,-0.877066374,-0.472231448,9.92E-01
0.092593832,-0.92498064,-0.368384659,9.91E-01
0.092820224,-0.961265922,-0.259972543,9.92E-01
0.093046616,-0.985483468,-0.147896618,9.93E-01
0.093273008,-0.996990025,-0.033224244,9.95E-01
0.0934994,-0.995166659,0.082607932,9.97E-01
0.093725792,-0.979701698,0.197875485,9.99E-01
0.093952184,-0.950668335,0.310795784,1.00E+00
0.094178568,-0.908438981,0.41966626,1.00E+00
0.09440496,-0.853601336,0.522888184,1.00E+00
0.094631352,-0.78692919,0.618957579,1.00E+00
0.094857744,-0.709385097,0.706473231,1.00E+00
0.095084136,-0.622123957,0.784170032,1.00E+00
0.095310528,-0.526474953,0.850971758,1.00E+00
0.095536912,-0.423889309,0.906041384,1.00E+00
0.095763304,-0.315850168,0.948801994,1.00E+00
0.095989696,-0.20376879,0.978888512,1.00E+00
0.096216088,-0.08894331,0.996012628,1.00E+00
0.09644248,0.027327227,0.999829054,1.00E+00
0.096668872,0.143527225,0.989987731,1.00E+00
0.096895264,0.257868052,0.966391325,1.00E+00
0.097121648,0.368490458,0.929378986,1.00E+00
0.09734804,0.473705053,0.879674017,9.98E-01
0.097574432,0.572081745,0.818217397,9.97E-01
0.097800824,0.662421167,0.746044397,9.95E-01
0.098027216,0.743695498,0.664231777,9.94E-01
0.098253608,0.815004051,0.573893428,9.94E-01
0.09848,0.875557601,0.476188779,9.93E-01
0.098706384,0.924681783,0.372328818,9.94E-01
0.098932776,0.961833298,0.263561785,9.95E-01
