Frequency (GHz),Re( S21 ),Im( S21 ),S2
0,-0.04190778,-3.91E-05,1.76E-03
0.000226475,-0.037809752,0.018505909,1.77E-03
0.000452949,-0.026252566,0.033595905,1.82E-03
0.000679424,-0.009379893,0.042406205,1.89E-03
0.000905899,0.009722253,0.043332145,1.97E-03
0.001132374,0.027427018,0.036061056,2.05E-03
0.001358848,0.040462185,0.021957414,2.12E-03
0.001585323,0.046360958,0.003603681,2.16E-03
0.001811798,0.043960434,-0.015608057,2.18E-03
0.002038273,0.033626862,-0.032092497,2.16E-03
0.002264747,0.017205138,-0.042727903,2.12E-03
0.002491222,-0.002300387,-0.045438118,2.07E-03
0.002717697,-0.021263264,-0.039592199,2.02E-03
0.002944172,-0.036094312,-0.026146613,1.99E-03
0.003170646,-0.043911275,-0.007501251,1.98E-03
0.003397121,-0.043135248,0.012875998,2.03E-03
0.003623596,-0.03367237,0.031376015,2.12E-03
0.00385007,-0.017110542,0.044252168,2.25E-03
0.004076545,0.003604059,0.049029358,2.42E-03
0.00430302,0.024692783,0.0446073,2.60E-03
0.004529495,0.042213891,0.031572178,2.78E-03
0.00475597,0.052786071,0.012129126,2.93E-03
0.004982444,0.054224942,-0.010258084,3.05E-03
0.005208919,0.045977835,-0.031463634,3.10E-03
0.005435394,0.029282801,-0.047433715,3.11E-03
0.005661868,0.007009877,-0.054934882,3.07E-03
0.005888343,-0.016798139,-0.052188661,3.01E-03
0.006114818,-0.037631009,-0.039266579,2.96E-03
0.006341293,-0.051324938,-0.018152634,2.96E-03
0.006567767,-0.054866269,0.007538009,3.07E-03
0.006794242,-0.046989888,0.032989971,3.30E-03
0.007020717,-0.028425127,0.053487547,3.67E-03
0.007247192,-0.002026678,0.064867832,4.21E-03
0.007473666,0.027539782,0.064107694,4.87E-03
0.007700141,0.054989711,0.050760921,5.60E-03
0.007926616,0.075045832,0.026550898,6.34E-03
0.00815309,0.083481431,-0.004651279,6.99E-03
0.008379565,0.07795579,-0.037387315,7.47E-03
0.00860604,0.058578793,-0.065474674,7.72E-03
0.008832514,0.028101336,-0.083084479,7.69E-03
0.009058989,-0.008404658,-0.085779883,7.43E-03
0.009285464,-0.044120222,-0.071402438,7.04E-03
0.009511939,-0.071499012,-0.04076533,6.77E-03
0.009738413,-0.083530016,0.00213892,6.98E-03
0.009964888,-0.075049028,0.050426919,8.18E-03
0.010191363,-0.043805834,0.095165692,1.10E-02
0.010417837,0.008700793,0.126768202,1.61E-02
0.010644312,0.077502102,0.13654381,2.47E-02
0.010870787,0.152873516,0.117540605,3.72E-02
0.011097262,0.223990634,0.067190811,5.47E-02
0.011323736,0.278855711,-0.01299549,7.79E-02
0.011550211,0.306292146,-0.116654962,1.07E-01
0.011776686,0.298206091,-0.234860167,1.44E-01
0.012003161,0.249272823,-0.354764521,1.88E-01
0.012229635,0.159000203,-0.462593675,2.39E-01
0.01245611,0.031498816,-0.544818282,2.98E-01
0.012682585,-0.124866687,-0.58957088,3.63E-01
0.012909059,-0.298194081,-0.587870181,4.35E-01
0.013135534,-0.474106431,-0.534754097,5.11E-01
0.013362009,-0.637001097,-0.429969847,5.91E-01
0.013588484,-0.771549702,-0.278101772,6.73E-01
0.013814958,-0.864269018,-0.088305824,7.55E-01
0.014041433,-0.904926538,0.126414925,8.35E-01
0.014267908,-0.887653172,0.350391686,9.11E-01
0.014494383,-0.811617851,0.566821396,9.80E-01
0.014720857,-0.681141675,0.759478748,1.04E+00
0.014947332,-0.505201936,0.91440475,1.09E+00
0.015173807,-0.296419144,1.0213362,1.13E+00
0.015400281,-0.069630772,1.07454598,1.16E+00
0.015626756,0.160024196,1.07336187,1.18E+00
0.015853231,0.377421528,1.02482915,1.19E+00
0.016079706,0.563286543,0.922323525,1.17E+00
0.01630618,0.726089835,0.786751628,1.15E+00
0.016532655,0.851490021,0.628386378,1.12E+00
0.01675913,0.938414514,0.456741512,1.09E+00
0.016985604,0.988527298,0.281052142,1.06E+00
0.01721208,1.00553501,0.108802691,1.02E+00
0.017438554,0.9942981,-0.054709829,9.92E-01
0.017665028,0.959936321,-0.206367254,9.64E-01
0.017891504,0.907064497,-0.34489578,9.42E-01
0.018117978,0.839241922,-0.470290482,9.26E-01
0.018344452,0.758673608,-0.582985163,9.15E-01
0.018570928,0.667011321,-0.682843983,9.11E-01
0.018797402,0.564614713,-0.779398203,9.26E-01
0.019023878,0.454901576,-0.845074058,9.21E-01
0.019250352,0.338708788,-0.908148825,9.39E-01
0.019476826,0.205809593,-0.962545633,9.69E-01
0.019703302,0.06180907,-0.993270278,9.90E-01
0.019929776,-0.087504655,-1.00151682,1.01E+00
0.02015625,-0.238832593,-0.985953689,1.03E+00
0.020382726,-0.387787908,-0.945596397,1.04E+00
0.0206092,-0.529426932,-0.880623519,1.06E+00
0.020835674,-0.65878588,-0.792581975,1.06E+00
0.02106215,-0.771382153,-0.684335589,1.06E+00
0.021288624,-0.863626063,-0.559834898,1.06E+00
0.0215151,-0.933102071,-0.423775613,1.05E+00
0.021741574,-0.97872889,-0.281244397,1.04E+00
0.021968048,-1.00091863,-0.137295038,1.02E+00
0.022194524,-1.0014888,0.003634706,1.00E+00
0.022420998,-0.983650625,0.138020858,9.87E-01
0.022647472,-0.952147365,0.265832484,9.77E-01
0.022873948,-0.905173182,0.389301419,9.71E-01
0.023100422,-0.842713177,0.503517449,9.64E-01
0.023326896,-0.768167913,0.607350409,9.59E-01
0.023553372,-0.683071911,0.700949967,9.58E-01
0.023779846,-0.588096261,0.784128308,9.61E-01
0.024006322,-0.483610988,0.856202185,9.67E-01
0.024232796,-0.37003091,0.915971279,9.76E-01
0.02445927,-0.248119086,0.961802125,9.87E-01
0.024685746,-0.1192284,0.991817832,9.98E-01
0.02491222,0.014542271,1.00419378,1.01E+00
0.025138694,0.150336832,0.997525692,1.02E+00
0.02536517,0.284729332,0.971213222,1.02E+00
0.025591644,0.414113641,0.925779521,1.03E+00
0.025818118,0.535602868,0.863071144,1.03E+00
0.026044594,0.648339093,0.784373045,1.04E+00
0.026271068,0.749227464,0.688749909,1.04E+00
0.026497544,0.83353442,0.579352558,1.03E+00
0.026724018,0.899770498,0.460673004,1.02E+00
0.026950492,0.947834849,0.336292833,1.01E+00
0.027176968,0.978204966,0.209186748,1.00E+00
0.027403442,0.991756737,0.081804082,9.90E-01
0.027629916,0.989580989,-0.043937601,9.81E-01
0.027856392,0.972788036,-0.166599452,9.74E-01
0.028082866,0.942353725,-0.285095423,9.69E-01
0.02830934,0.899054706,-0.398520589,9.67E-01
0.028535816,0.843502879,-0.505992353,9.68E-01
0.02876229,0.776269078,-0.606568635,9.71E-01
0.028988766,0.698037565,-0.699353218,9.76E-01
0.02921524,0.609357476,-0.783930659,9.86E-01
0.029441714,0.509321272,-0.859670877,9.98E-01
0.02966819,0.397299379,-0.923171222,1.01E+00
0.029894664,0.275719792,-0.97105366,1.02E+00
0.030121138,0.14762798,-1.001719,1.03E+00
0.030347614,0.0159222,-1.0142585,1.03E+00
0.030574088,-0.116408892,-1.00824702,1.03E+00
0.030800562,-0.246313646,-0.983854055,1.03E+00
0.031027038,-0.370845735,-0.941894352,1.02E+00
0.031253512,-0.487352461,-0.883781612,1.02E+00
0.031479988,-0.59363246,-0.811414421,1.01E+00
0.031706462,-0.688042998,-0.727021396,1.00E+00
0.031932936,-0.769564748,-0.632987499,9.93E-01
0.032159412,-0.837840438,-0.531671822,9.85E-01
0.032385886,-0.893247366,-0.42512998,9.79E-01
0.03261236,-0.936735809,-0.314431697,9.76E-01
0.032838836,-0.96833384,-0.199322626,9.77E-01
0.03306531,-0.98647356,-0.08047574,9.80E-01
0.033291784,-0.990358353,0.040089738,9.82E-01
0.03351826,-0.980006933,0.160674214,9.86E-01
0.033744736,-0.955398142,0.279878646,9.91E-01
0.033971208,-0.916404366,0.396201402,9.97E-01
0.034197684,-0.862977386,0.507883012,1.00E+00
0.03442416,-0.795337379,0.612909734,1.01E+00
0.034650632,-0.714126408,0.709107399,1.01E+00
0.034877108,-0.620509148,0.79429996,1.02E+00
0.035103584,-0.516203523,0.866509378,1.02E+00
0.035330056,-0.403421491,0.924182296,1.02E+00
0.035556532,-0.284687996,0.966424584,1.02E+00
0.035783008,-0.162418082,0.993153155,1.01E+00
0.03600948,-0.038273074,1.00468636,1.01E+00
0.036235956,0.086433448,1.0005846,1.01E+00
0.036462432,0.209208012,0.980289936,1.00E+00
0.036688904,0.327245295,0.94464922,9.99E-01
0.03691538,0.438627422,0.895245671,9.94E-01
0.037141856,0.542149901,0.833622456,9.89E-01
0.037368328,0.636973023,0.761108935,9.85E-01
0.037594804,0.722418964,0.678829432,9.83E-01
0.03782128,0.797839403,0.587754726,9.82E-01
0.038047756,0.862532973,0.488787025,9.83E-01
0.038274228,0.915712655,0.382866144,9.85E-01
0.038500704,0.956545115,0.271078974,9.88E-01
0.03872718,0.984255373,0.154721051,9.93E-01
0.038953652,0.99828124,0.035246406,9.98E-01
0.039180128,0.998303771,-0.085991785,1.00E+00
0.039406604,0.98376143,-0.207911402,1.01E+00
0.039633076,0.953429163,-0.328809559,1.02E+00
0.039859552,0.906695306,-0.445654213,1.02E+00
0.040086028,0.844427049,-0.555319428,1.02E+00
0.0403125,0.768277049,-0.655387759,1.02E+00
0.040538976,0.680174232,-0.744051456,1.02E+00
0.040765452,0.58218652,-0.819984376,1.01E+00
0.040991924,0.476444393,-0.882305264,1.01E+00
0.0412184,0.365047365,-0.930550754,9.99E-01
0.041444876,0.249977097,-0.964623928,9.93E-01
0.041671348,0.133032382,-0.984723508,9.87E-01
0.041897824,0.015788794,-0.991271317,9.83E-01
0.0421243,-0.100437857,-0.984850585,9.80E-01
0.042350772,-0.214674026,-0.966125727,9.79E-01
0.042577248,-0.326398641,-0.935577631,9.82E-01
0.042803724,-0.435243666,-0.892964423,9.87E-01
0.0430302,-0.539979637,-0.837458611,9.93E-01
0.043256672,-0.63841033,-0.768884659,9.99E-01
0.043483148,-0.728395581,-0.688000977,1.00E+00
0.043709624,-0.808164299,-0.595956028,1.01E+00
0.043936096,-0.87615186,-0.494095534,1.01E+00
0.044162572,-0.930947363,-0.384011835,1.01E+00
0.044389048,-0.971366107,-0.267580509,1.02E+00
0.04461552,-0.996554613,-0.146931231,1.01E+00
0.044841996,-1.00608337,-0.024361331,1.01E+00
0.045068472,-1.00000513,0.09778963,1.01E+00
0.045294944,-0.978870451,0.217297629,1.01E+00
0.04552142,-0.943680882,0.332240671,1.00E+00
0.045747896,-0.895713866,0.441209078,9.97E-01
0.045974368,-0.836106539,0.543384433,9.94E-01
0.046200844,-0.765420258,0.638062119,9.93E-01
0.04642732,-0.684086621,0.723932683,9.92E-01
0.046653792,-0.593227565,0.799465477,9.91E-01
0.046880268,-0.494398177,0.86363548,9.90E-01
0.047106744,-0.38906014,0.915857077,9.90E-01
0.047333216,-0.278496414,0.955679715,9.91E-01
0.047559692,-0.163927719,0.982640862,9.92E-01
0.047786168,-0.046637446,0.996256888,9.95E-01
0.048012644,0.071942575,0.99607873,9.97E-01
0.048239116,0.190195456,0.981788099,1.00E+00
0.048465592,0.30633992,0.953301251,1.00E+00
0.048692068,0.418515891,0.910870969,1.00E+00
0.04891854,0.524944544,0.855116129,1.01E+00
0.049145016,0.624114454,0.786907673,1.01E+00
0.049371492,0.71476531,0.707047284,1.01E+00
0.049597964,0.795415878,0.616169095,1.01E+00
0.04982444,0.86412102,0.515398324,1.01E+00
0.050050916,0.919209361,0.406774461,1.01E+00
0.050277388,0.959841728,0.292705178,1.01E+00
0.050503864,0.985848904,0.175443873,1.00E+00
0.05073034,0.997439623,0.056956857,9.98E-01
0.050956812,0.995032847,-0.061054714,9.94E-01
0.051183288,0.979159355,-0.17711404,9.90E-01
0.051409764,0.950407028,-0.289921641,9.87E-01
0.051636236,0.909386992,-0.398307234,9.86E-01
0.051862712,0.856734872,-0.501190424,9.85E-01
0.052089188,0.793118834,-0.597573578,9.86E-01
0.05231566,0.719220877,-0.686568499,9.89E-01
0.052542136,0.635614395,-0.767398179,9.93E-01
0.052768612,0.542602241,-0.839162707,9.99E-01
0.052995088,0.4404746,-0.900378227,1.00E+00
0.05322156,0.33025676,-0.949082494,1.01E+00
0.053448036,0.213877544,-0.983633578,1.01E+00
0.053674512,0.093644358,-1.00309062,1.01E+00
0.053900984,-0.02811661,-1.00708175,1.02E+00
0.05412746,-0.149150878,-0.99566102,1.01E+00
0.054353936,-0.267310619,-0.969253182,1.01E+00
0.054580408,-0.380609214,-0.928626239,1.01E+00
0.054806884,-0.487290084,-0.874846876,1.00E+00
0.05503336,-0.585885048,-0.809214473,9.98E-01
0.055259832,-0.675264537,-0.733176708,9.94E-01
0.055486308,-0.75466615,-0.648216665,9.90E-01
0.055712784,-0.823693633,-0.555695355,9.87E-01
0.055939256,-0.882184625,-0.456633389,9.87E-01
0.056165732,-0.929819822,-0.351623654,9.88E-01
0.056392208,-0.96573627,-0.24124755,9.91E-01
0.05661868,-0.988815606,-0.126669824,9.94E-01
0.056845156,-0.998283267,-0.009559442,9.97E-01
0.057071632,-0.993802249,0.108327098,9.99E-01
0.057298104,-0.975286663,0.225285381,1.00E+00
0.05752458,-0.942813516,0.339609683,1.00E+00
0.057751056,-0.896655321,0.449548572,1.01E+00
0.057977532,-0.837341309,0.55331856,1.01E+00
0.058204004,-0.765713155,0.649170935,1.01E+00
0.05843048,-0.682938218,0.735490203,1.01E+00
0.058656956,-0.590480387,0.810910642,1.01E+00
0.058883428,-0.489997476,0.874426126,1.00E+00
0.059109904,-0.38315326,0.925437152,1.00E+00
0.05933638,-0.271390289,0.963617325,1.00E+00
0.059562852,-0.155926928,0.988562524,1.00E+00
0.059789328,-0.038180113,0.999641478,1.00E+00
0.060015804,0.079952955,0.996436,9.99E-01
0.060242276,0.196448594,0.979127467,9.97E-01
0.060468752,0.309554219,0.948341727,9.95E-01
0.060695228,0.417846143,0.90486306,9.93E-01
0.0609217,0.520117819,0.849487841,9.92E-01
0.061148176,0.61526978,0.78299886,9.92E-01
0.061374652,0.702244163,0.70619756,9.92E-01
0.061601124,0.779999316,0.619953334,9.93E-01
0.0618276,0.84752661,0.525253534,9.94E-01
0.062054076,0.903901935,0.423226684,9.96E-01
0.062280548,0.948351681,0.315112203,9.99E-01
0.062507024,0.980265081,0.202158511,1.00E+00
0.0627335,0.999049604,0.085537434,1.01E+00
0.062959976,1.00391173,-0.033475932,1.01E+00
0.063186448,0.993994832,-0.153080374,1.01E+00
0.063412924,0.968951583,-0.270917237,1.01E+00
0.0636394,0.929209828,-0.384566516,1.01E+00
0.063865872,0.875767231,-0.491933078,1.01E+00
0.064092348,0.809916079,-0.591322303,1.01E+00
0.064318824,0.733090997,-0.681397438,1.00E+00
0.064545296,0.646787465,-0.761130929,9.98E-01
0.064771772,0.552506626,-0.829766393,9.94E-01
0.064998248,0.451714933,-0.88678205,9.90E-01
0.06522472,0.345810384,-0.931855261,9.88E-01
0.065451196,0.236087695,-0.964833379,9.87E-01
0.065677672,0.123686835,-0.985684037,9.87E-01
0.065904144,0.009537145,-0.994378686,9.89E-01
0.06613062,-0.105585203,-0.990664363,9.93E-01
0.066357096,-0.220708832,-0.973922372,9.97E-01
0.066583568,-0.334268838,-0.943471372,1.00E+00
0.066810044,-0.444204986,-0.899109066,1.01E+00
0.06703652,-0.548403919,-0.841258943,1.01E+00
0.067262992,-0.644949555,-0.770789623,1.01E+00
0.067489472,-0.732155502,-0.688862681,1.01E+00
0.067715944,-0.808560252,-0.596872449,1.01E+00
0.067942416,-0.87295264,-0.496421635,1.01E+00
0.068168896,-0.924416482,-0.389274925,1.01E+00
0.068395368,-0.962371051,-0.277293831,1.00E+00
0.06862184,-0.986591876,-0.162342206,1.00E+00
0.06884832,-0.997198641,-0.046170093,9.97E-01
0.069074792,-0.994575679,0.069714353,9.94E-01
0.069301264,-0.979182124,0.184130907,9.93E-01
0.069527744,-0.951288044,0.296122849,9.93E-01
0.069754216,-0.910903931,0.404595524,9.93E-01
0.069980688,-0.85812366,0.508069098,9.95E-01
0.070207168,-0.79347384,0.60490185,9.96E-01
0.07043364,-0.717861474,0.693625212,9.96E-01
0.070660112,-0.632354796,0.773015618,9.97E-01
0.070886592,-0.538083017,0.84201169,9.99E-01
0.071113064,-0.436247647,0.899646878,1.00E+00
0.071339536,-0.32816872,0.945041537,1.00E+00
0.071566016,-0.215315297,0.977445304,1.00E+00
0.071792488,-0.099302225,0.99629885,1.00E+00
0.07201896,0.018157588,1.00130081,1.00E+00
0.07224544,0.135345876,0.99244231,1.00E+00
0.072471912,0.250660568,0.969970226,1.00E+00
0.072698384,0.362679482,0.934236705,1.00E+00
0.072924864,0.470030457,0.885532081,1.01E+00
0.073151336,0.571113169,0.824171901,1.01E+00
0.073377808,0.664092243,0.750870585,1.00E+00
0.073604288,0.747272253,0.666911304,1.00E+00
0.07383076,0.819400907,0.573919713,1.00E+00
0.074057232,0.879669368,0.473579675,9.98E-01
0.074283712,0.927582383,0.367493689,9.95E-01
0.074510184,0.962843835,0.257156909,9.93E-01
0.074736656,0.985285699,0.143978879,9.92E-01
0.074963136,0.994835556,0.029310128,9.91E-01
0.075189608,0.991510987,-0.085534029,9.90E-01
0.075416088,0.975425184,-0.199269876,9.91E-01
0.07564256,0.946782708,-0.310668379,9.93E-01
0.075869032,0.905825555,-0.418581367,9.96E-01
0.076095512,0.852721393,-0.521886051,9.99E-01
0.076321984,0.787534952,-0.619267166,1.00E+00
0.076548456,0.710490763,-0.708999455,1.01E+00
0.076774936,0.622383058,-0.789107382,1.01E+00
0.077001408,0.524653077,-0.857804477,1.01E+00
0.07722788,0.419137925,-0.91376549,1.01E+00
0.07745436,0.30781427,-0.956137717,1.01E+00
0.077680832,0.1926658,-0.984467804,1.01E+00
0.077907304,0.075616546,-0.998636246,1.00E+00
0.078133784,-0.04151345,-0.998814583,9.99E-01
0.078360256,-0.157051846,-0.98542279,9.96E-01
0.078586728,-0.269513786,-0.959077418,9.92E-01
0.078813208,-0.377637118,-0.920530677,9.90E-01
0.07903968,-0.480407417,-0.87057656,9.89E-01
0.079266152,-0.577028692,-0.809916258,9.89E-01
0.079492632,-0.666771054,-0.739023924,9.91E-01
0.079719104,-0.748681128,-0.658183038,9.94E-01
0.079945576,-0.821416199,-0.567819178,9.97E-01
0.080172056,-0.883463025,-0.46883592,1.00E+00
0.080398528,-0.933498323,-0.362607986,1.00E+00
0.080625,-0.970532119,-0.250761598,1.00E+00
0.08085148,-0.993882537,-0.135031387,1.01E+00
0.081077952,-1.0031271,-0.01721336,1.01E+00
0.081304424,-0.998102963,0.100850254,1.01E+00
0.081530904,-0.978927553,0.217303053,1.01E+00
0.081757376,-0.946016312,0.330335438,1.00E+00
0.081983848,-0.900076091,0.438263237,1.00E+00
0.082210328,-0.842056513,0.539617598,1.00E+00
0.0824368,-0.773044229,0.633212626,9.99E-01
0.082663272,-0.694102049,0.718135297,9.97E-01
0.082889752,-0.606140375,0.793585122,9.97E-01
0.083116224,-0.509996772,0.858633637,9.97E-01
0.083342696,-0.406733513,0.912188888,9.98E-01
0.083569176,-0.297799408,0.95326823,9.97E-01
0.083795648,-0.184871048,0.981246829,9.97E-01
0.08402212,-0.069618404,0.995851457,9.97E-01
0.0842486,0.04638857,0.997036755,9.96E-01
0.084475072,0.16166313,0.984889627,9.96E-01
0.084701544,0.274757236,0.959602118,9.96E-01
0.084928024,0.384232223,0.921485245,9.97E-01
0.085154496,0.488660127,0.871001601,9.97E-01
0.085380976,0.586659014,0.808790386,9.98E-01
0.085607448,0.676949203,0.73566103,9.99E-01
0.08583392,0.758397877,0.652533174,1.00E+00
0.0860604,0.829990625,0.560341597,1.00E+00
0.086286872,0.890690863,0.460008144,1.00E+00
0.086513344,0.939308047,0.352618635,1.01E+00
0.086739824,0.974642515,0.239691406,1.01E+00
0.086966296,0.995837092,0.123187214,1.01E+00
0.087192768,1.00258136,0.005233397,1.01E+00
0.087419248,0.995045781,-0.112149432,1.00E+00
0.08764572,0.973724842,-0.227159783,1.00E+00
0.087872192,0.939310074,-0.33822757,9.97E-01
0.088098672,0.892612755,-0.443990231,9.94E-01
0.088325144,0.834517777,-0.543264329,9.92E-01
0.088551616,0.765957355,-0.635026932,9.90E-01
0.088778096,0.687884271,-0.718400359,9.89E-01
0.089004568,0.601235986,-0.792639613,9.90E-01
0.08923104,0.506878018,-0.85709244,9.92E-01
0.08945752,0.405565053,-0.911084116,9.95E-01
0.089683992,0.298028231,-0.953743577,9.98E-01
0.089910464,0.185253367,-0.983947098,1.00E+00
0.090136944,0.068735763,-1.00056386,1.01E+00
0.090363416,-0.049574178,-1.00282145,1.01E+00
0.090589888,-0.167549238,-0.990466475,1.01E+00
0.090816368,-0.283109695,-0.963709652,1.01E+00
0.09104284,-0.394321889,-0.923118353,1.01E+00
0.091269312,-0.499435961,-0.869543076,1.01E+00
0.091495792,-0.596914887,-0.804064751,1.00E+00
0.091722264,-0.685464561,-0.727943897,1.00E+00
0.091948736,-0.764062464,-0.642559409,9.97E-01
0.092175216,-0.831970453,-0.549328804,9.94E-01
0.092401688,-0.888717294,-0.449608088,9.92E-01
0.09262816,-0.93401593,-0.344589502,9.91E-01
0.09285464,-0.967591643,-0.235258058,9.92E-01
0.093081112,-0.988989592,-0.122521758,9.93E-01
0.093307584,-0.997566819,-0.007491534,9.95E-01
0.093534064,-0.992745697,0.108346336,9.97E-01
0.093760536,-0.974280834,0.223249033,9.99E-01
0.093987008,-0.942304552,0.33544299,1.00E+00
0.094213488,-0.897232294,0.443243623,1.00E+00
0.09443996,-0.839687526,0.545067847,1.00E+00
0.094666432,-0.770479381,0.639426351,1.00E+00
0.094892912,-0.690608978,0.724935651,1.00E+00
0.095119384,-0.601270378,0.800356746,1.00E+00
0.095345864,-0.503828704,0.864648581,1.00E+00
0.095572336,-0.399760306,0.917018652,1.00E+00
0.095798808,-0.2905581,0.95693475,1.00E+00
0.096025288,-0.177630588,0.98406738,1.00E+00
0.09625176,-0.062276561,0.998140097,1.00E+00
0.096478232,0.054176729,0.998816431,1.00E+00
0.096704712,0.170165047,0.985786855,1.00E+00
0.096931184,0.283871353,0.959033787,1.00E+00
0.097157656,0.393452913,0.918982804,9.99E-01
0.097384136,0.497264832,0.866419435,9.98E-01
0.097610608,0.593925714,0.802320957,9.96E-01
0.09783708,0.682277799,0.727743149,9.95E-01
0.09806356,0.761326969,0.643777251,9.94E-01
0.098290032,0.830201626,0.551549375,9.93E-01
0.098516504,0.88813895,0.45223251,9.93E-01
0.098742984,0.934493065,0.347049564,9.94E-01
0.098969456,0.968747199,0.23725535,9.95E-01
0.099195928,0.990504861,0.124096505,9.96E-01
