Frequency (GHz),Re( S21 ),Im( S21 ),S2
0,-0.042482235,-5.93E-05,1.80E-03
0.000226456,-0.038354024,0.01870523,1.82E-03
0.000452911,-0.026683722,0.033989921,1.87E-03
0.000679367,-0.00962728,0.042939752,1.94E-03
0.000905823,0.00965676,0.043864407,2.02E-03
0.001132278,0.027621765,0.03657059,2.10E-03
0.001358734,0.040844992,0.022357605,2.17E-03
0.00158519,0.046876837,0.003822346,2.21E-03
0.001811645,0.044528604,-0.015612895,2.23E-03
0.002038101,0.034155402,-0.032327455,2.21E-03
0.002264557,0.0176057,-0.04316305,2.17E-03
0.002491012,-0.00209905,-0.046010535,2.12E-03
0.002717468,-0.021303246,-0.04021465,2.07E-03
0.002943924,-0.036379844,-0.026719168,2.04E-03
0.003170379,-0.04440495,-0.007934083,2.03E-03
0.003396835,-0.043816239,0.012727193,2.08E-03
0.003623291,-0.034379758,0.031427149,2.17E-03
0.003849746,-0.017761624,0.044574373,2.30E-03
0.004076202,0.003114209,0.04958288,2.47E-03
0.004302658,0.024449868,0.045313899,2.65E-03
0.004529114,0.042267278,0.032325294,2.83E-03
0.004755569,0.053138893,0.012807641,2.99E-03
0.004982025,0.054831099,-0.009770891,3.10E-03
0.005208481,0.046746451,-0.031260591,3.16E-03
0.005434936,0.030089911,-0.047566574,3.17E-03
0.005661392,0.007716642,-0.055402126,3.13E-03
0.005887848,-0.016320474,-0.052932624,3.07E-03
0.006114303,-0.037484106,-0.040186238,3.02E-03
0.006340759,-0.051568877,-0.019106304,3.02E-03
0.006567215,-0.055499721,0.006712168,3.13E-03
0.00679367,-0.047942445,0.032444686,3.35E-03
0.007020126,-0.029567054,0.053344015,3.72E-03
0.007246582,-0.003195107,0.065207206,4.26E-03
0.007473037,0.026552618,0.064895913,4.92E-03
0.007699493,0.054362401,0.051901605,5.65E-03
0.007925949,0.074911006,0.02787867,6.39E-03
0.008152404,0.083897956,-0.003350545,7.05E-03
0.00837886,0.078892097,-0.036346495,7.55E-03
0.008605315,0.059903573,-0.064907849,7.80E-03
0.008831771,0.029611833,-0.083131962,7.79E-03
0.009058227,-0.006969181,-0.086528502,7.54E-03
0.009284682,-0.04306259,-0.072819024,7.16E-03
0.009511138,-0.07110583,-0.042692859,6.88E-03
0.009737594,-0.084024087,-2.68E-05,7.06E-03
0.009964049,-0.076542907,0.048385143,8.20E-03
0.010190505,-0.046265699,0.093655102,1.09E-02
0.010416961,0.005468715,0.126183376,1.60E-02
0.010643416,0.073835149,0.137239993,2.43E-02
0.010869872,0.149250865,0.119657032,3.66E-02
0.011096328,0.220940456,0.070728868,5.38E-02
0.011322783,0.276890904,-0.008225193,7.67E-02
0.011549239,0.305799395,-0.111016288,1.06E-01
0.011775695,0.299518377,-0.228854328,1.42E-01
0.01200215,0.252514154,-0.348975092,1.86E-01
0.012228606,0.164095342,-0.457628697,2.36E-01
0.012455062,0.038186036,-0.541246891,2.94E-01
0.012681517,-0.117017411,-0.587872505,3.59E-01
0.012907973,-0.289750576,-0.588388085,4.30E-01
0.013134429,-0.465729117,-0.537650526,5.06E-01
0.013360884,-0.629389107,-0.435202032,5.86E-01
0.01358734,-0.765377164,-0.285414636,6.67E-01
0.013813796,-0.860118389,-0.097243697,7.49E-01
0.014040251,-0.903225541,0.116476499,8.29E-01
0.014266707,-0.888623118,0.340191573,9.05E-01
0.014493163,-0.815241158,0.557139754,9.75E-01
0.014719618,-0.687158287,0.751056194,1.04E+00
0.014946074,-0.513135195,0.907858789,1.09E+00
0.01517253,-0.305631429,1.01709378,1.13E+00
0.015398985,-0.079397254,1.07280493,1.16E+00
0.015625441,0.150419027,1.07407999,1.18E+00
0.015851897,0.368581325,1.02762878,1.19E+00
0.016078352,0.555907786,0.926994205,1.17E+00
0.016304808,0.720371187,0.792658567,1.15E+00
0.016531264,0.847571969,0.634973347,1.12E+00
0.016757719,0.936247051,0.4634763,1.09E+00
0.016984174,0.987913787,0.287487298,1.06E+00
0.01721063,1.00617671,0.114611633,1.03E+00
0.017437086,0.99584806,-0.049716216,9.94E-01
0.017663542,0.962050498,-0.202244148,9.66E-01
0.017889998,0.909445882,-0.341585428,9.44E-01
0.018116454,0.841671884,-0.467656225,9.27E-01
0.018342908,0.761023581,-0.580854893,9.17E-01
0.018569364,0.669236958,-0.681031048,9.12E-01
0.01879582,0.566825569,-0.777727127,9.26E-01
0.019022276,0.457064748,-0.843518674,9.20E-01
0.019248732,0.34103024,-0.906583905,9.38E-01
0.019475188,0.208436593,-0.961188197,9.67E-01
0.019701642,0.064727426,-0.992182612,9.89E-01
0.019928098,-0.084295921,-1.00083053,1.01E+00
0.020154554,-0.235407874,-0.985805333,1.03E+00
0.02038101,-0.384283811,-0.946090579,1.04E+00
0.020607466,-0.526023388,-0.881810069,1.05E+00
0.020833922,-0.655680537,-0.794441402,1.06E+00
0.021060376,-0.768761098,-0.686776996,1.06E+00
0.021286832,-0.861637235,-0.562703729,1.06E+00
0.021513288,-0.931831837,-0.426873177,1.05E+00
0.021739744,-0.978188157,-0.284353673,1.04E+00
0.0219662,-1.00104308,-0.140213653,1.02E+00
0.022192656,-1.00214911,0.001067954,1.00E+00
0.02241911,-0.984670162,0.135900259,9.88E-01
0.022645566,-0.95336616,0.264152974,9.79E-01
0.022872022,-0.906466305,0.388075531,9.72E-01
0.023098478,-0.843919396,0.502679169,9.65E-01
0.023324934,-0.769195974,0.606776357,9.60E-01
0.02355139,-0.683894873,0.700508416,9.58E-01
0.023777844,-0.588743865,0.783702552,9.61E-01
0.0240043,-0.484154224,0.855709314,9.67E-01
0.024230756,-0.37056461,0.915374935,9.75E-01
0.024457212,-0.248738423,0.96111542,9.86E-01
0.024683668,-0.120008543,0.991098404,9.97E-01
0.024910124,0.013563146,1.00352752,1.01E+00
0.025136578,0.149165615,0.997008383,1.02E+00
0.025363034,0.283416182,0.970929623,1.02E+00
0.02558949,0.412741482,0.925784528,1.03E+00
0.025815946,0.534263372,0.863382697,1.03E+00
0.026042402,0.647131801,0.784994841,1.03E+00
0.026268858,0.748277009,0.689624608,1.04E+00
0.026495312,0.83291012,0.580363214,1.03E+00
0.026721768,0.899488211,0.461696833,1.02E+00
0.026948224,0.947865725,0.337212384,1.01E+00
0.02717468,0.978479862,0.209905639,1.00E+00
0.027401136,0.99217701,0.082259201,9.91E-01
0.027627592,0.990034521,-0.043766413,9.82E-01
0.027854046,0.973165989,-0.166688949,9.75E-01
0.028080502,0.942566991,-0.285384506,9.70E-01
0.028306958,0.899047136,-0.39892143,9.67E-01
0.028533414,0.843256831,-0.506405771,9.68E-01
0.02875987,0.775806725,-0.606900036,9.70E-01
0.028986326,0.697412729,-0.69952482,9.76E-01
0.02921278,0.608654559,-0.783890963,9.85E-01
0.029439236,0.508642256,-0.859420598,9.97E-01
0.029665692,0.396715552,-0.922756612,1.01E+00
0.029892148,0.275274605,-0.970531642,1.02E+00
0.030118604,0.147341967,-1.00115812,1.02E+00
0.03034506,0.015783764,-1.01373053,1.03E+00
0.030571514,-0.116442218,-1.00780952,1.03E+00
0.03079797,-0.246305957,-0.983540773,1.03E+00
0.031024426,-0.370870501,-0.941705823,1.02E+00
0.031250882,-0.48747766,-0.883685172,1.02E+00
0.031477338,-0.593906581,-0.811348617,1.01E+00
0.031703794,-0.688485265,-0.726906538,1.00E+00
0.031930248,-0.770157754,-0.632738709,9.94E-01
0.032156704,-0.838532031,-0.531215549,9.85E-01
0.03238316,-0.893954277,-0.42441836,9.79E-01
0.032609616,-0.937362969,-0.313458145,9.77E-01
0.032836072,-0.968798876,-0.198112816,9.78E-01
0.033062528,-0.986701548,-0.079072006,9.80E-01
0.033288982,-0.99028641,0.04161403,9.82E-01
0.033515438,-0.979604185,0.162224293,9.86E-01
0.033741896,-0.954672098,0.281356722,9.91E-01
0.033968348,-0.915396452,0.397522509,9.96E-01
0.034194804,-0.861753523,0.50898689,1.00E+00
0.03442126,-0.793974936,0.613766193,1.01E+00
0.034647716,-0.712701797,0.709718168,1.01E+00
0.034874172,-0.619085014,0.794693351,1.01E+00
0.035100628,-0.514818668,0.86673069,1.02E+00
0.035327084,-0.402088225,0.924282491,1.02E+00
0.03555354,-0.283393264,0.966445744,1.01E+00
0.035779996,-0.161133915,0.993119597,1.01E+00
0.036006452,-0.036966912,1.00460637,1.01E+00
0.036232908,0.087803543,1.00045133,1.01E+00
0.036459364,0.210682377,0.98006326,1.00E+00
0.036685816,0.32883653,0.944263637,1.00E+00
0.036912272,0.440314591,0.894632757,9.94E-01
0.037138728,0.543883264,0.83272171,9.89E-01
0.037365184,0.638678849,0.75987947,9.85E-01
0.03759164,0.724008977,0.677257299,9.83E-01
0.037818096,0.799222171,0.585857272,9.82E-01
0.038044552,0.863624752,0.48661083,9.83E-01
0.038271008,0.916449249,0.38048327,9.85E-01
0.038497464,0.95688796,0.268576026,9.88E-01
0.03872392,0.984195113,0.152190059,9.92E-01
0.038950376,0.997834265,0.032773987,9.97E-01
0.039176832,0.997511864,-0.088330574,1.00E+00
0.039403284,0.982687593,-0.210062757,1.01E+00
0.03962974,0.952144384,-0.330754846,1.02E+00
0.039856196,0.905254245,-0.447403789,1.02E+00
0.040082652,0.842865169,-0.556894183,1.02E+00
0.040309108,0.766611636,-0.65681392,1.02E+00
0.040535564,0.678403676,-0.745353103,1.02E+00
0.04076202,0.580292702,-0.821174502,1.01E+00
0.040988476,0.47439906,-0.883380055,1.01E+00
0.041214932,0.362821221,-0.931485653,9.99E-01
0.041441388,0.247549638,-0.965373218,9.93E-01
0.041667844,0.130400628,-0.985227466,9.88E-01
0.0418943,0.012972742,-0.991460979,9.83E-01
0.042120752,-0.103391737,-0.984659553,9.80E-01
0.042347208,-0.217693746,-0.965499818,9.80E-01
0.042573664,-0.329391539,-0.934487045,9.82E-01
0.04280012,-0.438111633,-0.891411841,9.87E-01
0.043026576,-0.542634189,-0.835472941,9.92E-01
0.043253032,-0.640772939,-0.766511858,9.98E-01
0.043479488,-0.730400801,-0.685306013,1.00E+00
0.043705944,-0.809769928,-0.593018353,1.01E+00
0.0439324,-0.877341211,-0.490997106,1.01E+00
0.044158856,-0.931726456,-0.380827248,1.01E+00
0.044385312,-0.971758425,-0.264369696,1.01E+00
0.044611768,-0.996591747,-0.143735185,1.01E+00
0.04483822,-1.00579596,-0.021203026,1.01E+00
0.045064676,-0.9994151,0.100902118,1.01E+00
0.045291132,-0.97798568,0.220363393,1.01E+00
0.045517588,-0.942492783,0.335257202,1.00E+00
0.045744044,-0.894202948,0.444163293,9.97E-01
0.0459705,-0.834249675,0.546247482,9.94E-01
0.046196956,-0.763197839,0.640793622,9.93E-01
0.046423412,-0.6814816,0.726480305,9.92E-01
0.046649868,-0.590231299,0.801757991,9.91E-01
0.046876324,-0.491026133,0.865588844,9.90E-01
0.04710278,-0.38535592,0.917387486,9.90E-01
0.047329236,-0.274528682,0.956713378,9.91E-01
0.047555688,-0.159784809,0.983124018,9.92E-01
0.047782144,-0.042419653,0.99616009,9.94E-01
0.0480086,0.076131962,0.995399177,9.97E-01
0.048235056,0.194259644,0.980547071,9.99E-01
0.048461512,0.310195148,0.951541483,1.00E+00
0.048687968,0.422096223,0.908647001,1.00E+00
0.048914424,0.528202534,0.852487981,1.01E+00
0.04914088,0.627018332,0.783935905,1.01E+00
0.049367336,0.717298746,0.703790128,1.01E+00
0.049593792,0.797577381,0.612674415,1.01E+00
0.049820248,0.865913928,0.511695743,1.01E+00
0.050046704,0.920627594,0.402879924,1.01E+00
0.050273156,0.960865915,0.288633108,1.01E+00
0.050499612,0.986449122,0.171212763,1.00E+00
0.050726068,0.997578859,0.052595161,9.98E-01
0.050952524,0.994669855,-0.06550502,9.94E-01
0.05117898,0.978255093,-0.181594908,9.90E-01
0.051405436,0.948930502,-0.294358552,9.87E-01
0.051631892,0.90732348,-0.402612478,9.85E-01
0.051858348,0.854088485,-0.505268335,9.85E-01
0.052084804,0.789916217,-0.601326346,9.86E-01
0.05231126,0.715511739,-0.689903557,9.88E-01
0.052537716,0.631470323,-0.770234406,9.92E-01
0.052764172,0.538113117,-0.841440201,9.98E-01
0.052990624,0.435735673,-0.902064323,1.00E+00
0.05321708,0.325357497,-0.950165689,1.01E+00
0.053443536,0.208899707,-0.98411566,1.01E+00
0.053669992,0.088661723,-1.00298548,1.01E+00
0.053896448,-0.033041447,-1.00641167,1.01E+00
0.054122904,-0.153966904,-0.99445039,1.01E+00
0.05434936,-0.271975845,-0.96752429,1.01E+00
0.054575816,-0.385086864,-0.926396549,1.01E+00
0.054802272,-0.491542459,-0.872126877,1.00E+00
0.055028728,-0.589869559,-0.806011319,9.98E-01
0.055255184,-0.678929031,-0.729497254,9.93E-01
0.05548164,-0.757947683,-0.644073665,9.89E-01
0.055708092,-0.826520443,-0.55111444,9.87E-01
0.055934548,-0.884480894,-0.45165965,9.86E-01
0.056161004,-0.931515932,-0.346322536,9.88E-01
0.05638746,-0.966775894,-0.23569952,9.90E-01
0.056613916,-0.98915416,-0.120966017,9.93E-01
0.056840372,-0.997892678,-0.003803418,9.96E-01
0.057066828,-0.992677093,0.114024848,9.98E-01
0.057293284,-0.973445117,0.230816171,1.00E+00
0.05751974,-0.940296292,0.344875365,1.00E+00
0.057746196,-0.893518031,0.454466254,1.00E+00
0.057972652,-0.833648622,0.557823241,1.01E+00
0.058199108,-0.76153028,0.653214812,1.01E+00
0.05842556,-0.678326786,0.739039242,1.01E+00
0.058652016,-0.585494101,0.813939214,1.01E+00
0.058878472,-0.484682053,0.876909912,1.00E+00
0.059104928,-0.377550453,0.927348256,1.00E+00
0.059331384,-0.265543044,0.964922488,1.00E+00
0.05955784,-0.149882749,0.989226282,1.00E+00
0.059784296,-0.031991292,0.999623001,1.00E+00
0.060010752,0.086221889,0.995688975,9.99E-01
0.060237208,0.202711284,0.977605224,9.97E-01
0.060463664,0.315703094,0.946011066,9.95E-01
0.06069012,0.423756391,0.901713431,9.93E-01
0.060916576,0.525655568,0.845535994,9.91E-01
0.061143028,0.620301008,0.778292656,9.91E-01
0.061369484,0.706644595,0.70081532,9.90E-01
0.06159594,0.783662915,0.614000678,9.91E-01
0.061822396,0.850372612,0.518855453,9.92E-01
0.062048852,0.905879557,0.416520417,9.94E-01
0.062275308,0.94944042,0.308237672,9.96E-01
0.062501764,0.980472445,0.195250884,9.99E-01
0.06272822,0.998410046,0.078720048,1.00E+00
0.062954676,1.00248051,-0.040099993,1.01E+00
0.063181132,0.991836786,-0.159434587,1.01E+00
0.063407588,0.966127336,-0.276946813,1.01E+00
0.063634044,0.925772429,-0.39022997,1.01E+00
0.063860496,0.871759355,-0.497195631,1.01E+00
0.064086952,0.805371344,-0.596151054,1.00E+00
0.064313408,0.728036344,-0.685754538,1.00E+00
0.064539864,0.641246259,-0.764970064,9.96E-01
0.06476632,0.546506166,-0.833030283,9.93E-01
0.064992776,0.445292354,-0.889402807,9.89E-01
0.065219232,0.339019239,-0.933759451,9.87E-01
0.065445688,0.229002401,-0.965946794,9.85E-01
0.065672144,0.116404161,-0.98593986,9.86E-01
0.0658986,0.002175515,-0.993725598,9.87E-01
0.066125056,-0.112890176,-0.989077449,9.91E-01
0.066351512,-0.227817252,-0.971406102,9.96E-01
0.066577964,-0.341045201,-0.940058708,1.00E+00
0.06680442,-0.450522393,-0.894855917,1.00E+00
0.067030876,-0.554149389,-0.836243868,1.01E+00
0.067257336,-0.650030077,-0.76510942,1.01E+00
0.067483792,-0.736502111,-0.68262434,1.01E+00
0.067710248,-0.812127829,-0.590185046,1.01E+00
0.067936696,-0.875716627,-0.489388376,1.01E+00
0.068163152,-0.926366568,-0.381990135,1.00E+00
0.068389608,-0.963504672,-0.269840628,1.00E+00
0.068616064,-0.986908913,-0.154793292,9.98E-01
0.06884252,-0.996695757,-0.038593426,9.95E-01
0.069068976,-0.993245125,0.077250481,9.93E-01
0.069295432,-0.977014005,0.191551536,9.91E-01
0.069521888,-0.948276162,0.303344876,9.91E-01
0.069748344,-0.907047033,0.4115282,9.92E-01
0.0699748,-0.853428483,0.514612198,9.93E-01
0.070201256,-0.787959814,0.610943496,9.94E-01
0.070427712,-0.711569548,0.699045539,9.95E-01
0.070654168,-0.625351191,0.777694404,9.96E-01
0.070880624,-0.530460477,0.845837831,9.97E-01
0.07110708,-0.428121507,0.90252465,9.98E-01
0.071333536,-0.319671631,0.946897805,9.99E-01
0.071559992,-0.20659107,0.978230596,1.00E+00
0.071786448,-0.090499073,0.995990455,1.00E+00
0.072012904,0.0268934,0.999898791,1.00E+00
0.07223936,0.143873438,0.989968836,1.00E+00
0.072465816,0.258847475,0.966465056,1.00E+00
0.072692272,0.370403111,0.929755747,1.00E+00
0.072918728,0.47718069,0.880144238,1.00E+00
0.073145184,0.57759434,0.817953587,1.00E+00
0.073371632,0.669817984,0.743901014,1.00E+00
0.073598088,0.752161086,0.659273446,1.00E+00
0.073824544,0.823374867,0.565705359,9.98E-01
0.074051,0.88265568,0.46489054,9.95E-01
0.074277456,0.929516792,0.358443379,9.92E-01
0.074503912,0.963673234,0.247872293,9.90E-01
0.074730368,0.984971941,0.134597272,9.88E-01
0.074956824,0.993359089,0.019978695,9.87E-01
0.07518328,0.988873839,-0.09466093,9.87E-01
0.075409736,0.971653223,-0.208036169,9.87E-01
0.075636192,0.941926897,-0.318920135,9.89E-01
0.075862648,0.899962068,-0.426172316,9.92E-01
0.076089104,0.845952332,-0.528683126,9.95E-01
0.07631556,0.779983878,-0.625158727,9.99E-01
0.076542016,0.702293992,-0.713900805,1.00E+00
0.076768472,0.61368227,-0.792958498,1.01E+00
0.076994928,0.515589654,-0.860566914,1.01E+00
0.077221384,0.409851849,-0.915422022,1.01E+00
0.07744784,0.298439652,-0.956688643,1.00E+00
0.077674296,0.18332845,-0.9839288,1.00E+00
0.077900752,0.066433445,-0.997034431,9.98E-01
0.078127208,-0.05043447,-0.996185124,9.95E-01
0.078353664,-0.165609255,-0.981805205,9.91E-01
0.07858012,-0.277610779,-0.954516947,9.88E-01
0.078806568,-0.385179341,-0.91507715,9.86E-01
0.079033024,-0.48729986,-0.864286602,9.84E-01
0.07925948,-0.583177507,-0.802857995,9.85E-01
0.079485936,-0.672085404,-0.731279433,9.86E-01
0.079712392,-0.753079951,-0.649849713,9.89E-01
0.079938848,-0.824831545,-0.559004545,9.93E-01
0.080165304,-0.885839581,-0.459656566,9.96E-01
0.08039176,-0.934793234,-0.353187919,9.99E-01
0.080618216,-0.970720708,-0.241232932,1.00E+00
0.080844672,-0.992958724,-0.125528619,1.00E+00
0.081071128,-1.00110376,-0.007868784,1.00E+00
0.081297584,-0.995010614,0.109909222,1.00E+00
0.08152404,-0.974810839,0.225957751,1.00E+00
0.081750496,-0.940930605,0.338475525,1.00E+00
0.081976952,-0.894085824,0.445787877,9.98E-01
0.082203408,-0.835232675,0.546433151,9.96E-01
0.082429864,-0.765464842,0.639230907,9.95E-01
0.08265632,-0.685854018,0.723273277,9.94E-01
0.082882776,-0.597321332,0.797767043,9.93E-01
0.083109232,-0.500713527,0.861795545,9.93E-01
0.083335688,-0.397099584,0.914276421,9.94E-01
0.083562144,-0.287935525,0.954237044,9.93E-01
0.0837886,-0.174907133,0.981063604,9.93E-01
0.084015056,-0.059693374,0.994500458,9.93E-01
0.084241504,0.056131098,0.994521797,9.92E-01
0.08446796,0.171079993,0.981236041,9.92E-01
0.084694416,0.283710212,0.954856038,9.92E-01
0.084920872,0.392591894,0.915711224,9.93E-01
0.085147328,0.496309876,0.864280581,9.93E-01
0.085373784,0.593495846,0.801215112,9.94E-01
0.08560024,0.682884157,0.727332175,9.95E-01
0.085826696,0.763354242,0.643558323,9.97E-01
0.086053152,0.83390516,0.550834358,9.99E-01
0.086279608,0.893513024,0.450085998,1.00E+00
0.086506064,0.941001356,0.342399985,1.00E+00
0.08673252,0.975178182,0.229292437,1.00E+00
0.086958976,0.995192766,0.112727456,1.00E+00
0.087185432,1.00074005,-0.005162878,1.00E+00
0.087411888,0.992001414,-0.122348942,9.99E-01
0.087638344,0.969486892,-0.237022206,9.96E-01
0.0878648,0.93390429,-0.347607583,9.93E-01
0.088091256,0.886086047,-0.452740133,9.90E-01
0.088317712,0.826939642,-0.55123961,9.88E-01
0.088544168,0.757420301,-0.642089427,9.86E-01
0.088770624,0.678502798,-0.724423289,9.85E-01
0.08899708,0.591144562,-0.797513127,9.85E-01
0.089223536,0.496228874,-0.860726595,9.87E-01
0.089449992,0.394524723,-0.913414598,9.90E-01
0.08967644,0.286770374,-0.954734921,9.94E-01
0.089902896,0.17394875,-0.983593464,9.98E-01
0.090129352,0.057547398,-0.998882174,1.00E+00
0.090355808,-0.060494419,-0.999847293,1.00E+00
0.090582264,-0.178060189,-0.986249745,1.00E+00
0.09080872,-0.293081075,-0.958311915,1.00E+00
0.091035176,-0.403634667,-0.91661036,1.00E+00
0.091261632,-0.507980406,-0.862001717,1.00E+00
0.091488088,-0.604587615,-0.795571268,9.98E-01
0.091714544,-0.692167044,-0.718585908,9.95E-01
0.091941,-0.769698203,-0.632432044,9.92E-01
0.092167456,-0.836445272,-0.538538277,9.90E-01
0.092393912,-0.89194119,-0.438275635,9.88E-01
0.092620368,-0.935906112,-0.332854986,9.87E-01
0.092846824,-0.968081295,-0.223281309,9.87E-01
0.09307328,-0.988034904,-0.11047928,9.88E-01
0.093299736,-0.995150089,0.004429726,9.90E-01
0.093526192,-0.988878429,0.119954601,9.92E-01
0.093752648,-0.969004989,0.234352544,9.94E-01
0.093979104,-0.935692549,0.345856279,9.95E-01
0.09420556,-0.889387786,0.452795267,9.96E-01
0.094432016,-0.830738842,0.553608358,9.97E-01
0.094658472,-0.760572731,0.646832287,9.97E-01
0.094884928,-0.679900944,0.731110454,9.97E-01
0.095111376,-0.589921355,0.805229545,9.96E-01
0.095337832,-0.491996855,0.868170559,9.96E-01
0.095564288,-0.387599468,0.919157684,9.95E-01
0.095790744,-0.278218329,0.957672477,9.95E-01
0.0960172,-0.165259987,0.98339349,9.94E-01
0.096243656,-0.050023589,0.996056437,9.95E-01
0.096470112,0.066163056,0.995335937,9.95E-01
0.096696568,0.181734651,0.980933309,9.95E-01
0.096923024,0.2948713,0.952842295,9.95E-01
0.09714948,0.403724998,0.911504686,9.94E-01
0.097375936,0.506647646,0.857727885,9.92E-01
0.097602392,0.602260888,0.79251641,9.91E-01
0.097828848,0.689417183,0.716953158,9.89E-01
0.098055304,0.76714015,0.632155716,9.88E-01
0.09828176,0.834582448,0.539272547,9.87E-01
0.098508216,0.891011238,0.439492762,9.87E-01
0.098734672,0.935811877,0.334047586,9.87E-01
0.098961128,0.968500555,0.224194214,9.88E-01
