Frequency (GHz),Re( S21 ),Im( S21 ),S2
0,-0.042219263,-4.62E-05,1.78E-03
0.000226447,-0.038104009,0.018614888,1.80E-03
0.000452893,-0.026487134,0.033808041,1.84E-03
0.00067934,-0.009517453,0.042693086,1.91E-03
0.000905786,0.009705381,0.043636274,2.00E-03
0.001132233,0.027525589,0.036352377,2.08E-03
0.001358679,0.040666517,0.022191739,2.15E-03
0.001585126,0.046643734,0.003743136,2.19E-03
0.001811573,0.044280708,-0.015589021,2.20E-03
0.002038019,0.033935942,-0.032202061,2.19E-03
0.002264466,0.017453719,-0.042955048,2.15E-03
0.002490912,-0.00215517,-0.045753278,2.10E-03
0.002717359,-0.021250593,-0.039950587,2.05E-03
0.002943805,-0.036224529,-0.026493793,2.01E-03
0.003170252,-0.044172123,-0.007782415,2.01E-03
0.003396699,-0.043495748,0.012708888,2.05E-03
0.003623145,-0.034087908,0.031360768,2.15E-03
0.003849592,-0.017513629,0.044400252,2.28E-03
0.004076038,0.003278476,0.0493275,2.44E-03
0.004302485,0.024502398,0.045017511,2.63E-03
0.004528932,0.042198256,0.03203484,2.81E-03
0.004755378,0.05295879,0.012570814,2.96E-03
0.004981825,0.054569017,-0.009913182,3.08E-03
0.005208271,0.046445884,-0.031281721,3.14E-03
0.005434718,0.029802438,-0.047458854,3.14E-03
0.005661164,0.007493598,-0.055179525,3.10E-03
0.005887611,-0.016439043,-0.052628934,3.04E-03
0.006114058,-0.03747217,-0.039844375,2.99E-03
0.006340504,-0.051416438,-0.018780313,3.00E-03
0.006566951,-0.055219624,0.006966169,3.10E-03
0.006793397,-0.047571685,0.032579929,3.32E-03
0.007019844,-0.029158372,0.05332889,3.69E-03
0.00724629,-0.002805041,0.06502071,4.24E-03
0.007472737,0.026851088,0.064570591,4.89E-03
0.007699184,0.054517388,0.051483434,5.62E-03
0.00792563,0.074891418,0.027431516,6.36E-03
0.008152077,0.083700441,-0.003753362,7.02E-03
0.008378523,0.078543231,-0.03663284,7.51E-03
0.00860497,0.059460994,-0.065018199,7.76E-03
0.008831416,0.029146582,-0.083043404,7.75E-03
0.009057863,-0.007377565,-0.086224288,7.49E-03
0.009284309,-0.043322675,-0.072323538,7.11E-03
0.009510756,-0.071138077,-0.042066425,6.83E-03
0.009737202,-0.083773114,0.000639392,7.02E-03
0.009963649,-0.075989455,0.048979614,8.17E-03
0.010190095,-0.04543519,0.094059303,1.09E-02
0.010416542,0.006506118,0.12628904,1.60E-02
0.010642989,0.074973747,0.136943266,2.44E-02
0.010869435,0.150345102,0.11894796,3.68E-02
0.011095882,0.221841067,0.069623634,5.41E-02
0.011322328,0.277463675,-0.009659075,7.71E-02
0.011548775,0.305966675,-0.112669945,1.06E-01
0.011775221,0.299195617,-0.230588824,1.43E-01
0.012001668,0.251683593,-0.350641072,1.86E-01
0.012228115,0.162790567,-0.459078103,2.37E-01
0.012454561,0.036481056,-0.542348564,2.95E-01
0.012681008,-0.11901442,-0.588520169,3.61E-01
0.012907454,-0.291904777,-0.58850807,4.32E-01
0.013133901,-0.46788922,-0.537211061,5.08E-01
0.013360347,-0.63139832,-0.434215784,5.87E-01
0.013586794,-0.76708591,-0.283940792,6.69E-01
0.013813241,-0.861398041,-0.095384397,7.51E-01
0.014039687,-0.903982699,0.118581973,8.31E-01
0.014266134,-0.888810873,0.342379212,9.07E-01
0.01449258,-0.814868093,0.559237421,9.77E-01
0.014719027,-0.686287642,0.752902448,1.04E+00
0.014945473,-0.511880279,0.90932405,1.09E+00
0.01517192,-0.304138929,1.01809525,1.13E+00
0.015398367,-0.077831231,1.07331657,1.16E+00
0.015624813,0.151903734,1.07412791,1.18E+00
0.01585126,0.369924843,1.02729821,1.19E+00
0.016077706,0.556821704,0.926450849,1.17E+00
0.016304153,0.720939815,0.791975677,1.15E+00
0.016530599,0.847790539,0.634300709,1.12E+00
0.016757046,0.936163545,0.462935984,1.09E+00
0.016983492,0.987611413,0.287171364,1.06E+00
0.01720994,1.00576079,0.114574984,1.02E+00
0.017436386,0.995431602,-0.049458586,9.93E-01
0.017662832,0.961740732,-0.201715529,9.66E-01
0.017889278,0.909332395,-0.3408418,9.43E-01
0.018115726,0.841817975,-0.46677652,9.27E-01
0.018342172,0.761464775,-0.579932749,9.16E-01
0.018568618,0.669968307,-0.680168629,9.11E-01
0.018795064,0.567806065,-0.77698791,9.26E-01
0.019021512,0.458248198,-0.843004048,9.21E-01
0.019247958,0.342307121,-0.906267524,9.38E-01
0.019474404,0.209861368,-0.961125731,9.68E-01
0.019700852,0.066164948,-0.992395639,9.89E-01
0.019927298,-0.082901008,-1.00128734,1.01E+00
0.020153744,-0.234093189,-0.986473382,1.03E+00
0.02038019,-0.383071393,-0.94693619,1.04E+00
0.020606638,-0.524921596,-0.882803977,1.05E+00
0.020833084,-0.654688537,-0.795562863,1.06E+00
0.02105953,-0.767874062,-0.688016176,1.06E+00
0.021285978,-0.860853612,-0.564062595,1.06E+00
0.021512424,-0.931158185,-0.428361028,1.05E+00
0.02173887,-0.977644265,-0.285981506,1.04E+00
0.021965316,-1.00065827,-0.14198716,1.02E+00
0.022191764,-1.00196159,-0.00084715,1.00E+00
0.02241821,-0.98471576,0.133862048,9.88E-01
0.022644656,-0.953677833,0.261988878,9.78E-01
0.022871104,-0.907139838,0.385828972,9.72E-01
0.02309755,-0.844983339,0.500445366,9.64E-01
0.023323996,-0.770656466,0.604634941,9.59E-01
0.023550442,-0.685742974,0.698541999,9.58E-01
0.02377689,-0.590949476,0.781991482,9.61E-01
0.024003336,-0.486667842,0.854324698,9.67E-01
0.024229782,-0.373320907,0.914373279,9.75E-01
0.02445623,-0.251661956,0.960534871,9.86E-01
0.024682676,-0.123020194,0.990957379,9.97E-01
0.024909122,0.010540581,1.0038259,1.01E+00
0.025135568,0.146202177,0.997729897,1.02E+00
0.025362016,0.280570835,0.9720456,1.02E+00
0.025588462,0.410059541,0.927256942,1.03E+00
0.025814908,0.531768084,0.865169823,1.03E+00
0.026041356,0.64482671,0.787086308,1.04E+00
0.026267802,0.746206999,0.692021668,1.04E+00
0.026494248,0.831116378,0.583034635,1.03E+00
0.026720694,0.897997737,0.464615017,1.02E+00
0.026947142,0.946709514,0.340354145,1.01E+00
0.027173588,0.977692962,0.213243425,1.00E+00
0.027400034,0.991798699,0.085757785,9.91E-01
0.027626482,0.990103245,-0.040153872,9.82E-01
0.027852928,0.973716199,-0.163021415,9.75E-01
0.028079374,0.943623483,-0.281732887,9.70E-01
0.02830582,0.900619388,-0.395366341,9.67E-01
0.028532268,0.845337749,-0.503032148,9.68E-01
0.028758714,0.778368115,-0.603791118,9.70E-01
0.02898516,0.700408399,-0.696753442,9.76E-01
0.029211608,0.612030983,-0.781509697,9.85E-01
0.029438054,0.512357771,-0.857482016,9.98E-01
0.0296645,0.400702029,-0.921325743,1.01E+00
0.029890946,0.279440641,-0.96964252,1.02E+00
0.030117394,0.151602596,-1.00081825,1.02E+00
0.03034384,0.020064218,-1.01393402,1.03E+00
0.030570286,-0.112207614,-1.00854218,1.03E+00
0.030796734,-0.242174834,-0.984784067,1.03E+00
0.03102318,-0.366893232,-0.943439364,1.02E+00
0.031249626,-0.483700126,-0.885888278,1.02E+00
0.031476072,-0.590373993,-0.814001977,1.01E+00
0.03170252,-0.685242891,-0.729989827,1.00E+00
0.031928966,-0.767253578,-0.636229634,9.93E-01
0.032155412,-0.836015046,-0.53508544,9.85E-01
0.032381858,-0.891871929,-0.428634226,9.79E-01
0.032608306,-0.935763061,-0.31798932,9.77E-01
0.032834752,-0.967750192,-0.202922106,9.78E-01
0.033061198,-0.986275971,-0.084083356,9.80E-01
0.033287646,-0.990527153,0.036499512,9.82E-01
0.033514092,-0.980533123,0.157109857,9.86E-01
0.03374054,-0.956290245,0.276347429,9.91E-01
0.033966984,-0.91768688,0.392722696,9.96E-01
0.034193432,-0.864679039,0.504495144,1.00E+00
0.03441988,-0.797482252,0.60967201,1.01E+00
0.034646324,-0.716723442,0.706097126,1.01E+00
0.034872772,-0.623544157,0.791605294,1.02E+00
0.035099216,-0.519634128,0.864219546,1.02E+00
0.035325664,-0.407178402,0.922375619,1.02E+00
0.035552112,-0.288681239,0.965155423,1.01E+00
0.035778556,-0.166554227,0.992447376,1.01E+00
0.036005004,-0.042469733,1.00455749,1.01E+00
0.036231452,0.082272865,1.00104856,1.01E+00
0.036457896,0.205200449,0.981323063,1.01E+00
0.036684344,0.323482633,0.946185112,1.00E+00
0.036910792,0.435165226,0.897206843,9.94E-01
0.037137236,0.539016068,0.835933864,9.89E-01
0.037363684,0.634175241,0.763707638,9.85E-01
0.037590128,0.719952703,0.681666851,9.83E-01
0.037816576,0.795696735,0.590798914,9.82E-01
0.038043024,0.860709786,0.492019653,9.83E-01
0.038269468,0.914215028,0.386277914,9.85E-01
0.038495916,0.95538944,0.274661392,9.88E-01
0.038722364,0.983469427,0.158461243,9.92E-01
0.038948808,0.9978984,0.039124385,9.97E-01
0.039175256,0.998363554,-0.082000636,1.00E+00
0.039401704,0.984322071,-0.203845456,1.01E+00
0.039628148,0.954551935,-0.324752122,1.02E+00
0.039854596,0.908400536,-0.441723347,1.02E+00
0.040081044,0.846692145,-0.55162859,1.02E+00
0.040307488,0.771053016,-0.652037024,1.02E+00
0.040533936,0.683391333,-0.741124868,1.02E+00
0.04076038,0.585758984,-0.817545295,1.01E+00
0.040986828,0.480276674,-0.880393863,1.01E+00
0.041213276,0.369042695,-0.929181993,1.00E+00
0.04143972,0.25404495,-0.963789165,9.93E-01
0.041666168,0.137095571,-0.984395623,9.88E-01
0.041892616,0.019787718,-0.991410732,9.83E-01
0.04211906,-0.096542768,-0.9854123,9.80E-01
0.042345508,-0.210899383,-0.967068374,9.80E-01
0.042571956,-0.322741628,-0.936878741,9.82E-01
0.0427984,-0.431705892,-0.894634843,9.87E-01
0.043024848,-0.536594093,-0.83951968,9.93E-01
0.043251296,-0.635227025,-0.771340132,9.98E-01
0.04347774,-0.725464642,-0.690844417,1.00E+00
0.043704188,-0.8055408,-0.599176288,1.01E+00
0.043930632,-0.873897612,-0.497671425,1.01E+00
0.04415708,-0.929129183,-0.387905836,1.01E+00
0.044383528,-0.970047832,-0.27173534,1.01E+00
0.044609972,-0.995789409,-0.151270419,1.01E+00
0.04483642,-1.00590587,-0.028792571,1.01E+00
0.045062868,-1.00042653,0.093367316,1.01E+00
0.045289312,-0.979875624,0.212983906,1.01E+00
0.04551576,-0.945229411,0.328124017,1.00E+00
0.045742208,-0.897750437,0.437355906,9.97E-01
0.045968652,-0.838577867,0.539838672,9.95E-01
0.0461951,-0.768283188,0.634864926,9.93E-01
0.046421548,-0.68728745,0.721130133,9.92E-01
0.046647992,-0.596696854,0.79708463,9.91E-01
0.04687444,-0.498072982,0.861680329,9.91E-01
0.047100884,-0.392894477,0.914321482,9.90E-01
0.047327332,-0.282457888,0.954558671,9.91E-01
0.04755378,-0.167991623,0.981936097,9.92E-01
0.047780224,-0.050780661,0.995980859,9.95E-01
0.048006672,0.067749105,0.996251404,9.97E-01
0.04823312,0.1859909,0.982432187,1.00E+00
0.048459564,0.302175939,0.9544397,1.00E+00
0.048686012,0.414455712,0.912516117,1.00E+00
0.04891246,0.521057427,0.857269108,1.01E+00
0.049138904,0.620468855,0.789557815,1.01E+00
0.049365352,0.711434782,0.710181534,1.01E+00
0.0495918,0.792489588,0.619759321,1.01E+00
0.049818244,0.861691833,0.519378662,1.01E+00
0.050044692,0.917341888,0.411047131,1.01E+00
0.050271136,0.958565712,0.297164828,1.01E+00
0.050497584,0.985166311,0.179990202,1.00E+00
0.050724032,0.997333825,0.061501853,9.98E-01
0.050950476,0.995472372,-0.056586068,9.94E-01
0.051176924,0.980105579,-0.172781244,9.90E-01
0.051403372,0.951818347,-0.285769433,9.88E-01
0.051629816,0.911224484,-0.394367993,9.86E-01
0.051856264,0.858964622,-0.497487545,9.85E-01
0.052082712,0.795714498,-0.594125271,9.86E-01
0.052309156,0.72216469,-0.683389187,9.89E-01
0.052535604,0.638902247,-0.764506459,9.93E-01
0.052762048,0.54624176,-0.836595178,9.98E-01
0.052988496,0.444462568,-0.898201525,1.00E+00
0.053214944,0.334555417,-0.947374761,1.01E+00
0.053441388,0.21842131,-0.982459724,1.01E+00
0.053667836,0.098353766,-1.0024966,1.01E+00
0.053894284,-0.023329739,-1.00709856,1.01E+00
0.054120728,-0.144381016,-0.996301055,1.01E+00
0.054347176,-0.262654454,-0.97050941,1.01E+00
0.054573624,-0.376160592,-0.930471241,1.01E+00
0.054800068,-0.48313269,-0.877233982,1.00E+00
0.055026516,-0.582088351,-0.812081993,9.98E-01
0.055252964,-0.671878159,-0.736452758,9.94E-01
0.055479408,-0.751718342,-0.651828587,9.90E-01
0.055705856,-0.821192861,-0.559577942,9.87E-01
0.0559323,-0.880129278,-0.460740566,9.87E-01
0.056158748,-0.928217232,-0.355926633,9.88E-01
0.056385196,-0.964609861,-0.245713189,9.91E-01
0.05661164,-0.988187671,-0.131250173,9.94E-01
0.056838088,-0.998165727,-0.014202873,9.97E-01
0.057064536,-0.994202435,0.103668876,9.99E-01
0.05729098,-0.97621268,0.220660865,1.00E+00
0.057517428,-0.944275081,0.335072994,1.00E+00
0.057743876,-0.898657918,0.445163071,1.01E+00
0.05797032,-0.839881301,0.549156189,1.01E+00
0.058196768,-0.768771946,0.645309269,1.01E+00
0.058423216,-0.686479867,0.732006669,1.01E+00
0.05864966,-0.594451725,0.80787617,1.01E+00
0.058876108,-0.494331986,0.871898293,1.00E+00
0.059102552,-0.387778997,0.923456907,1.00E+00
0.059329,-0.276238352,0.962215662,1.00E+00
0.059555448,-0.160926089,0.987770617,1.00E+00
0.059781892,-0.04324244,0.99948436,1.00E+00
0.06000834,0.074927017,0.996913254,9.99E-01
0.060234788,0.19154866,0.980210066,9.98E-01
0.060461232,0.304851502,0.949987531,9.95E-01
0.06068768,0.413394481,0.907027006,9.94E-01
0.060914128,0.515959203,0.852127016,9.92E-01
0.061140572,0.611439943,0.786074698,9.92E-01
0.06136702,0.698776603,0.709675372,9.92E-01
0.061593468,0.776927769,0.623800159,9.93E-01
0.061819912,0.844886601,0.529434919,9.94E-01
0.06204636,0.901729524,0.427704453,9.96E-01
0.062272804,0.946681678,0.319844604,9.99E-01
0.062499252,0.979131818,0.207102209,1.00E+00
0.0627257,0.9984954,0.090644866,1.01E+00
0.062952144,1.00398529,-0.028270029,1.01E+00
0.063178592,0.994735658,-0.147872061,1.01E+00
0.06340504,0.970365763,-0.265819639,1.01E+00
0.063631484,0.931271672,-0.379689068,1.01E+00
0.063857932,0.87842679,-0.487369955,1.01E+00
0.06408438,0.81310904,-0.587150097,1.01E+00
0.064310824,0.736745238,-0.677675426,1.00E+00
0.064537272,0.650826812,-0.757901073,9.98E-01
0.064763716,0.556855679,-0.827054143,9.94E-01
0.064990164,0.456303179,-0.884598196,9.91E-01
0.065216612,0.350575477,-0.930200815,9.88E-01
0.065443056,0.240977645,-0.963701665,9.87E-01
0.065669504,0.128662422,-0.985068083,9.87E-01
0.065895952,0.014571026,-0.99427706,9.89E-01
0.066122396,-0.100516856,-0.991095841,9.92E-01
0.066348844,-0.215647727,-0.974921286,9.97E-01
0.066575292,-0.329285264,-0.945069551,1.00E+00
0.066801736,-0.439385623,-0.901316106,1.01E+00
0.067028184,-0.543837547,-0.844063282,1.01E+00
0.067254632,-0.640722871,-0.774164438,1.01E+00
0.06748108,-0.728351831,-0.692764699,1.01E+00
0.06770752,-0.805257142,-0.601243317,1.01E+00
0.067933968,-0.870217502,-0.501186728,1.01E+00
0.068160416,-0.922301352,-0.394347101,1.01E+00
0.068386864,-0.960907817,-0.282577157,1.00E+00
0.068613312,-0.985791802,-0.167738825,1.00E+00
0.06883976,-0.997051656,-0.051588997,9.97E-01
0.0690662,-0.99505651,0.064349785,9.94E-01
0.069292648,-0.980262339,0.178879917,9.93E-01
0.069519096,-0.952947378,0.291035354,9.93E-01
0.069745544,-0.913127482,0.39972806,9.94E-01
0.069971992,-0.860886157,0.50348556,9.95E-01
0.070198432,-0.796736002,0.600660801,9.96E-01
0.07042488,-0.721579134,0.689773083,9.96E-01
0.070651328,-0.636485517,0.76959151,9.97E-01
0.070877776,-0.542587399,0.839054286,9.98E-01
0.071104224,-0.441084325,0.897196412,1.00E+00
0.071330672,-0.333290696,0.94314152,1.00E+00
0.071557112,-0.22066547,0.976137996,1.00E+00
0.07178356,-0.104811966,0.995621443,1.00E+00
0.072010008,0.012565921,1.00128019,1.00E+00
0.072236456,0.129755393,0.99309206,1.00E+00
0.072462904,0.245153949,0.971291661,1.00E+00
0.072689344,0.357337803,0.936223745,1.00E+00
0.072915792,0.464940101,0.888175309,1.01E+00
0.07314224,0.566373527,0.827445209,1.01E+00
0.073368688,0.659801662,0.754717171,1.00E+00
0.073595136,0.743509471,0.671248555,1.00E+00
0.073821584,0.816216171,0.578654885,1.00E+00
0.074048024,0.8770895,0.478622168,9.98E-01
0.074274472,0.925618291,0.372760922,9.96E-01
0.07450092,0.961495519,0.262576669,9.93E-01
0.074727368,0.984547794,0.149486959,9.92E-01
0.074953816,0.994700968,0.034849964,9.91E-01
0.075180256,0.991972446,-0.080013596,9.90E-01
0.075406704,0.97647649,-0.193817362,9.91E-01
0.075633152,0.948419213,-0.305330157,9.93E-01
0.0758596,0.908047855,-0.413403809,9.95E-01
0.076086048,0.855538607,-0.516923845,9.99E-01
0.076312496,0.790956378,-0.614595175,1.00E+00
0.076538936,0.714507103,-0.7047171,1.01E+00
0.076765384,0.62694943,-0.785320044,1.01E+00
0.076991832,0.529693723,-0.854603708,1.01E+00
0.07721828,0.42455861,-0.91122061,1.01E+00
0.077444728,0.313511729,-0.954295278,1.01E+00
0.077671176,0.198532671,-0.983352304,1.01E+00
0.077897616,0.081547238,-0.998251617,1.00E+00
0.078124064,-0.035618618,-0.999146283,1.00E+00
0.078350512,-0.15128234,-0.986438811,9.96E-01
0.07857696,-0.263944179,-0.960734546,9.93E-01
0.078803408,-0.372325957,-0.92277962,9.90E-01
0.079029848,-0.475395799,-0.873369455,9.89E-01
0.079256296,-0.572345376,-0.813216507,9.89E-01
0.079482744,-0.66244489,-0.742810965,9.91E-01
0.079709192,-0.744757473,-0.662445426,9.93E-01
0.07993564,-0.817958295,-0.572533906,9.97E-01
0.080162088,-0.880538106,-0.473960102,1.00E+00
0.080388528,-0.931164384,-0.36808151,1.00E+00
0.080614976,-0.968839645,-0.256516576,1.00E+00
0.080841424,-0.992873132,-0.140991464,1.01E+00
0.081067872,-1.00283408,-0.023293806,1.01E+00
0.08129432,-0.998547852,0.094743148,1.01E+00
0.08152076,-0.980116427,0.211269647,1.01E+00
0.081747208,-0.947935402,0.324477494,1.00E+00
0.081973656,-0.902692914,0.432678789,1.00E+00
0.082200104,-0.845320821,0.534392953,1.00E+00
0.082426552,-0.776896656,0.628418803,9.98E-01
0.082653,-0.698481679,0.713827908,9.97E-01
0.08287944,-0.610990584,0.789814651,9.97E-01
0.083105888,-0.515257537,0.855454504,9.97E-01
0.083332336,-0.412329376,0.909651697,9.97E-01
0.083558784,-0.303641707,0.951406837,9.97E-01
0.083785232,-0.190871119,0.980072379,9.97E-01
0.08401168,-0.075697511,0.995363414,9.96E-01
0.08423812,0.040299993,0.997227728,9.96E-01
0.084464568,0.155629009,0.985752225,9.96E-01
0.084691016,0.268840104,0.961128414,9.96E-01
0.084917464,0.378496408,0.923666418,9.96E-01
0.085143912,0.48317343,0.87382412,9.97E-01
0.085370352,0.581491947,0.812233806,9.98E-01
0.0855968,0.672171652,0.739696741,9.99E-01
0.085823248,0.754077733,0.657125711,1.00E+00
0.086049696,0.826197147,0.565451562,1.00E+00
0.086276144,0.88749969,0.465588093,1.00E+00
0.086502592,0.936802387,0.358599037,1.01E+00
0.086729032,0.972893655,0.245971456,1.01E+00
0.08695548,0.994887471,0.129645795,1.01E+00
0.087181928,1.00243962,0.011745837,1.01E+00
0.087408376,0.995693862,-0.10569682,1.00E+00
0.087634824,0.975127041,-0.220866323,1.00E+00
0.087861264,0.941420197,-0.332177132,9.97E-01
0.088087712,0.89537853,-0.438251376,9.94E-01
0.08831416,0.837886453,-0.537893534,9.91E-01
0.088540608,0.769877195,-0.630068958,9.90E-01
0.088767056,0.692308366,-0.713892043,9.89E-01
0.088993504,0.606123388,-0.788613439,9.89E-01
0.089219944,0.512197077,-0.85358125,9.91E-01
0.089446392,0.411291122,-0.908131778,9.94E-01
0.08967284,0.304131538,-0.951413512,9.98E-01
0.089899288,0.191679522,-0.982318342,1.00E+00
0.090125736,0.075397462,-0.999709904,1.01E+00
0.090352176,-0.042789567,-1.00279331,1.01E+00
0.090578624,-0.160764322,-0.991287589,1.01E+00
0.090805072,-0.276448637,-0.965378284,1.01E+00
0.09103152,-0.387905627,-0.925610185,1.01E+00
0.091257968,-0.493377924,-0.87281251,1.01E+00
0.091484416,-0.591316581,-0.808046997,1.00E+00
0.091710856,-0.680411279,-0.732558668,1.00E+00
0.091937304,-0.75961858,-0.647716701,9.97E-01
0.092163752,-0.828180075,-0.554935873,9.94E-01
0.0923902,-0.885603487,-0.455577224,9.92E-01
0.092616648,-0.931590617,-0.350846618,9.91E-01
0.092843096,-0.965867221,-0.241742998,9.91E-01
0.093069536,-0.987989008,-0.129176557,9.93E-01
0.093295984,-0.997318268,-0.01424599,9.95E-01
0.093522432,-0.993269205,0.101577558,9.97E-01
0.09374888,-0.975580156,0.216556609,9.99E-01
0.093975328,-0.944369674,0.328915328,1.00E+00
0.094201768,-0.900045991,0.436965913,1.00E+00
0.094428216,-0.8432253,0.539124966,1.00E+00
0.094654664,-0.774707735,0.633904696,1.00E+00
0.094881112,-0.695482254,0.71992147,1.00E+00
0.09510756,-0.606728196,0.795932353,1.00E+00
0.095334008,-0.50979656,0.860887945,1.00E+00
0.095560448,-0.406152248,0.913982868,1.00E+00
0.095786896,-0.297282994,0.954669833,1.00E+00
0.096013344,-0.184597686,0.982607067,1.00E+00
0.096239792,-0.069394074,0.997514606,1.00E+00
0.09646624,0.047010362,0.999052525,1.00E+00
0.09669268,0.163067281,0.986895502,1.00E+00
0.096919128,0.27696684,0.960998178,1.00E+00
0.097145576,0.386855811,0.921757042,9.99E-01
0.097372024,0.491069376,0.869940281,9.98E-01
0.097598472,0.588207126,0.806518257,9.96E-01
0.09782492,0.67709595,0.732546687,9.95E-01
0.09805136,0.756731987,0.649118543,9.94E-01
0.098277808,0.826236665,0.557361662,9.93E-01
0.098504256,0.884842575,0.458449185,9.93E-01
0.098730704,0.931900322,0.35360378,9.93E-01
0.098957152,0.966889322,0.244079366,9.94E-01
0.0991836,0.989410639,0.131122947,9.96E-01
