Frequency (GHz),Re( S21 ),Im( S21 ),S2
0,-0.041935872,-5.62E-05,1.76E-03
0.00022651,-0.037845198,0.018505447,1.77E-03
0.000453019,-0.026285872,0.033615209,1.82E-03
0.000679529,-0.00939873,0.042443615,1.89E-03
0.000906039,0.009681105,0.043318067,1.97E-03
0.001132549,0.027438678,0.036063109,2.05E-03
0.001359058,0.040478602,0.021955516,2.12E-03
0.001585568,0.046378482,0.003591233,2.16E-03
0.001812078,0.043971609,-0.015631985,2.18E-03
0.002038587,0.033624835,-0.032123815,2.16E-03
0.002265097,0.017186254,-0.042758696,2.12E-03
0.002491607,-0.002335109,-0.045459185,2.07E-03
0.002718117,-0.021307861,-0.039595354,2.02E-03
0.002944626,-0.03613811,-0.026126534,1.99E-03
0.003171136,-0.043940082,-0.007463229,1.99E-03
0.003397646,-0.043184008,0.012994114,2.03E-03
0.003624156,-0.033672582,0.031433497,2.12E-03
0.003850665,-0.017086385,0.044303242,2.25E-03
0.004077175,0.003648018,0.049061179,2.42E-03
0.004303685,0.02474835,0.044611108,2.60E-03
0.004530195,0.042268381,0.031544987,2.78E-03
0.004756704,0.052825101,0.012073779,2.94E-03
0.004983214,0.054235596,-0.010332331,3.05E-03
0.005209724,0.045952298,-0.031542245,3.11E-03
0.005436233,0.029220013,-0.047498904,3.11E-03
0.005662743,0.006917693,-0.054968473,3.07E-03
0.005889253,-0.01690083,-0.052177049,3.01E-03
0.006115763,-0.037721723,-0.03921045,2.96E-03
0.006342272,-0.051385492,-0.018060114,2.97E-03
0.006568782,-0.054882202,0.007651989,3.07E-03
0.006795292,-0.046952128,0.033103313,3.30E-03
0.007021801,-0.028336715,0.053576984,3.67E-03
0.007248311,-0.001908125,0.064927548,4.22E-03
0.007474821,0.027678676,0.064106539,4.88E-03
0.00770133,0.055121191,0.050691247,5.61E-03
0.00792784,0.07513985,0.026418764,6.34E-03
0.00815435,0.08351095,-0.004826271,7.00E-03
0.00838086,0.077902742,-0.037574813,7.48E-03
0.008607369,0.058435369,-0.065636203,7.72E-03
0.008833879,0.027888903,-0.083168015,7.69E-03
0.009060389,-0.008646668,-0.085765876,7.43E-03
0.009286898,-0.044348713,-0.071279109,7.05E-03
0.009513408,-0.071664259,-0.040539663,6.78E-03
0.009739918,-0.083585247,0.002437634,6.99E-03
0.009966427,-0.074960396,0.050748397,8.19E-03
0.010192937,-0.043559995,0.095444568,1.10E-02
0.010419447,0.009089193,0.126933917,1.62E-02
0.010645957,0.077984192,0.136557892,2.47E-02
0.010872466,0.153387383,0.117327012,3.73E-02
0.011098976,0.224448845,0.066730164,5.48E-02
0.011325486,0.279158205,-0.013687913,7.81E-02
0.011551995,0.30632019,-0.117523491,1.08E-01
0.011778505,0.297905117,-0.235815972,1.44E-01
0.012005015,0.248602301,-0.355688721,1.88E-01
0.012231525,0.157957643,-0.46335426,2.40E-01
0.012458034,0.03012836,-0.5452829,2.98E-01
0.012684544,-0.126475856,-0.589621663,3.64E-01
0.012911054,-0.299913675,-0.587419271,4.35E-01
0.013137563,-0.47578004,-0.533757389,5.11E-01
0.013364073,-0.638458669,-0.428433627,5.91E-01
0.013590583,-0.772625089,-0.276086181,6.73E-01
0.013817092,-0.864817619,-0.085922144,7.55E-01
0.014043602,-0.904841304,0.129013345,8.35E-01
0.014270112,-0.886876166,0.353023499,9.11E-01
0.014496622,-0.810147762,0.569292963,9.80E-01
0.014723131,-0.679033399,0.761604428,1.04E+00
0.014949641,-0.502562463,0.916023254,1.09E+00
0.015176151,-0.293396741,1.0223254,1.13E+00
0.01540266,-0.066399328,1.07483292,1.16E+00
0.01562917,0.16328457,1.07293653,1.18E+00
0.01585568,0.380413383,1.02383125,1.19E+00
0.01608219,0.566101015,0.92048949,1.17E+00
0.016308699,0.728464663,0.784441233,1.15E+00
0.016535209,0.853350341,0.625688553,1.12E+00
0.016761719,0.939721346,0.453782111,1.09E+00
0.016988228,0.989275277,0.277953446,1.06E+00
0.017214738,1.00574529,0.105670817,1.02E+00
0.017441248,0.994008839,-0.057789896,9.91E-01
0.017667758,0.959193289,-0.209332779,9.64E-01
0.017894268,0.90591085,-0.347702801,9.42E-01
0.018120778,0.837712228,-0.472907215,9.25E-01
0.018347286,0.756789863,-0.585377812,9.15E-01
0.018573796,0.664812565,-0.684975982,9.11E-01
0.018800306,0.562095046,-0.781308293,9.26E-01
0.019026816,0.452155739,-0.846590042,9.21E-01
0.019253326,0.335772365,-0.909467399,9.40E-01
0.019479836,0.202457294,-0.963379145,9.69E-01
0.019706346,0.05828952,-0.993579388,9.91E-01
0.019932854,-0.09112224,-1.00128043,1.01E+00
0.020159364,-0.242459819,-0.985141933,1.03E+00
0.020385874,-0.391321689,-0.944196343,1.04E+00
0.020612384,-0.532757819,-0.878647089,1.06E+00
0.020838894,-0.661807239,-0.79006654,1.06E+00
0.021065404,-0.773997366,-0.681343436,1.06E+00
0.021291914,-0.865756512,-0.556448221,1.06E+00
0.021518422,-0.934689224,-0.420091003,1.05E+00
0.021744932,-0.979739606,-0.277368128,1.04E+00
0.021971442,-1.00134909,-0.133333623,1.02E+00
0.022197952,-1.00136137,0.007583133,1.00E+00
0.022424462,-0.983028114,0.141878352,9.86E-01
0.022650972,-0.951076031,0.269639224,9.77E-01
0.022877482,-0.903554142,0.392973036,9.71E-01
0.02310399,-0.840615332,0.506945193,9.64E-01
0.0233305,-0.765641987,0.610498369,9.59E-01
0.02355701,-0.680148959,0.703783631,9.58E-01
0.02378352,-0.584803224,0.786607981,9.61E-01
0.02401003,-0.479975998,0.858281314,9.67E-01
0.02423654,-0.366090178,0.917598903,9.76E-01
0.02446305,-0.243919864,0.962924004,9.87E-01
0.024689558,-0.114833444,0.99238199,9.98E-01
0.024916068,0.019053875,1.00415504,1.01E+00
0.025142578,0.154870734,0.996855378,1.02E+00
0.025369088,0.289182037,0.96990633,1.02E+00
0.025595598,0.418384016,0.923860192,1.03E+00
0.025822108,0.539624691,0.860589623,1.03E+00
0.026048616,0.652071416,0.781316936,1.04E+00
0.026275126,0.752517521,0.685132325,1.04E+00
0.026501636,0.836283028,0.575289786,1.03E+00
0.026728146,0.901933849,0.456270307,1.02E+00
0.026954656,0.949388802,0.331644893,1.01E+00
0.027181166,0.979138732,0.204381719,1.00E+00
0.027407676,0.99207139,0.076923169,9.90E-01
0.027634184,0.98928535,-0.048821438,9.81E-01
0.027860694,0.971895397,-0.171419963,9.74E-01
0.028087204,0.940879524,-0.289791375,9.69E-01
0.028313714,0.89701587,-0.403032809,9.67E-01
0.028540224,0.840919793,-0.510261178,9.68E-01
0.028766734,0.773169458,-0.610536397,9.71E-01
0.028993244,0.694456041,-0.702971339,9.76E-01
0.029219752,0.605312645,-0.787169218,9.86E-01
0.029446262,0.504791379,-0.862457454,9.99E-01
0.029672772,0.392334491,-0.925372779,1.01E+00
0.029899282,0.270426929,-0.972590089,1.02E+00
0.030125792,0.14211157,-1.00254297,1.03E+00
0.030352302,0.010288547,-1.01433825,1.03E+00
0.030578812,-0.122048587,-1.00756764,1.03E+00
0.03080532,-0.251846343,-0.982420921,1.03E+00
0.03103183,-0.376161695,-0.93973273,1.02E+00
0.03125834,-0.492350101,-0.880935907,1.02E+00
0.03148485,-0.598222852,-0.807945192,1.01E+00
0.03171136,-0.692152679,-0.723000705,1.00E+00
0.03193787,-0.773137748,-0.628495932,9.93E-01
0.03216438,-0.840842724,-0.526792169,9.85E-01
0.032390888,-0.895668745,-0.419934869,9.79E-01
0.032617398,-0.93857193,-0.30895555,9.76E-01
0.032843908,-0.969528079,-0.193590507,9.77E-01
0.033070418,-0.986961544,-0.074573912,9.80E-01
0.033296928,-0.990119994,0.046061792,9.82E-01
0.033523438,-0.979036987,0.166631043,9.86E-01
0.033749948,-0.95369339,0.285736412,9.91E-01
0.033976456,-0.913966656,0.401871443,9.97E-01
0.034202968,-0.859818876,0.513270497,1.00E+00
0.034429476,-0.791484416,0.617915571,1.01E+00
0.034655988,-0.709623694,0.713632345,1.01E+00
0.034882496,-0.615421295,0.798249364,1.02E+00
0.035109004,-0.510613322,0.869799972,1.02E+00
0.035335516,-0.397428393,0.926749408,1.02E+00
0.035562024,-0.278398514,0.968229353,1.01E+00
0.035788536,-0.15592809,0.994181991,1.01E+00
0.036015044,-0.031652819,1.00492144,1.01E+00
0.036241556,0.093090639,0.99997896,1.01E+00
0.036468064,0.215764552,0.978831828,1.00E+00
0.036694572,0.333577931,0.942376435,9.99E-01
0.036921084,0.444639891,0.892210662,9.94E-01
0.037147592,0.547762275,0.829879403,9.89E-01
0.037374104,0.642114758,0.756712854,9.85E-01
0.037600612,0.727024555,0.673836589,9.83E-01
0.037827124,0.801847637,0.58222425,9.82E-01
0.038053632,0.865884125,0.482782274,9.83E-01
0.03828014,0.918350935,0.376459092,9.85E-01
0.038506652,0.958419263,0.264349312,9.88E-01
0.03873316,0.985325873,0.147758082,9.93E-01
0.038959672,0.998522758,0.028141525,9.98E-01
0.03918618,0.997698963,-0.093157463,1.00E+00
0.039412692,0.982272267,-0.215057418,1.01E+00
0.0396392,0.951012254,-0.33580792,1.02E+00
0.039865708,0.903361142,-0.452344835,1.02E+00
0.04009222,0.840233982,-0.561560512,1.02E+00
0.040318728,0.763304889,-0.661063492,1.02E+00
0.04054524,0.674514174,-0.749065518,1.02E+00
0.040771748,0.575939775,-0.824258566,1.01E+00
0.04099826,0.469717056,-0.885778666,1.01E+00
0.041224768,0.357948869,-0.933180928,9.99E-01
0.041451276,0.242616564,-0.966384768,9.93E-01
0.041677788,0.125515461,-0.985603213,9.87E-01
0.041904296,0.008216061,-0.991271377,9.83E-01
0.042130808,-0.107974626,-0.98398453,9.80E-01
0.042357316,-0.222097412,-0.964413106,9.79E-01
0.042583828,-0.33364749,-0.933027208,9.82E-01
0.042810336,-0.442244858,-0.889556646,9.87E-01
0.043036844,-0.54661274,-0.833180606,9.93E-01
0.043263356,-0.644539535,-0.763771296,9.99E-01
0.043489864,-0.733903468,-0.682119489,1.00E+00
0.043716376,-0.812948644,-0.589386106,1.01E+00
0.043942884,-0.880120575,-0.486930162,1.01E+00
0.044169396,-0.934020102,-0.376357526,1.01E+00
0.044395904,-0.97347784,-0.259557486,1.02E+00
0.044622412,-0.997659445,-0.138670594,1.01E+00
0.044848924,-1.00615811,-0.016001547,1.01E+00
0.045075432,-0.999051213,0.106109813,1.01E+00
0.045301944,-0.976913512,0.225445613,1.01E+00
0.045528452,-0.940767646,0.340099037,1.00E+00
0.045754964,-0.891901493,0.448683858,9.97E-01
0.045981472,-0.831439376,0.550400257,9.94E-01
0.04620798,-0.759926975,0.644528389,9.93E-01
0.046434492,-0.677821219,0.729733407,9.92E-01
0.046661,-0.586281359,0.804497123,9.91E-01
0.046887512,-0.486875504,0.867824435,9.90E-01
0.04711402,-0.3810637,0.919147551,9.90E-01
0.047340532,-0.270127356,0.958023787,9.91E-01
0.04756704,-0.155290097,0.983996868,9.92E-01
0.047793548,-0.037842128,0.996590614,9.95E-01
0.04802006,0.080777243,0.995365977,9.97E-01
0.048246568,0.198943794,0.9800179,1.00E+00
0.04847308,0.314870834,0.950482428,1.00E+00
0.048699588,0.426700115,0.907031596,1.00E+00
0.0489261,0.532661855,0.850303829,1.01E+00
0.049152608,0.631259143,0.781177938,1.01E+00
0.049379116,0.721235752,0.700450301,1.01E+00
0.049605628,0.801087022,0.608762503,1.01E+00
0.049832136,0.868859529,0.507286608,1.01E+00
0.050058648,0.922915459,0.398101866,1.01E+00
0.050285156,0.962457478,0.283625633,1.01E+00
0.050511664,0.987344503,0.166105419,1.00E+00
0.050738176,0.997805595,0.047500502,9.98E-01
0.050964684,0.994274974,-0.070495144,9.94E-01
0.051191196,0.977296293,-0.18641147,9.90E-01
0.051417704,0.947468162,-0.298954517,9.87E-01
0.051644216,0.905412793,-0.4069601,9.85E-01
0.051870724,0.851775467,-0.509354711,9.85E-01
0.052097232,0.787233829,-0.605148494,9.86E-01
0.052323744,0.712474704,-0.693464637,9.89E-01
0.052550252,0.628066361,-0.773533702,9.93E-01
0.052776764,0.534303904,-0.844442785,9.99E-01
0.053003272,0.43149814,-0.904678404,1.00E+00
0.053229784,0.320727319,-0.952280164,1.01E+00
0.053456292,0.20395501,-0.985641778,1.01E+00
0.0536828,0.08349821,-1.00386178,1.01E+00
0.053909312,-0.038318045,-1.00659716,1.01E+00
0.05413582,-0.159242168,-0.993926704,1.01E+00
0.054362332,-0.27713117,-0.966299057,1.01E+00
0.05458884,-0.390007824,-0.924504459,1.01E+00
0.054815352,-0.496127844,-0.869629323,1.00E+00
0.05504186,-0.594039977,-0.802990794,9.98E-01
0.055268368,-0.68263334,-0.726047575,9.93E-01
0.05549488,-0.761167526,-0.640289068,9.89E-01
0.055721388,-0.829266846,-0.547071338,9.87E-01
0.0559479,-0.88677758,-0.447399259,9.87E-01
0.056174408,-0.933363974,-0.341856331,9.88E-01
0.05640092,-0.968143165,-0.231047824,9.91E-01
0.056627428,-0.990010083,-0.116178103,9.94E-01
0.056853936,-0.998224616,0.001067303,9.96E-01
0.057080448,-0.992477238,0.11893291,9.99E-01
0.057306956,-0.972699225,0.235717803,1.00E+00
0.057533468,-0.938985348,0.349716902,1.00E+00
0.057759976,-0.891625762,0.459179372,1.01E+00
0.057986488,-0.831170201,0.562324941,1.01E+00
0.058212996,-0.758481026,0.657412469,1.01E+00
0.058439504,-0.674746931,0.742838979,1.01E+00
0.058666016,-0.58144933,0.817257822,1.01E+00
0.058892524,-0.480255693,0.879686177,1.00E+00
0.059119036,-0.372827977,0.929546058,1.00E+00
0.059345544,-0.260598123,0.966518641,1.00E+00
0.059572056,-0.144789606,0.990189373,1.00E+00
0.059798564,-0.026851205,0.999926984,1.00E+00
0.060025072,0.091291361,0.995348871,9.99E-01
0.060251584,0.207614347,0.976677358,9.97E-01
0.060478092,0.320380539,0.944567263,9.95E-01
0.060704604,0.428179622,0.899818599,9.93E-01
0.060931112,0.529814959,0.843240023,9.92E-01
0.061157624,0.624195099,0.775627494,9.91E-01
0.061384132,0.710269392,0.697796285,9.91E-01
0.06161064,0.78700608,0.610630751,9.92E-01
0.061837152,0.853409708,0.515133798,9.94E-01
0.06206366,0.908573449,0.412446797,9.96E-01
0.062290172,0.951744676,0.303815693,9.98E-01
0.06251668,0.982327998,0.190486252,1.00E+00
0.062743192,0.999734581,0.073627614,1.00E+00
0.0629697,1.00316393,-0.04546719,1.01E+00
0.063196208,0.991780579,-0.164959431,1.01E+00
0.06342272,0.965287268,-0.282473058,1.01E+00
0.063649228,0.924161434,-0.395602435,1.01E+00
0.06387574,0.86942929,-0.502278447,1.01E+00
0.064102248,0.802401125,-0.60083276,1.00E+00
0.06432876,0.724521577,-0.689951003,1.00E+00
0.064555268,0.637292922,-0.768626571,9.97E-01
0.064781776,0.542219698,-0.836120784,9.93E-01
0.065008288,0.440769792,-0.89192766,9.90E-01
0.065234796,0.334341615,-0.935741603,9.87E-01
0.065461308,0.224226877,-0.967422903,9.86E-01
0.065687816,0.111558609,-0.986949205,9.87E-01
0.065914328,-0.002743451,-0.994291365,9.89E-01
0.066140836,-0.117899098,-0.98918283,9.92E-01
0.066367344,-0.232906535,-0.970993638,9.97E-01
0.066593856,-0.346157759,-0.939068198,1.00E+00
0.066820364,-0.455575734,-0.89325279,1.01E+00
0.067046876,-0.559055507,-0.834016204,1.01E+00
0.067273384,-0.654698193,-0.762258947,1.01E+00
0.067499896,-0.740835726,-0.679167569,1.01E+00
0.067726408,-0.816027403,-0.586159706,1.01E+00
0.067952912,-0.879085422,-0.484855711,1.01E+00
0.068179424,-0.929121137,-0.377036691,1.01E+00
0.068405936,-0.965583384,-0.264572382,1.00E+00
0.06863244,-0.9882797,-0.149327382,9.99E-01
0.068858952,-0.997358203,-0.033044405,9.96E-01
0.069085464,-0.993223071,0.08278539,9.93E-01
0.069311976,-0.976338983,0.196999997,9.92E-01
0.06953848,-0.946966767,0.308644235,9.92E-01
0.069764992,-0.90511924,0.416601449,9.93E-01
0.069991504,-0.850921988,0.519370496,9.94E-01
0.070218008,-0.78494519,0.615316391,9.95E-01
0.07044452,-0.708123267,0.702991843,9.96E-01
0.070671032,-0.621540189,0.781195045,9.97E-01
0.070897544,-0.526337445,0.8488819,9.98E-01
0.071124048,-0.42372939,0.905101061,9.99E-01
0.07135056,-0.315049648,0.948990643,1.00E+00
0.071577072,-0.201780573,0.979821086,1.00E+00
0.071803576,-0.085546278,0.997059405,1.00E+00
0.072030088,0.031936567,1.00043225,1.00E+00
0.0722566,0.148954853,0.989960194,1.00E+00
0.072483112,0.26391995,0.965910494,1.00E+00
0.072709616,0.375421822,0.928643346,1.00E+00
0.072936128,0.482083142,0.878451467,1.00E+00
0.07316264,0.582286119,0.815672636,1.00E+00
0.073389144,0.674193263,0.741067827,1.00E+00
0.073615656,0.7561391,0.655961871,1.00E+00
0.073842168,0.826910615,0.562000394,1.00E+00
0.07406868,0.885732353,0.460870028,9.97E-01
0.074295184,0.93213433,0.354170978,9.94E-01
0.074521696,0.965839624,0.243396088,9.92E-01
0.074748208,0.986695945,0.12995179,9.90E-01
0.074974712,0.994646072,0.015187585,9.90E-01
0.075201224,0.989722311,-0.09958265,9.89E-01
0.075427736,0.972052872,-0.213078335,9.90E-01
0.075654248,0.941854417,-0.324075818,9.92E-01
0.075880752,0.89937526,-0.431432664,9.95E-01
0.076107264,0.844781816,-0.534022331,9.99E-01
0.076333776,0.778145909,-0.630505621,1.00E+00
0.07656028,0.6997298,-0.719131589,1.01E+00
0.076786792,0.610385776,-0.797925174,1.01E+00
0.077013304,0.511603951,-0.865132868,1.01E+00
0.077239816,0.405247986,-0.919472158,1.01E+00
0.07746632,0.293306589,-0.960130572,1.01E+00
0.077692832,0.177767813,-0.986690462,1.01E+00
0.077919344,0.060555413,-0.999065876,1.00E+00
0.078145848,-0.056516424,-0.997460425,9.98E-01
0.07837236,-0.171785712,-0.982322097,9.94E-01
0.078598872,-0.283782542,-0.954292655,9.91E-01
0.078825384,-0.391265035,-0.914143264,9.89E-01
0.079051888,-0.493239224,-0.862677991,9.87E-01
0.0792784,-0.588926554,-0.800595641,9.88E-01
0.079504912,-0.677597046,-0.728362143,9.90E-01
0.079731416,-0.758277357,-0.646267354,9.93E-01
0.079957928,-0.829608858,-0.5547719,9.96E-01
0.08018444,-0.890091181,-0.454828292,9.99E-01
0.080410952,-0.938435018,-0.347842515,1.00E+00
0.080637456,-0.973688841,-0.235456735,1.00E+00
0.080863968,-0.99520129,-0.11941231,1.00E+00
0.08109048,-1.00258172,-0.001508696,1.01E+00
0.081316984,-0.995696247,0.116410278,1.00E+00
0.081543496,-0.974694848,0.232492343,1.00E+00
0.081770008,-0.940022886,0.344936013,1.00E+00
0.08199652,-0.892415404,0.452073812,1.00E+00
0.082223024,-0.832844973,0.552459717,9.99E-01
0.082449536,-0.762409031,0.644933462,9.97E-01
0.082676048,-0.682168901,0.728600144,9.96E-01
0.082902552,-0.593030989,0.802660525,9.96E-01
0.083129064,-0.495848,0.866174638,9.96E-01
0.083355576,-0.391720295,0.918052375,9.96E-01
0.083582088,-0.282133251,0.9573403,9.96E-01
0.083808592,-0.168777972,0.983454287,9.96E-01
0.084035104,-0.05332594,0.996156633,9.95E-01
0.084261616,0.062656425,0.995428026,9.95E-01
0.08448812,0.17768456,0.981378734,9.95E-01
0.084714632,0.290311903,0.9542225,9.95E-01
0.084941144,0.399101615,0.914295852,9.95E-01
0.085167656,0.50263226,0.862088442,9.96E-01
0.08539416,0.599533498,0.79826647,9.97E-01
0.085620672,0.688543797,0.723662853,9.98E-01
0.085847184,0.768550336,0.639211535,9.99E-01
0.086073688,0.83855319,0.545854986,1.00E+00
0.0863002,0.897515655,0.444527954,1.00E+00
0.086526712,0.944248974,0.336349845,1.00E+00
0.086753224,0.977580905,0.222885832,1.01E+00
0.086979728,0.99671042,0.10612645,1.00E+00
0.08720624,1.00138569,-0.011800215,1.00E+00
0.087432752,0.991825581,-0.12889035,1.00E+00
0.087659256,0.968559206,-0.243365735,9.97E-01
0.087885768,0.932302892,-0.353680998,9.94E-01
0.08811228,0.883886158,-0.458496541,9.91E-01
0.088338792,0.824208677,-0.556652248,9.89E-01
0.088565296,0.754212379,-0.647146344,9.88E-01
0.088791808,0.674856484,-0.729121923,9.87E-01
0.08901832,0.587078691,-0.801853478,9.88E-01
0.089244824,0.491739601,-0.864699841,9.90E-01
0.089471336,0.38958931,-0.916984856,9.93E-01
0.089697848,0.281371564,-0.957823098,9.97E-01
0.08992436,0.168110162,-0.986084402,1.00E+00
0.090150864,0.051349577,-1.00066471,1.00E+00
0.090377376,-0.066932179,-1.00084352,1.01E+00
0.090603888,-0.184604362,-0.986420572,1.01E+00
0.090830392,-0.299597502,-0.957650602,1.01E+00
0.091056904,-0.409995049,-0.915139675,1.01E+00
0.091283416,-0.514067411,-0.859768867,1.00E+00
0.091509928,-0.610301435,-0.792646289,1.00E+00
0.091736432,-0.697431147,-0.715054631,9.98E-01
0.091962944,-0.77446413,-0.628387451,9.95E-01
0.092189456,-0.840694129,-0.534068704,9.92E-01
0.09241596,-0.895677269,-0.433451176,9.90E-01
0.092642472,-0.939143717,-0.327714831,9.89E-01
0.092868984,-0.97081846,-0.217836842,9.90E-01
0.093095496,-0.990236104,-0.104735643,9.92E-01
0.093322,-0.996756315,0.010442457,9.94E-01
0.093548512,-0.98983556,0.126177341,9.96E-01
0.093775024,-0.969275713,0.240712941,9.97E-01
0.094001528,-0.935251057,0.352281004,9.99E-01
0.09422804,-0.888210773,0.459208071,1.00E+00
0.094454552,-0.82880789,0.559923828,1.00E+00
0.094681064,-0.757879972,0.652952731,1.00E+00
0.094907568,-0.676456213,0.73692888,1.00E+00
0.09513408,-0.585757136,0.810635746,1.00E+00
0.095360592,-0.487169862,0.873061836,1.00E+00
0.095587096,-0.382185191,0.923446476,9.99E-01
0.095813608,-0.272299916,0.961290121,9.98E-01
0.09604012,-0.158918843,0.986284018,9.98E-01
0.096266632,-0.043342337,0.998163104,9.98E-01
0.096493136,0.073082455,0.996598184,9.99E-01
0.096719648,0.188759938,0.98131001,9.99E-01
0.09694616,0.301857471,0.952336669,9.98E-01
0.097172664,0.410544485,0.91016078,9.97E-01
0.097399176,0.513202846,0.855609536,9.95E-01
0.097625688,0.608483016,0.789689422,9.94E-01
0.0978522,0.695254385,0.71347481,9.92E-01
0.098078704,0.772548914,0.62807411,9.91E-01
0.098305216,0.839518666,0.534628034,9.91E-01
0.098531728,0.895427465,0.434323281,9.90E-01
0.098758232,0.939657271,0.328392625,9.91E-01
0.098984744,0.971720397,0.218096524,9.92E-01
0.099211256,0.99124527,0.104679517,9.94E-01
