Frequency (GHz),Re( S21 ),Im( S21 ),S2
0,-0.042367611,-4.60E-05,1.80E-03
0.000226455,-0.03824022,0.018672973,1.81E-03
0.00045291,-0.026589211,0.033914272,1.86E-03
0.000679365,-0.0095692,0.04283024,1.93E-03
0.00090582,0.00971211,0.043782398,2.01E-03
0.001132275,0.027589735,0.036482818,2.09E-03
0.00135873,0.040777527,0.022285081,2.16E-03
0.001585185,0.046782963,0.003783329,2.20E-03
0.00181164,0.044424873,-0.015609077,2.22E-03
0.002038095,0.034060523,-0.032279626,2.20E-03
0.00226455,0.017537139,-0.043077949,2.16E-03
0.002491005,-0.002127805,-0.04590163,2.11E-03
0.002717461,-0.021285227,-0.040100005,2.06E-03
0.002943916,-0.036317173,-0.026619645,2.03E-03
0.003170371,-0.04430924,-0.007862469,2.03E-03
0.003396826,-0.043654904,0.012688582,2.07E-03
0.003623281,-0.03424276,0.031403307,2.16E-03
0.003849736,-0.01764039,0.044500347,2.29E-03
0.004076191,0.003200597,0.049469799,2.46E-03
0.004302646,0.024486674,0.045179293,2.64E-03
0.004529101,0.042248063,0.032189731,2.82E-03
0.004755556,0.053066924,0.01269318,2.98E-03
0.004982011,0.054718327,-0.009844634,3.09E-03
0.005208466,0.046612531,-0.031279951,3.15E-03
0.005434921,0.029958392,-0.047526743,3.16E-03
0.005661376,0.007611486,-0.055308849,3.12E-03
0.005887831,-0.01638213,-0.052800845,3.06E-03
0.006114286,-0.037490122,-0.040031329,3.01E-03
0.006340741,-0.051510405,-0.018951016,3.01E-03
0.006567196,-0.055378866,0.006841285,3.11E-03
0.006793651,-0.047773086,0.032523386,3.34E-03
0.007020106,-0.02937212,0.05335471,3.71E-03
0.007246561,-0.002997334,0.065126911,4.25E-03
0.007473016,0.026711294,0.064745307,4.91E-03
0.007699471,0.054454763,0.051701274,5.64E-03
0.007925926,0.074919,0.027658798,6.38E-03
0.008152381,0.083817363,-0.003553967,7.04E-03
0.008378837,0.078734003,-0.03649639,7.53E-03
0.008605291,0.059697922,-0.06497284,7.79E-03
0.008831746,0.029389435,-0.083107241,7.77E-03
0.009058201,-0.00717417,-0.086395599,7.52E-03
0.009284656,-0.043201547,-0.072584808,7.13E-03
0.009511111,-0.071135022,-0.042384058,6.86E-03
0.009737566,-0.083910793,0.000312501,7.04E-03
0.009964021,-0.076272331,0.048698176,8.19E-03
0.010190477,-0.045845758,0.093879588,1.09E-02
0.010416932,0.00600568,0.126260459,1.60E-02
0.010643387,0.074437611,0.137098551,2.43E-02
0.010869842,0.149840072,0.119301185,3.67E-02
0.011096297,0.221435934,0.070163131,5.40E-02
0.011322752,0.277221233,-0.008968528,7.69E-02
0.011549207,0.305936754,-0.111884989,1.06E-01
0.011775662,0.29940334,-0.229776844,1.42E-01
0.012002117,0.252132922,-0.349876136,1.86E-01
0.012228572,0.163462579,-0.458431691,2.37E-01
0.012455027,0.037337285,-0.541883051,2.95E-01
0.012681482,-0.118028857,-0.588285029,3.60E-01
0.012907937,-0.290857732,-0.588535726,4.31E-01
0.013134392,-0.466855794,-0.537513912,5.07E-01
0.013360847,-0.630454779,-0.43478474,5.87E-01
0.013587302,-0.766304433,-0.284744203,6.68E-01
0.013813757,-0.860840023,-0.096370585,7.50E-01
0.014040212,-0.903692305,0.117481887,8.30E-01
0.014266667,-0.888810277,0.341245383,9.06E-01
0.014493122,-0.815153539,0.558153689,9.76E-01
0.014719577,-0.686830163,0.751947939,1.04E+00
0.014946032,-0.512627602,0.908564746,1.09E+00
0.015172487,-0.305022418,1.01757622,1.13E+00
0.015398942,-0.078772664,1.07305837,1.16E+00
0.015625397,0.150981799,1.07412839,1.18E+00
0.015851852,0.369039893,1.02755213,1.19E+00
0.016078307,0.556146443,0.9268049,1.17E+00
0.016304762,0.720438659,0.792459309,1.15E+00
0.016531217,0.847477317,0.634836376,1.12E+00
0.016757673,0.936029315,0.463460565,1.09E+00
0.016984128,0.987629533,0.287632972,1.06E+00
0.017210582,1.00589156,0.114936188,1.03E+00
0.017437038,0.995628417,-0.04921842,9.94E-01
0.017663492,0.961955667,-0.201600417,9.66E-01
0.017889948,0.909521759,-0.340839863,9.43E-01
0.018116402,0.841947019,-0.466863751,9.27E-01
0.018342858,0.761508107,-0.580074549,9.16E-01
0.018569312,0.669922531,-0.680324316,9.12E-01
0.018795768,0.567682207,-0.777146459,9.26E-01
0.019022222,0.45805952,-0.843093753,9.21E-01
0.019248678,0.342102408,-0.906343341,9.38E-01
0.019475132,0.209573746,-0.961119711,9.68E-01
0.019701588,0.065881133,-0.992307842,9.89E-01
0.019928042,-0.08316312,-1.00113618,1.01E+00
0.020154498,-0.234321386,-0.986274481,1.03E+00
0.020380954,-0.383260489,-0.946705818,1.04E+00
0.020607408,-0.525073051,-0.882557213,1.05E+00
0.020833864,-0.654809237,-0.795309901,1.06E+00
0.021060318,-0.767974496,-0.687762201,1.06E+00
0.021286774,-0.860943496,-0.56380558,1.06E+00
0.021513228,-0.931244552,-0.428093135,1.05E+00
0.021739684,-0.97772795,-0.285692453,1.04E+00
0.021966138,-1.00073576,-0.141666591,1.02E+00
0.022192594,-1.00202382,-0.000486703,1.00E+00
0.022419048,-0.984756708,0.134266645,9.88E-01
0.022645504,-0.95368588,0.262468398,9.78E-01
0.022871958,-0.907051206,0.386370957,9.72E-01
0.023098414,-0.844787836,0.501012027,9.65E-01
0.023324868,-0.770346344,0.605203867,9.60E-01
0.023551324,-0.68531251,0.699085355,9.58E-01
0.023777778,-0.590401649,0.782479584,9.61E-01
0.024004234,-0.486014634,0.854728758,9.67E-01
0.024230688,-0.372582436,0.914669096,9.75E-01
0.024457144,-0.250864327,0.960705161,9.86E-01
0.024683598,-0.122192457,0.990993023,9.97E-01
0.024910054,0.011368673,1.00372672,1.01E+00
0.025136508,0.147003382,0.997504234,1.02E+00
0.025362964,0.281323522,0.971708775,1.02E+00
0.025589418,0.410749495,0.926830351,1.03E+00
0.025815874,0.532397866,0.864677548,1.03E+00
0.026042328,0.645411968,0.786525905,1.04E+00
0.026268784,0.746729016,0.69138521,1.04E+00
0.026495238,0.831566751,0.582339287,1.03E+00
0.026721694,0.898378432,0.463867515,1.02E+00
0.02694815,0.947019756,0.339554638,1.01E+00
0.027174604,0.97792697,0.212390214,1.00E+00
0.02740106,0.991944969,0.084850565,9.91E-01
0.027627514,0.990146577,-0.041111141,9.82E-01
0.02785397,0.97363919,-0.164019495,9.75E-01
0.028080424,0.943409383,-0.282755166,9.70E-01
0.02830688,0.900255203,-0.396389514,9.68E-01
0.028533334,0.844816983,-0.504028082,9.68E-01
0.02875979,0.777693033,-0.604729235,9.71E-01
0.028986244,0.699590981,-0.69760716,9.76E-01
0.0292127,0.611083984,-0.782262206,9.85E-01
0.029439154,0.5112831,-0.858109951,9.98E-01
0.02966561,0.399523824,-0.921791613,1.01E+00
0.029892064,0.278199553,-0.969930232,1.02E+00
0.03011852,0.150333583,-1.00092733,1.02E+00
0.030344974,0.018796513,-1.01387048,1.03E+00
0.03057143,-0.113450073,-1.00831664,1.03E+00
0.030797884,-0.243373647,-0.984408617,1.03E+00
0.03102434,-0.368034899,-0.942926884,1.02E+00
0.031250794,-0.48477596,-0.885251105,1.02E+00
0.03147725,-0.591376722,-0.813248813,1.01E+00
0.031703704,-0.686166525,-0.729127347,1.00E+00
0.03193016,-0.768091738,-0.635262787,9.94E-01
0.032156614,-0.836759627,-0.53401804,9.85E-01
0.03238307,-0.892516553,-0.427468717,9.79E-01
0.032609524,-0.936297655,-0.316719711,9.77E-01
0.03283598,-0.96814394,-0.201542929,9.78E-01
0.033062434,-0.986492157,-0.082614631,9.80E-01
0.03328889,-0.990544796,0.038025636,9.83E-01
0.033515346,-0.980338156,0.158660278,9.86E-01
0.0337418,-0.955875814,0.277887076,9.91E-01
0.033968256,-0.917052507,0.394214213,9.96E-01
0.034194712,-0.863833308,0.5059008,1.00E+00
0.034421164,-0.796441495,0.61095655,1.01E+00
0.03464762,-0.715512335,0.707231164,1.01E+00
0.034874076,-0.622192323,0.792566001,1.02E+00
0.035100532,-0.518173695,0.864992499,1.02E+00
0.035326984,-0.405642182,0.922955155,1.02E+00
0.03555344,-0.287098199,0.965545297,1.01E+00
0.035779896,-0.164944425,0.992657721,1.01E+00
0.036006352,-0.040839706,1.00459421,1.01E+00
0.036232804,0.08391393,1.00090158,1.01E+00
0.03645926,0.206829518,0.980986595,1.01E+00
0.036685716,0.325079024,0.94566226,1.00E+00
0.036912172,0.436713278,0.896500647,9.94E-01
0.037138624,0.540498555,0.835044503,9.89E-01
0.03736508,0.635572612,0.762634158,9.86E-01
0.037591536,0.72124064,0.680410624,9.83E-01
0.037817992,0.796847045,0.589365721,9.82E-01
0.038044444,0.861692548,0.49042213,9.83E-01
0.0382709,0.915000439,0.384536237,9.85E-01
0.038497356,0.955952346,0.272803724,9.88E-01
0.038723812,0.983790576,0.156521976,9.92E-01
0.038950264,0.997967362,0.037140433,9.97E-01
0.03917672,0.998178959,-0.083996385,1.00E+00
0.039403176,0.983879447,-0.2058236,1.01E+00
0.039629632,0.953846395,-0.326672852,1.02E+00
0.039856084,0.907443881,-0.443540573,1.02E+00
0.04008254,0.845510304,-0.553305745,1.02E+00
0.040308996,0.769675434,-0.65354985,1.02E+00
0.040535452,0.681845844,-0.742456794,1.02E+00
0.040761908,0.5840711,-0.818685532,1.01E+00
0.04098836,0.478469223,-0.881334484,1.01E+00
0.041214816,0.367135465,-0.929915667,1.00E+00
0.041441272,0.252056807,-0.964309454,9.93E-01
0.041667728,0.135044411,-0.9846946,9.88E-01
0.04189418,0.017692821,-0.991479993,9.83E-01
0.042120636,-0.098659955,-0.985244155,9.80E-01
0.042347092,-0.213017568,-0.96665597,9.80E-01
0.042573548,-0.324839681,-0.936213076,9.82E-01
0.0428,-0.433755755,-0.893700182,9.87E-01
0.043026456,-0.538549423,-0.838305116,9.93E-01
0.043252912,-0.63703531,-0.769855142,9.98E-01
0.043479368,-0.727079272,-0.689112961,1.00E+00
0.04370582,-0.806923866,-0.597230792,1.01E+00
0.043932276,-0.875018954,-0.495550007,1.01E+00
0.044158732,-0.929966688,-0.385650963,1.01E+00
0.044385188,-0.970588446,-0.269391954,1.01E+00
0.04461164,-0.996029139,-0.148882732,1.01E+00
0.044838096,-1.0058496,-0.026402591,1.01E+00
0.045064552,-1.00008464,0.095721893,1.01E+00
0.045291008,-0.979264617,0.215271741,1.01E+00
0.04551746,-0.944367945,0.330321014,1.00E+00
0.045743916,-0.896656156,0.43944627,9.97E-01
0.045970372,-0.837259471,0.541812062,9.95E-01
0.046196828,-0.766739607,0.63670373,9.93E-01
0.04642328,-0.685521901,0.722803712,9.92E-01
0.046649736,-0.594724417,0.798560798,9.91E-01
0.046876192,-0.495914549,0.862931132,9.91E-01
0.047102648,-0.390573204,0.915321469,9.90E-01
0.047329104,-0.280000806,0.955282211,9.91E-01
0.047555556,-0.165432006,0.982360423,9.92E-01
0.047782012,-0.04815736,0.996086121,9.95E-01
0.048008468,0.070391156,0.996024847,9.97E-01
0.048234924,0.188603878,0.981869876,1.00E+00
0.048461376,0.304710418,0.95354712,1.00E+00
0.048687832,0.416865379,0.911310077,1.00E+00
0.048914288,0.523302436,0.855773807,1.01E+00
0.049140744,0.622519314,0.787802041,1.01E+00
0.049367196,0.713266432,0.708189011,1.01E+00
0.049593652,0.794075191,0.617554009,1.01E+00
0.049820108,0.863001704,0.516993284,1.01E+00
0.050046564,0.91835767,0.408522844,1.01E+00
0.050273016,0.959280074,0.29454127,1.01E+00
0.050499472,0.985577822,0.17730172,1.00E+00
0.050725928,0.997441471,0.058777772,9.98E-01
0.050952384,0.995275617,-0.059318051,9.94E-01
0.051178836,0.979602754,-0.175493658,9.90E-01
0.051405292,0.951007724,-0.288432568,9.88E-01
0.051631748,0.910105407,-0.39694953,9.86E-01
0.051858204,0.857540607,-0.499952763,9.85E-01
0.052084656,0.793993175,-0.596436262,9.86E-01
0.052311112,0.72015965,-0.68550992,9.89E-01
0.052537568,0.636629343,-0.76640147,9.93E-01
0.052764024,0.54371798,-0.83822602,9.98E-01
0.052990476,0.441714823,-0.899522066,1.00E+00
0.053216932,0.331629604,-0.94834131,1.01E+00
0.053443388,0.21537596,-0.983043969,1.01E+00
0.053669844,0.095249809,-1.00268757,1.01E+00
0.0538963,-0.026434511,-1.0068965,1.01E+00
0.054122752,-0.147433132,-0.995716155,1.01E+00
0.054349208,-0.265606165,-0.969560087,1.01E+00
0.054575664,-0.378970236,-0.929180205,1.01E+00
0.05480212,-0.485765219,-0.875627577,1.00E+00
0.055028572,-0.584515274,-0.810188293,9.98E-01
0.055255028,-0.674075544,-0.734299839,9.94E-01
0.055481484,-0.75366801,-0.649442971,9.90E-01
0.05570794,-0.822879136,-0.556983054,9.87E-01
0.055934392,-0.881536543,-0.45795399,9.87E-01
0.056160848,-0.929320753,-0.352962822,9.88E-01
0.056387304,-0.96537447,-0.242596388,9.91E-01
0.05661376,-0.988580763,-0.128021017,9.94E-01
0.056840212,-0.998164713,-0.010911821,9.96E-01
0.057066668,-0.993794858,0.106968507,9.99E-01
0.057293124,-0.97539562,0.223913401,1.00E+00
0.05751958,-0.943054199,0.338222861,1.00E+00
0.057746032,-0.897047341,0.448154509,1.01E+00
0.057972488,-0.837905705,0.551936924,1.01E+00
0.058198944,-0.766464233,0.647831976,1.01E+00
0.0584254,-0.683880389,0.73423177,1.01E+00
0.058651852,-0.591605604,0.809773862,1.01E+00
0.058878308,-0.491284817,0.873448014,1.00E+00
0.059104764,-0.384572476,0.924647629,1.00E+00
0.05933122,-0.272907227,0.963038445,1.00E+00
0.059557672,-0.157502443,0.988212228,1.00E+00
0.059784128,-0.039766017,0.999526918,1.00E+00
0.060010584,0.078407854,0.996546745,9.99E-01
0.06023704,0.19498463,0.97943449,9.97E-01
0.060463496,0.308195651,0.948808908,9.95E-01
0.060689948,0.416601568,0.905453742,9.93E-01
0.060916404,0.518983245,0.850172043,9.92E-01
0.06114286,0.614234209,0.783755898,9.92E-01
0.061369316,0.70129323,0.707016826,9.92E-01
0.061595768,0.779121339,0.620834827,9.92E-01
0.061822224,0.846715033,0.52620399,9.94E-01
0.06204868,0.903158844,0.424257338,9.96E-01
0.062275136,0.947687387,0.316234797,9.98E-01
0.062501588,0.9796983,0.203382447,1.00E+00
0.062728044,0.99861145,0.086866826,1.00E+00
0.0629545,1.00364029,-0.03205242,1.01E+00
0.063180956,0.993927419,-0.151595503,1.01E+00
0.063407408,0.969107568,-0.269419223,1.01E+00
0.063633864,0.929590821,-0.383106887,1.01E+00
0.06386032,0.876357615,-0.490559667,1.01E+00
0.064086776,0.810688138,-0.590075135,1.01E+00
0.064313228,0.734007478,-0.680305302,1.00E+00
0.064539684,0.647805631,-0.760209084,9.98E-01
0.06476614,0.553584099,-0.829015672,9.94E-01
0.064992596,0.452814162,-0.886189997,9.90E-01
0.065219048,0.346903831,-0.931398988,9.88E-01
0.065445504,0.237160817,-0.964483738,9.86E-01
0.06567196,0.124741063,-0.985413074,9.87E-01
0.065898416,0.010587707,-0.994165123,9.88E-01
0.066124868,-0.104513995,-0.990504205,9.92E-01
0.066351324,-0.219596565,-0.973828316,9.97E-01
0.06657778,-0.333108038,-0.943467379,1.00E+00
0.066804236,-0.44299829,-0.899219096,1.00E+00
0.067030692,-0.547162712,-0.841506958,1.01E+00
0.067257144,-0.64369458,-0.771199584,1.01E+00
0.0674836,-0.730917275,-0.689453006,1.01E+00
0.067710056,-0.807378113,-0.597652137,1.01E+00
0.067936512,-0.871870279,-0.497386217,1.01E+00
0.068162968,-0.923476636,-0.390405655,1.01E+00
0.068389424,-0.961608648,-0.278558791,1.00E+00
0.068615872,-0.986031115,-0.163699493,9.99E-01
0.068842328,-0.996848464,-0.047574416,9.96E-01
0.069068784,-0.994430244,0.068305478,9.94E-01
0.06929524,-0.979226708,0.182751983,9.92E-01
0.069521696,-0.951505184,0.294800401,9.92E-01
0.069748152,-0.911273181,0.403352797,9.93E-01
0.069974608,-0.858617723,0.506924748,9.94E-01
0.070201064,-0.79406172,0.603862524,9.95E-01
0.070427512,-0.718515575,0.692683876,9.96E-01
0.070653968,-0.63305819,0.772157788,9.97E-01
0.070880424,-0.53883034,0.841221154,9.98E-01
0.07110688,-0.437043309,0.898911536,9.99E-01
0.071333336,-0.329023659,0.944357097,1.00E+00
0.071559792,-0.216241956,0.976816177,1.00E+00
0.071786248,-0.100310586,0.995738208,1.00E+00
0.072012704,0.017062603,1.00082755,1.00E+00
0.072239152,0.134166792,0.992079675,1.00E+00
0.072465608,0.249406204,0.969742417,1.00E+00
0.072692064,0.361366868,0.934168816,1.00E+00
0.07291852,0.468687594,0.88564837,1.00E+00
0.073144976,0.569782317,0.824487031,1.00E+00
0.073371432,0.662820697,0.751380622,1.00E+00
0.073597888,0.746101737,0.667594612,1.00E+00
0.073824344,0.818359673,0.574744165,1.00E+00
0.0740508,0.878772974,0.474509686,9.97E-01
0.074277248,0.926835239,0.368494451,9.95E-01
0.074503704,0.962239921,0.258198172,9.93E-01
0.07473016,0.984812438,0.145036116,9.91E-01
0.074956616,0.99447608,0.03036773,9.90E-01
0.075183072,0.991246879,-0.08448334,9.90E-01
0.075409528,0.975240827,-0.198224947,9.90E-01
0.075635984,0.946667314,-0.309620947,9.92E-01
0.07586244,0.905777156,-0.417517751,9.95E-01
0.076088888,0.852750957,-0.520793974,9.98E-01
0.076315344,0.787662923,-0.618143559,1.00E+00
0.0765418,0.71073842,-0.707855821,1.01E+00
0.076768256,0.622763455,-0.787963033,1.01E+00
0.076994712,0.525172293,-0.856680632,1.01E+00
0.077221168,0.419797331,-0.912683129,1.01E+00
0.077447624,0.308611393,-0.95511806,1.01E+00
0.07767408,0.193594649,-0.983531296,1.00E+00
0.077900528,0.076667644,-0.997802615,1.00E+00
0.078126984,-0.040353574,-0.998101354,9.98E-01
0.07835344,-0.155799106,-0.984843791,9.94E-01
0.078579896,-0.268184245,-0.958643019,9.91E-01
0.078806352,-0.37624687,-0.920249045,9.88E-01
0.079032808,-0.478969485,-0.870455027,9.87E-01
0.079259264,-0.575555623,-0.809965193,9.87E-01
0.07948572,-0.665279269,-0.739258587,9.89E-01
0.079712168,-0.747197151,-0.658619225,9.92E-01
0.079938624,-0.819976628,-0.568465173,9.96E-01
0.08016508,-0.882107615,-0.469687581,9.99E-01
0.080391536,-0.932261884,-0.36365056,1.00E+00
0.080617992,-0.969447017,-0.251975298,1.00E+00
0.080844448,-0.992975831,-0.136390224,1.00E+00
0.081070904,-1.00242221,-0.018686321,1.01E+00
0.08129736,-0.997616172,0.09929917,1.01E+00
0.081523816,-0.978667319,0.215714082,1.00E+00
0.081750264,-0.945980787,0.328748614,1.00E+00
0.08197672,-0.900253594,0.436716169,1.00E+00
0.082203176,-0.842427611,0.53814131,9.99E-01
0.082429632,-0.773584902,0.631829023,9.98E-01
0.082656088,-0.694789588,0.716858089,9.97E-01
0.082882544,-0.606955647,0.792423785,9.96E-01
0.083109,-0.510921478,0.857598424,9.97E-01
0.083335456,-0.407746255,0.911288977,9.97E-01
0.083561904,-0.298876852,0.952504456,9.97E-01
0.08378836,-0.185992911,0.980612457,9.96E-01
0.084014816,-0.070773073,0.995338321,9.96E-01
0.084241272,0.045206759,0.996637821,9.95E-01
0.084467728,0.160456076,0.984603226,9.95E-01
0.084694184,0.273527592,0.959430516,9.95E-01
0.08492064,0.3829844,0.92143482,9.96E-01
0.085147096,0.487403572,0.871080399,9.96E-01
0.085373544,0.585406899,0.809005678,9.97E-01
0.0856,0.675717473,0.736017048,9.98E-01
0.085826456,0.757204533,0.653031945,1.00E+00
0.086052912,0.82885623,0.560983777,1.00E+00
0.086279368,0.889639974,0.460790634,1.00E+00
0.086505824,0.938369215,0.353528142,1.01E+00
0.08673228,0.973839164,0.240701601,1.01E+00
0.086958736,0.995179594,0.124265052,1.01E+00
0.087185192,1.00206566,0.006346698,1.00E+00
0.08741164,0.994658649,-0.111023836,1.00E+00
0.087638096,0.973448992,-0.226035431,9.99E-01
0.087864552,0.93912822,-0.337108195,9.96E-01
0.088091008,0.892511725,-0.442871332,9.93E-01
0.088317464,0.834491789,-0.54213661,9.90E-01
0.08854392,0.766008794,-0.633877993,9.89E-01
0.088770376,0.688025355,-0.717219472,9.88E-01
0.088996832,0.601486504,-0.791420519,9.88E-01
0.08922328,0.507267237,-0.85583818,9.90E-01
0.089449736,0.406126201,-0.909812272,9.93E-01
0.089676192,0.29879114,-0.952489793,9.97E-01
0.089902648,0.186232224,-0.982764006,1.00E+00
0.090129104,0.069923997,-0.999508381,1.00E+00
0.09035556,-0.04820336,-1.00194442,1.01E+00
0.090582016,-0.166035756,-0.989809215,1.01E+00
0.090808472,-0.281502515,-0.963299513,1.01E+00
0.09103492,-0.392675608,-0.922969937,1.01E+00
0.091261376,-0.497806579,-0.869655192,1.00E+00
0.091487832,-0.595354557,-0.804420292,1.00E+00
0.091714288,-0.684017479,-0.728513718,9.99E-01
0.091940744,-0.762759924,-0.643304288,9.96E-01
0.0921672,-0.830829024,-0.550205708,9.93E-01
0.092393656,-0.887739062,-0.450576931,9.91E-01
0.092620112,-0.933191836,-0.345618248,9.90E-01
0.09284656,-0.966909468,-0.236326382,9.91E-01
0.093073016,-0.988439977,-0.123616017,9.92E-01
0.093299472,-0.997141898,-0.008599915,9.94E-01
0.093525928,-0.99243784,0.107235745,9.96E-01
0.093752384,-0.974079788,0.222144336,9.98E-01
0.09397884,-0.942201316,0.334346741,1.00E+00
0.094205296,-0.897222519,0.442155421,1.00E+00
0.094431752,-0.839771926,0.543988347,1.00E+00
0.094658208,-0.770661712,0.638359308,1.00E+00
0.094884656,-0.690893114,0.72388953,1.00E+00
0.095111112,-0.601657629,0.799343109,1.00E+00
0.095337568,-0.504316449,0.863680124,1.00E+00
0.095564024,-0.400342494,0.916106999,1.00E+00
0.09579048,-0.291226953,0.956089199,9.99E-01
0.096016936,-0.178378776,0.983293712,9.99E-01
0.096243392,-0.063098192,0.997447193,9.99E-01
0.096469848,0.05329169,0.998214185,9.99E-01
0.096696296,0.169231489,0.985281527,9.99E-01
0.096922752,0.282905519,0.95862335,9.99E-01
0.097149208,0.392465234,0.918659151,9.98E-01
0.097375664,0.496257007,0.866173625,9.97E-01
0.09760212,0.592892468,0.802148402,9.95E-01
0.097828576,0.681212246,0.727647603,9.94E-01
0.098055032,0.760222852,0.643768907,9.92E-01
0.098281488,0.82905823,0.5516451,9.92E-01
0.098507936,0.88696301,0.452452213,9.91E-01
0.098734392,0.933298647,0.347413003,9.92E-01
0.098960848,0.967557073,0.237780392,9.93E-01
0.099187304,0.989347935,0.124796472,9.94E-01
