Frequency (GHz),Re( S21 ),Im( S21 ),S2
0,-0.041939355,-4.01E-05,1.76E-03
0.00022645,-0.037840217,0.018516155,1.77E-03
0.000452901,-0.026278056,0.033616636,1.82E-03
0.000679351,-0.009396434,0.042435478,1.89E-03
0.000905801,0.009717006,0.043363877,1.97E-03
0.001132251,0.02743328,0.036093868,2.06E-03
0.001358702,0.040480461,0.021987075,2.12E-03
0.001585152,0.046389837,0.003625666,2.17E-03
0.001811602,0.043997046,-0.015597609,2.18E-03
0.002038052,0.033666499,-0.032096606,2.16E-03
0.002264503,0.017242011,-0.042747445,2.12E-03
0.002490953,-0.002272385,-0.045471784,2.07E-03
0.002717403,-0.021249561,-0.039636269,2.02E-03
0.002943853,-0.036099121,-0.026194962,1.99E-03
0.003170304,-0.043935917,-0.007545434,1.99E-03
0.003396754,-0.043176755,0.012843545,2.03E-03
0.003623204,-0.033725299,0.031360563,2.12E-03
0.003849655,-0.01716817,0.04425884,2.25E-03
0.004076105,0.003550972,0.049059089,2.42E-03
0.004302555,0.024653768,0.04465773,2.60E-03
0.004529005,0.042196881,0.031636864,2.78E-03
0.004755456,0.052796599,0.012198481,2.94E-03
0.004981906,0.05426421,-0.010195595,3.05E-03
0.005208356,0.046042215,-0.031419925,3.11E-03
0.005434806,0.029363507,-0.047419049,3.11E-03
0.005661257,0.007094102,-0.05495565,3.07E-03
0.005887707,-0.016726386,-0.052245375,3.01E-03
0.006114157,-0.037586901,-0.039352126,2.96E-03
0.006340608,-0.051319528,-0.018254045,2.97E-03
0.006567058,-0.054904953,0.007437836,3.07E-03
0.006793508,-0.047070392,0.032909911,3.30E-03
0.007019958,-0.028537,0.053444658,3.67E-03
0.007246409,-0.002153955,0.064873196,4.21E-03
0.007472859,0.027418962,0.064166963,4.87E-03
0.007699309,0.054898169,0.050869182,5.60E-03
0.007925759,0.075003609,0.026693832,6.34E-03
0.00815221,0.083501726,-0.004495792,6.99E-03
0.00837866,0.078042433,-0.037246522,7.48E-03
0.00860511,0.058724929,-0.065377541,7.72E-03
0.00883156,0.028284492,-0.083057679,7.70E-03
0.00905801,-0.00821574,-0.085837275,7.44E-03
0.009284461,-0.043962259,-0.071546339,7.05E-03
0.009510911,-0.071410283,-0.040982474,6.78E-03
0.009737361,-0.083543383,0.001878255,6.98E-03
0.009963811,-0.075184792,0.050166566,8.17E-03
0.010190262,-0.044066392,0.094957762,1.10E-02
0.010416712,0.008335041,0.126666084,1.61E-02
0.010643162,0.077070318,0.13659285,2.46E-02
0.010869612,0.152435422,0.117770493,3.71E-02
0.011096063,0.223616049,0.067607842,5.46E-02
0.011322513,0.278616011,-0.012410956,7.78E-02
0.011548963,0.306253642,-0.115950324,1.07E-01
0.011775413,0.298411727,-0.234100893,1.44E-01
0.012001864,0.24974519,-0.354033828,1.88E-01
0.012228314,0.159734309,-0.461980462,2.39E-01
0.012454764,0.032460559,-0.544409335,2.97E-01
0.012681215,-0.123739094,-0.589441299,3.63E-01
0.012907665,-0.296985745,-0.588075638,4.34E-01
0.013134115,-0.472919285,-0.535322487,5.10E-01
0.013360565,-0.635945022,-0.430896491,5.90E-01
0.013587016,-0.770732105,-0.279347807,6.72E-01
0.013813466,-0.863783658,-0.089800023,7.54E-01
0.014039916,-0.904842854,0.124771416,8.34E-01
0.014266366,-0.888008356,0.348716736,9.10E-01
0.014492817,-0.81241262,0.565239787,9.80E-01
0.014719267,-0.682338178,0.758110762,1.04E+00
0.014945717,-0.506728649,0.913353145,1.09E+00
0.015172167,-0.298177451,1.02067578,1.13E+00
0.015398618,-0.071506791,1.07431865,1.16E+00
0.015625068,0.158146292,1.07356966,1.18E+00
0.015851518,0.375682026,1.02540016,1.19E+00
0.016077968,0.561725795,0.923322737,1.17E+00
0.016304419,0.724805295,0.788018644,1.15E+00
0.016530869,0.850519955,0.629847467,1.12E+00
0.016757319,0.937770844,0.458313227,1.09E+00
0.01698377,0.988199949,0.28265819,1.06E+00
0.01721022,1.00549614,0.110380366,1.02E+00
0.01743667,0.994510472,-0.053205807,9.92E-01
0.01766312,0.960360467,-0.204965025,9.64E-01
0.01788957,0.907663345,-0.343608856,9.42E-01
0.01811602,0.83998692,-0.46912235,9.26E-01
0.018342472,0.759546518,-0.581937134,9.16E-01
0.018568922,0.667995274,-0.681916773,9.11E-01
0.018795372,0.565719128,-0.778568327,9.26E-01
0.019021822,0.456088066,-0.844397128,9.21E-01
0.019248272,0.339980334,-0.907556951,9.39E-01
0.019474722,0.207246959,-0.962144852,9.69E-01
0.019701172,0.063329078,-0.993082643,9.90E-01
0.019927622,-0.08592844,-1.00155973,1.01E+00
0.020154074,-0.23723805,-0.986248076,1.03E+00
0.020380524,-0.386222571,-0.946153402,1.04E+00
0.020606974,-0.527943313,-0.881443024,1.06E+00
0.020833424,-0.657436848,-0.793648303,1.06E+00
0.021059874,-0.770215809,-0.685620487,1.06E+00
0.021286324,-0.862682462,-0.561297894,1.06E+00
0.021512774,-0.932408988,-0.425368011,1.05E+00
0.021739224,-0.978299975,-0.282912552,1.04E+00
0.021965676,-1.00075257,-0.138986006,1.02E+00
0.022192126,-1.00156903,0.001968023,1.00E+00
0.022418576,-0.983945549,0.136414289,9.87E-01
0.022645026,-0.952629507,0.264277041,9.77E-01
0.022871476,-0.905865252,0.387827873,9.71E-01
0.023097926,-0.843581319,0.502159953,9.64E-01
0.023324376,-0.769187629,0.60611552,9.59E-01
0.023550826,-0.684229314,0.699842811,9.58E-01
0.023777278,-0.589382827,0.783156633,9.61E-01
0.024003728,-0.485020012,0.855378091,9.67E-01
0.024230178,-0.371554881,0.915311396,9.76E-01
0.024456628,-0.249745741,0.961326838,9.87E-01
0.024683078,-0.120939724,0.99155128,9.98E-01
0.024909528,0.012773549,1.0041573,1.01E+00
0.025135978,0.148545936,0.997736216,1.02E+00
0.02536243,0.282957733,0.971679032,1.02E+00
0.02558888,0.412404627,0.926496506,1.03E+00
0.02581533,0.533988953,0.864022911,1.03E+00
0.02604178,0.6468454,0.785561919,1.04E+00
0.02626823,0.74791503,0.690165579,1.04E+00
0.02649468,0.832445025,0.580946803,1.03E+00
0.02672113,0.898922563,0.462399065,1.02E+00
0.02694758,0.947237194,0.338107318,1.01E+00
0.027174032,0.977857828,0.211050212,1.00E+00
0.027400482,0.991654038,0.083681226,9.90E-01
0.027626932,0.989712834,-0.042076178,9.81E-01
0.027853382,0.973142207,-0.164778158,9.74E-01
0.028079832,0.942919314,-0.283334166,9.69E-01
0.028306282,0.899820507,-0.396836519,9.67E-01
0.028532732,0.844459414,-0.504401326,9.68E-01
0.028759182,0.777408242,-0.605086923,9.70E-01
0.028985634,0.699349284,-0.697994888,9.76E-01
0.029212084,0.61083895,-0.782705009,9.86E-01
0.029438534,0.510983825,-0.858604908,9.98E-01
0.029664984,0.399128556,-0.922313511,1.01E+00
0.029891434,0.277680159,-0.970437646,1.02E+00
0.030117884,0.149682716,-1.00136685,1.03E+00
0.030344334,0.018030968,-1.0141871,1.03E+00
0.030570786,-0.114290409,-1.00846589,1.03E+00
0.030797236,-0.244231567,-0.984363556,1.03E+00
0.031023686,-0.368845701,-0.942685306,1.02E+00
0.031250136,-0.485476553,-0.88483578,1.02E+00
0.031476586,-0.591917455,-0.812705874,1.01E+00
0.031703036,-0.686518192,-0.728518188,1.00E+00
0.031929486,-0.768249989,-0.634654701,9.93E-01
0.032155936,-0.836746693,-0.533474207,9.85E-01
0.032382388,-0.892374396,-0.427036941,9.79E-01
0.032608838,-0.936080933,-0.316427499,9.76E-01
0.032835288,-0.967911005,-0.201397255,9.77E-01
0.033061738,-0.98630017,-0.082600087,9.80E-01
0.033288188,-0.990437984,0.037947089,9.82E-01
0.033514638,-0.980339944,0.158539653,9.86E-01
0.033741088,-0.955985844,0.277777463,9.91E-01
0.03396754,-0.91724813,0.394161403,9.97E-01
0.034193988,-0.864076078,0.505935133,1.00E+00
0.03442044,-0.796685636,0.611088812,1.01E+00
0.034646888,-0.715712905,0.707450569,1.01E+00
0.03487334,-0.622313976,0.792843401,1.02E+00
0.035099792,-0.518198073,0.865286708,1.02E+00
0.03532624,-0.405570388,0.923220754,1.02E+00
0.035552692,-0.286951303,0.96574229,1.01E+00
0.03577914,-0.16475822,0.992757797,1.01E+00
0.036005592,-0.040659837,1.00458527,1.01E+00
0.03623204,0.084037893,1.00079298,1.01E+00
0.036458492,0.206855938,0.980808735,1.00E+00
0.036684944,0.324982852,0.945461571,1.00E+00
0.036911392,0.436489314,0.896328747,9.94E-01
0.037137844,0.540163338,0.834952056,9.89E-01
0.037364292,0.635160685,0.762661815,9.85E-01
0.037590744,0.720799625,0.680583179,9.83E-01
0.037817192,0.796430588,0.589687586,9.82E-01
0.038043644,0.861350834,0.490877509,9.83E-01
0.038270092,0.914774358,0.38509202,9.85E-01
0.038496544,0.955865443,0.273415059,9.88E-01
0.038722996,0.983848512,0.157140374,9.93E-01
0.038949444,0.998157084,0.037720367,9.98E-01
0.039175896,0.998470902,-0.083489321,1.00E+00
0.039402344,0.984235823,-0.205407679,1.01E+00
0.039628796,0.954228699,-0.326348633,1.02E+00
0.039855244,0.907819569,-0.443293571,1.02E+00
0.040081696,0.845857561,-0.5531106,1.02E+00
0.040308148,0.769986749,-0.653374374,1.02E+00
0.040534596,0.682130158,-0.742270112,1.02E+00
0.040761048,0.584351957,-0.818464637,1.01E+00
0.040987496,0.478779107,-0.881069303,1.01E+00
0.041213948,0.36751008,-0.929613113,9.99E-01
0.041440396,0.252527446,-0.963992476,9.93E-01
0.041666848,0.135631666,-0.984399259,9.87E-01
0.041893296,0.018401595,-0.991250753,9.83E-01
0.042119748,-0.097842544,-0.985126078,9.80E-01
0.0423462,-0.212121263,-0.966687262,9.79E-01
0.042572648,-0.323906779,-0.936420441,9.82E-01
0.0427991,-0.432834566,-0.894094348,9.87E-01
0.043025548,-0.537690699,-0.838880599,9.93E-01
0.043252,-0.636285424,-0.770589054,9.99E-01
0.043478448,-0.726472974,-0.689968348,1.00E+00
0.0437049,-0.806479096,-0.598162353,1.01E+00
0.043931352,-0.874736786,-0.496512383,1.01E+00
0.0441578,-0.929831922,-0.386605442,1.01E+00
0.044384252,-0.970575571,-0.270311236,1.02E+00
0.0446107,-0.996108055,-0.149754092,1.01E+00
0.044837152,-1.0059917,-0.027228531,1.01E+00
0.0450636,-1.00027013,0.094927706,1.01E+00
0.045290052,-0.979484856,0.214488849,1.01E+00
0.045516504,-0.944628596,0.329528004,1.00E+00
0.045742952,-0.896974623,0.438626975,9.97E-01
0.045969404,-0.837662876,0.540960729,9.94E-01
0.046195852,-0.767259955,0.635827601,9.93E-01
0.046422304,-0.686189771,0.72192657,9.92E-01
0.046648752,-0.595560849,0.79772073,9.91E-01
0.046875204,-0.496925235,0.862175763,9.90E-01
0.047101652,-0.391746521,0.914699733,9.90E-01
0.047328104,-0.28130883,0.954838395,9.91E-01
0.047554556,-0.166832328,0.982128739,9.92E-01
0.047781004,-0.049599357,0.996085048,9.95E-01
0.048007456,0.06896174,0.996256351,9.97E-01
0.048233904,0.187236458,0.982319057,1.00E+00
0.048460356,0.303445458,0.954185426,1.00E+00
0.048686804,0.41572994,0.912100732,1.00E+00
0.048913256,0.52230835,0.856677592,1.01E+00
0.049139708,0.621665061,0.788783312,1.01E+00
0.049366156,0.712538362,0.709220946,1.01E+00
0.049592608,0.793455601,0.618621051,1.01E+00
0.049819056,0.862473369,0.51809305,1.01E+00
0.050045508,0.917909324,0.409661889,1.01E+00
0.050271956,0.958909154,0.295732021,1.01E+00
0.050498408,0.985292673,0.178558335,1.00E+00
0.05072486,0.997261882,0.06011067,9.98E-01
0.050951308,0.995229125,-0.057907052,9.94E-01
0.05117776,0.979721665,-0.174015,9.90E-01
0.051404208,0.951322734,-0.286910176,9.87E-01
0.05163066,0.910641491,-0.39541921,9.86E-01
0.051857108,0.858310997,-0.498459816,9.85E-01
0.05208356,0.794996858,-0.595030546,9.86E-01
0.052310008,0.721381068,-0.684240162,9.89E-01
0.05253646,0.638039231,-0.76530993,9.93E-01
0.052762912,0.545278013,-0.837344587,9.98E-01
0.05298936,0.443380415,-0.898870349,1.00E+00
0.053215812,0.333355159,-0.947927237,1.01E+00
0.05344226,0.217118174,-0.982861102,1.01E+00
0.053668712,0.096973389,-1.00272,1.01E+00
0.05389516,-0.024754059,-1.0071218,1.01E+00
0.054121612,-0.145809621,-0.996112347,1.01E+00
0.054348064,-0.264043719,-0.970108747,1.01E+00
0.054574512,-0.377467871,-0.929870307,1.01E+00
0.054800964,-0.484320909,-0.876456976,1.00E+00
0.055027412,-0.583129883,-0.811162591,9.98E-01
0.055253864,-0.672758043,-0.735429645,9.93E-01
0.055480312,-0.752435446,-0.650739849,9.90E-01
0.055706764,-0.821758389,-0.55845511,9.87E-01
0.055933216,-0.880562305,-0.459602594,9.87E-01
0.056159664,-0.928532422,-0.354778558,9.88E-01
0.056386116,-0.964813411,-0.244557291,9.91E-01
0.056612564,-0.988283336,-0.13009052,9.94E-01
0.056839016,-0.998157024,-0.013041497,9.96E-01
0.057065464,-0.994089186,0.104833528,9.99E-01
0.057291916,-0.975987911,0.221829191,1.00E+00
0.057518364,-0.943925738,0.336240858,1.00E+00
0.057744816,-0.898169041,0.446317196,1.01E+00
0.057971268,-0.839240551,0.550274849,1.01E+00
0.058197716,-0.767973542,0.646363556,1.01E+00
0.058424168,-0.6855281,0.7329638,1.01E+00
0.058650616,-0.593362033,0.808704436,1.01E+00
0.058877068,-0.49312824,0.872571051,1.00E+00
0.059103516,-0.386490583,0.923956871,1.00E+00
0.059329968,-0.274894595,0.962531924,1.00E+00
0.05955642,-0.159557343,0.987895012,1.00E+00
0.059782868,-0.041885257,0.999414504,1.00E+00
0.06000932,0.076234415,0.996660888,9.99E-01
0.060235768,0.192776531,0.979800105,9.97E-01
0.06046222,0.305984437,0.949449301,9.95E-01
0.060688668,0.414428413,0.906387389,9.93E-01
0.06091512,0.516898215,0.851406634,9.92E-01
0.061141572,0.612291694,0.785286427,9.92E-01
0.06136802,0.699548304,0.708823919,9.92E-01
0.061594472,0.777623415,0.622884512,9.93E-01
0.06182092,0.845504403,0.528450549,9.94E-01
0.062047372,0.902262092,0.426647067,9.96E-01
0.06227382,0.947116673,0.318711519,9.99E-01
0.062500272,0.979451656,0.205892533,1.00E+00
0.06272672,0.998675704,0.089363515,1.01E+00
0.062953172,1.00399601,-0.029607097,1.01E+00
0.063179624,0.994551599,-0.149230272,1.01E+00
0.063406072,0.969977379,-0.267154008,1.01E+00
0.063632524,0.930686653,-0.380954295,1.01E+00
0.063858972,0.877666116,-0.488527805,1.01E+00
0.064085424,0.812201977,-0.588172078,1.01E+00
0.064311872,0.735726058,-0.678542733,1.00E+00
0.064538324,0.649730623,-0.758605957,9.98E-01
0.064764776,0.555715919,-0.827599287,9.94E-01
0.064991224,0.455147386,-0.884994864,9.90E-01
0.065217676,0.349422812,-0.930465758,9.88E-01
0.065444124,0.239838108,-0.963854611,9.87E-01
0.065670576,0.127535254,-0.985125899,9.87E-01
0.065897024,0.013446151,-0.994250238,9.89E-01
0.066123476,-0.101653315,-0.99097985,9.92E-01
0.066349924,-0.216801584,-0.974698544,9.97E-01
0.066576376,-0.330447733,-0.94471854,1.00E+00
0.066802828,-0.44053781,-0.900820911,1.01E+00
0.067029276,-0.544955134,-0.843413293,1.01E+00
0.067255728,-0.641777515,-0.773354948,1.01E+00
0.067482176,-0.729311705,-0.691798627,1.01E+00
0.067708624,-0.80608964,-0.600132406,1.01E+00
0.06793508,-0.870891869,-0.499952793,1.01E+00
0.068161528,-0.922792315,-0.39302063,1.01E+00
0.068387976,-0.961200953,-0.281195939,1.00E+00
0.068614432,-0.98588407,-0.166343391,1.00E+00
0.06884088,-0.99695152,-0.050215952,9.96E-01
0.069067328,-0.994782865,0.065670639,9.94E-01
0.069293776,-0.979835987,0.180130318,9.93E-01
0.069520232,-0.952386618,0.292204261,9.92E-01
0.06974668,-0.91244638,0.400805593,9.93E-01
0.069973128,-0.860100627,0.504461706,9.94E-01
0.070199584,-0.79586488,0.601530969,9.95E-01
0.070426032,-0.720637321,0.690538943,9.96E-01
0.07065248,-0.635481656,0.770257354,9.97E-01
0.070878928,-0.541523993,0.839621723,9.98E-01
0.071105384,-0.439960957,0.897661507,9.99E-01
0.071331832,-0.332107604,0.94349432,1.00E+00
0.07155828,-0.219427764,0.976363957,1.00E+00
0.071784736,-0.103531167,0.995704353,1.00E+00
0.072011184,0.013871178,1.00120509,1.00E+00
0.072237632,0.131061718,0.992849469,1.00E+00
0.07246408,0.246435389,0.970876873,1.00E+00
0.072690536,0.358567744,0.935636401,1.00E+00
0.072916984,0.466088682,0.887417912,1.00E+00
0.073143432,0.56740576,0.826529384,1.01E+00
0.073369888,0.660685003,0.753669024,1.00E+00
0.073596336,0.744223475,0.670105755,1.00E+00
0.073822784,0.816756725,0.577456892,1.00E+00
0.074049232,0.877464294,0.477403134,9.98E-01
0.074275688,0.92584306,0.371546537,9.95E-01
0.074502136,0.961589456,0.261382252,9.93E-01
0.074728584,0.984529316,0.148319393,9.91E-01
0.074955032,0.994584382,0.033708148,9.90E-01
0.075181488,0.991765797,-0.081135221,9.90E-01
0.075407936,0.976180494,-0.194926143,9.91E-01
0.075634384,0.948027372,-0.306432545,9.93E-01
0.07586084,0.907545447,-0.414502263,9.95E-01
0.076087288,0.854902983,-0.518012106,9.99E-01
0.076313736,0.79016304,-0.61565125,1.00E+00
0.076540184,0.713540792,-0.705702662,1.01E+00
0.07676664,0.625812292,-0.786187649,1.01E+00
0.076993088,0.528407395,-0.855309844,1.01E+00
0.077219536,0.4231565,-0.911730051,1.01E+00
0.077445992,0.312036037,-0.954584241,1.01E+00
0.07767244,0.197031006,-0.983408749,1.01E+00
0.077898888,0.080068067,-0.998077989,1.00E+00
0.078125336,-0.037029866,-0.998757362,9.99E-01
0.078351792,-0.152587414,-0.985860825,9.95E-01
0.07857824,-0.265116423,-0.960003674,9.92E-01
0.078804688,-0.373351753,-0.921934009,9.89E-01
0.079031144,-0.476275355,-0.872446358,9.88E-01
0.079257592,-0.573091328,-0.812244058,9.88E-01
0.07948404,-0.663073897,-0.741804123,9.90E-01
0.079710488,-0.745281279,-0.661407948,9.93E-01
0.079936944,-0.81838131,-0.571466923,9.96E-01
0.080163392,-0.880860686,-0.472865939,1.00E+00
0.08038984,-0.931386352,-0.366962671,1.00E+00
0.080616296,-0.968957603,-0.255374223,1.00E+00
0.080842744,-0.992880583,-0.139827937,1.01E+00
0.081069192,-1.00271964,-0.022114681,1.01E+00
0.08129564,-0.998299599,0.095925652,1.01E+00
0.081522096,-0.97972393,0.212436751,1.00E+00
0.081748544,-0.947393894,0.325605214,1.00E+00
0.081974992,-0.902005076,0.433740228,1.00E+00
0.082201448,-0.844497979,0.535363257,1.00E+00
0.082427896,-0.7759552,0.629277527,9.98E-01
0.082654344,-0.697440624,0.714561164,9.97E-01
0.082880792,-0.609867334,0.790410817,9.97E-01
0.083107248,-0.514071822,0.855901539,9.97E-01
0.083333696,-0.411106437,0.909940839,9.97E-01
0.083560144,-0.30241096,0.951538801,9.97E-01
0.083786592,-0.189657271,0.980058372,9.96E-01
0.084013048,-0.074516691,0.995218933,9.96E-01
0.084239496,0.041440036,0.996968329,9.96E-01
0.084465944,0.156726375,0.985389054,9.96E-01
0.0846924,0.269895524,0.960667312,9.96E-01
0.084918848,0.379509836,0.923107743,9.96E-01
0.085145296,0.484141499,0.873164415,9.97E-01
0.085371744,0.582406938,0.81146884,9.98E-01
0.0855982,0.673021853,0.738821447,9.99E-01
0.085824648,0.754847705,0.65613699,1.00E+00
0.086051096,0.826866269,0.564347684,1.00E+00
0.086277552,0.8880409,0.464371622,1.00E+00
0.086504,0.937181294,0.357284784,1.01E+00
0.086730448,0.973080933,0.244591624,1.01E+00
0.086956896,0.994867206,0.128243282,1.01E+00
0.087183352,1.00221193,0.010366076,1.00E+00
0.0874098,0.995272398,-0.107013091,1.00E+00
0.087636248,0.974536121,-0.222086683,9.99E-01
0.087862704,0.940688133,-0.333277971,9.96E-01
0.088089152,0.894537628,-0.43922013,9.93E-01
0.0883156,0.836967409,-0.538727105,9.91E-01
0.088542048,0.768906415,-0.63077265,9.89E-01
0.088768504,0.691305757,-0.714477956,9.88E-01
0.088994952,0.605100572,-0.78909719,9.89E-01
0.0892214,0.511154652,-0.853977501,9.91E-01
0.089447856,0.410220236,-0.908448994,9.94E-01
0.089674304,0.30302006,-0.951646984,9.97E-01
0.089900752,0.190521613,-0.982451379,1.00E+00
0.0901272,0.074199289,-0.999721766,1.00E+00
0.090353656,-0.044011951,-1.00266671,1.01E+00
0.090580104,-0.161989585,-0.991011262,1.01E+00
0.090806552,-0.277652979,-0.964945674,1.01E+00
0.091033008,-0.389062464,-0.925020516,1.01E+00
0.091259456,-0.494460404,-0.872071862,1.01E+00
0.091485904,-0.592299104,-0.807167947,1.00E+00
0.091712352,-0.681271732,-0.731560826,9.99E-01
0.091938808,-0.76034224,-0.646623969,9.96E-01
0.092165256,-0.828759015,-0.55377388,9.94E-01
0.092391704,-0.886039436,-0.454370171,9.92E-01
0.09261816,-0.931889594,-0.34961164,9.91E-01
0.092844608,-0.966035068,-0.240489975,9.91E-01
0.093071056,-0.98802644,-0.127911478,9.93E-01
0.093297504,-0.997221589,-0.012978799,9.95E-01
0.09352396,-0.993036807,0.102833182,9.97E-01
0.093750408,-0.975214064,0.217787251,9.98E-01
0.093976856,-0.943873644,0.330110371,1.00E+00
0.094203304,-0.899421096,0.438116014,1.00E+00
0.09442976,-0.842470169,0.540219843,1.00E+00
0.094656208,-0.773821235,0.634930611,1.00E+00
0.094882656,-0.694463849,0.720860302,1.00E+00
0.095109112,-0.605582356,0.796763062,1.00E+00
0.09533556,-0.508532226,0.861588478,1.00E+00
0.095562008,-0.404784441,0.914531648,1.00E+00
0.095788456,-0.295830727,0.955049276,1.00E+00
0.096014912,-0.183081582,0.98280102,9.99E-01
0.09624136,-0.067837961,0.997507274,1.00E+00
0.096467808,0.0485758,0.998828888,1.00E+00
0.096694264,0.164602086,0.986448169,1.00E+00
0.096920712,0.278426886,0.960333288,1.00E+00
0.09714716,0.388201505,0.920894682,9.99E-01
0.097373608,0.492271751,0.868909895,9.97E-01
0.097600064,0.589247048,0.805351794,9.96E-01
0.097826512,0.677963734,0.731275201,9.94E-01
0.09805296,0.757423878,0.647770584,9.93E-01
0.098279416,0.826753736,0.555962622,9.93E-01
0.098505864,0.885188878,0.45702064,9.92E-01
0.098732312,0.932082057,0.352163643,9.93E-01
0.09895876,0.966913223,0.242642179,9.94E-01
0.099185216,0.989282668,0.129698306,9.96E-01
