Frequency (GHz),Re( S21 ),Im( S21 ),S2
0,-0.042367343,-7.23E-05,1.79E-03
0.000226526,-0.038254198,0.018652372,1.81E-03
0.000453052,-0.026611209,0.03390605,1.86E-03
0.000679578,-0.009590648,0.04283724,1.93E-03
0.000906104,0.009653746,0.043758683,2.01E-03
0.00113263,0.027546955,0.03646085,2.09E-03
0.001359155,0.040750992,0.022262784,2.16E-03
0.001585681,0.046758674,0.003762554,2.20E-03
0.001812207,0.044395179,-0.015629228,2.22E-03
0.002038733,0.034021348,-0.032295339,2.20E-03
0.002265259,0.017488102,-0.043082625,2.16E-03
0.002491785,-0.002182665,-0.045888528,2.11E-03
0.002718311,-0.021337746,-0.040063746,2.06E-03
0.002944837,-0.036353223,-0.026556166,2.03E-03
0.003171363,-0.04431032,-0.007791396,2.02E-03
0.003397889,-0.043683253,0.012828521,2.07E-03
0.003624415,-0.034212314,0.031470176,2.16E-03
0.00385094,-0.017585209,0.044546302,2.29E-03
0.004077466,0.0032696,0.049480978,2.46E-03
0.004303992,0.024555761,0.045147929,2.64E-03
0.004530518,0.042300321,0.03211803,2.82E-03
0.004757044,0.053084929,0.012591582,2.98E-03
0.00498357,0.054689139,-0.009958548,3.09E-03
0.005210096,0.04653101,-0.031383868,3.15E-03
0.005436622,0.029829506,-0.047596298,3.16E-03
0.005663148,0.007450994,-0.055320896,3.12E-03
0.005889674,-0.016540516,-0.052737385,3.05E-03
0.0061162,-0.037609398,-0.03990769,3.01E-03
0.006342726,-0.051571,-0.018786583,3.01E-03
0.006569251,-0.055366252,0.007020509,3.11E-03
0.006795777,-0.047680952,0.032683261,3.34E-03
0.007022303,-0.029169912,0.053648256,3.73E-03
0.007248829,-0.002809308,0.065187909,4.26E-03
0.007475355,0.026915291,0.064711101,4.91E-03
0.007701881,0.054632787,0.051565632,5.64E-03
0.007928407,0.075028323,0.027436266,6.38E-03
0.008154933,0.083821781,-0.003830033,7.04E-03
0.008381459,0.078611463,-0.036778275,7.53E-03
0.008607984,0.059441831,-0.065205827,7.79E-03
0.00883451,0.029029861,-0.083203293,7.77E-03
0.009061036,-0.007560086,-0.086338975,7.51E-03
0.009287562,-0.043552235,-0.072366081,7.13E-03
0.009514088,-0.071379691,-0.042020369,6.86E-03
0.009740614,-0.083985657,0.000772867,7.05E-03
0.00996714,-0.076133847,0.049178172,8.21E-03
0.010193666,-0.045480892,0.094283924,1.10E-02
0.010420192,0.006909742,0.126807496,1.61E-02
0.010646717,0.075123675,0.137109444,2.44E-02
0.010873243,0.150557443,0.118974693,3.68E-02
0.011099769,0.222057819,0.069475241,5.41E-02
0.011326295,0.277599454,-0.009990705,7.72E-02
0.011552821,0.305882394,-0.113152325,1.06E-01
0.011779347,0.298847884,-0.231153846,1.43E-01
0.012005873,0.251021981,-0.3511796,1.86E-01
0.012232399,0.161796853,-0.459460348,2.37E-01
0.012458925,0.035188627,-0.542436182,2.95E-01
0.012685451,-0.120520264,-0.588186204,3.60E-01
0.012911976,-0.293493062,-0.587654233,4.31E-01
0.013138502,-0.46939382,-0.535784662,5.07E-01
0.013365028,-0.632634163,-0.432219684,5.87E-01
0.013591554,-0.767868757,-0.281435966,6.69E-01
0.01381808,-0.861564755,-0.092489429,7.51E-01
0.014044606,-0.903407454,0.121701151,8.31E-01
0.014271132,-0.887418807,0.345521986,9.07E-01
0.014497658,-0.812643051,0.562186122,9.76E-01
0.014724184,-0.683274448,0.755440593,1.04E+00
0.01495071,-0.508180857,0.911253631,1.09E+00
0.015177236,-0.299907982,1.01925325,1.13E+00
0.015403761,-0.073258504,1.07358527,1.16E+00
0.015630287,0.156608611,1.07346439,1.18E+00
0.015856813,0.374280483,1.02588391,1.19E+00
0.016083339,0.561169565,0.923697591,1.17E+00
0.016309865,0.724767804,0.788466394,1.15E+00
0.016536391,0.850960791,0.63008666,1.12E+00
0.016762917,0.93856746,0.458155334,1.09E+00
0.016989442,0.989175737,0.281979352,1.06E+00
0.017215968,1.00644577,0.109127268,1.02E+00
0.017442494,0.995225906,-0.055014305,9.94E-01
0.01766902,0.960653067,-0.207243949,9.66E-01
0.017895546,0.907384098,-0.346219689,9.43E-01
0.018122072,0.839036763,-0.471889347,9.27E-01
0.018348598,0.757878244,-0.584656596,9.16E-01
0.018575124,0.665660143,-0.684374511,9.11E-01
0.01880165,0.562803566,-0.780714512,9.26E-01
0.019028176,0.452756077,-0.845887721,9.21E-01
0.019254702,0.336462706,-0.908695698,9.39E-01
0.019481228,0.203221798,-0.962560415,9.68E-01
0.019707754,0.059252687,-0.992772102,9.89E-01
0.01993428,-0.089944169,-1.00059915,1.01E+00
0.020160806,-0.241104826,-0.98469156,1.03E+00
0.020387332,-0.389873207,-0.944056928,1.04E+00
0.020613858,-0.531330645,-0.878858268,1.05E+00
0.020840384,-0.660527825,-0.790616214,1.06E+00
0.02106691,-0.772981405,-0.682168067,1.06E+00
0.021293434,-0.865088761,-0.55744046,1.06E+00
0.02151996,-0.934407115,-0.421115905,1.05E+00
0.021746486,-0.979825139,-0.278285384,1.04E+00
0.021973012,-1.00173259,-0.134021029,1.02E+00
0.022199538,-1.00193357,0.007211362,1.00E+00
0.022426064,-0.983665645,0.141856939,9.88E-01
0.02265259,-0.951661944,0.269987702,9.79E-01
0.022879116,-0.903918386,0.393644035,9.72E-01
0.023105642,-0.840666711,0.507814944,9.65E-01
0.023332168,-0.765339017,0.611441016,9.60E-01
0.023558694,-0.679494858,0.704670906,9.58E-01
0.02378522,-0.583846092,0.787326455,9.61E-01
0.024011746,-0.478798419,0.858747959,9.67E-01
0.024238272,-0.364793211,0.917769611,9.75E-01
0.024464798,-0.242606223,0.962797701,9.86E-01
0.024691324,-0.113590382,0.991993666,9.97E-01
0.02491785,0.020166095,1.00356603,1.01E+00
0.025144376,0.155825675,0.996138692,1.02E+00
0.025370902,0.289986908,0.969131529,1.02E+00
0.025597428,0.419074059,0.923082769,1.03E+00
0.025823952,0.540260971,0.859841883,1.03E+00
0.026050478,0.652730227,0.78057605,1.04E+00
0.026277004,0.753224552,0.684337556,1.04E+00
0.02650353,0.837042511,0.574390292,1.03E+00
0.026730056,0.902731836,0.455205083,1.02E+00
0.026956582,0.950180113,0.330355614,1.01E+00
0.027183108,0.979849458,0.202828512,1.00E+00
0.027409634,0.992609978,0.075095713,9.91E-01
0.02763616,0.989555836,-0.050897468,9.82E-01
0.027862686,0.971811354,-0.173684001,9.75E-01
0.028089212,0.940377474,-0.292153567,9.70E-01
0.028315738,0.896064579,-0.405384362,9.67E-01
0.028542264,0.83952558,-0.512488902,9.67E-01
0.02876879,0.771375537,-0.612536013,9.70E-01
0.028995316,0.692335904,-0.70466423,9.76E-01
0.029221842,0.602950692,-0.788514793,9.85E-01
0.029448368,0.502256215,-0.863434851,9.98E-01
0.029674894,0.389706135,-0.925965607,1.01E+00
0.02990142,0.267786592,-0.972818851,1.02E+00
0.030127946,0.139512986,-1.00245249,1.02E+00
0.030354472,0.007756861,-1.0139761,1.03E+00
0.030580996,-0.124511421,-1.00697243,1.03E+00
0.030807522,-0.254253596,-0.981613696,1.03E+00
0.031034048,-0.37853083,-0.938714206,1.02E+00
0.031260574,-0.494692802,-0.879685819,1.02E+00
0.0314871,-0.600534916,-0.806428194,1.01E+00
0.031713626,-0.694407821,-0.721175253,1.00E+00
0.031940152,-0.775286496,-0.626325011,9.93E-01
0.032166678,-0.84281528,-0.52425313,9.85E-01
0.032393204,-0.897385776,-0.417026311,9.79E-01
0.03261973,-0.939950049,-0.305692166,9.77E-01
0.032846256,-0.970466375,-0.190008938,9.78E-01
0.033072782,-0.987366438,-0.070762113,9.80E-01
0.033299308,-0.989938736,0.049987081,9.82E-01
0.033525834,-0.978253603,0.170547813,9.86E-01
0.03375236,-0.952325463,0.289528102,9.91E-01
0.033978884,-0.912059426,0.405434638,9.96E-01
0.034205412,-0.857438982,0.516523182,1.00E+00
0.034431936,-0.788709939,0.620801449,1.01E+00
0.034658464,-0.706534624,0.716120601,1.01E+00
0.034884988,-0.612088978,0.800331593,1.02E+00
0.035111516,-0.507095993,0.871482968,1.02E+00
0.03533804,-0.393767029,0.928048968,1.02E+00
0.035564568,-0.274616659,0.969160199,1.01E+00
0.035791092,-0.152031317,0.99475199,1.01E+00
0.03601762,-0.027632264,1.00511575,1.01E+00
0.036244144,0.097231649,0.999748886,1.01E+00
0.036470672,0.219988957,0.978120804,1.01E+00
0.036697196,0.337828517,0.941135824,1.00E+00
0.036923724,0.448842525,0.890400887,9.94E-01
0.037150248,0.551824749,0.8274737,9.89E-01
0.037376776,0.645930409,0.753706574,9.85E-01
0.0376033,0.730479896,0.670252621,9.83E-01
0.037829824,0.804831982,0.578115642,9.82E-01
0.038056352,0.868300617,0.478231192,9.83E-01
0.038282876,0.920125723,0.371569663,9.85E-01
0.038509404,0.959507644,0.25924021,9.88E-01
0.038735928,0.985714734,0.142550662,9.92E-01
0.038962456,0.9982301,0.022947663,9.97E-01
0.03918898,0.996763706,-0.098248132,1.00E+00
0.039415508,0.980735362,-0.219978452,1.01E+00
0.039642032,0.948909879,-0.340497643,1.02E+00
0.03986856,0.900740504,-0.456747144,1.02E+00
0.040095084,0.837146759,-0.565638006,1.02E+00
0.040321612,0.759792149,-0.664792061,1.02E+00
0.040548136,0.670604169,-0.75242424,1.02E+00
0.040774664,0.571651042,-0.827220798,1.01E+00
0.041001188,0.465065181,-0.888307095,1.01E+00
0.041227716,0.352953345,-0.935225606,9.99E-01
0.04145424,0.237308636,-0.967885256,9.93E-01
0.041680768,0.119943991,-0.986493945,9.88E-01
0.041907292,0.002450656,-0.991489828,9.83E-01
0.04213382,-0.113844909,-0.983479381,9.80E-01
0.042360344,-0.227970257,-0.963150561,9.80E-01
0.042586868,-0.339414567,-0.930990875,9.82E-01
0.042813396,-0.447789192,-0.886742234,9.87E-01
0.04303992,-0.551801562,-0.829610348,9.93E-01
0.043266448,-0.649245501,-0.75950861,9.98E-01
0.043492972,-0.738023758,-0.677256465,1.00E+00
0.0437195,-0.816410482,-0.584029257,1.01E+00
0.043946024,-0.882878125,-0.481188536,1.01E+00
0.044172552,-0.936050653,-0.370336622,1.01E+00
0.044399076,-0.974776208,-0.253353477,1.01E+00
0.044625604,-0.998232961,-0.132368058,1.01E+00
0.044852128,-1.00601864,-0.009672301,1.01E+00
0.045078656,-0.998211861,0.112403244,1.01E+00
0.04530518,-0.975384951,0.231646881,1.01E+00
0.045531708,-0.938555539,0.346154362,1.00E+00
0.045758232,-0.889006555,0.454539448,9.97E-01
0.04598476,-0.827853382,0.555994868,9.94E-01
0.046211284,-0.75563699,0.649778485,9.93E-01
0.046437812,-0.6728338,0.734528363,9.92E-01
0.046664336,-0.580637813,0.808719099,9.91E-01
0.04689086,-0.480644345,0.871362567,9.90E-01
0.047117388,-0.374337643,0.921903253,9.90E-01
0.047343912,-0.263019055,0.959915876,9.91E-01
0.04757044,-0.147928819,0.984965265,9.92E-01
0.047796964,-0.030367643,0.996602058,9.94E-01
0.048023492,0.088221975,0.994415164,9.97E-01
0.048250016,0.206221074,0.978127301,9.99E-01
0.048476544,0.321854681,0.947698176,1.00E+00
0.048703068,0.433282405,0.903418779,1.00E+00
0.048929596,0.538755953,0.845938027,1.01E+00
0.04915612,0.636800587,0.776135564,1.01E+00
0.049382648,0.726171076,0.694796503,1.01E+00
0.049609172,0.805359304,0.60255605,1.01E+00
0.0498357,0.872407734,0.500597,1.01E+00
0.050062224,0.92568779,0.391009361,1.01E+00
0.050288752,0.96441108,0.276213795,1.01E+00
0.050515276,0.988442123,0.158458725,1.00E+00
0.050741804,0.998014569,0.039709169,9.98E-01
0.050968328,0.99356693,-0.078332953,9.93E-01
0.051194856,0.975653052,-0.19418779,9.90E-01
0.05142138,0.944885254,-0.306552887,9.87E-01
0.051647904,0.901904464,-0.414258271,9.85E-01
0.051874432,0.847377002,-0.516230404,9.85E-01
0.052100956,0.782001317,-0.611485839,9.85E-01
0.052327484,0.706481874,-0.69915998,9.88E-01
0.052554008,0.621396661,-0.778499246,9.92E-01
0.052780536,0.527044713,-0.848599851,9.98E-01
0.05300706,0.423748225,-0.907950878,1.00E+00
0.053233588,0.31260401,-0.954605877,1.01E+00
0.053460112,0.195586145,-0.986985087,1.01E+00
0.05368664,0.075007133,-1.00420964,1.01E+00
0.053913164,-0.046816189,-1.00595272,1.01E+00
0.054139692,-0.167640433,-0.992301762,1.01E+00
0.054366216,-0.285327941,-0.963711321,1.01E+00
0.054592744,-0.397904009,-0.920977175,1.01E+00
0.054819268,-0.503624737,-0.8651914,1.00E+00
0.055045796,-0.60103792,-0.797678292,9.98E-01
0.05527232,-0.689031839,-0.719906926,9.93E-01
0.055498848,-0.766868234,-0.63337934,9.89E-01
0.055725372,-0.834174156,-0.539461792,9.87E-01
0.0559519,-0.89079988,-0.439169735,9.86E-01
0.056178424,-0.936407447,-0.333099067,9.88E-01
0.056404948,-0.970115483,-0.221881613,9.90E-01
0.056631476,-0.99083972,-0.106751226,9.93E-01
0.056858,-0.997874498,0.010590622,9.96E-01
0.057084528,-0.990943193,0.1283876,9.98E-01
0.057311052,-0.970005631,0.244945481,1.00E+00
0.05753758,-0.935178697,0.358570546,1.00E+00
0.057764104,-0.886771321,0.467525572,1.00E+00
0.057990632,-0.825347006,0.570046067,1.01E+00
0.058217156,-0.751778424,0.664406717,1.01E+00
0.058443684,-0.667259216,0.749019384,1.01E+00
0.058670208,-0.573274076,0.822551191,1.01E+00
0.058896736,-0.471489787,0.884029567,1.00E+00
0.05912326,-0.36356625,0.932884514,1.00E+00
0.059349788,-0.250933558,0.968796134,1.00E+00
0.059576312,-0.134823203,0.99134177,1.00E+00
0.05980284,-0.016708691,0.999889493,1.00E+00
0.060029364,0.101458594,0.994075716,9.98E-01
0.060255892,0.217640802,0.974152148,9.96E-01
0.060482416,0.330097109,0.940800786,9.94E-01
0.060708944,0.437418073,0.894850016,9.92E-01
0.060935468,0.538412571,0.837135315,9.91E-01
0.061161992,0.632000506,0.768479705,9.90E-01
0.06138852,0.717149019,0.689722359,9.90E-01
0.061615044,0.792848945,0.601767778,9.91E-01
0.061841572,0.858131826,0.505631447,9.92E-01
0.062068096,0.912120044,0.402460575,9.94E-01
0.062294624,0.954087615,0.293496579,9.96E-01
0.062521148,0.983459413,0.179974034,1.00E+00
0.062747676,0.999655068,0.063048735,1.00E+00
0.0629742,1.00187445,-0.055990204,1.01E+00
0.063200728,0.989289284,-0.175297424,1.01E+00
0.063427252,0.961617827,-0.292494297,1.01E+00
0.06365378,0.91935271,-0.405179948,1.01E+00
0.063880304,0.863529623,-0.511292756,1.01E+00
0.064106832,0.795466602,-0.609166682,1.00E+00
0.064333356,0.716617405,-0.697487414,1.00E+00
0.064559884,0.628497839,-0.775248349,9.96E-01
0.064786408,0.532630086,-0.841712534,9.92E-01
0.065012936,0.430502564,-0.896381557,9.89E-01
0.06523946,0.323533744,-0.9389624,9.86E-01
0.065465988,0.213033125,-0.969335079,9.85E-01
0.065692512,0.100145452,-0.9875018,9.85E-01
0.065919036,-0.014203623,-0.993455887,9.87E-01
0.066145564,-0.129230842,-0.986951113,9.91E-01
0.066372088,-0.243925706,-0.967379391,9.95E-01
0.066598616,-0.356675416,-0.93411833,1.00E+00
0.06682514,-0.46541357,-0.887054324,1.00E+00
0.067051668,-0.568061531,-0.826685846,1.01E+00
0.067278192,-0.662751198,-0.753930092,1.01E+00
0.06750472,-0.747842789,-0.669979334,1.01E+00
0.067731248,-0.821920156,-0.576250315,1.01E+00
0.067957768,-0.883813441,-0.474358946,1.01E+00
0.068184296,-0.932648122,-0.366079628,1.00E+00
0.068410824,-0.967881799,-0.253276676,1.00E+00
0.068637352,-0.98932749,-0.137810037,9.98E-01
0.068863872,-0.997136295,-0.021419816,9.95E-01
0.0690904,-0.991714537,0.094401971,9.92E-01
0.069316928,-0.973523915,0.208489016,9.91E-01
0.069543456,-0.942824602,0.319871962,9.91E-01
0.069769976,-0.899638116,0.427408248,9.92E-01
0.069996504,-0.844120443,0.529574454,9.93E-01
0.070223032,-0.776881039,0.624729216,9.94E-01
0.070449552,-0.698891342,0.711434543,9.95E-01
0.07067608,-0.611267567,0.788505137,9.95E-01
0.070902608,-0.515176594,0.854918182,9.96E-01
0.071129136,-0.411854833,0.909748614,9.97E-01
0.071355656,-0.302651495,0.952164948,9.98E-01
0.071582184,-0.189057067,0.981469929,9.99E-01
0.071808712,-0.072697282,0.997162521,1.00E+00
0.07203524,0.044717778,0.998999298,1.00E+00
0.07226176,0.16148755,0.987026036,1.00E+00
0.072488288,0.276039779,0.961527109,1.00E+00
0.072714816,0.386978328,0.922870159,1.00E+00
0.072941344,0.492929906,0.871351719,1.00E+00
0.073167864,0.592271805,0.80732131,1.00E+00
0.073394392,0.683168411,0.731564105,1.00E+00
0.07362092,0.763966918,0.645428777,1.00E+00
0.073847448,0.83347249,0.550577164,9.98E-01
0.074073968,0.890927732,0.448708743,9.95E-01
0.074300496,0.935879469,0.341433525,9.92E-01
0.074527024,0.968069434,0.230255127,9.90E-01
0.074753552,0.98736465,0.116588846,9.88E-01
0.074980072,0.993731141,0.001791298,9.88E-01
0.0752066,0.987226486,-0.112820983,9.87E-01
0.075433128,0.968004107,-0.225969553,9.88E-01
0.075659648,0.936305523,-0.336439371,9.90E-01
0.075886176,0.892396271,-0.44309935,9.93E-01
0.076112704,0.836456597,-0.544832826,9.97E-01
0.076339232,0.768570542,-0.64030391,1.00E+00
0.076565752,0.689023674,-0.727763355,1.00E+00
0.07679228,0.598697007,-0.80525136,1.01E+00
0.077018808,0.499102771,-0.87104094,1.01E+00
0.077245336,0.392114282,-0.923878491,1.01E+00
0.077471856,0.279723644,-0.962976694,1.01E+00
0.077698384,0.163918838,-0.987940311,1.00E+00
0.077924912,0.046623323,-0.998702288,1.00E+00
0.07815144,-0.070349909,-0.995484352,9.96E-01
0.07837796,-0.185340732,-0.978752553,9.92E-01
0.078604488,-0.296882153,-0.949167311,9.89E-01
0.078831016,-0.403737098,-0.907517314,9.87E-01
0.079057544,-0.504919469,-0.854622543,9.85E-01
0.079284064,-0.599657714,-0.791195452,9.86E-01
0.079510592,-0.687223494,-0.717712522,9.87E-01
0.07973712,-0.76664108,-0.634483278,9.90E-01
0.07996364,-0.836555719,-0.541999519,9.94E-01
0.080190168,-0.895487189,-0.441247404,9.97E-01
0.080416696,-0.942178428,-0.333656728,9.99E-01
0.080643224,-0.975712955,-0.220881864,1.00E+00
0.080869744,-0.995472848,-0.104666948,1.00E+00
0.081096272,-1.00109601,0.01318937,1.00E+00
0.0813228,-0.99247843,0.130848691,1.00E+00
0.081549328,-0.969794214,0.24646619,1.00E+00
0.081775848,-0.933513045,0.358252794,1.00E+00
0.082002376,-0.884391725,0.464554906,9.98E-01
0.082228904,-0.823418319,0.563942432,9.96E-01
0.082455432,-0.751702487,0.655271947,9.94E-01
0.082681952,-0.670313418,0.737663746,9.93E-01
0.08290848,-0.580164492,0.810324311,9.93E-01
0.083135008,-0.482124835,0.872317493,9.93E-01
0.083361536,-0.37732023,0.92256552,9.93E-01
0.083588056,-0.267259061,0.960142851,9.93E-01
0.083814584,-0.153643668,0.984498978,9.93E-01
0.084041112,-0.038145233,0.995429337,9.92E-01
0.08426764,0.077674799,0.992941856,9.92E-01
0.08449416,0.192340791,0.977171004,9.92E-01
0.084720688,0.304415911,0.948351085,9.92E-01
0.084947216,0.412475437,0.906837106,9.92E-01
0.085173736,0.515109837,0.853133678,9.93E-01
0.085400264,0.610961258,0.7879197,9.94E-01
0.085626792,0.698780298,0.712036908,9.95E-01
0.08585332,0.777463675,0.626426697,9.97E-01
0.08607984,0.846014977,0.532037258,9.99E-01
0.086306368,0.903393984,0.429815173,1.00E+00
0.086532896,0.948409796,0.320906281,1.00E+00
0.086759424,0.979903221,0.206912041,1.00E+00
0.086985944,0.997102678,0.089854948,1.00E+00
0.087212472,0.999795318,-0.028117053,1.00E+00
0.087439,0.988240957,-0.144990563,9.98E-01
0.087665528,0.963009238,-0.258985221,9.94E-01
0.087892048,0.92485714,-0.368560195,9.91E-01
0.088118576,0.874655008,-0.472388804,9.88E-01
0.088345104,0.813339889,-0.569332123,9.86E-01
0.088571632,0.741885602,-0.658416986,9.84E-01
0.088798152,0.661275089,-0.73882103,9.83E-01
0.08902468,0.572459996,-0.809856713,9.84E-01
0.089251208,0.476302803,-0.870917797,9.85E-01
0.089477728,0.373549879,-0.921356142,9.88E-01
0.089704256,0.264940888,-0.960303307,9.92E-01
0.089930784,0.151504591,-0.986647606,9.96E-01
0.090157312,0.034789685,-0.999309361,1.00E+00
0.090383832,-0.083230004,-0.997597277,1.00E+00
0.09061036,-0.200435758,-0.981335819,1.00E+00
0.090836888,-0.314772606,-0.950796723,1.00E+00
0.091063416,-0.42433387,-0.906595767,1.00E+00
0.091289936,-0.527396739,-0.84962523,1.00E+00
0.091516464,-0.622452259,-0.781006634,9.97E-01
0.091742992,-0.70823735,-0.702038109,9.94E-01
0.09196952,-0.783765793,-0.614133239,9.91E-01
0.09219604,-0.848340809,-0.518736839,9.89E-01
0.092422568,-0.901532829,-0.417223155,9.87E-01
0.092649096,-0.943087578,-0.310791492,9.86E-01
0.092875624,-0.972747326,-0.20043841,9.86E-01
0.093102144,-0.990066648,-0.087108336,9.88E-01
0.093328672,-0.994439304,0.028024266,9.90E-01
0.0935552,-0.985372186,0.143420517,9.92E-01
0.09378172,-0.962723911,0.257325977,9.93E-01
0.094008248,-0.926719606,0.367991865,9.94E-01
0.094234776,-0.877847493,0.473774105,9.95E-01
0.094461304,-0.816788375,0.573135734,9.96E-01
0.094687824,-0.744398654,0.664636314,9.96E-01
0.094914352,-0.661717772,0.746941805,9.96E-01
0.09514088,-0.569971561,0.818865836,9.95E-01
0.095367408,-0.470546424,0.879421949,9.95E-01
0.095593928,-0.36493066,0.927871227,9.94E-01
0.095820456,-0.254616797,0.963728666,9.94E-01
0.096046984,-0.141008839,0.986694813,9.93E-01
0.096273512,-0.025413664,0.996507347,9.94E-01
0.096500032,0.090801626,0.992846489,9.94E-01
0.09672656,0.20601435,0.975457847,9.94E-01
0.096953088,0.318373859,0.944421589,9.93E-01
0.097179616,0.426047385,0.900271237,9.92E-01
0.097406136,0.527431607,0.843882263,9.90E-01
0.097632664,0.62119931,0.776303291,9.89E-01
0.097859192,0.706252396,0.698645949,9.87E-01
0.09808572,0.781661093,0.612047672,9.86E-01
0.09831224,0.846622109,0.517669559,9.85E-01
0.098538768,0.900445938,0.416707546,9.84E-01
0.098765296,0.942560971,0.310391992,9.85E-01
0.098991816,0.972520709,0.199969187,9.86E-01
