Frequency (GHz),Re( S21 ),Im( S21 ),S2
0,0.024436666,0,0.000597151
0.000226505,0.022162842,-0.010351021,0.000598335
0.00045301,0.015716573,-0.018834613,0.000601753
0.000679515,0.00619452,-0.023847424,0.000607072
0.00090602,-0.004695765,-0.02432463,0.000613738
0.001132525,-0.014868267,-0.019999882,0.000621061
0.00135903,-0.022236014,-0.011569954,0.000628304
0.001585535,-0.025187362,-0.000656302,0.000634834
0.00181204,-0.023020353,0.010502785,0.000640245
0.002038545,-0.016161142,0.01957944,0.000644537
0.00226505,-0.006055332,0.024727013,0.000648092
0.002491555,0.005219843,0.024987137,0.000651604
0.00271806,0.015458568,0.020420808,0.000655977
0.002944565,0.022769839,0.011985076,0.000662108
0.00317107,0.025867855,0.001266809,0.000670751
0.003397575,0.024184952,-0.009821885,0.000681381
0.00362408,0.017990919,-0.019311601,0.000696611
0.003850585,0.008225251,-0.025438845,0.00071479
0.00407709,-0.003466004,-0.026908811,0.000736097
0.004303595,-0.014950371,-0.0231626,0.00076002
0.0045301,-0.023919748,-0.014611129,0.000785639
0.004756605,-0.028361753,-0.002723046,0.000811804
0.00498311,-0.027094275,0.010158613,0.000837297
0.005209615,-0.020170609,0.021314114,0.000861145
0.00543612,-0.008946432,0.028334534,0.000882884
0.005662625,0.004259071,0.029741556,0.0009027
0.00588913,0.016771503,0.025301185,0.000921433
0.006115635,0.026184697,0.01596074,0.000940384
0.00634214,0.030800322,0.003521608,0.000961062
0.006568645,0.029822374,-0.00977432,0.000984911
0.00679515,0.023396196,-0.021626381,0.001015082
0.007021655,0.012468229,-0.029918594,0.001050579
0.00724816,-0.001254368,-0.033049829,0.001093865
0.007474664,-0.015482695,-0.030100847,0.001145775
0.007701169,-0.027581522,-0.021115886,0.001206621
0.007927674,-0.034965776,-0.007303223,0.001275943
0.008154179,-0.035668459,0.008947918,0.001352304
0.008380684,-0.028958678,0.024385752,0.00143327
0.008607189,-0.01576109,0.035600148,0.001515783
0.008833694,0.00139477,0.03993547,0.001596787
0.009060199,0.018970469,0.036250852,0.001674003
0.009286704,0.033340436,0.025198713,0.00174656
0.009513209,0.041652884,0.008951386,0.00181509
0.009739714,0.042345509,-0.009415415,0.001881792
0.009966219,0.035272375,-0.026604163,0.001951922
0.010192724,0.021616491,-0.039547645,0.002031289
0.010419229,0.00339739,-0.045866381,0.002115267
0.010645734,-0.01644256,-0.044143613,0.002219016
0.010872239,-0.034523316,-0.034023441,0.002349454
0.011098744,-0.04735212,-0.016509844,0.002514798
0.011325249,-0.051852495,0.005898001,0.002723468
0.011551754,-0.046080962,0.029306809,0.002982344
0.011778259,-0.029969322,0.048951712,0.00329443
0.012004764,-0.005783194,0.060193501,0.003656703
0.012231269,0.022047181,0.059774857,0.004059112
0.012457774,0.047849171,0.046862241,0.004485613
0.012684279,0.066101924,0.023399819,0.004917016
0.012910784,0.072765648,-0.006361977,0.005335314
0.013137289,0.066088818,-0.03689627,0.005729067
0.013363794,0.046804242,-0.062522724,0.006099728
0.013590299,0.017770108,-0.078205049,0.006431806
0.013816804,-0.016602581,-0.080451779,0.006748134
0.014043309,-0.050561331,-0.067542896,0.007118491
0.014269814,-0.077762738,-0.039839227,0.007634207
0.014496319,-0.091895342,-0.000195873,0.008444792
0.014722823,-0.087619759,0.045824356,0.009777094
0.014949328,-0.061833188,0.090141803,0.011948888
0.015175833,-0.015011352,0.123064242,0.015370148
0.015402338,0.047878508,0.135031149,0.020525763
0.015628843,0.117490746,0.118906595,0.027942854
0.015855348,0.18154712,0.072068952,0.038153291
0.016081853,0.227292597,-0.002557539,0.051668466
0.016308358,0.244089246,-0.096939765,0.068976878
0.016534863,0.225247875,-0.199529156,0.090548489
0.016761368,0.168705761,-0.297287256,0.116841346
0.016987874,0.07685227,-0.377458036,0.14838084
0.017214378,-0.043923169,-0.428967237,0.185942135
0.017440884,-0.185219705,-0.443125516,0.230666562
0.017667388,-0.335690022,-0.412584186,0.282913501
0.017893894,-0.481423497,-0.333624959,0.343074197
0.018120398,-0.606999695,-0.206671387,0.411161692
0.018346904,-0.696573734,-0.037163645,0.486596103
0.018573408,-0.735689878,0.163833365,0.568080968
0.018799914,-0.713677645,0.37985009,0.653621872
0.019026418,-0.626171708,0.590452433,0.740725084
0.019252924,-0.476876587,0.773427367,0.825601171
0.019479428,-0.275323033,0.908084333,0.900419928
0.019705932,-0.037912749,0.982640803,0.967020324
0.019932438,0.213512391,0.99013257,1.025950047
0.020158942,0.458379328,0.930442452,1.075834765
0.020385448,0.678649902,0.809867382,1.116450866
0.020611952,0.860061705,0.639068365,1.148114512
0.020838458,0.992602289,0.43124935,1.171235306
0.021064962,1.07040083,0.200765893,1.186064881
0.021291468,1.09141624,-0.037846819,1.192621791
0.021517972,1.05714905,-0.27061817,1.190798308
0.021744478,0.972494185,-0.484899193,1.180872167
0.021970982,0.845655322,-0.669932187,1.163942059
0.022197488,0.686882555,-0.81768918,1.140423239
0.022423992,0.507326365,-0.925063014,1.11312162
0.022650498,0.342207491,-0.958824992,1.036451332
0.022877002,0.148697063,-0.999532163,1.021175361
0.023103508,-0.027700344,-0.989594877,0.98006533
0.023330012,-0.187676445,-0.952962518,0.943360009
0.023556518,-0.330839753,-0.896714866,0.913552493
0.023783022,-0.458282262,-0.826143026,0.892534931
0.024009528,-0.572094262,-0.744425356,0.881460955
0.024236032,-0.674341202,-0.652649164,0.880686988
0.024462538,-0.766151428,-0.550257325,0.889771134
0.024689042,-0.847084045,-0.435788363,0.907462877
0.024915548,-0.914790094,-0.307763785,0.931559463
0.025142052,-0.964602888,-0.166042283,0.958028771
0.025368558,-0.99935025,-0.007686214,0.99876
0.025595062,-1.0046761,0.156627074,1.033906106
0.025821568,-0.971051037,0.303991348,1.035350856
0.026048072,-0.923674524,0.461422533,1.06608538
0.026274578,-0.842038035,0.616107166,1.088616092
0.026501082,-0.729808509,0.750063062,1.095215057
0.026727588,-0.5960024,0.858768582,1.092702338
0.026954092,-0.447472811,0.939738572,1.0833405
0.027180598,-0.290854454,0.992125392,1.068909107
0.027407102,-0.132153124,1.01670861,1.051160846
0.027633608,0.023642391,1.0154649,1.031727926
0.027860112,0.172692001,0.991046309,1.011995314
0.028086618,0.312207818,0.94632411,0.993003043
0.028313122,0.440172881,0.884097517,0.975380585
0.028539628,0.55503583,0.80719614,0.959630381
0.028766132,0.656053245,0.718629181,0.94683376
0.028992638,0.743286192,0.621017754,0.938137414
0.029219142,0.817859471,0.5169788,0.936161194
0.029445646,0.88327229,0.405445933,0.944556343
0.029672152,0.935137689,0.282468468,0.954270933
0.029898656,0.969513834,0.152446374,0.963196971
0.030125162,0.986484349,0.018206088,0.973482832
0.030351666,0.98561132,-0.118512265,0.985474831
0.030578172,0.966106653,-0.255744606,0.998767368
0.030804676,0.927199483,-0.391068935,1.012633793
0.031031182,0.868394792,-0.521553099,1.02612715
0.031257686,0.789726317,-0.643776059,1.03811527
0.031484192,0.692034483,-0.753930449,1.047322848
0.031710696,0.577278554,-0.848080456,1.052490989
0.031937202,0.448762923,-0.922694862,1.052753969
0.032163706,0.310949951,-0.975379944,1.048055907
0.032390212,0.168904752,-1.005463,1.03948466
0.032616716,0.026883457,-1.01464105,1.030219181
0.032843222,-0.114120223,-1.0041194,1.021279195
0.033069726,-0.250484735,-0.972105503,1.007731711
0.033296232,-0.376747608,-0.921359003,0.990841173
0.033522736,-0.490920514,-0.856264889,0.974192511
0.03374924,-0.592908561,-0.780205846,0.960261724
0.033975748,-0.683383405,-0.695438981,0.950648255
0.034202252,-0.763187289,-0.603167057,0.946265337
0.034428756,-0.83285147,-0.503722012,0.947377436
0.03465526,-0.892233551,-0.396910071,0.953618314
0.034881768,-0.940343618,-0.282485932,0.964044422
0.035108272,-0.975434661,-0.160674199,0.977288976
0.035334776,-0.995386004,-0.032574762,0.991854412
0.03556128,-0.99827081,0.099728309,1.006490346
0.035787788,-0.982994497,0.23349984,1.020800356
0.036014292,-0.949206889,0.366573423,1.035369793
0.036240796,-0.894939065,0.49676457,1.047690968
0.0364673,-0.819017947,0.618215978,1.052981393
0.036693808,-0.724579692,0.725375354,1.051185134
0.036920312,-0.615945518,0.815323293,1.044140953
0.037146816,-0.497260749,0.8867203,1.033541143
0.03737332,-0.372305602,0.939296603,1.02088957
0.037599828,-0.244328707,0.973568499,1.007532139
0.037826332,-0.11594709,0.99053967,0.994612566
0.038052836,0.010835035,0.991416335,0.983023747
0.03827934,0.134504691,0.977396727,0.973395874
0.038505848,0.253878534,0.949584246,0.96616455
0.038732352,0.367990792,0.909003079,0.961703821
0.038958856,0.4761011,0.856661439,0.960541078
0.03918536,0.577951014,0.793488622,0.963651568
0.039411864,0.673901796,0.719401181,0.97168169
0.039638372,0.762797236,0.632659078,0.982117132
0.039864876,0.841122985,0.533157468,0.991744762
0.04009138,0.906247616,0.422920108,1.000146159
0.040317884,0.956672668,0.304095715,1.007696798
0.040544392,0.991232216,0.178730264,1.014485813
0.040770896,1.00893795,0.048985783,1.020355394
0.0409974,1.00903821,-0.08276622,1.025008356
0.041223904,0.991110146,-0.213928819,1.028064861
0.041450412,0.955172122,-0.341704428,1.029115699
0.041676916,0.901815653,-0.463179588,1.027806803
0.04190342,0.832334042,-0.575507164,1.023988453
0.042129924,0.748769283,-0.676205873,1.017909822
0.042356432,0.653775454,-0.763572693,1.010465602
0.042582936,0.550025105,-0.837082505,1.003234736
0.04280944,0.43908155,-0.896857977,0.997146838
0.043035944,0.322007686,-0.941862047,0.990793065
0.043262452,0.20144017,-0.970961094,0.983343588
0.043488956,0.080247112,-0.984712303,0.976097919
0.04371546,-0.039803408,-0.984409153,0.970645692
0.043941964,-0.157814845,-0.971156061,0.96804962
0.044168472,-0.273304045,-0.945573568,0.968804474
0.044394976,-0.385822296,-0.907767177,0.972900092
0.04462148,-0.494646758,-0.857442141,0.97988244
0.044847984,-0.598561585,-0.794135928,0.988927843
0.045074492,-0.69577682,-0.717542291,0.998972323
0.045300996,-0.784032226,-0.627851784,1.008904394
0.0455275,-0.860907495,-0.52600497,1.017842943
0.045754004,-0.924291492,-0.413678676,1.025444809
0.045980512,-0.972689629,-0.292769074,1.031838845
0.046207016,-1.00451612,-0.164901167,1.03624503
0.04643352,-1.01751232,-0.032737881,1.03640309
0.046660024,-1.01072013,0.099350013,1.031425606
0.046886532,-0.985317707,0.227229178,1.022484083
0.047113036,-0.9435094,0.347994179,1.011309937
0.04733954,-0.887723684,0.459844351,0.999510166
0.047566044,-0.820236802,0.561822593,0.988433037
0.047792552,-0.742962718,0.653554261,0.979126772
0.048019056,-0.65736264,0.734971464,0.972308693
0.04824556,-0.564474106,0.806060135,0.968363958
0.048472064,-0.465042531,0.866672695,0.967386116
0.048698572,-0.359703004,0.91645962,0.969284486
0.048925076,-0.249123588,0.95492965,0.973953199
0.04915158,-0.133968562,0.981572747,0.981432633
0.049378084,-0.014642021,0.995677888,0.991588845
0.049604588,0.10834872,0.99557817,1.002915338
0.049831096,0.232928887,0.979048789,1.012792398
0.0500576,0.355647177,0.945151448,1.019796174
0.050284104,0.473201871,0.894420981,1.023908902
0.050510608,0.582885385,0.828103721,1.025511145
0.050737116,0.682473958,0.747804999,1.02498302
0.05096362,0.770153046,0.655379891,1.022658516
0.051190124,0.844500065,0.552864611,1.018839638
0.051416628,0.904472709,0.442417115,1.013803785
0.051643136,0.949412465,0.326270163,1.007836248
0.05186964,0.979064882,0.206676111,1.001283058
0.052096144,0.993620694,0.085817628,0.994646749
0.052322648,0.993738294,-0.034372751,0.988697283
0.052549156,0.98040241,-0.15251568,0.984449918
0.05277566,0.954343438,-0.267955691,0.98257165
0.053002164,0.915414751,-0.380010426,0.98239209
0.053228668,0.86340487,-0.487004548,0.982641399
0.053455176,0.799066842,-0.587011933,0.983090827
0.05368168,0.723621309,-0.678713143,0.984279329
0.053908184,0.638144553,-0.761223078,0.986689045
0.054134688,0.543490827,-0.833720744,0.990472558
0.054361196,0.440436661,-0.895251989,0.995460576
0.0545877,0.329866439,-0.94467634,1.001225255
0.054814204,0.212947965,-0.980717123,1.007152911
0.055040708,0.091266982,-1.00210965,1.012553413
0.055267216,-0.033127405,-1.00781715,1.016792833
0.05549372,-0.157813877,-0.997282922,1.019478446
0.055720224,-0.280274093,-0.970603764,1.020625234
0.055946728,-0.398288101,-0.928425252,1.02060686
0.056173236,-0.510010183,-0.871420145,1.019483456
0.05639974,-0.613273263,-0.8001616,1.016362681
0.056626244,-0.705462754,-0.716110289,1.010491643
0.056852748,-0.784684479,-0.621866941,1.002448224
0.057079256,-0.850283086,-0.520217299,0.993607365
0.05730576,-0.902442753,-0.413462669,0.985354301
0.057532264,-0.941701353,-0.303276241,0.978777917
0.057758768,-0.968608737,-0.190784559,0.974601633
0.057985276,-0.983505189,-0.076743081,0.973171957
0.05821178,-0.986420214,0.038241115,0.974487221
0.058438284,-0.977086425,0.153480366,0.978254105
0.058664788,-0.9550699,0.268035948,0.984001783
0.058891292,-0.919962823,0.380662858,0.991235807
0.0591178,-0.871531546,0.489911824,0.999580831
0.059344304,-0.809633672,0.594273269,1.008667401
0.059570808,-0.733990073,0.691926122,1.017503186
0.059797312,-0.644654393,0.780166626,1.024239251
0.06002382,-0.543050706,0.855876505,1.027428661
0.060250324,-0.431858003,0.916741967,1.026917169
0.060476828,-0.314118028,0.961607873,1.023359837
0.060703332,-0.192709193,0.990199625,1.01763213
0.06092984,-0.070174001,1.00283325,1.010598918
0.061156344,0.051330157,1.00020373,1.003042286
0.061382848,0.170027748,0.983224332,0.995639522
0.061609352,0.284481615,0.952900112,0.988948413
0.06183586,0.393531471,0.910253942,0.983429258
0.062062364,0.496246278,0.856292725,0.979497599
0.062288868,0.591915309,0.791975617,0.977589111
0.062515372,0.680070579,0.718105972,0.978172179
0.06274188,0.760350347,0.635077477,0.981456052
0.062968384,0.831948161,0.542811811,0.986782405
0.063194888,0.893177748,0.441486239,0.992676589
0.063421392,0.942119479,0.332284898,0.998002366
0.0636479,0.977419436,0.217071503,1.002468791
0.063874404,0.998304188,0.097820319,1.006180067
0.064100908,1.00433099,-0.023546081,1.009235155
0.064327412,0.995271742,-0.145112067,1.011623352
0.06455392,0.971111357,-0.264918804,1.01323924
0.064780424,0.932093263,-0.380953759,1.013923617
0.065006928,0.878785253,-0.491183341,1.013524595
0.065233432,0.812138319,-0.593639612,1.011976638
0.06545994,0.73350358,-0.686564028,1.009397666
0.065686444,0.644548833,-0.768589556,1.006173104
0.065912948,0.547008991,-0.838864446,1.002912395
0.066139452,0.442335069,-0.896883368,1.000060089
0.06636596,0.331726134,-0.94197458,0.997358337
0.066592464,0.216763258,-0.973221898,0.994147173
0.066818968,0.099584192,-0.990169644,0.990352935
0.067045472,-0.01775128,-0.993136406,0.986635029
0.067271976,-0.133690536,-0.982829392,0.983826773
0.06749848,-0.247140959,-0.959936976,0.982557652
0.067724992,-0.357243091,-0.924939811,0.98313628
0.067951496,-0.463148564,-0.878093243,0.985554336
0.068178,-0.563849866,-0.819515646,0.989532565
0.068404504,-0.658086419,-0.749345899,0.994597011
0.068631008,-0.744355977,-0.667925239,1.000189945
0.068857512,-0.821032822,-0.575944364,1.005806805
0.069084016,-0.886562943,-0.474474519,1.011119921
0.06931052,-0.939596653,-0.364823043,1.015937723
0.069537024,-0.97884959,-0.248375177,1.019836748
0.069763536,-1.00285757,-0.126861021,1.021817024
0.06999004,-1.01037037,-0.002863782,1.020856486
0.070216544,-1.00115716,0.120463453,1.016827103
0.070443048,-0.97609657,0.240230098,1.010475014
0.070669552,-0.936696708,0.354247898,1.002892296
0.070896056,-0.884643793,0.461033016,0.995146082
0.07112256,-0.821537971,0.559654832,0.988138169
0.071349064,-0.748754978,0.649546206,0.982544291
0.071575576,-0.667410553,0.73032403,0.978810035
0.07180208,-0.578396857,0.801638722,0.977167565
0.072028584,-0.482468188,0.863082528,0.977687003
0.072255088,-0.380326509,0.914171219,0.980357271
0.072481592,-0.27264452,0.954357922,0.985134078
0.072708096,-0.160024822,0.982960761,0.991819801
0.0729346,-0.043110635,0.99891454,0.999688785
0.073161104,0.076880433,1.00070572,1.007322539
0.073387616,0.197733209,0.987013876,1.013294813
0.07361412,0.316651195,0.957427502,1.016935401
0.073840624,0.43093738,0.912450075,1.018272165
0.074067128,0.53828603,0.853161335,1.017636114
0.074293632,0.63680017,0.780965507,1.01542158
0.074520136,0.724956036,0.697460592,1.012012532
0.07474664,0.801569343,0.6043607,1.007765267
0.074973144,0.865776539,0.503442705,1.003023573
0.075199656,0.917021513,0.396499485,0.998140297
0.07542616,0.95505929,0.285284847,0.993525691
0.075652664,0.979946673,0.171421021,0.989680648
0.075879168,0.991972685,0.056259293,0.987174916
0.076105672,0.991414249,-0.059219915,0.986409212
0.076332176,0.97819221,-0.174209714,0.987209024
0.07655868,0.951899827,-0.287540436,0.988792783
0.076785184,0.912382662,-0.397493273,0.990443024
0.077011696,0.860084951,-0.502256155,0.992007368
0.0772382,0.795823693,-0.600301564,0.993697318
0.077464704,0.720501602,-0.690374076,0.995738923
0.077691208,0.635013759,-0.771335781,0.998201361
0.077917712,0.540294349,-0.84205848,1.000980467
0.078144216,0.437406778,-0.901391625,1.003831551
0.07837072,0.327637017,-0.948205471,1.00643963
0.078597224,0.212543935,-0.981492519,1.008502489
0.078823728,0.093944319,-1.00050056,1.009826906
0.07905024,-0.026203936,-1.00485432,1.010418851
0.079276744,-0.145995766,-0.994553387,1.010451203
0.079503248,-0.263704628,-0.96978581,1.010024648
0.079729752,-0.377593637,-0.930720448,1.008817507
0.079956256,-0.485603303,-0.877735198,1.006229646
0.08018276,-0.585558474,-0.811900973,1.002061916
0.080409264,-0.675765634,-0.734957218,0.996821304
0.080635768,-0.75525856,-0.648827732,0.991392918
0.08086228,-0.823628843,-0.555233479,0.986648687
0.081088784,-0.880751491,-0.455558866,0.983257069
0.081315288,-0.926552713,-0.350878537,0.981615678
0.081541792,-0.960863709,-0.242070794,0.981857337
0.081768296,-0.983360112,-0.129965022,0.983888017
0.0819948,-0.993589163,-0.015479933,0.987459053
0.082221304,-0.991058528,0.10029301,0.992255694
0.082447808,-0.975338817,0.216090366,0.997980854
0.08267432,-0.946079314,0.330534965,1.004319431
0.082900824,-0.90291822,0.442091674,1.01070636
0.083127328,-0.845533848,0.548791647,1.01609976
0.083353832,-0.774133503,0.648092747,1.019306889
0.083580336,-0.689919889,0.737355947,1.019683246
0.08380684,-0.59493649,0.814504862,1.017367597
0.084033344,-0.491563946,0.878260851,1.012977235
0.084259848,-0.382148683,0.928031623,1.007280309
0.08448636,-0.26882419,0.963723063,1.001028587
0.084712864,-0.153446198,0.985565186,0.994884472
0.084939368,-0.037591782,0.993973911,0.989397278
0.085165872,0.077407718,0.989452481,0.985008167
0.085392376,0.190421209,0.972528219,0.982071374
0.08561888,0.300486535,0.943716764,0.980893488
0.085845384,0.406798482,0.903463542,0.981731377
0.086071888,0.508656979,0.852025032,0.984678577
0.0862984,0.60523665,0.789349258,0.989383654
0.086524904,0.695205629,0.715255082,0.994900699
0.086751408,0.776665628,0.629984319,1.00008974
0.086977912,0.847632647,0.534549654,1.004224437
0.087204416,0.906503856,0.43053776,1.007112004
0.08743092,0.952146649,0.319775909,1.008839873
0.087657424,0.983807564,0.204155847,1.009556933
0.087883928,1.00102961,0.085586168,1.009385272
0.088110432,1.00362062,-0.034015164,1.00841138
0.088336944,0.99165827,-0.15273656,1.006714581
0.088563448,0.96550858,-0.268709332,1.004411523
0.088789952,0.92583257,-0.380177885,1.001701172
0.089016456,0.873558104,-0.485601038,0.998912129
0.08924296,0.809761584,-0.583746135,0.996473373
0.089469464,0.73546201,-0.673676193,0.994743981
0.089695968,0.651477993,-0.754512966,0.993713391
0.089922472,0.55862242,-0.825148106,0.992928405
0.090148984,0.458100498,-0.884347022,0.991925722
0.090375488,0.351544231,-0.931180298,0.990680094
0.090601992,0.240669414,-0.965210915,0.989553877
0.090828496,0.1270051,-0.98633796,0.988992867
0.091055,0.011864377,-0.994570553,0.989311348
0.091281504,-0.103558883,-0.989896238,0.990619004
0.091508008,-0.218062192,-0.972254992,0.992830889
0.091734512,-0.330334574,-0.941590369,0.995713354
0.091961024,-0.438913733,-0.89794904,0.998957743
0.092187528,-0.542215884,-0.84159112,1.002273678
0.092414032,-0.63863194,-0.773049891,1.005456889
0.092640536,-0.726639867,-0.693101883,1.008395717
0.09286704,-0.804808736,-0.60264945,1.010903461
0.093093544,-0.871641815,-0.502723336,1.012490206
0.093320048,-0.925518692,-0.39476493,1.012424199
