Frequency (GHz),Re( S21 ),Im( S21 ),S2
0,0.023739858,0,0.000563581
0.000226466,0.021522818,-0.010071472,0.000564666
0.000452932,0.015239886,-0.018318573,0.000567824
0.000679398,0.005964938,-0.023176938,0.000572751
0.000905864,-0.004631746,-0.023611493,0.000578956
0.00113233,-0.014513592,-0.01936964,0.000585827
0.001358797,-0.021647688,-0.011139319,0.000592707
0.001585263,-0.024469839,-0.000508154,0.000599031
0.001811729,-0.022305513,0.010339066,0.000604432
0.002038195,-0.015580121,0.01913514,0.000608894
0.002264661,-0.005710915,0.024085889,0.000612745
0.002491127,0.005271466,0.024265682,0.000616612
0.002717593,0.015214724,0.019743901,0.000621309
0.002944059,0.022276131,0.011464214,0.000627654
0.003170525,0.025207644,0.000985453,0.000636396
0.003396991,0.023465088,-0.009816861,0.000646981
0.003623457,0.017327678,-0.019017477,0.000661913
0.003849923,0.007730077,-0.024896767,0.000679603
0.004076389,-0.003703135,-0.026202379,0.000700278
0.004302856,-0.014876932,-0.022408683,0.000723472
0.004529322,-0.023536215,-0.013944247,0.000748395
0.004755788,-0.027727751,-0.002270082,0.000773981
0.004982254,-0.026322404,0.010307204,0.000799107
0.00520872,-0.019403739,0.021126162,0.00082282
0.005435186,-0.008327022,0.027844908,0.000844678
0.005661652,0.004620299,0.029042365,0.000864806
0.005888118,0.016815746,0.024518933,0.000883947
0.006114584,0.025910208,0.015229913,0.000903289
0.00634105,0.030257024,0.002962168,0.000924262
0.006567516,0.029099554,-0.010072519,0.00094824
0.006793982,0.022607058,-0.021613065,0.000978204
0.007020449,0.011739022,-0.029589063,0.001013317
0.007246915,-0.001801808,-0.032445215,0.001055938
0.007473381,-0.015746532,-0.029309053,0.001106974
0.007699847,-0.027498333,-0.020264121,0.001166793
0.007926313,-0.034528855,-0.006541982,0.001235039
0.008152779,-0.034938511,0.009471122,0.001310402
0.008379245,-0.028060194,0.024559431,0.00139054
0.008605711,-0.014860068,0.035379086,0.001472501
0.008832177,0.002127434,0.039353449,0.00155322
0.009058643,0.019397762,0.035414185,0.001630438
0.009285109,0.033386368,0.024258671,0.001703133
0.009511575,0.041312467,0.008072402,0.001771884
0.009738041,0.041677706,-0.010085362,0.001838746
0.009964507,0.03438532,-0.026953356,0.001908834
0.010190973,0.020648593,-0.039515615,0.001987848
0.010417439,0.002504245,-0.045444951,0.002071515
0.010643905,-0.017111095,-0.04338159,0.002174752
0.010870372,-0.034840427,-0.033025879,0.002304564
0.011096838,-0.047235023,-0.015430949,0.002469262
0.011323304,-0.051285137,0.006872285,0.002677394
0.01154977,-0.04512858,0.029988093,0.002935874
0.011776236,-0.028779509,0.049187981,0.003247718
0.012002702,-0.004564855,0.059908114,0.00360982
0.012229168,0.023065232,0.058991637,0.004012018
0.012455634,0.048467811,0.045704797,0.004438057
0.0126821,0.066194087,0.022066345,0.004868581
0.012908566,0.072298653,-0.007639338,0.005285455
0.013135032,0.065124959,-0.037892871,0.00567713
0.013361498,0.045485973,-0.063055784,0.006045006
0.013587964,0.016301364,-0.078159645,0.006374665
0.013814431,-0.017981684,-0.079788253,0.006689506
0.014040897,-0.051604342,-0.066311471,0.007060219
0.014267363,-0.07824342,-0.038184624,0.007580098
0.014493829,-0.091642574,0.001647553,0.008401076
0.014720295,-0.086555801,0.047550794,0.009752985
0.014946761,-0.060007449,0.091411039,0.011956872
0.015173227,-0.012617461,0.123558432,0.015425886
0.015399693,0.050514769,0.134520471,0.020647499
0.015626159,0.119957231,0.11730624,0.028150491
0.015852625,0.183416694,0.069467694,0.038467444
0.016079091,0.228197932,-0.005908509,0.052109207
0.016305557,0.243781447,-0.100668371,0.069563515
0.016532023,0.223625705,-0.20320034,0.091298834
0.016758489,0.16581887,-0.300459355,0.117771722
0.016984956,0.072889701,-0.379728347,0.149506526
0.017211422,-0.048660405,-0.430021405,0.187286244
0.017437888,-0.190363199,-0.442719728,0.232238905
0.017664354,-0.340782613,-0.410595566,0.284721508
0.01789082,-0.485976368,-0.330071956,0.345120526
0.018117286,-0.610531092,-0.201723978,0.413440778
0.018343752,-0.698656917,-0.031144701,0.48909148
0.018570218,-0.736005843,0.170465022,0.570762925
0.018796684,-0.712065399,0.386538744,0.656449333
0.01902315,-0.622657657,0.596609831,0.743645848
0.019249616,-0.47169292,0.778517842,0.828584241
0.019476082,-0.26891008,0.911635101,0.903391189
0.019702548,-0.030755272,0.984328091,0.969847677
0.019929014,0.220856115,0.989851356,1.028583131
0.02015548,0.465351254,0.928259552,1.078217585
0.020381946,0.684753954,0.806003511,1.118529637
0.020608412,0.864904106,0.633865476,1.149844554
0.020834878,0.995913386,0.425130367,1.172579301
0.021061344,1.07204807,0.194194973,1.186998752
0.02128781,1.09140384,-0.044404272,1.193134081
0.021514278,1.05560839,-0.276733816,1.190890678
0.021740744,0.969662249,-0.490217954,1.18055852
0.02196721,0.841849506,-0.674207509,1.163266356
0.022193676,0.68246758,-0.820780814,1.139443142
0.022420142,0.502669215,-0.926919103,1.111855363
0.022646608,0.337251425,-0.958828866,1.033091318
0.022873074,0.144475669,-0.999524057,1.019921559
0.02309954,-0.031516254,-0.988850713,0.978819007
0.023326006,-0.190989286,-0.951696098,0.94220237
0.023552472,-0.333647072,-0.895110667,0.912543475
0.023778938,-0.460632205,-0.824340165,0.891718736
0.024005404,-0.574058235,-0.742512703,0.880867971
0.02423187,-0.67599231,-0.650668383,0.880334948
0.024458336,-0.767546237,-0.54821378,0.889665575
0.024684802,-0.848252475,-0.433666021,0.907598479
0.024911268,-0.915735126,-0.305543125,0.931927422
0.025137734,-0.965320885,-0.163698614,0.958641647
0.0253642,-0.999688268,-0.005202203,0.999403696
0.025590666,-1.00465417,0.15917781,1.034667576
0.025817132,-0.97065109,0.306659162,1.03620338
0.026043598,-0.922781169,0.463909,1.066736646
0.026270064,-0.840785861,0.618468463,1.089424104
0.02649653,-0.728125811,0.752185762,1.095950617
0.026722996,-0.593950093,0.860530376,1.093289241
0.026949462,-0.445148379,0.941053629,1.083739012
0.027175928,-0.288375735,0.992942512,1.069095397
0.027402394,-0.129647404,1.01701558,1.051129139
0.027628862,0.026051406,1.01528716,1.031486693
0.027855328,0.174896672,0.990444601,1.011569354
0.028081794,0.314128101,0.945387244,0.992433505
0.02830826,0.441766292,0.882931292,0.974725123
0.028534726,0.556301236,0.805899918,0.958945743
0.028761192,0.657015085,0.717284441,0.946165791
0.028987658,0.743986368,0.619680345,0.937519446
0.029214124,0.818317413,0.515676141,0.935565271
0.02944059,0.883530557,0.404284805,0.944072449
0.029667056,0.935342312,0.281416655,0.954060574
0.029893522,0.969679117,0.151432976,0.963209536
0.030119988,0.986605048,0.017194945,0.973685187
0.030346454,0.985669613,-0.119547889,0.985836284
0.03057292,0.966072023,-0.256817907,0.999250591
0.030799386,0.927035391,-0.39217335,1.013194553
0.031025852,0.868069291,-0.522663474,1.026721401
0.031252318,0.789219141,-0.64485091,1.038699549
0.031478784,0.691343307,-0.754921198,1.047861583
0.03170525,0.576417804,-0.848938107,1.052953394
0.031931716,0.44776082,-0.923375607,1.053112264
0.032158182,0.309847564,-0.975845635,1.048280216
0.032384648,0.167756021,-1.00568068,1.039535713
0.032611114,0.025780935,-1.01458502,1.030047419
0.03283758,-0.115072258,-1.00386775,1.020992084
0.033064046,-0.251296312,-0.971733212,1.007415272
0.033290512,-0.377411813,-0.920891881,0.990481533
0.033516978,-0.491424203,-0.855744362,0.97379616
0.033743444,-0.593255579,-0.779678345,0.959850504
0.033969912,-0.683593452,-0.694946826,0.950251099
0.034196376,-0.76329118,-0.60274148,0.945910717
0.034422844,-0.832887113,-0.503380299,0.947092668
0.034649308,-0.892240107,-0.396655381,0.9534279
0.034875776,-0.940357327,-0.282306254,0.963968723
0.03510224,-0.975482881,-0.160544381,0.977341349
0.035328708,-0.995479047,-0.032459911,0.992032179
0.035555172,-0.998397708,0.099861905,1.006770383
0.03578164,-0.983122766,0.233667627,1.021130933
0.036008104,-0.949317992,0.366748929,1.035709427
0.036234572,-0.895064414,0.496953458,1.048103045
0.036461036,-0.819131076,0.618457139,1.053464952
0.036687504,-0.724633992,0.725655615,1.051670494
0.036913972,-0.615921319,0.815604568,1.044569883
0.037140436,-0.497162163,0.886962652,1.033872962
0.037366904,-0.372154951,0.939467013,1.021097576
0.037593368,-0.244161889,0.973647892,1.007605246
0.037819836,-0.115805581,0.990525961,0.994552612
0.0380463,0.010911777,0.991325855,0.982846018
0.038272768,0.134487942,0.977261782,0.973127597
0.038499232,0.253755242,0.949445426,0.96583834
0.0387257,0.367765725,0.908900559,0.961351855
0.038952164,0.475790143,0.856625795,0.960184013
0.039178632,0.577566803,0.793543994,0.963295482
0.039405096,0.673462272,0.719593763,0.971366616
0.039631564,0.76237911,0.633024693,0.981942169
0.039858028,0.840801775,0.533659756,0.99174036
0.040084496,0.906052828,0.42350477,1.000288017
0.04031096,0.956609905,0.30471617,1.007954455
0.040537428,0.991293073,0.179347813,1.014827595
0.040763892,1.00910366,0.049571056,1.020747486
0.04099036,1.00928533,-0.082230605,1.02541875
0.041216824,0.991413772,-0.213448942,1.028461718
0.041443292,0.955512345,-0.341276616,1.02947357
0.041669756,0.902177513,-0.462794811,1.028103302
0.041896224,0.832709491,-0.575152576,1.024205582
0.042122688,0.749155045,-0.675867379,1.018029995
0.042349156,0.654175222,-0.763229728,1.010464839
0.04257562,0.55046463,-0.836710572,1.00309589
0.042802088,0.439615935,-0.89646405,0.996909963
0.043028556,0.322662622,-0.941502631,0.990538372
0.04325502,0.202197492,-0.970677257,0.983098163
0.043481488,0.081090078,-0.984522462,0.975860079
0.043707952,-0.038886823,-0.984332025,0.97042172
0.04393442,-0.156840414,-0.971211433,0.967850563
0.044160884,-0.272293776,-0.945780218,0.968644121
0.044387352,-0.384805411,-0.908140063,0.972793578
0.044613816,-0.493657857,-0.857988834,0.979842919
0.044840284,-0.597638786,-0.794854343,0.988965545
0.045066748,-0.69495821,-0.718418419,0.999091938
0.045293216,-0.783350229,-0.628858387,1.009100452
0.04551968,-0.860381186,-0.527105391,1.018095878
0.045746148,-0.923920989,-0.414837182,1.025719881
0.045972612,-0.972463608,-0.293970555,1.032104156
0.04619908,-1.00444877,-0.16614306,1.036520848
0.046425544,-1.01762593,-0.033982132,1.036717319
0.046652012,-1.01099777,0.098151527,1.031750213
0.046878476,-0.985723913,0.226097599,1.022771757
0.047104944,-0.944015324,0.346927196,1.011523411
0.047331408,-0.888314128,0.458829343,0.999626356
0.047557876,-0.820911407,0.56084615,0.988443942
0.04778434,-0.743733287,0.652607679,0.979035985
0.048010808,-0.658248425,0.734057963,0.972132082
0.048237272,-0.565495551,0.805195987,0.968125796
0.04846374,-0.466213346,0.865886986,0.967115157
0.048690204,-0.361025125,0.915788531,0.969007774
0.048916672,-0.250586361,0.954408705,0.9736895
0.04914314,-0.135556012,0.981231034,0.981189774
0.049369604,-0.016342418,0.995550454,0.991387781
0.049596072,0.106569991,0.99572134,1.00281815
0.049822536,0.23115246,0.979496121,1.012844111
0.050049004,0.353955507,0.945886672,1.019986097
0.050275468,0.471650809,0.895402074,1.02419936
0.050501936,0.581507921,0.829282641,1.025861161
0.0507284,0.681284308,0.749135792,1.025352743
0.050954868,0.76915288,0.656823397,1.023013128
0.051181332,0.843682468,0.554390907,1.019149385
0.0514078,0.903828323,0.444006145,1.014047094
0.051634264,0.948932827,0.327909559,1.007998189
0.051860732,0.978744864,0.208359212,1.00135507
0.052087196,0.99345839,0.087540463,0.994622905
0.052313664,0.993734241,-0.032610048,0.988571157
0.052540128,0.980565488,-0.150704145,0.984220416
0.052766596,0.954707921,-0.266086251,0.982269107
0.05299306,0.91603595,-0.378110051,0.982089072
0.053219528,0.864311099,-0.485137254,0.982391831
0.053445992,0.800252378,-0.585239768,0.982909455
0.05367246,0.725067317,-0.677084744,0.984166365
0.053898924,0.639827847,-0.759779036,0.986643857
0.054125392,0.545383453,-0.832498014,0.990496054
0.054351856,0.442504793,-0.894283772,0.995553957
0.054578324,0.332070082,-0.943989336,1.001386406
0.054804788,0.215241775,-0.9803316,1.007379068
0.055031256,0.093601473,-1.00203586,1.0128371
0.055257724,-0.030803446,-1.00805354,1.017120792
0.055484188,-0.155547813,-0.997813642,1.019827186
0.055710656,-0.27810055,-0.971403062,1.020963825
0.05593712,-0.396223307,-0.92946887,1.020905289
0.056163588,-0.508067131,-0.872705162,1.019746509
0.056390052,-0.611490428,-0.801686883,1.016622402
0.05661652,-0.703883529,-0.717844725,1.010753072
0.056842984,-0.78332746,-0.623765945,1.002685864
0.057069452,-0.849147677,-0.522246063,0.993792728
0.057295916,-0.901524067,-0.415601462,0.985470219
0.057522384,-0.940999746,-0.305515707,0.978820369
0.057748848,-0.96813339,-0.193119615,0.974577447
0.057975316,-0.983275414,-0.079165533,0.973097721
0.05820178,-0.986462474,0.035747081,0.974386066
0.058428248,-0.977428794,0.150943115,0.978150871
0.058654712,-0.955735266,0.265496284,0.983918175
0.05888118,-0.920963228,0.378169596,0.991185511
0.059107644,-0.872868001,0.487514079,0.999568524
0.059334112,-0.811305821,0.592016339,1.008700481
0.059560576,-0.736000121,0.689870417,1.01761737
0.059787044,-0.646977544,0.778394938,1.024478622
0.060013508,-0.545617402,0.854458094,1.027796984
0.060239976,-0.434583068,0.915706038,1.027379991
0.06046644,-0.316925079,0.960952878,1.023871939
0.060692908,-0.195538267,0.989907205,1.018151488
0.060919372,-0.072981574,1.00287747,1.01108953
0.06114584,0.048573777,1.00056005,1.003479825
0.061372308,0.167342395,0.983871698,0.996006995
0.061598772,0.281882256,0.953824818,0.98923939
0.06182524,0.39103356,0.911448538,0.983645682
0.062051704,0.493865967,0.857751787,0.979641721
0.062278172,0.589671016,0.793696582,0.977666171
0.062504636,0.677980483,0.720089853,0.978186932
0.062731104,0.758442342,0.637337744,0.981434186
0.062957568,0.830278516,0.545360744,0.986780755
0.063184036,0.891825736,0.444301337,0.992756821
0.0634105,0.941147506,0.335304141,0.998187495
0.063636968,0.97685957,0.220220625,1.002751743
0.063863432,0.998166323,0.101027392,1.006542542
0.0640899,1.00461125,-0.020346172,1.00965773
0.064316364,0.995956481,-0.141978085,1.012087089
0.064542832,0.972178876,-0.261902958,1.013724926
0.064769296,0.933516502,-0.378101408,1.014413734
0.064995764,0.880532324,-0.488533586,1.014002238
0.065222228,0.814173281,-0.591224015,1.012423967
0.065448696,0.735787749,-0.684403718,1.009792061
0.06567516,0.647047281,-0.766695201,1.006491715
0.065901628,0.549698174,-0.837237298,1.003134376
0.066128092,0.445209652,-0.895533502,1.000191887
0.06635456,0.334778726,-0.940936923,0.997439088
0.066581024,0.219957948,-0.972538948,0.994213504
0.066807492,0.10286773,-0.989864707,0.990413908
0.067033956,-0.01442743,-0.993213415,0.986681038
0.067260424,-0.130366072,-0.983288705,0.98385199
0.067486888,-0.243851677,-0.96078068,0.982563155
0.06771336,-0.354027182,-0.926172733,0.983131177
0.067939824,-0.460050493,-0.879719794,0.985553372
0.068166288,-0.560921848,-0.821535587,0.98955404
0.068392752,-0.655386567,-0.751748025,0.994656645
0.068619224,-0.741945088,-0.670684814,1.000300633
0.068845688,-0.818966627,-0.579022288,1.005973146
0.069072152,-0.884885371,-0.477821499,1.011335505
0.069298616,-0.938341677,-0.368390381,1.016196576
0.069525088,-0.97805512,-0.252114534,1.020153556
0.069751552,-1.00256681,-0.130704865,1.02222397
0.069978016,-1.01060498,-0.00671577,1.021367527
0.07020448,-1.00189674,0.116701625,1.017416347
0.070430952,-0.977294207,0.23663263,1.011098969
0.070657416,-0.938298523,0.350862503,1.003508614
0.07088388,-0.886600494,0.457888156,0.995721999
0.071110344,-0.823808372,0.556765914,0.988648517
0.071336816,-0.751309514,0.646924734,0.982977597
0.07156328,-0.670227706,0.727983177,0.979164684
0.071789744,-0.581458986,0.799595475,0.977447476
0.072016208,-0.485757321,0.861359596,0.977900529
0.07224268,-0.383821517,0.912794352,0.980512486
0.072469144,-0.276323467,0.953352988,0.985236578
0.072695608,-0.163866654,0.982361555,0.991886505
0.072922072,-0.047084417,0.998771429,0.99976131
0.073148544,0.072840117,1.00107527,1.007457379
0.073375008,0.193724617,0.987924457,1.01352396
0.073601472,0.312774539,0.958866835,1.01725352
0.073827944,0.427275419,0.914379418,1.018654004
0.074054408,0.534901559,0.855530858,1.018052727
0.074280872,0.63373965,0.783721745,1.015845718
0.074507336,0.722252727,0.700550973,1.012420667
0.074733808,0.799248517,0.607735574,1.00814072
0.074960272,0.863856614,0.507055223,1.003353249
0.075186736,0.915516794,0.40030551,0.998415501
0.0754132,0.953980386,0.289242536,0.993739822
0.075639672,0.979300559,0.175492793,0.989827305
0.075866136,0.991766274,0.060415123,0.987250329
0.0760926,0.99166584,-0.055004701,0.986426655
0.076319064,0.978940547,-0.169972435,0.987215223
0.076545536,0.953181207,-0.2833516,0.988842543
0.076772,0.914204776,-0.393444926,0.990569282
0.076998464,0.862424254,-0.49843505,0.992213093
0.077224928,0.798640728,-0.596779704,0.993973028
0.0774514,0.723750114,-0.687211096,0.996073318
0.077677864,0.638644278,-0.768583834,0.998587624
0.077904328,0.544252276,-0.839762449,1.001411511
0.078130792,0.441632897,-0.899590492,1.004302669
0.078357264,0.332065493,-0.946931124,1.006946045
0.078583728,0.217104241,-0.9807657,1.00903561
0.078810192,0.09856391,-1.00032973,1.010374413
0.079036656,-0.021592761,-1.00523388,1.010961401
0.079263128,-0.141451031,-0.995471537,1.010971975
0.079489592,-0.259276092,-0.971236587,1.0105246
0.079716056,-0.373343319,-0.932704747,1.009323379
0.079942528,-0.481612056,-0.880238414,1.006769838
0.080168992,-0.581905067,-0.81487745,1.002638766
0.080395456,-0.672505796,-0.738342643,0.997413904
0.08062192,-0.752423823,-0.652557671,0.991973123
0.080848392,-0.821239173,-0.55925405,0.987198872
0.081074856,-0.878822327,-0.459824234,0.983767009
0.08130132,-0.925102174,-0.355348021,0.982086248
0.081527784,-0.959912896,-0.246703833,0.982295549
0.081754256,-0.982933521,-0.1347159,0.98430668
0.08198072,-0.993708611,-0.020294653,0.987868677
0.082207184,-0.991740763,0.095475204,0.992665256
0.082433648,-0.976591885,0.211333305,0.998393476
0.08266012,-0.947907805,0.325902253,1.004741485
0.082886584,-0.905328214,0.43765378,1.011160006
0.083113048,-0.848523974,0.544641078,1.016626838
0.083339512,-0.777667701,0.644337773,1.019938219
0.083565984,-0.693921924,0.73409009,1.020415897
0.083792448,-0.599308908,0.811786771,1.018168929
0.084018912,-0.496211261,0.876117408,1.013807328
0.084245376,-0.386986285,0.926468968,1.008103133
0.084471848,-0.273781091,0.962735832,1.001816368
0.084698312,-0.158463061,0.985143721,0.995618693
0.084924776,-0.042617206,0.994108915,0.990068761
0.08515124,0.072420634,0.990136504,0.985615045
0.085377712,0.185517803,0.973755956,0.982617517
0.085604176,0.295711994,0.945482492,0.981382726
0.08583064,0.40219751,0.905764341,0.982171878
0.086057112,0.504277468,0.854864538,0.985089143
0.086283576,0.601143837,0.792738318,0.989807954
0.08651004,0.691494524,0.719190836,0.995400135
0.086736504,0.77344501,0.634424686,1.000711866
0.086962976,0.844994664,0.539412558,1.00498189
0.08718944,0.904509723,0.435722828,1.007992222
0.087415904,0.950830758,0.3251791,1.009820577
0.087642368,0.983184099,0.209676892,1.010615372
0.08786884,1.00109601,0.091130398,1.010497971
0.088095304,1.00436294,-0.028536189,1.009559229
0.088321768,0.993052304,-0.147404909,1.007881086
0.088548232,0.967520237,-0.263599485,1.005580097
0.088774704,0.928420424,-0.375355512,1.002856244
0.089001168,0.876674831,-0.481119752,1.000034975
0.089227632,0.8133623,-0.579647183,0.997549088
0.089454096,0.739512563,-0.669996381,0.995773981
0.089680568,0.655952275,-0.751300931,0.994726476
0.089907032,0.56348002,-0.822470784,0.993967923
0.090133496,0.463270873,-0.8822698,0.993019902
0.09035996,0.3569372,-0.92974484,0.991829632
0.090586432,0.246193752,-0.964434206,0.990744701
0.090812896,0.132578254,-0.986221313,0.990209472
0.09103936,0.017410182,-0.995107353,0.990541758
0.091265824,-0.098111786,-0.991076589,0.991858728
0.091492296,-0.212785065,-0.974063635,0.994077449
0.09171876,-0.325299054,-0.944005191,0.996965275
0.091945224,-0.434191108,-0.900939584,1.000214052
0.092171696,-0.537872791,-0.84511435,1.003525404
0.09239816,-0.634726167,-0.777054787,1.006691449
0.092624624,-0.723217785,-0.697534025,1.009597681
0.092851088,-0.801913083,-0.607460082,1.012072344
0.09307756,-0.86932373,-0.507860005,1.013645532
