Frequency (GHz),Re( S21 ),Im( S21 ),S2
0,0.021686344,0,0.000470297
0.000226534,0.019635417,-0.00925212,0.000471151
0.000453067,0.01382889,-0.016804894,0.000473643
0.000679601,0.005275218,-0.021207092,0.000477569
0.000906135,-0.004463687,-0.021510158,0.000482611
0.001132668,-0.013492958,-0.017501328,0.000488356
0.001359202,-0.019936025,-0.00984401,0.00049435
0.001585735,-0.022365006,-3.11E-05,0.000500194
0.001812269,-0.020187492,0.00990409,0.000505626
0.002038803,-0.0138313,0.017868798,0.000510599
0.002265336,-0.004637552,0.022221869,0.000515318
0.00249187,0.005494251,0.0221371,0.000520238
0.002718404,0.01456393,0.017715121,0.000525934
0.002944937,0.020871094,0.009869279,0.000533005
0.003171471,0.023280639,8.11E-05,0.000541995
0.003398004,0.021325046,-0.009879633,0.000552365
0.003624538,0.015317027,-0.018215112,0.000566402
0.003851072,0.006185026,-0.023334807,0.000582768
0.004077605,-0.004502114,-0.024113964,0.000601752
0.004304139,-0.014756164,-0.020133322,0.000623095
0.004530673,-0.022473531,-0.011880942,0.000646216
0.004757206,-0.025878053,-0.000807044,0.000670325
0.00498374,-0.024003709,0.010877153,0.00069449
0.005210274,-0.017039141,0.020677874,0.000717907
0.005436807,-0.00635289,0.02645281,0.00074011
0.005663341,0.00584849,0.026960183,0.000761056
0.005889874,0.017089052,0.022118727,0.000781274
0.006116408,0.02519236,0.012923606,0.000801675
0.006342942,0.028673228,0.00113101,0.000823433
0.006569475,0.026904507,-0.011130075,0.000847731
0.006796009,0.020141183,-0.021713998,0.000877165
0.007022543,0.009393798,-0.028689519,0.000911332
0.007249076,-0.003636059,-0.030645631,0.000952376
0.00747561,-0.016729942,-0.026859505,0.001001324
0.007702143,-0.0274009,-0.017547827,0.001058736
0.007928677,-0.033290204,-0.00403101,0.001124487
0.008155211,-0.032710325,0.011294177,0.001197524
0.008381744,-0.025206864,0.025305973,0.001275778
0.008608278,-0.011899365,0.034854528,0.001356433
0.008834811,0.004634412,0.037617017,0.001436518
0.009061345,0.020974116,0.032768048,0.001513659
0.009287878,0.033737935,0.02117591,0.001586667
0.009514412,0.040372051,0.005092963,0.001655841
0.009740946,0.039597258,-0.012453366,0.001723029
0.009967479,0.031493217,-0.028307127,0.001793116
0.010194013,0.017391972,-0.039606657,0.001871168
0.010420547,-0.000597519,-0.044205178,0.001954455
0.01064708,-0.019536581,-0.040931992,0.002057106
0.010873614,-0.03612702,-0.029686244,0.002186435
0.011100147,-0.047054268,-0.011703207,0.002351069
0.011326681,-0.049523223,0.010352975,0.002559734
0.011553215,-0.041953314,0.032547206,0.002819401
0.011779748,-0.024659643,0.050246619,0.003132821
0.012006282,-0.000214689,0.05912998,0.003496401
0.012232816,0.026821304,0.056390647,0.003899287
0.012459349,0.050875686,0.041667629,0.004324527
0.012685883,0.066736661,0.017277276,0.004752286
0.012912416,0.070794724,-0.012339696,0.005164161
0.01313895,0.061749406,-0.041664295,0.005548903
0.013365484,0.040726572,-0.065189689,0.005908349
0.013592017,0.01088201,-0.078176916,0.006230048
0.013818551,-0.023178471,-0.077495679,0.006542822
0.014045085,-0.05564335,-0.061842457,0.006920672
0.014271618,-0.080238991,-0.032030311,0.007464236
0.014498152,-0.090888254,0.008638461,0.008335298
0.014724685,-0.082677633,0.054222409,0.009775661
0.014951219,-0.053113923,0.096427806,0.01211941
0.015177753,-0.003396258,0.125620246,0.015791981
0.015404286,0.060812786,0.132635757,0.021290439
0.01563082,0.129681379,0.111048199,0.029148963
0.015857354,0.190802276,0.059124302,0.039901192
0.016083887,0.231691822,-0.019350769,0.054055553
0.016310421,0.242304981,-0.115688652,0.072095568
0.016536954,0.216715202,-0.217988625,0.094484519
0.016763488,0.153648496,-0.313160479,0.121677346
0.016990022,0.056223527,-0.388637245,0.154199993
0.017216556,-0.068588495,-0.433801532,0.192888151
0.017443088,-0.212024465,-0.440279305,0.23880024
0.017669622,-0.362237632,-0.401336849,0.292287368
0.017896156,-0.505100608,-0.313983142,0.353712038
0.01812269,-0.625162959,-0.179453313,0.423032217
0.018349224,-0.706809044,-0.004049195,0.499595421
0.018575756,-0.736126661,0.200350389,0.582022739
0.01880229,-0.703307867,0.416653454,0.668242057
0.019028824,-0.605093777,0.624149501,0.755701079
0.019255358,-0.446398824,0.800777733,0.840516888
0.019481892,-0.237760291,0.92638725,0.914723293
0.019708426,0.003741815,0.990174949,0.980460431
0.019934958,0.255951226,0.986276507,1.038252378
0.020161492,0.498383671,0.915628314,1.086761493
0.020388026,0.713402927,0.785411537,1.125815019
0.02061456,0.887349248,0.606944561,1.155770388
0.020841094,1.01091373,0.393853724,1.177067325
0.021067626,1.07896447,0.16070196,1.189989447
0.02129416,1.09018826,-0.077965334,1.194589036
0.021520694,1.04676986,-0.308352351,1.190808312
0.021747228,0.954205751,-0.518169761,1.179008516
0.021973762,0.821191788,-0.697174311,1.160407973
0.022200294,0.658251822,-0.837952614,1.135460044
0.022426828,0.476550192,-0.938095808,1.10712383
0.022653362,0.313050777,-0.966637075,1.032388024
0.022879896,0.119255111,-1.00001597,1.014253722
0.02310643,-0.054776512,-0.985053122,0.973330119
0.023332964,-0.211914524,-0.944644153,0.937260341
0.023559496,-0.35217309,-0.885668933,0.908435344
0.02378603,-0.476922214,-0.813143075,0.888656459
0.024012564,-0.588371634,-0.729932606,0.878982789
0.024239098,-0.688559294,-0.636839926,0.879678993
0.024465632,-0.778470874,-0.533098876,0.890211313
0.024692164,-0.857453406,-0.417148829,0.909239489
0.024918698,-0.922924757,-0.287540972,0.934469918
0.025145232,-0.97004807,-0.144329444,0.961824247
0.025371766,-1.00153947,0.015549128,1.003323085
0.0255983,-1.00304496,0.180709049,1.038754952
0.025824832,-0.96566695,0.327704191,1.039902695
0.026051366,-0.914233327,0.48458758,1.070647699
0.0262779,-0.828161299,0.637555003,1.092327519
0.026504434,-0.712116182,0.768672407,1.097966726
0.026730968,-0.575263679,0.873788714,1.094435017
0.0269575,-0.424583226,0.950660825,1.08402692
0.027184034,-0.266770929,0.998704612,1.068577631
0.027410568,-0.107813351,1.01895523,1.049893479
0.027637102,0.04738836,1.01360941,1.029649693
0.027863636,0.195129931,0.985492051,1.009270273
0.02809017,0.332789272,0.937591136,0.989825838
0.028316702,0.458525926,0.872770548,0.971974454
0.028543236,0.570975125,0.793873429,0.956247615
0.02876977,0.669566929,0.703845918,0.943718949
0.028996304,0.754474282,0.605206788,0.935506698
0.029222838,0.826931357,0.50045675,0.934272428
0.02944937,0.890433192,0.388216197,0.943583085
0.029675904,0.940250695,0.264581949,0.954074977
0.029902438,0.972547054,0.134068444,0.96382212
0.030128972,0.987373888,-0.00056578,0.974907515
0.030355506,0.984211802,-0.137551129,0.987593184
0.030582038,0.96222508,-0.274839133,1.001413654
0.030808572,0.920644641,-0.40989548,1.01560086
0.031035106,0.859030962,-0.539673448,1.029181624
0.03126164,0.777527332,-0.660654902,1.041013652
0.031488174,0.677128971,-0.768978,1.049830808
0.031714708,0.559978545,-0.860714138,1.054404798
0.03194124,0.429559767,-0.932417333,1.053923676
0.032167774,0.290474147,-0.981845915,1.048396631
0.032394308,0.147861809,-1.00853515,1.039006263
0.032620842,0.005921524,-1.01440787,1.029058391
0.032847376,-0.134476826,-1.00070798,1.019500478
0.033073908,-0.269622236,-0.965759039,1.005386672
0.033300442,-0.394216448,-0.912563443,0.988178645
0.033526976,-0.50650996,-0.845536411,0.971484162
0.033753508,-0.606577933,-0.767994404,0.957752193
0.033980044,-0.695196688,-0.682089269,0.948544206
0.034206576,-0.773251116,-0.588904202,0.944725448
0.034433112,-0.841255784,-0.488663137,0.946502956
0.034659644,-0.899008334,-0.381098032,0.953451695
0.034886176,-0.94543457,-0.265936047,0.964568507
0.035112712,-0.97870326,-0.143425941,0.978431072
0.035339244,-0.996632755,-0.014734471,0.993493953
0.03556578,-0.997278273,0.117959343,1.00847836
0.035792312,-0.979579389,0.251831353,1.02299481
0.036018844,-0.943222344,0.384675086,1.037643312
0.03624538,-0.886229157,0.514183581,1.049786874
0.036471912,-0.807630539,0.634340584,1.054655064
0.036698448,-0.710795581,0.739663124,1.052331895
0.03692498,-0.600165546,0.827354908,1.044714826
0.037151512,-0.479955673,0.896200001,1.03353189
0.037378048,-0.353979826,0.946056366,1.020324365
0.03760458,-0.225483716,0.977562129,1.006470622
0.037831116,-0.097049564,0.991829336,0.99314405
0.038057648,0.029376434,0.990150928,0.981261835
0.038284184,0.152355626,0.973788321,0.971475931
0.038510716,0.270786375,0.943878174,0.964231268
0.038737248,0.383784771,0.901453197,0.959908617
0.038963784,0.490685225,0.847503722,0.959034549
0.039190316,0.591297746,0.78291291,0.962585649
0.039416852,0.686012328,0.707491934,0.971157751
0.039643384,0.773572385,0.619426548,0.982103483
0.039869916,0.850391626,0.518679261,0.992194093
0.040096452,0.91385299,0.407312661,1.001030891
0.040322984,0.962448239,0.287486941,1.008955354
0.04054952,0.994989455,0.161282375,1.01601602
0.040776052,1.01048017,0.030919306,1.022026177
0.041002584,1.00818586,-0.10116066,1.026672207
0.04122912,0.987730682,-0.232289061,1.029570108
0.041455652,0.949210227,-0.359608948,1.030318651
0.041682188,0.89332056,-0.480175167,1.028589814
0.04190872,0.821472704,-0.591145873,1.024270847
0.042135252,0.735824347,-0.690090954,1.017662994
0.042361788,0.639119089,-0.775403559,1.009723889
0.04258832,0.534061253,-0.846684515,1.00209609
0.042814856,0.422177702,-0.904140472,0.995704005
0.043041388,0.304540604,-0.946763396,0.989105907
0.04326792,0.18380864,-0.973528326,0.981543018
0.043494456,0.06277319,-0.985100925,0.974364306
0.043720988,-0.056905843,-0.982808292,0.969150414
0.043947524,-0.174419597,-0.967731357,0.966926175
0.044174056,-0.28933692,-0.940440178,0.968143582
0.044400588,-0.40122208,-0.900980115,0.972744325
0.044627124,-0.509329498,-0.849004507,0.98022519
0.044853656,-0.612392247,-0.784022689,0.989715841
0.045080192,-0.708557069,-0.705733478,1.000112862
0.045306724,-0.795505047,-0.614369333,1.010277957
0.045533256,-0.87078023,-0.510942221,1.019320162
0.045759792,-0.93227309,-0.39721024,1.026909089
0.045986324,-0.978513598,-0.2751306,1.033185709
0.04621286,-1.00791931,-0.146389082,1.037331099
0.046439392,-1.01827347,-0.013776681,1.037070657
0.046665928,-1.0087719,0.118251763,1.031604226
0.04689246,-0.980750263,0.245586127,1.022183624
0.047118992,-0.936520636,0.365391999,1.010582215
0.047345528,-0.878578544,0.475954264,0.998432719
0.04757206,-0.809234023,0.576405048,0.987102483
0.047798596,-0.730405867,0.666451693,0.97765059
0.048025128,-0.643537581,0.746095061,0.970798458
0.04825166,-0.549634993,0.815371573,0.966929428
0.048478196,-0.449405998,0.874163926,0.966128321
0.048704728,-0.343448877,0.92213577,0.968291509
0.048931264,-0.232400447,0.958795846,0.973299442
0.049157796,-0.116895847,0.983622909,0.981178666
0.049384328,0.002686353,0.995866299,0.991756902
0.049610864,0.125807777,0.99378705,1.003440298
0.049837396,0.250292033,0.975149035,1.013561742
0.050063932,0.372621208,0.939080596,1.02071893
0.050290464,0.489475876,0.886181653,1.024904555
0.050516996,0.598141611,0.817753017,1.026493384
0.050743532,0.696391761,0.735457659,1.025859453
0.050970064,0.782421887,0.641213894,1.023339267
0.0511966,0.854835629,0.537123382,1.01924548
0.051423132,0.912636757,0.425405025,1.013875286
0.051649664,0.955230713,0.308340043,1.007539297
0.0518762,0.982442856,0.188211724,1.000617618
0.052102732,0.994552076,0.06720648,0.993650543
0.052329268,0.992302477,-0.052772131,0.987449104
0.0525558,0.976742566,-0.170406997,0.983064585
0.052782332,0.948614419,-0.28511408,0.981159355
0.053008868,0.907754838,-0.39623633,0.981022075
0.0532354,0.853976786,-0.502103925,0.981384703
0.053461936,0.788060606,-0.600839436,0.982047547
0.053688468,0.711209357,-0.691176713,0.983543998
0.053915,0.624461114,-0.772250831,0.986323029
0.054141536,0.528638542,-0.843230367,0.99049616
0.054368068,0.42450574,-0.903131485,0.995851602
0.054594604,0.312961489,-0.950777173,1.001922126
0.054821136,0.195213035,-0.984864056,1.008065338
0.055047672,0.072905645,-1.00411844,1.013569075
0.055274204,-0.05184456,-1.00752473,1.01779394
0.055500736,-0.176556334,-0.994576752,1.020355055
0.055727272,-0.298675627,-0.965446115,1.021293331
0.055953804,-0.415979445,-0.920852363,1.021007973
0.05618034,-0.526625633,-0.861523688,1.019557622
0.056406872,-0.628433704,-0.788105488,1.016039181
0.056633404,-0.718821287,-0.702175856,1.009754975
0.05685994,-0.795998633,-0.606417596,1.001356124
0.057086472,-0.859427035,-0.503632188,0.992260209
0.057313008,-0.909383595,-0.396092296,0.98386763
0.05753954,-0.946468532,-0.285422117,0.977268467
0.057766072,-0.971264303,-0.172693953,0.973177548
0.057992608,-0.984118581,-0.058613688,0.971924946
0.05821914,-0.985050678,0.056246337,0.973488489
0.058445676,-0.973774135,0.171215937,0.977550963
0.058672208,-0.949835598,0.285355687,0.983615531
0.05889874,-0.91281724,0.397407591,0.991168107
0.059125276,-0.862483859,0.505905986,0.999819274
0.059351808,-0.798689067,0.609317183,1.009171655
0.059578344,-0.721158862,0.705768883,1.01817982
0.059804876,-0.630008996,0.792489469,1.024950894
0.060031408,-0.526776969,0.866350472,1.028057115
0.060257944,-0.414234787,0.925092757,1.027387068
0.060484476,-0.295475751,0.967632413,1.023618406
0.060711012,-0.173406556,0.993767202,1.017643085
0.060937544,-0.050581135,1.00388348,1.010340493
0.061164076,0.070847251,0.998744786,1.00251048
0.061390612,0.189120606,0.979326665,0.99484732
0.061617144,0.302832097,0.946689725,0.987928714
0.06184368,0.410862774,0.90190202,0.982235473
0.062070212,0.512330055,0.846001744,0.978201036
0.062296744,0.606578946,0.779963017,0.976280326
0.06252328,0.693194389,0.704578996,0.976950023
0.062749812,0.77184695,0.620209575,0.980407631
0.062976348,0.841716409,0.526743352,0.985945072
0.06320288,0.901088536,0.424373835,0.992053702
0.063429416,0.948053777,0.314321309,0.997603849
0.063655948,0.981285095,0.198463663,1.002308263
0.06388248,1.00002301,0.078776486,1.006251755
0.064109016,1.00383019,-0.042807128,1.009507501
0.064335548,0.992486537,-0.164348185,1.012039852
0.064562084,0.965996027,-0.28385821,1.013723808
0.064788616,0.924638212,-0.399292052,1.014389966
0.065015148,0.869034052,-0.508591712,1.013885713
0.065241684,0.800200939,-0.609782159,1.012155824
0.065468216,0.719562054,-0.701120913,1.009340084
0.065694752,0.628849447,-0.781283617,1.005855717
0.065921284,0.529837549,-0.8494789,1.00234223
0.066147816,0.423990637,-0.905254543,0.999253848
0.066374352,0.312523961,-0.947971642,0.99632146
0.066600884,0.197053626,-0.976765454,0.992900884
0.06682742,0.079724282,-0.991268575,0.988969349
0.067053952,-0.037446473,-0.991874158,0.985216584
0.067280488,-0.152968273,-0.979325533,0.982477792
0.067507016,-0.265801698,-0.954315186,0.981368017
0.067733552,-0.375121862,-0.917308033,0.982170439
0.067960088,-0.480093002,-0.868538141,0.984847793
0.068186624,-0.579699814,-0.808108449,0.98909114
0.068413152,-0.672661364,-0.736155927,0.994398859
0.068639688,-0.757450759,-0.653038979,1.00019156
0.068866224,-0.832425714,-0.559482217,1.00595292
0.069092752,-0.896028578,-0.456598759,1.011349639
0.069319288,-0.946917355,-0.345736682,1.01618633
0.069545824,-0.983812094,-0.22832334,1.020017784
0.069772352,-1.00525987,-0.106160209,1.021817396
0.069998888,-1.01007938,0.018085577,1.020587442
0.070225424,-0.998151839,0.141224906,1.016251568
0.07045196,-0.970465302,0.260388523,1.009605085
0.070678488,-0.928606093,0.373440713,1.001767242
0.070905024,-0.874310911,0.478960663,0.993822886
0.07113156,-0.809205353,0.576080024,0.986681497
0.071358088,-0.734674037,0.664289653,0.981026684
0.071584624,-0.651827335,0.743254423,0.977306012
0.07181116,-0.561543643,0.812661707,0.975750313
0.072037688,-0.464559674,0.872129917,0.976426283
0.072264224,-0.36155811,0.921191216,0.979317523
0.07249076,-0.253191203,0.959303617,0.984369215
0.072717296,-0.140043437,0.985773623,0.9913618
0.072943824,-0.022764232,0.999499738,0.999517937
0.07317036,0.097376525,0.998943865,1.007371033
0.073396896,0.218094364,0.982812703,1.013485961
0.073623424,0.336554259,0.950756192,1.017206106
0.07384996,0.450050116,0.903338909,1.018566291
0.074076496,0.556278706,0.841693759,1.017894383
0.074303024,0.653350532,0.767275512,1.015578629
0.07452956,0.739757121,0.681735635,1.012004074
0.074756096,0.814341247,0.586840868,1.007533871
0.074982632,0.876277804,0.484417737,1.002523334
0.07520916,0.925064564,0.376300186,0.997346278
0.075435696,0.96052134,0.264268339,0.992439
0.075662232,0.982774556,0.149949566,0.9883307
0.07588876,0.99217689,0.034676783,0.98561746
0.076115296,0.989043653,-0.080604501,0.984704433
0.076341832,0.973311484,-0.195108876,0.985402718
0.076568368,0.944595635,-0.307664514,0.986918367
0.076794896,0.90279001,-0.41656211,0.988553794
0.077021432,0.848378718,-0.52002883,0.990176433
0.077247968,0.782190979,-0.616584063,0.991998634
0.077474496,0.705121398,-0.705002308,0.99422444
0.077701032,0.618056655,-0.784157693,0.996897316
0.077927568,0.521929383,-0.852918863,0.999880868
0.078154096,0.417818487,-0.910128891,1.002906886
0.078380632,0.307037473,-0.954655647,1.005639414
0.078607168,0.191185191,-0.985501111,1.007764217
0.078833704,0.072118789,-1.00194263,1.009090154
0.079060232,-0.04817136,-1.00364721,1.009628202
0.079286768,-0.1677645,-0.990666091,1.009564231
0.079513304,-0.284926623,-0.96323055,1.008996273
0.079739832,-0.397904307,-0.921554625,1.007590764
0.079966368,-0.504623532,-0.866091192,1.004758862
0.080192904,-0.60293901,-0.798006773,1.00035026
0.080419432,-0.691233039,-0.71910876,0.994920523
0.080645968,-0.768624306,-0.631345272,0.989380176
0.080872504,-0.834777951,-0.536429107,0.984610414
0.08109904,-0.889620125,-0.435719222,0.981275207
0.081325568,-0.933108568,-0.330260068,0.979763312
0.081552104,-0.965087175,-0.220903784,0.980191737
0.08177864,-0.985234678,-0.108462654,0.982451518
0.082005168,-0.993095219,0.006150939,0.986275948
0.082231704,-0.988175809,0.121841088,0.99133668
0.08245824,-0.970047593,0.237335607,0.997320523
0.082684768,-0.938361824,0.351241767,1.003893692
0.082911304,-0.892757297,0.461993486,1.010453572
0.08313784,-0.832937777,0.567566812,1.015917426
0.083364376,-0.759185374,0.66537106,1.01908108
0.083590904,-0.672804594,0.752768695,1.01932673
0.08381744,-0.575923085,0.827729762,1.016823959
0.084043976,-0.470976979,0.889038086,1.012208033
0.084270504,-0.360346198,0.936168194,1.00626027
0.08449704,-0.246182591,0.969090223,0.999741728
0.084723576,-0.130348012,0.98809725,0.99332678
0.084950112,-0.014415227,0.993665278,0.987578483
0.08517664,0.100300379,0.986353755,0.982953896
0.085403176,0.212692693,0.966740072,0.979824548
0.085629712,0.321834952,0.935380042,0.978513559
0.08585624,0.426964968,0.89274472,0.979292219
0.086082776,0.52742064,0.839093804,0.982250943
0.086309312,0.622392893,0.774366736,0.987016755
0.08653584,0.710540295,0.698388636,0.992614198
0.086762376,0.789962649,0.611440957,0.997901031
0.086988912,0.858705938,0.514576733,1.002165102
0.087215448,0.91520983,0.409403652,1.005220383
0.087441976,0.958377779,0.297751814,1.00714411
0.087668512,0.987480342,0.181513816,1.008064691
0.087895048,1.00207961,0.062604621,1.008082883
0.088121576,1.0020057,-0.05704657,1.007269734
0.088348112,0.987364292,-0.17551361,1.005693272
0.088574648,0.958557069,-0.290915906,1.003463719
0.088801176,0.916290104,-0.401494861,1.000785678
0.089027712,0.861537218,-0.505717695,0.997996765
0.089254248,0.795413971,-0.602374375,0.995538273
0.089480784,0.71896404,-0.690550208,0.993768881
0.089707312,0.633028209,-0.769375443,0.992663286
0.089933848,0.538461626,-0.837746382,0.991759923
0.090160384,0.436528891,-0.894461274,0.990618443
0.090386912,0.328900367,-0.9386549,0.989248473
0.090613448,0.217296094,-0.969957411,0.988034972
0.090839984,0.103231087,-0.988317788,0.987428707
0.091066512,-0.01200044,-0.993776023,0.987734794
0.091293048,-0.127214998,-0.986340702,0.989051636
0.091519584,-0.241213158,-0.96596849,0.991278911
0.09174612,-0.352680027,-0.932625413,0.994173362
0.091972648,-0.460147589,-0.886387169,0.997418017
0.092199184,-0.562030077,-0.827550948,1.000718379
0.09242572,-0.656727195,-0.756692946,1.003874823
0.092652248,-0.742733836,-0.67462647,1.006774425
0.092878784,-0.818634272,-0.582286239,1.009219335
0.09310532,-0.882941365,-0.480743945,1.010700195
