Frequency (GHz),Re( S21 ),Im( S21 ),S2
0,0.022522612,0,0.000507268
0.000226512,0.020403843,-0.009586344,0.000508215
0.000453024,0.014402931,-0.017422387,0.000510984
0.000679536,0.005554766,-0.02201074,0.000515328
0.000906048,-0.004534982,-0.022367075,0.000520852
0.00113256,-0.013912826,-0.018261861,0.000527062
0.001359072,-0.020637834,-0.010368491,0.000533426
0.001585583,-0.023225542,-0.000219375,0.000539474
0.001812095,-0.021049824,0.010089351,0.00054489
0.002038607,-0.014538568,0.018392319,0.000549647
0.002265119,-0.005065618,0.022985742,0.000554005
0.002491631,0.005414607,0.023003699,0.000558488
0.002718143,0.014839169,0.018535549,0.000563767
0.002944655,0.021450151,0.010508796,0.000570544
0.003171167,0.024067236,0.000437288,0.000579423
0.003397679,0.022192983,-0.009866216,0.000589871
0.003624191,0.016127477,-0.018551786,0.000604264
0.003850703,0.006802078,-0.023977144,0.000621172
0.004077215,-0.004191341,-0.02496583,0.00064086
0.004303727,-0.014820593,-0.02105519,0.000662971
0.004530239,-0.022919657,-0.012709842,0.000686851
0.004756751,-0.0266394,-0.001385204,0.000711576
0.004983262,-0.024947543,0.01066634,0.000736151
0.005209774,-0.01799134,0.020880848,0.000759698
0.005436286,-0.007136566,0.027033707,0.000781752
0.005662798,0.005374313,0.027811272,0.00080235
0.00588931,0.017003277,0.023086757,0.00082211
0.006115822,0.025503738,0.0138422,0.000842047
0.006342334,0.029326158,0.001849166,0.000863443
0.006568846,0.027793627,-0.010728233,0.000887581
0.006795358,0.021128612,-0.021697706,0.000917209
0.00702187,0.010323023,-0.029072078,0.000951751
0.007248382,-0.002920081,-0.031383447,0.000993448
0.007474894,-0.016361214,-0.02784922,0.001043268
0.007701405,-0.027468117,-0.018633436,0.001101702
0.007927917,-0.033812992,-0.005021838,0.001168537
0.008154429,-0.033621773,0.010590844,0.00124259
0.008380941,-0.02635495,0.025041996,0.001321685
0.008607453,-0.013072926,0.035100121,0.00140292
0.008833965,0.003659479,0.038339235,0.001483289
0.009060477,0.020382628,0.033837847,0.001560451
0.009286989,0.033638094,0.022400033,0.001633283
0.009513501,0.040780686,0.006257002,0.001702214
0.009740012,0.040445812,-0.011546462,0.001769184
0.009966524,0.032646734,-0.027809924,0.001839201
0.010193036,0.018672213,-0.039609872,0.001917593
0.010419548,0.000605757,-0.044728506,0.002001006
0.01064606,-0.01861305,-0.041922208,0.002103917
0.010872572,-0.035661288,-0.031012816,0.002233522
0.011099084,-0.047169935,-0.013165067,0.002398322
0.011325596,-0.050257668,0.009007505,0.002606968
0.011552108,-0.043231633,0.031582195,0.002866409
0.01177862,-0.02628853,0.04988372,0.003179472
0.012005132,-0.001907681,0.059490278,0.003542732
0.012231644,0.025387742,0.057454646,0.003945574
0.012458155,0.049989305,0.043270543,0.004371271
0.012684667,0.066586025,0.019143453,0.004800171
0.012911179,0.071434557,-0.010538726,0.005213961
0.013137691,0.063097842,-0.040248998,0.005601319
0.013364203,0.0425855,-0.06442453,0.005964045
0.013590715,0.012967757,-0.078234516,0.006288802
0.013817227,-0.021206418,-0.0784389,0.006602373
0.014043739,-0.054141939,-0.063610189,0.006977606
0.014270251,-0.079543233,-0.034424901,0.0075122
0.014496763,-0.091261692,0.005950599,0.008364106
0.014723275,-0.084252514,0.051690791,0.009770424
0.014949787,-0.055833653,0.094566226,0.012060168
0.015176298,-0.006980165,0.124921098,0.015654003
0.01540281,0.056858219,0.133463636,0.021045399
0.015629322,0.125993907,0.11354287,0.028766448
0.015855834,0.188049063,0.063149519,0.039350312
0.016082346,0.23044461,-0.014191431,0.053306115
0.016308858,0.242945611,-0.109982528,0.071118726
0.01653537,0.219390348,-0.212416381,0.093252844
0.016761882,0.15826951,-0.308405966,0.120163478
0.016988394,0.062487938,-0.385318935,0.152375424
0.017214906,-0.061144222,-0.43238911,0.190698958
0.017441418,-0.203961894,-0.441167027,0.2362288
0.01766793,-0.354271024,-0.404731154,0.289315265
0.017894442,-0.498006552,-0.319876581,0.350331553
0.018120954,-0.619726658,-0.187597334,0.41925389
0.018347466,-0.703748345,-0.013937279,0.495455981
0.018573978,-0.735994279,0.189469665,0.577586333
0.01880049,-0.7063936,0.405717582,0.663598674
0.019027002,-0.611348748,0.614174604,0.750957736
0.019253514,-0.4554075,0.792729259,0.835815669
0.019480024,-0.248820454,0.921053588,0.91025133
0.019706536,-0.008461141,0.988031626,0.976278085
0.019933048,0.243592441,0.987474024,1.034442225
0.02015956,0.486811399,0.920004845,1.083394253
0.020386072,0.703425884,0.792549372,1.122942481
0.020612584,0.879590154,0.61624372,1.153435161
0.020839096,1.00578403,0.404601336,1.175303756
0.021065608,1.07665837,0.172134832,1.188823646
0.02129212,1.09068918,-0.066604316,1.194039022
0.021518632,1.04986405,-0.297762215,1.19087686
0.021745144,0.959506571,-0.508936703,1.179669427
0.021971656,0.8281703,-0.689729333,1.161592599
0.022198168,0.666308284,-0.83254081,1.13709093
0.02242468,0.485091507,-0.934744,1.109060116
0.022651192,0.320891768,-0.9645105,1.033252031
0.022877704,0.127176464,-1.00015223,1.016478336
0.023104216,-0.047638886,-0.986509383,0.975470226
0.023330728,-0.205651268,-0.947034955,0.93916765
0.02355724,-0.346759349,-0.888681948,0.909997651
0.023783752,-0.472254962,-0.816559196,0.88979367
0.024010264,-0.584318876,-0.733633637,0.879646862
0.024236776,-0.685005426,-0.640798092,0.879854628
0.024463288,-0.775350034,-0.537350237,0.889912952
0.0246898,-0.854770422,-0.421759278,0.908513363
0.02491631,-0.920760274,-0.292565674,0.933394156
0.025142822,-0.968536854,-0.149757862,0.960491055
0.025369334,-1.00082707,0.009679813,1.001748523
0.025595846,-1.00331712,0.174586371,1.037125644
0.025822358,-0.966917694,0.321699232,1.038420223
0.02604887,-0.916518748,0.478689462,1.069150216
0.026275382,-0.831627548,0.632117152,1.091176472
0.026501894,-0.716558158,0.764004707,1.097158786
0.026728406,-0.580457389,0.870079935,1.093969874
0.026954918,-0.430277109,0.948030472,1.083900166
0.02718143,-0.272702873,0.997197449,1.068769609
0.027407942,-0.1137335,1.01854455,1.050368309
0.027634454,0.041698858,1.01421022,1.030361165
0.027860966,0.189846933,0.986974776,1.010161066
0.028087478,0.328038752,0.939799726,0.990832948
0.02831399,0.45438233,0.875536382,0.973027258
0.028540502,0.567459464,0.797029018,0.957265499
0.028767014,0.66665107,0.707248688,0.944624356
0.028993526,0.752102375,0.608748436,0.936232641
0.029220038,0.825013518,0.504062951,0.934726763
0.02944655,0.888881743,0.391927451,0.94371788
0.029673062,0.939109921,0.268411875,0.953972378
0.029899574,0.971814692,0.137990639,0.963465212
0.030126086,0.987061858,0.003450264,0.974303016
0.030352596,0.984362602,-0.133448973,0.986778361
0.030579108,0.962899148,-0.270684898,1.000445083
0.03080562,0.9219051,-0.405758053,1.014548611
0.031032132,0.860926867,-0.535657048,1.028123543
0.031258644,0.780077517,-0.65689373,1.040030305
0.031485156,0.680308402,-0.765624046,1.048999702
0.031711668,0.56370914,-0.857917488,1.053790411
0.03193818,0.43371287,-0.930303037,1.053570594
0.032164692,0.294882834,-0.980494022,1.048324413
0.032391204,0.152340353,-1.00796354,1.039198081
0.032617716,0.010310487,-1.01456487,1.029448182
0.032844228,-0.130287603,-1.00154805,1.020073356
0.03307074,-0.265782833,-0.967207432,1.006130731
0.033297252,-0.390819818,-0.914471507,0.988998267
0.033523764,-0.503574252,-0.847757816,0.972280342
0.033750276,-0.604073882,-0.770412982,0.958441418
0.033976788,-0.693068326,-0.684626997,0.94905783
0.0342033,-0.77143681,-0.591524422,0.945015894
0.034429812,-0.839705527,-0.491364658,0.946544599
0.034656324,-0.897695959,-0.383903205,0.953239706
0.034882836,-0.944365561,-0.268875599,0.964120401
0.035109348,-0.977912903,-0.146522462,0.977782478
0.03533586,-0.996178091,-0.017988661,0.992694381
0.035562372,-0.997223794,0.114576511,1.007583072
0.035788884,-0.979979277,0.24837558,1.022049812
0.036015396,-0.944122851,0.381207675,1.036687249
0.036241908,-0.887692094,0.51080519,1.048919196
0.03646842,-0.809653521,0.631206751,1.053960787
0.036694932,-0.713307261,0.736902833,1.051833034
0.036921444,-0.60306716,0.825059235,1.044412741
0.037147956,-0.483134806,0.894426703,1.033418368
0.037374468,-0.357319504,0.944828868,1.020378818
0.03760098,-0.228872105,0.976873994,1.006665241
0.037827492,-0.100388683,0.991648376,0.993444389
0.038054004,0.026166283,0.990424633,0.981625628
0.038280516,0.149331167,0.974453211,0.971858858
0.038507028,0.26798147,0.94486773,0.964589095
0.038733536,0.381211132,0.902703106,0.960194825
0.038960048,0.488335043,0.848958969,0.959202445
0.03918656,0.589144111,0.784535825,0.962587244
0.039413072,0.684020877,0.709284663,0.970969293
0.039639584,0.771749258,0.621419072,0.98175858
0.039866096,0.848769903,0.520876229,0.991722394
0.040092608,0.912461519,0.40970853,1.000447103
0.04031912,0.961321056,0.290075302,1.008281854
0.040545632,0.994171262,0.164048329,1.015288352
0.040772144,1.01002181,0.033830781,1.021288578
0.040998656,1.00813568,-0.098155648,1.02597208
0.041225168,0.98812604,-0.229263216,1.028954693
0.04145168,0.950068772,-0.356651783,1.029831166
0.041678192,0.89463222,-0.477384418,1.028262692
0.041904704,0.823196411,-0.588617027,1.024122336
0.042131216,0.737889111,-0.687903702,1.017691843
0.042357728,0.641431928,-0.773607433,1.009903379
0.04258424,0.536527812,-0.84529084,1.002378697
0.042810752,0.424725711,-0.903138936,0.996051867
0.043037264,0.307100356,-0.946146071,0.989503016
0.043263776,0.186304882,-0.973259568,0.981943696
0.043490288,0.065159366,-0.985117435,0.974702104
0.0437168,-0.054641049,-0.983046532,0.969366128
0.043943312,-0.172261432,-0.968145013,0.966978767
0.044169824,-0.28725782,-0.941005468,0.968008346
0.044396336,-0.399194837,-0.901698709,0.97241708
0.044622848,-0.507338107,-0.849898577,0.979719546
0.04484936,-0.61044091,-0.785126686,0.989062018
0.045075872,-0.70667392,-0.707082808,0.999354127
0.045302384,-0.793739796,-0.615988255,1.009464394
0.045528896,-0.869195879,-0.512834549,1.018500751
0.045755408,-0.930933833,-0.399356842,1.026123689
0.04598192,-0.97747761,-0.277498424,1.032467853
0.046208432,-1.00724936,-0.14893207,1.036732035
0.046434944,-1.01802659,-0.016409334,1.036647404
0.046661456,-1.00896037,0.115639232,1.03137346
0.046887968,-0.981342673,0.243092433,1.022127373
0.04711448,-0.937461674,0.363091856,1.010670086
0.047340992,-0.87980026,0.473897278,0.998627128
0.047567504,-0.810665011,0.574616075,0.987361394
0.047794016,-0.731980383,0.664933681,0.977932081
0.048020528,-0.645200253,0.744834781,0.971062217
0.04824704,-0.55134511,0.8143453,0.967139698
0.048473552,-0.451137125,0.873343527,0.966253622
0.048700064,-0.345189184,0.921494782,0.968308206
0.048926576,-0.234148651,0.958311796,0.973187089
0.049153088,-0.118661657,0.983280659,0.980921443
0.0493796,0.000881247,0.995666802,0.991353157
0.049606112,0.123949617,0.993762374,1.002927164
0.04983262,0.248400092,0.97533983,1.01299039
0.050059132,0.370734781,0.939509332,1.020122063
0.050285644,0.487636924,0.886857212,1.024305484
0.050512156,0.596394122,0.818674564,1.02591399
0.050738668,0.694782019,0.736613929,1.025322134
0.05096518,0.780994654,0.642581105,1.022863126
0.051191692,0.853630126,0.538664162,1.018843471
0.051418204,0.911682129,0.427071035,1.013553973
0.051644716,0.95454067,0.310074896,1.007294332
0.051871228,0.982013226,0.189956471,1.000433437
0.05209774,0.994358718,0.068907112,0.99349745
0.052324252,0.99230361,-0.051154912,0.987283279
0.052550764,0.976886511,-0.168888316,0.982830519
0.052777276,0.948859453,-0.283682495,0.98081002
0.053003788,0.908080041,-0.394874245,0.98053503
0.0532303,0.85436672,-0.500796556,0.980739683
0.053456812,0.788502932,-0.599562764,0.981212382
0.053683324,0.711709082,-0.689898849,0.982490239
0.053909836,0.625044405,-0.770945311,0.985037181
0.054136348,0.529347479,-0.841886878,0.988982269
0.05436286,0.425389618,-0.901762247,0.994131477
0.054589372,0.314065576,-0.949418008,1.00003174
0.054815884,0.196569115,-0.983572364,1.006054012
0.055042396,0.074522927,-1.00296521,1.011492879
0.055268908,-0.049982619,-1.00658464,1.0157109
0.05549542,-0.174492598,-0.993917704,1.018320069
0.055721932,-0.29647094,-0.965118051,1.019347871
0.055948444,-0.413702846,-0.920887649,1.019184107
0.056174956,-0.524352312,-0.861943364,1.01789171
0.056401468,-0.626255333,-0.788911998,1.014577883
0.05662798,-0.7168293,-0.703331411,1.008519319
0.056854492,-0.79425931,-0.607856512,1.000337391
0.057081004,-0.857975662,-0.505279839,0.991429952
0.057307516,-0.908230841,-0.397878647,0.983190678
0.057534028,-0.945607901,-0.287287503,0.976708412
0.05776054,-0.970679045,-0.174590766,0.972699744
0.057987052,-0.983788371,-0.060506418,0.971500586
0.058213564,-0.984954953,0.054383274,0.9730938
0.058440076,-0.973894775,0.169402227,0.977168147
0.058666588,-0.95015794,0.283607721,0.98323345
0.0588931,-0.913327336,0.395739943,0.990776925
0.059119612,-0.863168657,0.504330456,0.999409339
0.059346124,-0.799542308,0.60784322,1.008741282
0.059572636,-0.722181201,0.70441395,1.0177447
0.059799148,-0.631193817,0.791289747,1.024545098
0.06002566,-0.528093398,0.865341485,1.027698523
0.060252172,-0.415638149,0.924292266,1.027071264
0.060478684,-0.296922833,0.967042804,1.023334954
0.060705192,-0.174858719,0.993378103,1.017375627
0.060931704,-0.052007079,1.00367689,1.010072036
0.061158216,0.069470234,0.9986974,1.00222261
0.061384728,0.187806472,0.979413152,0.994521393
0.06161124,0.301586419,0.946885288,0.987546117
0.061837752,0.409683496,0.90218401,0.981776555
0.062064264,0.511207342,0.8463521,0.977644824
0.062290776,0.605496645,0.780370176,0.975603799
0.062517288,0.692131519,0.705044627,0.976133966
0.0627438,0.770784736,0.620751917,0.979442052
0.062970312,0.840654492,0.527395368,0.984845849
0.063196824,0.900051355,0.425163418,0.990856374
0.063423336,0.947072566,0.315259755,0.996335158
0.063649848,0.980391741,0.199553534,1.000989579
0.06387636,0.999252141,0.08001437,1.004907141
0.064102872,1.00321877,-0.041434262,1.008164699
0.064329384,0.992071569,-0.162865669,1.010731224
0.064555896,0.965809345,-0.282303691,1.012483065
0.064782408,0.924700737,-0.397716016,1.013249482
0.06500892,0.869350553,-0.5070526,1.012872723
0.065235432,0.80075711,-0.608339071,1.011288375
0.065461944,0.720323086,-0.6998263,1.008622198
0.065688456,0.629765987,-0.780174255,1.005277067
0.065914968,0.530854166,-0.84856993,1.001877072
0.06614148,0.425058424,-0.904544353,0.99887515
0.066367992,0.313598752,-0.947452128,0.996009712
0.066594504,0.198089629,-0.976418018,0.992631647
0.066821016,0.080682501,-0.991054535,0.988698757
0.067047528,-0.036582734,-0.991740406,0.984887329
0.06727404,-0.152190402,-0.979221046,0.982035775
0.067500552,-0.26508069,-0.95420146,0.980768198
0.067727064,-0.374417663,-0.917164803,0.981379862
0.067953576,-0.479363292,-0.868365467,0.98384775
0.068180088,-0.578907371,-0.807924986,0.987876527
0.0684066,-0.67178148,-0.735993266,0.992976444
0.068633112,-0.756473899,-0.652935207,0.998577144
0.068859624,-0.831355691,-0.55947572,1.004165366
0.069086136,-0.894881427,-0.456724823,1.009410332
0.069312648,-0.945717573,-0.346026957,1.014116383
0.06953916,-0.982598662,-0.228805259,1.017851977
0.069765672,-1.00408578,-0.106843233,1.01960373
0.069992184,-1.00899494,0.017217984,1.018367248
0.070218696,-0.997188687,0.140204445,1.014042564
0.070445208,-0.969638824,0.2592462,1.007408041
0.07067172,-0.927921891,0.372201264,0.999572817
0.070898232,-0.873769939,0.477641761,0.991615558
0.071124744,-0.808809698,0.574693739,0.984446021
0.071351256,-0.734428287,0.662845492,0.978749055
0.071577768,-0.65173912,0.741759658,0.974971271
0.07180428,-0.561625123,0.811126173,0.973348447
0.072030792,-0.464825362,0.87056613,0.973948004
0.072257304,-0.362025052,0.91961652,0.976756682
0.072483816,-0.253878087,0.95774138,0.981722634
0.072710328,-0.14097169,0.98425591,0.988632714
0.07293684,-0.02395018,0.998078465,0.996734233
0.073163352,0.095937707,0.997684717,1.004578838
0.073389864,0.216435492,0.981778204,1.010732764
0.073616376,0.334724814,0.949992239,1.014525955
0.073842888,0.448106647,0.902876019,1.015984673
0.0740694,0.554280162,0.841549039,1.015431283
0.074295912,0.651358843,0.767454624,1.013254942
0.074522424,0.737834275,0.682229877,1.009837022
0.074748936,0.812545538,0.587628126,1.005537066
0.074975448,0.874661744,0.485462278,1.00070679
0.07520196,0.923668861,0.377555072,0.995711997
0.075428472,0.959371328,0.265679091,0.990978724
0.075654984,0.981880069,0.15146035,0.987028708
0.075881496,0.991531193,0.036238182,0.984447313
0.076108008,0.988633573,-0.079029597,0.983642019
0.07633452,0.973125875,-0.193551391,0.98443611
0.076561032,0.944621921,-0.306158245,0.986043445
0.076787544,0.903004467,-0.415139824,0.987758141
0.077014056,0.848748326,-0.518711388,0.989435225
0.07724056,0.782684207,-0.615377963,0.991284605
0.077467072,0.705714583,-0.703906,0.993516729
0.077693584,0.618733644,-0.783167124,0.996182066
0.077920096,0.522681355,-0.852032959,0.999155962
0.078146608,0.418637335,-0.909349859,1.002174384
0.07837312,0.30791381,-0.953990042,1.004907915
0.078599632,0.192105249,-0.984957278,1.007045266
0.078826144,0.07306347,-1.00152516,1.008390917
0.079052656,-0.047223393,-1.00335503,1.008951365
0.079279168,-0.166832462,-0.990491986,1.008907445
0.07950568,-0.284025311,-0.963166296,1.008359691
0.079732192,-0.397051692,-0.921593726,1.006985042
0.079958704,-0.503842354,-0.86621809,1.004190897
0.080185216,-0.602247119,-0.798190355,0.999809435
0.080411728,-0.690629363,-0.71931082,0.994376973
0.08063824,-0.768090367,-0.63153249,0.988796098
0.080864752,-0.834283412,-0.536581695,0.983948727
0.081091264,-0.88913089,-0.435831934,0.980503214
0.081317776,-0.932592154,-0.33034274,0.978854452
0.081544288,-0.964518905,-0.220977649,0.979127839
0.0817708,-0.98459965,-0.108556844,0.981221059
0.081997312,-0.992390215,0.006003911,0.984874386
0.082223824,-0.987408221,0.121609405,0.989763842
0.082450336,-0.969235361,0.236988723,0.99558084
0.082676848,-0.937533855,0.350753605,1.001997821
0.08290336,-0.891956091,0.461348027,1.00842767
0.083129872,-0.832212806,0.566769183,1.013805461
0.083356384,-0.758576274,0.664448619,1.016929931
0.083582896,-0.672332466,0.751758158,1.017171273
0.083809408,-0.575593531,0.826664209,1.014681627
0.08403592,-0.470788121,0.887945473,1.010088618
0.084262432,-0.360290319,0.93507129,1.004167431
0.084488944,-0.246249467,0.968006849,0.99767606
0.084715456,-0.130525142,0.987040341,0.991285447
0.084941968,-0.014688093,0.992642403,0.98555468
0.08516848,0.099943735,0.985365689,0.980934291
0.085394992,0.212261885,0.965782642,0.977791219
0.085621504,0.321332633,0.934444785,0.976441717
0.085848016,0.426383853,0.891822636,0.977150804
0.086074528,0.52674377,0.838182807,0.980009417
0.08630104,0.621601582,0.773478746,0.984657897
0.086527552,0.709623754,0.697544515,0.990134223
0.086754064,0.788918436,0.610660315,0.995298319
0.086980576,0.857530713,0.513877749,0.999429265
0.087207088,0.913898587,0.408809096,1.002335504
0.0874336,0.956929564,0.297293097,1.004097376
0.087660112,0.985904276,0.181229517,1.004851379
0.087886624,1.00039792,0.062534228,1.004706528
0.088113136,1.00025475,-0.056867201,1.003743443
0.088339648,0.985592484,-0.17505832,1.00203796
0.08856616,0.956821382,-0.29017216,0.999707039
0.088792672,0.914650142,-0.400464714,0.996956869
0.089019184,0.860050976,-0.504418135,0.994125336
0.089245696,0.79413563,-0.600834012,0.991652909
0.089472208,0.717943907,-0.68881011,0.989902821
0.08969872,0.632309616,-0.767493904,0.988862343
0.089925232,0.538068354,-0.835798562,0.98807679
0.090151744,0.436454684,-0.892526448,0.987096152
0.090378256,0.329113334,-0.936799705,0.985909274
0.090604768,0.217750266,-0.968228936,0.984882451
0.09083128,0.103875391,-0.986743987,0.984453793
0.091057792,-0.011216224,-0.99236846,0.984920964
0.091284304,-0.126337498,-0.985096037,0.986375366
0.091510816,-0.24028115,-0.964871407,0.988711863
0.091737328,-0.351722032,-0.931650221,0.991680522
0.09196384,-0.459179074,-0.885502219,0.994959602
0.092190352,-0.561051428,-0.82672286,0.998249392
0.092416864,-0.655721486,-0.755891442,1.001342539
0.092643376,-0.741669238,-0.673834205,1.004125794
0.092869888,-0.817471504,-0.581505716,1.006408558
0.0930964,-0.881646931,-0.479997814,1.007699212
0.093322912,-0.93261081,-0.370826393,1.007275137
