Frequency (GHz),Re( S21 ),Im( S21 ),S2
0,0.023119591,0,0.000534515
0.000226485,0.020952268,-0.009824671,0.000535522
0.00045297,0.014812117,-0.017862059,0.000538452
0.000679455,0.005754106,-0.022581551,0.000543036
0.00090594,-0.0045834,-0.022974661,0.000548843
0.001132425,-0.014206503,-0.018801637,0.000555326
0.00135891,-0.021130065,-0.010743946,0.000561912
0.001585395,-0.023831459,-0.000360669,0.000568069
0.00181188,-0.021661999,0.010209681,0.00057348
0.002038365,-0.015048094,0.018753443,0.000578137
0.00226485,-0.005383105,0.023522947,0.000582307
0.002491335,0.005342462,0.023622798,0.000586578
0.002717821,0.015022468,0.019131275,0.00059168
0.002944306,0.021856668,0.010982354,0.000598326
0.003170791,0.024630316,0.000711316,0.000607158
0.003397276,0.022822026,-0.009838489,0.000617641
0.003623761,0.016721647,-0.018778984,0.000632264
0.003850246,0.007262151,-0.024428636,0.000649497
0.004076731,-0.003947642,-0.025573721,0.000669599
0.004303216,-0.014844389,-0.021721114,0.000692163
0.004529701,-0.023218406,-0.013318558,0.000716478
0.004756186,-0.027170409,-0.001824493,0.00074156
0.004982671,-0.02562163,0.010482936,0.00076636
0.005209156,-0.018688122,0.020993628,0.000789978
0.005435641,-0.007729207,0.027426884,0.000811975
0.005662126,0.004993401,0.028416073,0.000832407
0.005888611,0.016901447,0.023796922,0.000851952
0.006115096,0.02569822,0.014536015,0.000871694
0.006341581,0.029785171,0.002410176,0.000892965
0.006568066,0.02844383,-0.010393553,0.000917077
0.006794551,0.021868154,-0.02164834,0.000946867
0.007021036,0.011033561,-0.029324576,0.00098167
0.007247521,-0.002356878,-0.031909388,0.001023764
0.007474006,-0.016048305,-0.028575262,0.001074094
0.007700491,-0.027475966,-0.019446254,0.001133085
0.007926976,-0.034161918,-0.005782264,0.001200471
0.008153461,-0.034270853,0.010026096,0.001275014
0.008379947,-0.027201327,0.024791021,0.001354507
0.008606431,-0.013966547,0.035226896,0.001435999
0.008832916,0.002885603,0.038835503,0.001516523
0.009059401,0.019876832,0.034621883,0.001593763
0.009285886,0.033498094,0.023334418,0.001666617
0.009512371,0.041037362,0.007178107,0.00173559
0.009738856,0.041061465,-0.01079813,0.001802643
0.009965341,0.033525314,-0.027364988,0.001872789
0.010191827,0.019676607,-0.039551511,0.001951491
0.010418312,0.001574415,-0.045083717,0.00203502
0.010644797,-0.017843489,-0.04265704,0.002138013
0.010871282,-0.035235934,-0.032030772,0.002267541
0.011097767,-0.047192983,-0.014313649,0.002432058
0.011324252,-0.050767962,0.007921776,0.00264014
0.011550737,-0.044183731,0.030766252,0.002898764
0.011777222,-0.027546076,0.049518686,0.003210887
0.012003707,-0.003257154,0.05968811,0.00357328
0.012230192,0.02419918,0.058223762,0.003975607
0.012456677,0.049201265,0.044504445,0.00440141
0.012683162,0.066372141,0.020638084,0.004831192
0.012909647,0.071867108,-0.009044915,0.005246692
0.013136132,0.064135432,-0.039026287,0.005636405
0.013362617,0.044081587,-0.063706644,0.006001723
0.013589102,0.014694094,-0.078185096,0.006328826
0.013815587,-0.019531854,-0.07912828,0.006642778
0.014042072,-0.052820433,-0.065000951,0.007015122
0.014268557,-0.078860581,-0.036363833,0.00754132
0.014495042,-0.091445997,0.003730848,0.00837629
0.014721527,-0.085427299,0.04955497,0.009753518
0.014948012,-0.057972033,0.092937097,0.011998061
0.015174497,-0.009874006,0.12421497,0.015526855
0.015400982,0.05359697,0.13400647,0.020830369
0.015627467,0.12288776,0.115489259,0.028439171
0.015853952,0.185670912,0.066429332,0.038886544
0.016080437,0.229314804,-0.009878871,0.052682871
0.016306922,0.24344112,-0.105124138,0.070314663
0.016533407,0.221689478,-0.207612142,0.092249026
0.016759893,0.16233395,-0.304287285,0.118943063
0.016986378,0.068073928,-0.382476121,0.150922043
0.017212862,-0.054453742,-0.431303233,0.188987689
0.017439348,-0.196705252,-0.442210853,0.234243395
0.017665832,-0.347116202,-0.408111006,0.287044251
0.017892318,-0.491688877,-0.325594693,0.347769856
0.018118802,-0.614994466,-0.195426643,0.416409766
0.018345288,-0.701288819,-0.023405843,0.492353841
0.018571772,-0.736345708,0.179067284,0.574270094
0.018798258,-0.709853888,0.39527002,0.660130931
0.019024742,-0.61790204,0.604660392,0.747417121
0.019251228,-0.464693248,0.785104811,0.832329379
0.019477712,-0.260200143,0.916108787,0.906959424
0.019704198,-0.021050196,0.986281216,0.973193748
0.019930682,0.23076947,0.989132285,1.031637226
0.020157168,0.474711478,0.924970448,1.080921317
0.020383654,0.692898631,0.800456583,1.120839254
0.020610138,0.871315241,0.626526296,1.151725449
0.020836624,1.00023997,0.416561902,1.174003816
0.021063108,1.0741123,0.185006931,1.187944798
0.021289594,1.09119821,-0.053600796,1.193586579
0.021516078,1.05328643,-0.285368621,1.190847553
0.021742564,0.965519249,-0.497806251,1.180038484
0.021969048,0.836300611,-0.680384755,1.162322127
0.022195534,0.675991297,-0.825330973,1.138135449
0.022422018,0.49574551,-0.929804087,1.110299251
0.022648504,0.331018984,-0.960690022,1.032498886
0.022874988,0.137964055,-0.999534249,1.018102795
0.023101474,-0.037412167,-0.987754226,0.977058081
0.023327958,-0.196185604,-0.949806988,0.940622106
0.023554444,-0.338154674,-0.892686427,0.91123764
0.023780928,-0.464528292,-0.821564674,0.890755048
0.024007414,-0.577447593,-0.739488244,0.880288586
0.024233898,-0.678969622,-0.647422791,0.880156018
0.024460384,-0.770166934,-0.544719875,0.889876848
0.024686868,-0.850515366,-0.429869622,0.90816428
0.024913354,-0.917576075,-0.301396519,0.932785715
0.025139838,-0.966626763,-0.159207091,0.959714197
0.025366324,-1.00034714,-0.00033197,1.000694511
0.025592808,-1.00450146,0.164280832,1.036011375
0.025819294,-0.969680369,0.311678946,1.037423783
0.026045778,-0.920954466,0.46887055,1.067996721
0.026272264,-0.837952137,0.623076499,1.090388108
0.026498748,-0.724455237,0.756169736,1.09662806
0.026725234,-0.589624763,0.863726497,1.093680823
0.02695172,-0.440375715,0.943354607,1.083848685
0.027178204,-0.283373892,0.994303226,1.068939668
0.02740469,-0.124626696,1.01744986,1.050736031
0.027631174,0.030904995,1.0148592,1.030894315
0.02785766,0.179431185,0.989256561,1.010824094
0.028084144,0.318232536,0.943565249,0.991587326
0.02831063,0.445371091,0.880612969,0.97383461
0.028537114,0.55938077,0.8032251,0.958077407
0.0287636,0.659585595,0.714374006,0.945383378
0.028990084,0.746089518,0.616628885,0.936880751
0.02921657,0.820025802,0.512551785,0.935151648
0.029443054,0.884919286,0.401051909,0.943924776
0.02966954,0.936364532,0.278064638,0.95409848
0.029896024,0.97033447,0.147992864,0.963450871
0.03012251,0.986884594,0.013670154,0.974128075
0.030348994,0.985538661,-0.12314827,0.986451949
0.03057548,0.965480626,-0.260463238,0.999993938
0.030801964,0.925930798,-0.395805061,1.014009489
0.03102845,0.8664096,-0.526192546,1.02754419
0.031254934,0.78698647,-0.648162723,1.039462619
0.03148142,0.688557148,-0.757886112,1.048502305
0.031707904,0.573141336,-0.851424932,1.053415406
0.03193439,0.444101959,-0.925273836,1.053358222
0.032160874,0.30594787,-0.977081716,1.048292779
0.03238736,0.163774982,-1.00623369,1.039328484
0.032613844,0.021855999,-1.01449549,1.029678784
0.03284033,-0.118847683,-1.00316703,1.020468862
0.033066814,-0.254785627,-0.970474839,1.006737129
0.0332933,-0.380524516,-0.91920054,0.98972854
0.033519786,-0.494136095,-0.853746593,0.973053725
0.033746272,-0.595584214,-0.77747637,0.959190062
0.033972756,-0.685579538,-0.692610621,0.949728775
0.03419924,-0.764983058,-0.600307107,0.945567702
0.034425724,-0.834324062,-0.500853956,0.946951326
0.034652212,-0.893441796,-0.394022733,0.953492157
0.034878696,-0.941317797,-0.279545873,0.96422509
0.03510518,-0.976170003,-0.157641649,0.977758764
0.035331664,-0.995843172,-0.029418845,0.992569092
0.035558152,-0.99838388,0.103011265,1.007381693
0.035784636,-0.982685208,0.236873224,1.021779142
0.03601112,-0.948418379,0.369955808,1.036364721
0.036237604,-0.893646419,0.500071526,1.048675453
0.036464092,-0.817196608,0.62134397,1.053878625
0.036690576,-0.722249389,0.728192627,1.051908682
0.03691706,-0.613177419,0.81770879,1.044634212
0.037143544,-0.494161993,0.888581872,1.033773819
0.037370032,-0.369005442,0.940579474,1.020854763
0.037596516,-0.240964741,0.974258721,1.007244062
0.037823,-0.112650849,0.990664363,0.994106094
0.038049484,0.013951563,0.991037428,0.98234983
0.038275972,0.137359262,0.976602852,0.972620697
0.038502456,0.256425887,0.948476255,0.965361442
0.03872894,0.370222509,0.907678783,0.960945479
0.038955424,0.478037536,0.855201006,0.959888646
0.039181912,0.579627454,0.791951537,0.963155222
0.039408396,0.675366461,0.717832267,0.97140302
0.03963488,0.764119565,0.631066203,0.982123262
0.039861364,0.842344165,0.531500936,0.992036937
0.040087852,0.907369792,0.421153545,1.000690248
0.040314336,0.957669139,0.302179843,1.008442837
0.04054082,0.992053509,0.176641375,1.01537234
0.040767308,1.00951886,0.046723928,1.021311454
0.040993792,1.00930953,-0.08517091,1.025959811
0.041220276,0.991010785,-0.216416329,1.028938403
0.04144676,0.954662085,-0.344188958,1.029845735
0.041673248,0.900885701,-0.465561122,1.028342205
0.041899732,0.831008017,-0.577682734,1.024291665
0.042126216,0.747104943,-0.678082585,1.017961788
0.0423527,0.651857793,-0.765077591,1.010262303
0.042579188,0.547964633,-0.838172257,1.002797971
0.042805672,0.436999381,-0.897539198,0.996545071
0.043032156,0.31999591,-0.942186773,0.990113298
0.04325864,0.199557841,-0.970992029,0.982648852
0.043485128,0.078531399,-0.984518588,0.975444031
0.043711612,-0.04134154,-0.984063208,0.97008952
0.043938096,-0.159192294,-0.970720768,0.967640996
0.04416458,-0.274556518,-0.945091307,0.96857886
0.044391068,-0.386993706,-0.907256782,0.972878997
0.044617552,-0.495777905,-0.856897593,0.980069216
0.044844036,-0.59968102,-0.793531537,0.989309626
0.04507052,-0.696892798,-0.716839373,0.999518259
0.045297008,-0.785129786,-0.627009094,1.009569185
0.045523492,-0.861947596,-0.524989426,1.018567556
0.045749976,-0.925216079,-0.412478238,1.02616309
0.04597646,-0.973436296,-0.291403532,1.032494241
0.046202948,-1.0050416,-0.163412675,1.03681232
0.046429432,-1.01778626,-0.031169854,1.036860431
0.046655916,-1.01071382,0.100939892,1.031731288
0.0468824,-0.985024571,0.228766903,1.022607701
0.047108888,-0.942952871,0.34940508,1.011244027
0.047335372,-0.886952221,0.461066693,0.999266738
0.047561856,-0.819315791,0.562816739,0.988041047
0.047788344,-0.741965294,0.654304683,0.978627116
0.048014828,-0.656358898,0.735489011,0.971751088
0.048241312,-0.563522935,0.806377947,0.967803492
0.048467796,-0.464183241,0.866839528,0.966876849
0.048694284,-0.358951628,0.916530311,0.968874082
0.048920768,-0.248473927,0.954953432,0.97367535
0.049147252,-0.133400947,0.981587052,0.981308953
0.049373736,-0.014129963,0.995710671,0.991639396
0.049600224,0.108846061,0.995649576,1.003165543
0.049826708,0.233464286,0.979148746,1.01323784
0.050053192,0.356255203,0.945238411,1.020393423
0.050279676,0.473887175,0.894443691,1.024598571
0.050506164,0.58362788,0.828015566,1.02623128
0.050732648,0.683233857,0.747572839,1.025673653
0.050959132,0.770878196,0.654989779,1.023264804
0.051185616,0.845134974,0.552325189,1.019316239
0.051412104,0.904968083,0.441759735,1.014118895
0.051638588,0.949733317,0.325543225,1.007971765
0.051865072,0.979197204,0.205939099,1.001238077
0.052091556,0.993572295,0.085131653,0.994433304
0.052318044,0.993537724,-0.034951892,0.988338844
0.052544528,0.980099499,-0.152943313,0.983986685
0.052771012,0.954007745,-0.268208057,0.982066339
0.052997496,0.915121555,-0.380103439,0.981926085
0.053223984,0.863205314,-0.486985266,0.982278063
0.053450468,0.79898423,-0.586935401,0.982868965
0.053676952,0.723657429,-0.678633273,0.984223194
0.05390344,0.638282537,-0.761187494,0.986810998
0.054129924,0.543697715,-0.833766341,0.990773517
0.054356408,0.440669328,-0.895398557,0.995928033
0.054582892,0.330078423,-0.94492352,1.001832224
0.05480938,0.213098228,-0.981046677,1.007863437
0.055035864,0.091326505,-1.00248778,1.01332228
0.055262348,-0.033171438,-1.00820112,1.017569843
0.055488832,-0.157954007,-0.997627854,1.020210803
0.05571532,-0.280481905,-0.970872343,1.021263205
0.055941804,-0.398519009,-0.928598225,1.021112064
0.056168288,-0.510219038,-0.871506572,1.019847172
0.056394772,-0.613432288,-0.800185323,1.016595723
0.05662126,-0.705554068,-0.716094315,1.010597611
0.056847744,-0.784693778,-0.621840954,1.002430497
0.057074228,-0.85020715,-0.52021873,0.993479725
0.057300712,-0.902294874,-0.413530201,0.985143267
0.0575272,-0.941510916,-0.303441495,0.978519546
0.057753684,-0.968416095,-0.191065356,0.974335703
0.057980168,-0.983356595,-0.077140398,0.972940834
0.058206652,-0.986358583,0.037743744,0.974327844
0.05843314,-0.977145672,0.152915195,0.978196721
0.058659624,-0.955269337,0.2674447,0.984066174
0.058886108,-0.920303464,0.380089819,0.991426736
0.059112592,-0.872000575,0.489395231,0.999892695
0.05933908,-0.810211062,0.593840659,1.009088693
0.059565564,-0.734653294,0.691602528,1.018029519
0.059792048,-0.645368338,0.779975414,1.024861938
0.060018532,-0.543767393,0.855819404,1.02810983
0.06024502,-0.432538003,0.916796923,1.027605722
0.060471504,-0.314740777,0.961739361,1.024004355
0.060697988,-0.193273947,0.9903723,1.018192111
0.060924476,-0.07069613,1.00301886,1.011044776
0.06115096,0.050824788,1.00038791,1.003359129
0.061377444,0.169510365,0.983407795,0.995824655
0.061603928,0.283927351,0.95309937,0.98901315
0.061830416,0.392926127,0.910497427,0.983396506
0.0620569,0.49558869,0.856613994,0.979395684
0.062283384,0.591219008,0.792408884,0.977451755
0.062509868,0.679361403,0.718681455,0.97803495
0.062736356,0.759669065,0.635821104,0.981365565
0.06296284,0.831353009,0.543732822,0.986793207
0.063189324,0.892733037,0.442562371,0.992833728
0.063415808,0.941869736,0.333465725,0.998317989
0.063642296,0.977383733,0.218298241,1.002933084
0.06386878,0.998479068,0.099035651,1.006768509
0.064095264,1.00469613,-0.022390258,1.009915637
0.064321748,0.995794892,-0.144050777,1.012358093
0.064548236,0.971753299,-0.263972104,1.013985746
0.06477472,0.932815254,-0.380125165,1.014639439
0.065001204,0.879555225,-0.490462959,1.014171308
0.065227688,0.812933803,-0.593006909,1.012518562
0.065454176,0.734316111,-0.685993373,1.009807059
0.06568066,0.645385325,-0.768055379,1.006431283
0.065907144,0.547892809,-0.838348269,1.00301435
0.066133628,0.443303496,-0.896386683,1.000027075
0.066360116,0.332810938,-0.941526353,0.997234994
0.0665866,0.217975229,-0.972864032,0.993977625
0.066813084,0.100916035,-0.989943326,0.990171835
0.067039572,-0.016316731,-0.99307853,0.986471202
0.067266056,-0.132181019,-0.98297435,0.983710395
0.067492544,-0.245594636,-0.960312366,0.982516566
0.067719024,-0.355708271,-0.925563455,0.983196083
0.067945512,-0.461678684,-0.87896812,0.985732163
0.068171992,-0.56249851,-0.820629716,0.989837705
0.06839848,-0.656902492,-0.750671864,0.995029131
0.068624968,-0.743377268,-0.669422805,1.000736654
0.068851448,-0.82028234,-0.577565789,1.006445358
0.069077936,-0.886046886,-0.476172447,1.011819283
0.069304424,-0.939309001,-0.366559237,1.016667074
0.069530904,-0.978783727,-0.250120431,1.020577814
0.069757392,-1.00300705,-0.128585964,1.022557492
0.069983872,-1.01072121,-0.004536288,1.021577942
0.07021036,-1.00168288,0.11886543,1.017497583
0.070436848,-0.976770461,0.238712937,1.0110644
0.070663328,-0.937501669,0.352806151,1.00338156
0.070889816,-0.885575771,0.459659219,0.995531044
0.071116304,-0.82260251,0.55834496,0.988423984
0.071342784,-0.749966085,0.648305953,0.982749737
0.071569272,-0.66878283,0.729170144,0.978959573
0.071795752,-0.579940915,0.800599337,0.977290763
0.07202224,-0.484184861,0.862193763,0.977813065
0.072248728,-0.382205188,0.913472831,0.980513419
0.072475208,-0.274663806,0.953887343,0.985341269
0.072701696,-0.162155375,0.982754529,0.99210083
0.072928184,-0.045310196,0.999008417,1.000070831
0.073154664,0.074673869,1.00112534,1.007828133
0.073381152,0.195593223,0.987758696,1.01392395
0.073607632,0.314642489,0.958468616,1.017661984
0.07383412,0.429105103,0.913743973,1.019059238
0.074060608,0.536655784,0.854659915,1.018443001
0.074287088,0.63538152,0.782624245,1.016210385
0.074513576,0.723746419,0.699243248,1.012749999
0.074740064,0.800561011,0.606241941,1.008427223
0.074966544,0.864959896,0.505407274,1.003592134
0.075193032,0.916392088,0.398541391,0.998609699
0.07541952,0.954618633,0.287402809,0.993897109
0.075646,0.979705215,0.173615694,0.989964718
0.075872488,0.991950512,0.058531132,0.987391712
0.076098968,0.99164331,-0.056877188,0.986591469
0.076325456,0.978717089,-0.171821877,0.987409898
0.076551944,0.952758014,-0.285160035,0.989064079
0.076778424,0.913588643,-0.395190328,0.990819604
0.077004912,0.861628115,-0.500100613,0.992503632
0.0772314,0.797676265,-0.598356307,0.994317694
0.07745788,0.722621441,-0.688691139,0.996477232
0.077684368,0.637350261,-0.769955635,0.999047035
0.077910848,0.542790174,-0.841007233,1.001914339
0.078137336,0.440003604,-0.900681615,1.004830543
0.078363824,0.330278188,-0.947834432,1.007473792
0.078590304,0.215180144,-0.981446326,1.009539385
0.078816792,0.09653616,-1.00075698,1.010833763
0.07904328,-0.023682833,-1.00538528,1.011360438
0.07926976,-0.143558085,-0.995336354,1.011303381
0.079496248,-0.261354983,-0.970809698,1.010777897
0.079722728,-0.375344008,-0.931987226,1.009483314
0.079949216,-0.483476698,-0.879245877,1.00682303
0.080175704,-0.583582103,-0.813648522,1.002591988
0.080402184,-0.673963189,-0.736930192,0.997292488
0.080628672,-0.753652513,-0.651016355,0.991814405
0.08085516,-0.822245598,-0.55762887,0.98703778
0.08108164,-0.879622638,-0.458147585,0.983635195
0.081308128,-0.92571491,-0.353640616,0.98200978
0.081534616,-0.960353076,-0.244974658,0.982290614
0.081761096,-0.983210266,-0.132968307,0.984382998
0.081987584,-0.993823826,-0.018529171,0.988029127
0.082214064,-0.991690338,0.097256832,0.992908618
0.082440552,-0.976365924,0.213127494,0.998713746
0.08266704,-0.94749105,0.327702045,1.00512792
0.08289352,-0.904697537,0.439443678,1.01158838
0.083120008,-0.847655058,0.546387553,1.017058455
0.083346496,-0.776550233,0.645987868,1.02033059
0.083572976,-0.692571104,0.735588849,1.020745689
0.083799464,-0.597757101,0.813089728,1.018428458
0.084025944,-0.494499177,0.87719363,1.013998101
0.084252432,-0.385157496,0.927300513,1.008232538
0.08447892,-0.271877974,0.96331501,1.001893441
0.0847054,-0.156525627,0.985471427,0.995654205
0.084931888,-0.040681519,0.994192958,0.990074624
0.085158376,0.074323311,0.989989698,0.985603557
0.085384856,0.187362924,0.973395646,0.982603949
0.085611344,0.297481537,0.944927871,0.981383946
0.085837824,0.403881788,0.905032992,0.982205215
0.086064312,0.505873084,0.853966653,0.985166622
0.0862908,0.602644801,0.791672826,0.98992662
0.08651728,0.692881644,0.71795243,0.995540664
0.086743768,0.774688363,0.633018076,1.000853944
0.086970256,0.846065283,0.537855089,1.00511456
0.087196736,0.905385256,0.434038788,1.008112131
0.087423224,0.951495349,0.323395014,1.009927734
0.087649712,0.983623922,0.207819656,1.010705029
0.087876192,1.00130069,0.089229189,1.01056492
0.08810268,1.00432491,-0.030449135,1.009595675
0.08832916,0.992769718,-0.149293318,1.007880208
0.088555648,0.966998696,-0.265425682,1.005537271
0.088782136,0.927674949,-0.377083212,1.00277256
0.089008616,0.875729203,-0.482718498,0.999918785
0.089235104,0.812244952,-0.58109653,0.997415039
0.089461592,0.738249719,-0.671284676,0.995635764
0.089688072,0.654563785,-0.752418041,0.994586657
0.08991456,0.561987817,-0.823403418,0.993823495
0.09014104,0.461704552,-0.883007169,0.992872754
0.090367528,0.355329454,-0.930288374,0.99169548
0.090594016,0.2445703,-0.964795232,0.990644471
0.090820496,0.13095428,-0.986414313,0.99016222
0.091046984,0.015792033,-0.995143414,0.990559803
0.091273472,-0.099721484,-0.990959466,0.991945038
0.091499952,-0.214381978,-0.973789692,0.994225997
0.09172644,-0.326873928,-0.943567216,0.997165656
0.09195292,-0.435728282,-0.900329232,1.000451862
0.092179408,-0.539349675,-0.844326794,1.003785807
0.092405896,-0.63611716,-0.776090682,1.006961788
0.092632376,-0.724497199,-0.696399808,1.009868884
0.092858864,-0.803054512,-0.606164873,1.012332403
0.093085352,-0.870295942,-0.506418169,1.013874389
