Frequency (GHz),Re( S21 ),Im( S21 ),S2
0,0.022361161,0,0.000500022
0.000226495,0.020256329,-0.009520592,0.000500961
0.00045299,0.014294529,-0.017301772,0.000503685
0.000679484,0.005504776,-0.021855541,0.000507967
0.000905979,-0.004516404,-0.022204062,0.000513418
0.001132474,-0.013828075,-0.018120235,0.000519559
0.001358969,-0.020501243,-0.010274551,0.000525867
0.001585463,-0.023061566,-0.000190904,0.000531872
0.001811958,-0.020888815,0.010046638,0.000537278
0.002038453,-0.014410255,0.018286401,0.000542048
0.002264948,-0.004993287,0.022836138,0.000546422
0.002491442,0.005418308,0.02283735,0.000550903
0.002717937,0.014773692,0.018381687,0.000556148
0.002944432,0.021326834,0.010393236,0.000562853
0.003170927,0.023907248,0.000379233,0.0005717
0.003397421,0.022023138,-0.009856582,0.000582171
0.003623916,0.015975773,-0.018474899,0.000596547
0.003850411,0.006694213,-0.023844888,0.000613391
0.004076906,-0.004235983,-0.024799984,0.000632983
0.0043034,-0.014792837,-0.02088432,0.000654983
0.004529895,-0.022822902,-0.01256475,0.000678758
0.00475639,-0.026490217,-0.001293065,0.000703404
0.004982885,-0.024772694,0.010687826,0.000727916
0.005209379,-0.017822998,0.020827288,0.000751435
0.005435874,-0.00700574,0.026915098,0.000773503
0.005662369,0.00544436,0.027649241,0.000794122
0.005888864,0.017000791,0.022910057,0.000813898
0.006115358,0.025429586,0.013681493,0.000833847
0.006341853,0.029193327,0.001731342,0.000855248
0.006568348,0.02762395,-0.010783522,0.000879367
0.006794843,0.020949822,-0.021680808,0.000908952
0.007021337,0.010164511,-0.028984418,0.000943414
0.007247832,-0.003031167,-0.031237762,0.000984986
0.007474327,-0.016404176,-0.027668512,0.001034644
0.007700822,-0.027433002,-0.018448124,0.001092903
0.007927316,-0.033702772,-0.004865026,0.001159545
0.008153811,-0.03345402,0.010689264,0.001233432
0.008380306,-0.026159084,0.025061809,0.001312392
0.0086068,-0.012884775,0.035035878,0.00139353
0.008833295,0.003804806,0.038201656,0.001473843
0.00905979,0.020458525,0.0336513,0.001550961
0.009286285,0.033630688,0.022197848,0.001623768
0.009512779,0.040691041,0.006074326,0.001692658
0.009739274,0.040289,-0.011678325,0.001759587
0.009965769,0.032448147,-0.027868141,0.001829515
0.010192264,0.018464275,-0.039584138,0.001907833
0.010418758,0.000422975,-0.044620331,0.001991153
0.010645253,-0.018739242,-0.041746646,0.002093942
0.010871748,-0.035706818,-0.030796671,0.002223412
0.011098243,-0.047122762,-0.012943785,0.002388096
0.011324737,-0.050120764,0.009194989,0.002596639
0.011551232,-0.043024469,0.031700071,0.002855999
0.011777727,-0.026045196,0.049906515,0.003169012
0.012004222,-0.001670655,0.059408888,0.003532207
0.012230716,0.025574487,0.057279006,0.003934939
0.012457211,0.050089806,0.043028619,0.004360451
0.012683706,0.066578642,0.01887599,0.004789019
0.012910201,0.071316518,-0.010785409,0.005202371
0.013136695,0.062885031,-0.040430915,0.005589186
0.01336319,0.042309709,-0.064507291,0.005951302
0.013589685,0.012673671,-0.078198969,0.006275701
0.01381618,-0.021469357,-0.078282364,0.006589062
0.014042674,-0.054325827,-0.063349895,0.006964505
0.014269169,-0.079608418,-0.034096409,0.007500065
0.014495664,-0.091183394,0.00629687,0.008354062
0.014722159,-0.084026635,0.051995445,0.009764002
0.014948653,-0.055479858,0.094769791,0.012059328
0.015175148,-0.00654143,0.124973416,0.015661145
0.015401643,0.057320196,0.1333327,0.021063214
0.015628138,0.126406536,0.11322201,0.028797836
0.015854632,0.188339427,0.062659852,0.039397997
0.016081127,0.230550051,-0.014802879,0.053372451
0.016307622,0.242823184,-0.110646755,0.071205803
0.016534117,0.219024077,-0.213051379,0.093362436
0.016760611,0.157672212,-0.308925658,0.120295589
0.016987106,0.061701033,-0.385644913,0.152529016
0.0172136,-0.062054843,-0.432456583,0.1908695
0.017440096,-0.204909191,-0.440939665,0.236415565
0.01766659,-0.355160743,-0.404199541,0.289516422
0.017893086,-0.498743206,-0.319061548,0.350545057
0.01811958,-0.620223939,-0.18654947,0.419478439
0.018346074,-0.703938365,-0.012732836,0.495691347
0.01857257,-0.735834599,0.190736383,0.577832925
0.018799064,-0.705871105,0.40694344,0.66385698
0.019025558,-0.610479951,0.615258038,0.751228224
0.019252054,-0.454239249,0.793587804,0.836114898
0.019478548,-0.247446179,0.921605706,0.910586689
0.019705044,-0.006960654,0.988210261,0.976607971
0.019931538,0.245120421,0.987258315,1.034763001
0.020158032,0.488260239,0.919401228,1.083696679
0.020384528,0.704695642,0.791594267,1.123217431
0.020611022,0.880595744,0.614999592,1.153673363
0.020837516,1.00646365,0.40315035,1.175499283
0.021064012,1.07697749,0.170570537,1.188974822
0.021290506,1.09064102,-0.068186209,1.194147194
0.021517002,1.04946721,-0.299271762,1.190945012
0.021743496,0.95879966,-0.510296762,1.179699573
0.02196999,0.827205002,-0.690883458,1.161588068
0.022196486,0.665148139,-0.833447993,1.137057604
0.02242298,0.483805299,-0.935364902,1.108975067
0.022649474,0.319316536,-0.964431643,1.032091444
0.02287597,0.125838742,-1.00030756,1.016450604
0.023102464,-0.048969667,-0.986420274,0.975422985
0.02332896,-0.206921086,-0.946722806,0.939100407
0.023555454,-0.347935319,-0.888172448,0.909909284
0.023781948,-0.473313093,-0.815878987,0.889683805
0.024008444,-0.585242331,-0.732809901,0.879518937
0.024234938,-0.685781717,-0.639855862,0.879712088
0.024461432,-0.775970936,-0.536313891,0.889763483
0.024687928,-0.855229855,-0.420651704,0.908365961
0.024914422,-0.921055973,-0.291409761,0.933263754
0.025140918,-0.968675137,-0.148566514,0.96040353
0.025367412,-1.00075364,0.010880043,1.001626223
0.025593906,-1.00307,0.175766975,1.037043454
0.025820402,-0.966512501,0.322904736,1.038413883
0.026046896,-0.915903628,0.479777873,1.069066263
0.02627339,-0.830889821,0.633134246,1.091236868
0.026499886,-0.715653837,0.764925957,1.097272134
0.02672638,-0.579397798,0.870863318,1.094104727
0.026952876,-0.429086775,0.94864279,1.084038603
0.02717937,-0.271414101,0.997611821,1.06889496
0.027405864,-0.112385161,1.01874411,1.050469986
0.02763236,0.04306465,1.01418781,1.030431478
0.027858854,0.191188782,0.986733615,1.010196377
0.028085348,0.329318821,0.93935281,0.990834588
0.028311844,0.455570042,0.874903619,0.973000406
0.028538338,0.568532407,0.796232522,0.957215327
0.028764834,0.667590737,0.706310213,0.944551509
0.028991328,0.752895236,0.607687712,0.936135592
0.029217822,0.825633883,0.502894223,0.934573908
0.029444318,0.889311016,0.390716732,0.943533648
0.029670812,0.939392567,0.267172784,0.953839691
0.029897306,0.971940994,0.136720598,0.963361818
0.030123802,0.987022698,0.002165903,0.974218498
0.030350296,0.984153628,-0.134727463,0.986709853
0.030576792,0.962518871,-0.271936119,1.00039183
0.030803286,0.921354294,-0.406959057,1.014509409
0.03102978,0.860210896,-0.536783874,1.028099713
0.031256276,0.779204786,-0.657922447,1.040022045
0.03148277,0.679292798,-0.766532838,1.049011297
0.031709264,0.562565923,-0.858685732,1.053821604
0.03193576,0.432459444,-0.930912852,1.053619909
0.032162254,0.293538213,-0.980927169,1.048382793
0.03238875,0.150926501,-1.00819886,1.03924375
0.032615244,0.008869524,-1.01457739,1.029445949
0.032841738,-0.131699994,-1.00135565,1.020058026
0.033068234,-0.267158806,-0.96682936,1.006132839
0.033294728,-0.392137825,-0.913903058,0.988990873
0.033521222,-0.504801869,-0.847005785,0.972243727
0.033747716,-0.605181336,-0.769494534,0.958366287
0.033974212,-0.694032311,-0.683565855,0.948943127
0.034200708,-0.772240162,-0.590347409,0.944864931
0.0344272,-0.840337873,-0.490099847,0.946365601
0.034653696,-0.898153603,-0.382578015,0.953045832
0.034880192,-0.944650233,-0.267513961,0.963927782
0.035106688,-0.978028834,-0.145143539,0.977607047
0.03533318,-0.996129274,-0.016606506,0.992549307
0.035559676,-0.997010589,0.115950212,1.007474566
0.035786172,-0.979593933,0.249725685,1.021967191
0.036012664,-0.943565249,0.382502079,1.03662322
0.03623916,-0.886987627,0.512026548,1.048918236
0.036465656,-0.808802009,0.632358551,1.054038027
0.036692148,-0.712298334,0.737966001,1.051962735
0.036918644,-0.601901591,0.826003313,1.044566998
0.03714514,-0.481824964,0.895219803,1.033573792
0.037371632,-0.355886668,0.945441544,1.020515034
0.037598128,-0.22734645,0.977282345,1.00676719
0.037824624,-0.098805226,0.991834939,0.993499019
0.038051116,0.027769385,0.990382731,0.981629093
0.038277612,0.150915891,0.974182785,0.971807705
0.038504108,0.269512564,0.94437778,0.964486414
0.038730604,0.382657319,0.90200597,0.960041394
0.038957096,0.489668757,0.84807092,0.958999777
0.039183592,0.590335071,0.783474922,0.962328449
0.039410088,0.685040653,0.70808661,0.970667344
0.03963658,0.772599161,0.620124459,0.981463808
0.039863076,0.849457502,0.519500136,0.991458439
0.040089572,0.912981391,0.408261329,1.000212333
0.040316064,0.9616642,0.288572431,1.008072081
0.04054256,0.9943313,0.162508309,1.015103685
0.040769056,1.00999212,0.032273799,1.021125681
0.040995548,1.00791264,-0.099707916,1.025829558
0.041222044,0.987708151,-0.230787233,1.028830138
0.04144854,0.949457645,-0.358123153,1.029722012
0.041675032,0.893832147,-0.478778541,1.028164798
0.041901528,0.822214186,-0.589908719,1.024028464
0.042128024,0.736734688,-0.689067066,1.017591422
0.04235452,0.640118241,-0.774613321,1.00977716
0.042581012,0.535079718,-0.84610635,1.00220626
0.042807508,0.423186719,-0.903743327,0.995839
0.043034004,0.305505723,-0.946542501,0.989276453
0.043260496,0.184676602,-0.973446786,0.981704092
0.043486992,0.063524105,-0.985090613,0.974438828
0.043713488,-0.05625128,-0.982806981,0.969073768
0.04393998,-0.17381531,-0.967701256,0.966657483
0.044166476,-0.288727909,-0.940373182,0.967665527
0.044392972,-0.400559157,-0.900898039,0.972064915
0.044619464,-0.50858146,-0.84895134,0.979373479
0.04484596,-0.611554444,-0.78405422,0.988739858
0.045072456,-0.707652926,-0.705902994,0.999071701
0.045298948,-0.794582427,-0.614714324,1.009234933
0.045525444,-0.869898319,-0.511474848,1.018329606
0.04575194,-0.931486011,-0.397918403,1.026005244
0.045978436,-0.977864385,-0.275996298,1.032392712
0.046204928,-1.00746834,-0.147389144,1.036716016
0.046431424,-1.01807976,-0.01483307,1.036706418
0.04665792,-1.00883365,0.11724399,1.031491487
0.046884412,-0.981015623,0.244706839,1.02227309
0.047110908,-0.936919153,0.364684492,1.010812278
0.047337404,-0.879036844,0.475430161,0.998739611
0.047563896,-0.80968684,0.576048911,0.987425127
0.047790392,-0.730803728,0.666227877,0.977933673
0.048016888,-0.643851042,0.745957255,0.970996391
0.04824338,-0.54985553,0.815269709,0.967005802
0.048469876,-0.449543476,0.874053597,0.966059027
0.048696372,-0.34352687,0.921981215,0.968060071
0.048922864,-0.23245281,0.95857197,0.972894531
0.04914936,-0.116967343,0.983315289,0.980590317
0.049375856,0.002535397,0.995486379,0.990999559
0.049602352,0.125533655,0.99339509,1.002592503
0.049828844,0.24990727,0.97481221,1.012712488
0.05005534,0.372163206,0.938832998,1.01991285
0.050281836,0.488979161,0.886037529,1.024163123
0.050508328,0.597639024,0.817717612,1.025834496
0.050734824,0.695916116,0.735526979,1.025299177
0.05096132,0.782004356,0.641374409,1.022891945
0.051187812,0.854501724,0.537350059,1.018918282
0.051414308,0.912403703,0.425664604,1.013670872
0.051640804,0.955101609,0.308592677,1.007448524
0.051867296,0.982405782,0.188416705,1.000621975
0.052093792,0.994576156,0.067328297,0.99371483
0.052320288,0.992340267,-0.052752033,0.987521982
0.05254678,0.976739347,-0.170477822,0.98308244
0.052773276,0.948537946,-0.285235912,0.98108376
0.052999772,0.907605052,-0.396376103,0.980860945
0.053226268,0.853750587,-0.502246618,0.98114173
0.05345276,0.787746072,-0.600958407,0.981694881
0.053679256,0.710810125,-0.691231251,0.983051676
0.053905752,0.62400353,-0.772202969,0.985677831
0.054132244,0.528165221,-0.84305805,0.989705376
0.05435874,0.424066186,-0.9028337,0.99494082
0.054585236,0.312600851,-0.950374842,1.000931632
0.054811728,0.194963291,-0.984395385,1.007044959
0.055038224,0.072777502,-1.00363111,1.01257197
0.05526472,-0.051862206,-1.00706422,1.016868032
0.055491212,-0.176492944,-0.99417609,1.019535857
0.055717708,-0.298567116,-0.965117812,1.020594714
0.055944204,-0.415852934,-0.920595646,1.020430006
0.056170696,-0.526504815,-0.861341476,1.019116458
0.056397192,-0.628362179,-0.78799355,1.015772863
0.056623688,-0.718839705,-0.702090144,1.009661092
0.056850184,-0.796110451,-0.606295228,1.001385754
0.057076676,-0.859600186,-0.503421485,0.992345671
0.057303172,-0.909568191,-0.395766228,0.983945201
0.057529668,-0.946610093,-0.28497985,0.977284183
0.05775616,-0.971315444,-0.1721569,0.97309169
0.057982656,-0.984047949,-0.05801902,0.971716573
0.058209152,-0.984843373,0.056853812,0.973148825
0.058435644,-0.97343421,0.17179279,0.977086924
0.05866214,-0.949381709,0.285865813,0.983044892
0.058888636,-0.912275136,0.397825658,0.990511178
0.059115128,-0.861883283,0.506213009,0.999094404
0.059341624,-0.798070252,0.609501243,1.008407892
0.05956812,-0.720574319,0.705843031,1.017441734
0.059794612,-0.629491746,0.792504489,1.024323223
0.060021108,-0.526315391,0.866360843,1.027589001
0.060247604,-0.413791806,0.92512542,1.027080701
0.0604741,-0.295013934,0.967690527,1.023458177
0.060700592,-0.172894627,0.993836522,1.017603585
0.060927088,-0.049997594,1.00393891,1.010393094
0.061153584,0.071512722,0.99875474,1.0026251
0.061380076,0.189866543,0.979256153,0.994991917
0.061606572,0.303645313,0.94650507,0.988072324
0.061833068,0.411718816,0.901572347,0.98234508
0.06205956,0.513193369,0.845502555,0.978242004
0.062286056,0.607403159,0.77927959,0.976215277
0.062512552,0.693922877,0.703714788,0.976743462
0.062739044,0.772423625,0.619196713,0.980042826
0.06296554,0.842114031,0.525638223,0.985451583
0.063192036,0.901312113,0.423222423,0.991480744
0.063418528,0.948111594,0.313148767,0.996977745
0.063645024,0.981179059,0.197291374,1.001636232
0.06387152,0.99975729,0.077629723,1.005541013
0.064098016,1.00341558,-0.043903057,1.008770305
0.064324508,0.991941214,-0.165373817,1.011295871
0.064551004,0.965340316,-0.284802467,1.012994371
0.0647775,0.923891544,-0.400152415,1.01369754
0.065003992,0.86820823,-0.509373188,1.013246575
0.065230488,0.799299181,-0.610491574,1.011579143
0.065456984,0.718576193,-0.701759815,1.008818583
0.065683476,0.627766371,-0.781840384,1.005365003
0.065909972,0.528652072,-0.849926233,1.001847615
0.066136468,0.422717214,-0.905562043,0.998732457
0.06636296,0.31118685,-0.948125958,0.995780088
0.066589456,0.195664138,-0.976759672,0.992343912
0.066815952,0.078291267,-0.99108088,0.988370833
0.067042444,-0.038896009,-0.991474092,0.984533775
0.067268944,-0.154387549,-0.978693008,0.981675519
0.067495432,-0.267133236,-0.95344907,0.980425295
0.067721928,-0.376310021,-0.916230083,0.981086797
0.067948424,-0.481092453,-0.867287934,0.983638309
0.06817492,-0.580483258,-0.806738496,0.987787814
0.068401416,-0.673221886,-0.734721124,0.993042838
0.068627912,-0.757799625,-0.651587069,0.99882598
0.0688544,-0.832585216,-0.558048606,1.004616389
0.069080896,-0.89602381,-0.455205888,1.010071069
0.069307392,-0.946770847,-0.344401002,1.014987087
0.069533888,-0.983554363,-0.227058321,1.018934666
0.069760384,-1.00493181,-0.104958452,1.020904219
0.06998688,-1.00970316,0.019262794,1.019871527
0.070213376,-0.997712195,0.14241907,1.015712816
0.070439864,-0.969920576,0.261619836,1.009190862
0.07066636,-0.927908123,0.374700129,1.001413671
0.070892856,-0.873419762,0.480215222,0.99346874
0.071119352,-0.808095813,0.57727927,0.986270199
0.071345848,-0.733341098,0.665374875,0.98051289
0.071572344,-0.650286853,0.744166136,0.976656229
0.071798832,-0.55983001,0.813346565,0.974942275
0.072025328,-0.462721527,0.872546911,0.975449323
0.072251824,-0.359654784,0.921312094,0.978167538
0.07247832,-0.251290649,0.959115744,0.983050001
0.072704816,-0.138221607,0.985286355,0.989894414
0.072931312,-0.021092204,0.99875778,0.997961984
0.073157808,0.098861694,0.99801892,1.005815399
0.073384296,0.219396159,0.981768668,1.012004392
0.073610792,0.337694079,0.94963342,1.015840923
0.073837288,0.451049775,0.90215838,1.017335642
0.074063784,0.557156861,0.840465963,1.016806803
0.07429028,0.654122829,0.76600343,1.01463793
0.074516776,0.740434945,0.680415094,1.011208608
0.074743264,0.814929485,0.585462272,1.006876137
0.07496976,0.876773775,0.482967913,1.001990258
0.075196256,0.925455153,0.374765128,0.996916141
0.075422752,0.96078068,0.262638211,0.992078345
0.075649248,0.982867777,0.148225769,0.987999946
0.075875744,0.992062092,0.032879695,0.985268269
0.076102232,0.988691986,-0.082431868,0.984306856
0.076328728,0.972717464,-0.196916863,0.984955516
0.076555224,0.943770409,-0.309417903,0.986442024
0.07678172,0.901739657,-0.418236524,0.988056199
0.077008216,0.847104251,-0.521593571,0.989645465
0.077234712,0.780701876,-0.618000567,0.99142012
0.077461208,0.703440487,-0.706232607,0.993593014
0.077687696,0.616217256,-0.785172641,0.996219783
0.077914192,0.519970238,-0.853701651,0.999175557
0.078140688,0.415775359,-0.910674393,1.002196999
0.078367184,0.304940045,-0.954966545,1.004949533
0.07859368,0.189053014,-0.985582769,1.007114437
0.078820176,0.069964714,-1.00179446,1.008487201
0.079046664,-0.050334755,-1.00326061,1.009065439
0.07927316,-0.169915214,-0.990025878,1.009022419
0.079499656,-0.287030637,-0.962328494,1.008462717
0.079726152,-0.399930924,-0.920395136,1.00707195
0.079952648,-0.5065521,-0.864674985,1.00425786
0.080179144,-0.604742467,-0.796321094,0.999840736
0.08040564,-0.69286114,-0.717141628,0.994348674
0.080632128,-0.770009756,-0.629104018,0.98868689
0.080858624,-0.835851371,-0.533949733,0.983749832
0.08108512,-0.890323102,-0.433062643,0.980218479
0.081311616,-0.933403552,-0.327505648,0.97850214
0.081538112,-0.964963973,-0.218139231,0.978740193
0.081764608,-0.984708309,-0.105771929,0.980838155
0.081991096,-0.992203176,0.008695493,0.984542754
0.082217592,-0.986969471,0.124184966,0.989530642
0.082444088,-0.96858561,0.23944135,0.995490244
0.082670584,-0.936707139,0.35308817,1.00209152
0.08289708,-0.890978456,0.463579386,1.008748456
0.083123576,-0.831096649,0.56892395,1.014396101
0.083350064,-0.757309377,0.666557074,1.017815825
0.08357656,-0.670877635,0.753834546,1.018343324
0.083803056,-0.573903203,0.828696311,1.016102462
0.084029552,-0.468818158,0.889893711,1.011701282
0.084256048,-0.358013183,0.936873376,1.005905162
0.084482544,-0.2436582,0.969587862,0.999469941
0.08470904,-0.127638519,0.988317728,0.993063523
0.084935528,-0.011552087,0.993537843,0.987250896
0.085162024,0.103259325,0.9858132,0.982490153
0.08538852,0.215666682,0.965735853,0.979157855
0.085615016,0.324723512,0.933882654,0.977582171
0.085841512,0.429651737,0.890754402,0.97804402
0.086068008,0.529785633,0.836651742,0.980658954
0.086294496,0.62433356,0.771557868,0.985093938
0.086520992,0.711996257,0.695325732,0.990416544
0.086747488,0.790915191,0.608234107,0.995495568
0.086973984,0.859159589,0.511324108,0.999607543
0.08720048,0.915185153,0.406193793,1.002557262
0.087426976,0.957912624,0.294665188,1.004424168
0.087653472,0.98662895,0.178616554,1.005340558
0.08787996,1.00090885,0.059942856,1.005411672
0.088106456,1.00058591,-0.059450198,1.004706489
0.088332952,0.985760152,-0.177659735,1.003286059
0.088559448,0.95682025,-0.292823225,1.001250432
0.088785944,0.914452016,-0.403191686,0.998786025
0.08901244,0.859608829,-0.507231236,0.996210866
0.089238928,0.793392301,-0.603718817,0.993947753
0.089465424,0.716845274,-0.691726744,0.992353035
0.08969192,0.630813956,-0.770383298,0.991416673
0.089918416,0.536147773,-0.838587224,0.990682967
0.090144912,0.434097439,-0.8951267,0.989692396
0.090371408,0.326334208,-0.939112008,0.988425379
0.090597896,0.214598432,-0.970154643,0.987252518
0.090824392,0.100431614,-0.988200784,0.986627299
0.091050888,-0.014848264,-0.993302405,0.986870139
0.091277384,-0.130044758,-0.98548758,0.988097409
0.09150388,-0.243953764,-0.964734733,0.990226544
0.091730376,-0.355264604,-0.931028068,0.993026202
0.091956872,-0.462519497,-0.884459078,0.996192146
0.09218336,-0.564144492,-0.825332344,0.999432486
0.092409856,-0.658548534,-0.754228354,1.002546582
0.092636352,-0.744234085,-0.671964586,1.005420778
0.092862848,-0.819798827,-0.579484105,1.007871945
0.093089344,-0.883776784,-0.477855951,1.009407714
