Frequency (GHz),Re( S21 ),Im( S21 ),S2
0,0.022323484,0,0.000498338
0.000226529,0.020220727,-0.009507395,0.000499268
0.000453058,0.014265382,-0.017276386,0.000501975
0.000679587,0.005486202,-0.021820189,0.000506219
0.000906116,-0.004520915,-0.022162804,0.000511629
0.001132645,-0.013816153,-0.018078771,0.000517728
0.001359174,-0.020473339,-0.010239717,0.000524009
0.001585703,-0.02302127,-0.000169101,0.000530007
0.001812232,-0.020842364,0.010051326,0.000535433
0.002038761,-0.014364933,0.01827283,0.000540248
0.00226529,-0.004956006,0.022806732,0.000544709
0.002491819,0.005442477,0.022796849,0.000549317
0.002718348,0.014782036,0.018336307,0.000554729
0.002944877,0.021318283,0.010349789,0.000561587
0.003171406,0.023882248,0.000344001,0.00057048
0.003397935,0.021984275,-0.009878282,0.000580889
0.003624464,0.015928334,-0.018479133,0.00059519
0.003850993,0.006645747,-0.023828492,0.000611963
0.004077522,-0.004276602,-0.024762778,0.000631484
0.004304051,-0.014816186,-0.020830296,0.000653421
0.00453058,-0.022821695,-0.012501972,0.000677129
0.004757109,-0.026461458,-0.001233478,0.00070173
0.004983638,-0.024719359,0.010731712,0.000726216
0.005210166,-0.017754188,0.020845585,0.00074975
0.005436695,-0.006933882,0.026903039,0.000771852
0.005663224,0.005505919,0.027608585,0.000792549
0.005889753,0.017041167,0.022847787,0.000812423
0.006116282,0.025442153,0.01360773,0.000832473
0.006342811,0.029175349,0.001657976,0.00085395
0.00656934,0.027577214,-0.010844895,0.000878114
0.006795869,0.020879773,-0.021719256,0.000907691
0.007022398,0.010080801,-0.028991599,0.000942135
0.007248927,-0.003115482,-0.031208566,0.000983681
0.007475456,-0.016473319,-0.027603049,0.001033299
0.007701985,-0.027470902,-0.018353637,0.001091506
0.007928514,-0.033696827,-0.004756776,0.001158103
0.008155043,-0.033399269,0.010790201,0.00123194
0.008381572,-0.026061589,0.025132697,0.001310859
0.008608101,-0.01276175,0.035058901,0.001391989
0.00883463,0.003929401,0.038168956,0.001472309
0.009061159,0.020559674,0.033567447,0.001549474
0.009287688,0.033688679,0.022077851,0.001622359
0.009514217,0.040694736,0.005939343,0.001691337
0.009740746,0.040236611,-0.011805236,0.001758348
0.009967275,0.032346513,-0.027965581,0.001828371
0.010193803,0.018326972,-0.039633125,0.001906662
0.010420332,0.000269957,-0.044609118,0.001990046
0.010646861,-0.018882623,-0.041669801,0.002092926
0.01087339,-0.035812926,-0.030658599,0.002222515
0.011099919,-0.047164831,-0.012761399,0.002387375
0.011326448,-0.050079353,0.009392131,0.002596154
0.011552977,-0.042894226,0.031872671,0.002855782
0.011779506,-0.025840707,0.050013389,0.003169081
0.012006035,-0.001427004,0.05941831,0.003532572
0.012232564,0.025809413,0.057178769,0.003935537
0.012459093,0.05026643,0.042830925,0.004361202
0.012685622,0.066658117,0.018614663,0.00478981
0.012912151,0.071278907,-0.011063527,0.005203084
0.01313868,0.0627314,-0.040675487,0.005589724
0.013365209,0.042060457,-0.064671807,0.005951525
0.013591738,0.012363082,-0.078246459,0.006275354
0.013818267,-0.021792522,-0.078191049,0.006588754
0.014044796,-0.054603364,-0.06311392,0.006964894
0.014271325,-0.079777628,-0.03373193,0.007502313
0.014497854,-0.091184765,0.006746188,0.008360172
0.014724383,-0.083816476,0.052457508,0.009776992
0.014950912,-0.055045981,0.095148616,0.012083319
0.015177441,-0.005916874,0.125165477,0.015701406
0.01540397,0.058053251,0.133249819,0.021125694
0.015630499,0.127127111,0.112817012,0.028888981
0.015857028,0.18891187,0.061942954,0.039524624
0.016083557,0.230852798,-0.015763696,0.053541508
0.016310086,0.24277097,-0.11174155,0.071423918
0.016536615,0.218577698,-0.214149296,0.093636131
0.016763143,0.156838328,-0.309895307,0.120633362
0.016989672,0.060527239,-0.38636446,0.152941043
0.017216202,-0.063491613,-0.43283549,0.191377746
0.01744273,-0.206520319,-0.440881759,0.237027368
0.01766926,-0.356813014,-0.403639346,0.290240249
0.017895788,-0.500280261,-0.3179712,0.351386024
0.018122318,-0.621473074,-0.184949651,0.420435155
0.018348846,-0.704724789,-0.010704863,0.496751622
0.018575376,-0.736008465,0.193044379,0.578974593
0.018801904,-0.705338717,0.409324795,0.665049494
0.019028434,-0.609232306,0.617471457,0.752435003
0.019254962,-0.452361315,0.79537946,0.837259245
0.019481492,-0.245065764,0.922787428,0.911593866
0.01970802,-0.00431261,0.988688767,0.977524077
0.01993455,0.247796774,0.986995697,1.035563747
0.020161078,0.490749657,0.918441355,1.084369748
0.020387606,0.706822038,0.790040493,1.123761374
0.020614136,0.882230818,0.612990081,1.154088056
0.020840664,1.00752652,0.40084222,1.175784174
0.021067194,1.07743239,0.168126449,1.189127058
0.021293722,1.09049344,-0.070606895,1.194161276
0.021520252,1.04876208,-0.301521033,1.190816834
0.02174678,0.95762217,-0.512248874,1.179439129
0.02197331,0.825676322,-0.692438245,1.161212112
0.022199838,0.663402081,-0.834553361,1.136581633
0.022426368,0.481969595,-0.936050773,1.10848574
0.022652896,0.318106025,-0.965676546,1.033722635
0.022879426,0.124182887,-1.00017369,1.0157688
0.023105954,-0.050376125,-0.986033559,0.974799933
0.023332484,-0.208102897,-0.946191549,0.938585263
0.023559012,-0.348928571,-0.88757509,0.909540688
0.023785542,-0.474170715,-0.815260649,0.889487793
0.02401207,-0.586019337,-0.732181013,0.879507699
0.0242386,-0.686521649,-0.639197111,0.879884921
0.024465128,-0.776693702,-0.53558594,0.890105406
0.024691658,-0.85592562,-0.419807434,0.908846949
0.024918186,-0.921681821,-0.290408969,0.933834748
0.025144716,-0.969154477,-0.147412851,0.960990949
0.025371244,-1.00110316,0.012220181,1.00235687
0.025597774,-1.00315249,0.17724286,1.03772995
0.025824302,-0.966324091,0.32426694,1.038931297
0.026050832,-0.915488362,0.48124522,1.069715903
0.02627736,-0.830058157,0.634459138,1.091534942
0.02650389,-0.714570761,0.766001463,1.097369614
0.026730418,-0.578151882,0.871659935,1.094050641
0.026956946,-0.427759886,0.949149549,1.083863386
0.027183476,-0.270081192,0.997840881,1.068630274
0.027410004,-0.1111072,1.01872551,1.050146475
0.027636534,0.04424452,1.01396263,1.030077793
0.027863062,0.192244679,0.986346781,1.009837989
0.028089592,0.330238968,0.938846886,0.990491251
0.02831612,0.456352144,0.87431705,0.972687583
0.02854265,0.569181919,0.795602381,0.956951206
0.028769178,0.668128014,0.705667913,0.944362247
0.028995708,0.753345191,0.607056379,0.936046424
0.029222236,0.826057136,0.502292216,0.934667862
0.029448766,0.889751017,0.390033752,0.9437832
0.029675294,0.939739406,0.266404301,0.954081403
0.029901824,0.972197711,0.135907605,0.963639266
0.030128352,0.987190127,0.00130845,0.974546059
0.030354882,0.984217346,-0.135629967,0.987079272
0.03058141,0.962458313,-0.272875339,1.000786955
0.03080794,0.921147704,-0.407916248,1.014908758
0.031034468,0.859839916,-0.537728906,1.028477057
0.031260998,0.778661013,-0.658814847,1.040349976
0.031487526,0.678581476,-0.767325163,1.049260725
0.031714056,0.561712623,-0.859330058,1.053969219
0.031940584,0.431510687,-0.931371629,1.053654584
0.032167114,0.292554855,-0.981185377,1.048313087
0.032393642,0.149972096,-1.00827599,1.039112102
0.032620172,0.00796368,-1.01452827,1.029331031
0.0328467,-0.132577017,-1.00116301,1.019904038
0.03307323,-0.267929524,-0.966492593,1.005894162
0.033299758,-0.392772526,-0.913495839,0.988744905
0.033526286,-0.505321145,-0.846586168,0.972057599
0.033752816,-0.605622351,-0.769093037,0.958282532
0.033979344,-0.694435954,-0.68318969,0.948989447
0.034205872,-0.772641242,-0.589982688,0.945054061
0.034432404,-0.840757132,-0.489717573,0.946695856
0.034658932,-0.898592234,-0.382142037,0.953500539
0.03488546,-0.945088685,-0.266991705,0.964477193
0.035111988,-0.978432536,-0.144516006,0.978215103
0.03533852,-0.996457517,-0.015873926,0.993179565
0.035565048,-0.997228086,0.116769016,1.008098859
0.035791576,-0.979684889,0.250606149,1.022585924
0.036018104,-0.943506956,0.383442581,1.037233589
0.036244636,-0.886713743,0.512980223,1.049409971
0.036471164,-0.808321655,0.63322103,1.054352771
0.036697692,-0.711673141,0.738683641,1.052132181
0.03692422,-0.601191103,0.826559484,1.044631323
0.037150752,-0.481079698,0.89561826,1.033569743
0.03737728,-0.355146825,0.945700288,1.020478302
0.037603808,-0.226638511,0.977427602,1.006729732
0.037830336,-0.098141953,0.99189657,0.993490649
0.038056868,0.028386718,0.990386367,0.981670962
0.038283396,0.151494846,0.974148929,0.971916824
0.038509924,0.27006489,0.944319308,0.964674
0.038736452,0.383197814,0.901931643,0.960321253
0.038962984,0.490214825,0.847984076,0.959387568
0.039189512,0.590917587,0.783370376,0.962852741
0.03941604,0.685688853,0.707916617,0.97131514
0.039642568,0.77327615,0.619827569,0.982142219
0.0398691,0.85010761,0.519075096,0.992121904
0.040095628,0.913576543,0.407722414,1.000859667
0.040322156,0.962184548,0.287929714,1.008702625
0.040548684,0.994755268,0.161773443,1.01570869
0.040775212,1.01029897,0.031463359,1.021693952
0.041001744,1.00808442,-0.100570455,1.026348614
0.041228272,0.987732112,-0.231672391,1.029286822
0.0414548,0.949329257,-0.358996481,1.030104512
0.041681328,0.893559277,-0.479603231,1.028467441
0.04190786,0.821817994,-0.590651453,1.024253954
0.042134388,0.736249447,-0.689705074,1.017756337
0.042360916,0.639584959,-0.775145054,1.009918775
0.042587444,0.534523904,-0.846555769,1.002372474
0.042813976,0.422598124,-0.904125988,0.996032977
0.043040504,0.304889709,-0.946836948,0.989457941
0.043267032,0.184067383,-0.973657727,0.981890171
0.04349356,0.062935554,-0.985247433,0.974673388
0.043720092,-0.056829795,-0.982934952,0.969390745
0.04394662,-0.174406692,-0.967810869,0.967075572
0.044173148,-0.289356619,-0.940457821,0.968188166
0.044399676,-0.401242882,-0.900934935,0.972679607
0.044626208,-0.509323776,-0.848908484,0.980056323
0.044852736,-0.612342477,-0.783897221,0.989458162
0.045079264,-0.708456457,-0.705604196,0.999787833
0.045305792,-0.795359373,-0.614260674,1.009912708
0.045532324,-0.87060535,-0.510872662,1.018944552
0.045758852,-0.932090759,-0.397188097,1.026551567
0.04598538,-0.978345275,-0.275152892,1.032868591
0.046211908,-1.0077827,-0.14644666,1.037072595
0.04643844,-1.01818383,-0.013852763,1.036890211
0.046664968,-1.00873518,0.118181899,1.031513625
0.046891496,-0.980760038,0.245548606,1.02218437
0.047118024,-0.936559379,0.36540705,1.010665783
0.047344552,-0.878620803,0.476033121,0.998582048
0.047571084,-0.809252739,0.576548874,0.9872986
0.047797612,-0.730375111,0.666650593,0.977870816
0.04802414,-0.643435955,0.746330917,0.971019666
0.048250668,-0.549449146,0.815618634,0.96712812
0.0484772,-0.449132025,0.874393821,0.96628413
0.048703728,-0.343093365,0.922320366,0.968387915
0.048930256,-0.231978759,0.958911061,0.973324568
0.049156784,-0.116429143,0.983652234,0.981127463
0.049383316,0.003171944,0.995798707,0.991625126
0.049609844,0.126283199,0.993623555,1.003235215
0.049836372,0.25073278,0.974902391,1.013301599
0.0500629,0.373012543,0.938769341,1.020426233
0.050289432,0.489812404,0.885825694,1.024603351
0.05051596,0.598426044,0.817369819,1.026207151
0.050742488,0.696632385,0.735058963,1.025608359
0.050969016,0.78263098,0.640805304,1.023142688
0.051195548,0.855024934,0.536701381,1.01911601
0.051422076,0.9128142,0.424959213,1.013820096
0.051648604,0.955396175,0.30785495,1.007556521
0.051875132,0.982587755,0.187671095,1.000699136
0.052101664,0.994658053,0.066596448,0.993779729
0.052328192,0.99234277,-0.053457715,0.9876019
0.05255472,0.976683974,-0.171163321,0.983208468
0.052781248,0.948424876,-0.28592217,0.981261233
0.05300778,0.907408535,-0.397062123,0.981048579
0.053234308,0.853462517,-0.502905667,0.981312378
0.053460836,0.787379861,-0.601572216,0.981856177
0.053687364,0.710378647,-0.691796899,0.983220772
0.053913892,0.62351042,-0.77272141,0.985863621
0.054140424,0.527608097,-0.843525589,0.989905723
0.054366952,0.423441887,-0.903240144,0.995145789
0.05459348,0.311910182,-0.950703204,1.001124544
0.054820008,0.194214731,-0.98462528,1.007206304
0.05504654,0.071990393,-1.00374329,1.012683209
0.055273068,-0.052659106,-1.00704741,1.016917467
0.055499596,-0.177266955,-0.994032264,1.019523715
0.055726124,-0.299291223,-0.964863479,1.020536769
0.055952656,-0.4165169,-0.920250773,1.020347813
0.056179184,-0.527103662,-0.860912025,1.019007785
0.056405712,-0.628871381,-0.787485182,1.015612126
0.05663224,-0.719234228,-0.70153749,1.009452725
0.056858772,-0.796396494,-0.605745137,1.001174547
0.0570853,-0.859808147,-0.502904058,0.992182541
0.057311828,-0.909735918,-0.39528951,0.983873237
0.057538356,-0.946770787,-0.284530878,0.977332744
0.057764888,-0.971488059,-0.171708345,0.973272805
0.057991416,-0.984233677,-0.057538189,0.972026574
0.058217944,-0.985026956,0.05739706,0.973572527
0.058444472,-0.973585308,0.172418222,0.977596395
0.058671004,-0.949463487,0.286578178,0.983607965
0.058897532,-0.912251115,0.398614436,0.991095565
0.05912406,-0.861722291,0.507059515,0.999674659
0.059350588,-0.797737896,0.6103791,1.008948396
0.05957712,-0.720033288,0.706701994,1.017875644
0.059803648,-0.628734887,0.793261766,1.024571788
0.060030176,-0.525385737,0.866939306,1.027613933
0.060256704,-0.412758648,0.925483286,1.026889014
0.060483232,-0.293946892,0.967816293,1.023073152
0.060709764,-0.171855733,0.993741691,1.017056941
0.060936292,-0.049037356,1.00364959,1.009717162
0.06116282,0.072357044,0.998306692,1.001851793
0.061389348,0.190570399,0.978689969,0.994151132
0.06161588,0.304197252,0.945863187,0.987193137
0.061842408,0.412118226,0.900896251,0.981455487
0.062068936,0.513451338,0.844830692,0.977371175
0.062295464,0.607542038,0.778643847,0.975393568
0.062521996,0.693977058,0.703133285,0.976000574
0.062748524,0.772428036,0.618663549,0.979389658
0.062975052,0.842078686,0.52513063,0.984858692
0.06320158,0.901223838,0.422733545,0.990908056
0.063428112,0.947963893,0.312693775,0.996412939
0.06365464,0.980983078,0.196885958,1.00109188
0.063881168,0.999528825,0.077279396,1.005029977
0.064107696,1.00316906,-0.044200186,1.008301819
0.064334228,0.991686761,-0.165623009,1.010873613
0.064560756,0.965083897,-0.285008341,1.012616683
0.064787284,0.923637569,-0.400318801,1.013361501
0.065013812,0.867962241,-0.509501994,1.012950734
0.065240344,0.799069047,-0.610585213,1.011325644
0.065466872,0.71837306,-0.701824725,1.008617798
0.0656934,0.627600193,-0.78189218,1.005237383
0.065919928,0.528521478,-0.849989355,1.001816856
0.06614646,0.422602087,-0.905655086,0.998803659
0.066372988,0.311062723,-0.948243678,0.995926091
0.066599516,0.195527479,-0.976888478,0.992542093
0.066826044,0.07814873,-0.991222203,0.98862868
0.067052572,-0.039049808,-0.991639853,0.984874486
0.067279104,-0.154571131,-0.978891313,0.982120437
0.067505632,-0.267371058,-0.95367533,0.980983918
0.06773216,-0.376624107,-0.916465461,0.981754659
0.067958688,-0.481496722,-0.867504418,0.984403009
0.068185216,-0.580977678,-0.806901574,0.988625212
0.068411744,-0.67379266,-0.734798312,0.993925108
0.06863828,-0.758422017,-0.651554465,0.999727177
0.068864808,-0.833229542,-0.557892561,1.005515579
0.069091336,-0.89666146,-0.454922587,1.010956334
0.069317864,-0.947377205,-0.343987346,1.015850863
0.069544392,-0.984093845,-0.226511151,1.019747997
0.06977092,-1.00535643,-0.104295291,1.021619059
0.069997448,-1.00998044,0.019993099,1.020460213
0.070223976,-0.9978441,0.143163368,1.016188598
0.070450512,-0.969931781,0.262341768,1.009590863
0.07067704,-0.927827597,0.375385612,1.001778407
0.070903568,-0.873269618,0.480864942,0.993830918
0.071130096,-0.80788815,0.577902377,0.98665442
0.071356624,-0.73307699,0.665981174,0.980932797
0.071583152,-0.649957359,0.744760454,0.977112702
0.07180968,-0.559422553,0.81392622,0.975429484
0.072036208,-0.462223709,0.873100042,0.975954441
0.072262744,-0.359057814,0.921821535,0.978677456
0.072489272,-0.250587881,0.959560812,0.983551238
0.0727158,-0.137406796,0.985637307,0.990361529
0.072942328,-0.020169128,0.99896723,0.99834232
0.073168856,0.099854782,0.998031259,1.006037371
0.073395384,0.220388323,0.981556475,1.012024127
0.073621912,0.338611066,0.949207544,1.015652416
0.07384844,0.451834649,0.90155679,1.016959196
0.074074968,0.557772756,0.839738607,1.016271375
0.074301504,0.654552937,0.765204906,1.013978096
0.074528032,0.74067831,0.679598212,1.010458089
0.07475456,0.815000355,0.584675312,1.006070799
0.074981088,0.876697898,0.482250422,1.001164674
0.075207616,0.925268173,0.374147087,0.996107235
0.075434144,0.960525334,0.262136698,0.991324566
0.075660672,0.982590377,0.147840887,0.987340777
0.0758872,0.991806269,0.032590859,0.984741839
0.076113736,0.988481581,-0.082664497,0.983929255
0.076340264,0.972547948,-0.197132871,0.98471088
0.076566792,0.943620384,-0.309634924,0.986293215
0.07679332,0.901596963,-0.418454707,0.987981426
0.077019848,0.846966743,-0.521815896,0.989644493
0.077246376,0.780564725,-0.618235052,0.991495869
0.077472904,0.703292131,-0.706486642,0.993743197
0.077699432,0.616041541,-0.785446286,0.996433048
0.077925968,0.519751489,-0.85398674,0.999434962
0.078152496,0.415503502,-0.910954535,1.002481325
0.078379024,0.30461356,-0.955222964,1.005240332
0.078605552,0.188680753,-0.985797405,1.00739695
0.07883208,0.069561832,-1.00195825,1.008759183
0.079058608,-0.050753005,-1.00337458,1.009336415
0.079285136,-0.170342639,-0.990096748,1.009308185
0.079511664,-0.287469536,-0.962356329,1.008768438
0.0797382,-0.400376201,-0.92037034,1.007382665
0.079964728,-0.506983519,-0.864596546,1.004559476
0.080191256,-0.60514462,-0.79620856,1.000148082
0.080417784,-0.693241,-0.71702081,0.994701926
0.080644312,-0.770391822,-0.628988266,0.989129798
0.08087084,-0.836265087,-0.53383255,0.984316487
0.081097368,-0.890790761,-0.432918906,0.980926959
0.081323896,-0.933932722,-0.327298999,0.979354964
0.081550424,-0.965543211,-0.217829779,0.979723505
0.08177696,-0.985308588,-0.105325654,0.981926507
0.082003488,-0.992782235,0.009300407,0.985703064
0.082230016,-0.987478375,0.124954976,0.990727287
0.082456544,-0.96897465,0.240368456,0.996688867
0.082683072,-0.936924696,0.354152411,1.003251816
0.0829096,-0.890969753,0.46474269,1.009812869
0.083136128,-0.830816507,0.570115805,1.015288099
0.083362656,-0.756749809,0.667683244,1.018471188
0.083589192,-0.670077085,0.754808486,1.01873915
0.08381572,-0.572926879,0.829462349,1.016252997
0.084042248,-0.467737943,0.890426874,1.011638801
0.084268776,-0.356895179,0.937174737,1.005670656
0.084495304,-0.242557973,0.969674647,0.999103291
0.084721832,-0.126598611,0.988219142,0.992604281
0.08494836,-0.010601048,0.993289411,0.986736236
0.085174888,0.104106084,0.985452116,0.98195395
0.085401424,0.216405734,0.965298593,0.978632815
0.085627952,0.325363874,0.933401167,0.977099389
0.08585448,0.430214614,0.89025116,0.977631742
0.086081008,0.530298531,0.836130202,0.980330247
0.086307536,0.624813437,0.770999074,0.984831403
0.086534064,0.712433159,0.694706142,0.99017763
0.086760592,0.791281939,0.607549608,0.995243633
0.08698712,0.859435022,0.510590732,0.999331453
0.087213648,0.915362239,0.405432612,1.002263631
0.087440184,0.957992911,0.293893605,1.004123869
0.087666712,0.986617446,0.17784664,1.005043412
0.08789324,1.00080836,0.05918349,1.005120059
0.088119768,1.00039887,-0.060190775,1.004420828
0.088346296,0.985490143,-0.178372115,1.003007433
0.088572824,0.956471682,-0.293498009,1.00097916
0.088799352,0.914033234,-0.403820425,0.998527689
0.08902588,0.859130442,-0.507811248,0.99597738
0.089252416,0.792860508,-0.604254723,0.993751555
0.089478944,0.716254592,-0.692225277,0.992196475
0.089705472,0.630147457,-0.770837665,0.991276523
0.089932,0.535396814,-0.838970602,0.990521419
0.090158528,0.433276057,-0.895409107,0.98948561
0.090385056,0.325469434,-0.939279556,0.988176437
0.090611584,0.213713154,-0.970208645,0.986978127
0.090838112,0.099539325,-0.988146544,0.98634167
0.091064648,-0.015741166,-0.993143082,0.986580966
0.091291176,-0.130933195,-0.985220075,0.987802098
0.091517704,-0.244829237,-0.964351654,0.989915468
0.091744232,-0.35611254,-0.930521011,0.992685493
0.09197076,-0.463319004,-0.883822918,0.99580745
0.092197288,-0.564870834,-0.824568868,0.998992877
0.092423816,-0.659179628,-0.753346026,1.002048017
0.092650344,-0.744751692,-0.670973778,1.004860894
0.09287688,-0.820183218,-0.578390718,1.007236334
0.093103408,-0.883996069,-0.476670444,1.008663762
