Frequency (GHz),Re( S21 ),Im( S21 ),S2
0,0.024032498,0,0.000577561
0.000226393,0.021793144,-0.010185314,0.000578682
0.000452787,0.015445911,-0.018530106,0.000581941
0.00067918,0.006072827,-0.023455028,0.000587018
0.000905573,-0.004642582,-0.023913201,0.000593395
0.001131967,-0.014645178,-0.019645723,0.000600436
0.00135836,-0.021881912,-0.011342057,0.00060746
0.001584753,-0.024768751,-0.000600371,0.000613851
0.001811147,-0.022618761,0.010375661,0.000619263
0.00203754,-0.015853358,0.019295692,0.000623653
0.002263933,-0.005897316,0.024343329,0.000627376
0.002490327,0.005203115,0.024576819,0.000631092
0.00271672,0.015275322,0.020057714,0.000635647
0.002943113,0.022456287,0.011730311,0.000641885
0.003169507,0.025480188,0.001161787,0.00065059
0.0033959,0.023788972,-0.009760127,0.000661175
0.003622293,0.017654134,-0.019093478,0.000676229
0.003848687,0.008006493,-0.025099555,0.000694092
0.00407508,-0.003524954,-0.026505997,0.000714993
0.004301473,-0.014834191,-0.022768483,0.000738457
0.004527867,-0.023645647,-0.014300698,0.000763627
0.00475426,-0.027979912,-0.002558465,0.000789421
0.004980653,-0.026678996,0.010143992,0.000814669
0.005207047,-0.019803818,0.021124363,0.00083843
0.00543344,-0.008698294,0.028010259,0.000860235
0.005659833,0.004345783,0.029348651,0.000880229
0.005886227,0.01668741,0.024914473,0.000899201
0.00611262,0.025952008,0.015648199,0.000918373
0.006339013,0.030464498,0.003334391,0.000939204
0.006565407,0.029443177,-0.009807936,0.000963096
0.0067918,0.023036823,-0.021503143,0.00099308
0.007018193,0.012190329,-0.029659266,0.001028276
0.007244587,-0.001401735,-0.032697234,0.001071074
0.00747098,-0.015470106,-0.029715773,0.001122351
0.007697373,-0.027406424,-0.020768751,0.001182453
0.007923767,-0.034657363,-0.007061697,0.001251
0.00815016,-0.035285071,0.009033703,0.001326644
0.008376553,-0.028577061,0.02429783,0.001407033
0.008602946,-0.01545809,0.035358209,0.001489156
0.00882934,0.001561236,0.039592061,0.001569969
0.009055733,0.018974278,0.035877589,0.001647225
0.009282126,0.033189472,0.024866749,0.001719896
0.00950852,0.04138317,0.008718624,0.001788581
0.009734913,0.042010464,-0.009512775,0.001855372
0.009961306,0.034931716,-0.026553683,0.001925323
0.0101877,0.021328231,-0.039364293,0.002004441
0.010414093,0.003212562,-0.045581061,0.002087954
0.010640486,-0.016490754,-0.043806847,0.002190985
0.01086688,-0.03442391,-0.033696417,0.002320454
0.011093273,-0.04712078,-0.016255932,0.002484623
0.011319666,-0.051533248,0.006026431,0.002691994
0.01154606,-0.045739122,0.029282073,0.002949507
0.011772453,-0.029677521,0.048780374,0.00326028
0.011998846,-0.005602557,0.059916485,0.003621374
0.01222524,0.022084273,0.059456632,0.004022806
0.012451633,0.047744706,0.046572365,0.004448542
0.012678026,0.065888695,0.023195436,0.004879348
0.01290442,0.072495021,-0.00644666,0.005297087
0.013130813,0.065817572,-0.036852274,0.005690043
0.013357206,0.046583019,-0.06236532,0.006059411
0.013583599,0.017644336,-0.077971965,0.00639095
0.013809993,-0.016605958,-0.080187567,0.006705804
0.014036386,-0.050439145,-0.067304522,0.007074006
0.014262779,-0.077537365,-0.039684609,0.007586911
0.014489173,-0.091617085,-0.000170695,0.008393719
0.014715566,-0.08736153,0.045702748,0.009720778
0.014941959,-0.061674506,0.089896813,0.011885182
0.015168353,-0.015013928,0.122763351,0.015296258
0.015394746,0.047695685,0.134772509,0.020438508
0.015621139,0.11716526,0.118790396,0.027838856
0.015847533,0.181167021,0.072165772,0.038029388
0.016073926,0.226972073,-0.00222959,0.051521293
0.016300319,0.243939251,-0.09641768,0.068802727
0.016526713,0.225353807,-0.198893473,0.090342952
0.016753106,0.169117585,-0.296643585,0.116598174
0.0169795,0.077581704,-0.376923084,0.148089932
0.017205892,-0.04290165,-0.428649455,0.185580907
0.017432286,-0.183947921,-0.443151325,0.230219934
0.01765868,-0.33427158,-0.413074762,0.282368248
0.017885072,-0.480012,-0.334676325,0.342419763
0.018111466,-0.605800688,-0.20833151,0.410396492
0.01833786,-0.695830762,-0.039401837,0.485732954
0.018564252,-0.73564738,0.161152184,0.567147094
0.018790646,-0.714528561,0.37697202,0.652658968
0.01901704,-0.627992272,0.587714314,0.739782409
0.019243432,-0.479607254,0.771247447,0.824845743
0.019469826,-0.27888912,0.906758308,0.89998977
0.01969622,-0.041943189,0.982310891,0.966693918
0.019922612,0.209384486,0.99091804,1.025760425
0.020149006,0.454483181,0.932321548,1.075778431
0.0203754,0.67526406,0.812721014,1.116496997
0.020601792,0.857401848,0.642721534,1.148228899
0.020828186,0.990823627,0.435497433,1.171389474
0.02105458,1.06960821,0.205389962,1.186246759
0.021280972,1.09166801,-0.033075769,1.192833051
0.021507366,1.05845511,-0.265935272,1.191048789
0.02173376,0.97479862,-0.480537087,1.181148242
0.021960152,0.848833561,-0.666127801,1.164244662
0.022186546,0.690775692,-0.814614117,1.140767216
0.02241294,0.511764884,-0.922719538,1.113314642
0.022639332,0.34414798,-0.954729736,1.029946701
0.022865726,0.153526545,-0.999209464,1.021989953
0.02309212,-0.023170259,-0.990080535,0.980796327
0.023318512,-0.183431596,-0.95409596,0.943946251
0.023544906,-0.326891303,-0.898378313,0.913941517
0.0237713,-0.45461309,-0.828260541,0.892688585
0.023997692,-0.568678796,-0.746970594,0.881360641
0.024224086,-0.671171367,-0.655641854,0.880337245
0.02445048,-0.763258696,-0.553747177,0.889199773
0.024676872,-0.84455502,-0.439832836,0.906726105
0.024903266,-0.912778854,-0.31240055,0.93075934
0.02512966,-0.963358521,-0.171186671,0.957364516
0.025356052,-0.998756886,-0.013335357,0.997693149
0.025582446,-1.00514114,0.150620475,1.032995239
0.02580884,-0.972540021,0.298457116,1.034910743
0.026035232,-0.925989091,0.455619901,1.065045291
0.026261626,-0.845854878,0.610822201,1.088574236
0.02648802,-0.734572232,0.745657742,1.095601832
0.026714412,-0.601445735,0.855332613,1.093330851
0.026940806,-0.453357905,0.937325537,1.084112552
0.027167198,-0.296963006,0.990731955,1.069736834
0.027393592,-0.13830395,1.01628792,1.051969119
0.027619986,0.017588532,1.01594615,1.032455936
0.027846378,0.166836545,0.992356122,1.012605106
0.028072772,0.306629181,0.948399127,0.993482359
0.028299166,0.434946895,0.886885762,0.975745156
0.028525558,0.550242484,0.810626149,0.959881545
0.028751952,0.65173924,0.722618163,0.946941046
0.028978346,0.739483297,0.625479877,0.938060623
0.029204738,0.81447655,0.521815658,0.935663631
0.029431132,0.880258858,0.410970777,0.943752637
0.029657526,0.932972193,0.288616508,0.953736602
0.029883918,0.968249798,0.158948317,0.962772239
0.030110312,0.98613745,0.024937309,0.97308894
0.030336706,0.98621881,-0.111665815,0.985096795
0.030563098,0.967703998,-0.248910591,0.99840751
0.030789492,0.929812193,-0.384390622,1.012306865
0.031015886,0.872028887,-0.515191197,1.025856349
0.031242278,0.794360459,-0.637907684,1.037934752
0.031468672,0.697607279,-0.748748124,1.047279669
0.031695066,0.583668947,-0.843775928,1.052627256
0.031921458,0.455783695,-0.919426501,1.053083867
0.032147852,0.318366587,-0.973235667,1.048544947
0.032374246,0.176471323,-1.00442469,1.040011086
0.032600638,0.034492377,-1.01457298,1.030548056
0.032827032,-0.106449202,-1.00514483,1.021647562
0.033053426,-0.243106663,-0.974302113,1.008365457
0.033279818,-0.369885057,-0.924511075,0.991535683
0.033506212,-0.484630257,-0.860185385,0.974785383
0.033732604,-0.587191641,-0.784768939,0.960656311
0.033959,-0.678222656,-0.700573266,0.950788872
0.034185392,-0.758575439,-0.608848512,0.946133207
0.034411784,-0.828812361,-0.509958208,0.946987304
0.03463818,-0.888835907,-0.403717101,0.953016767
0.034864572,-0.937704086,-0.289859444,0.96330745
0.035090964,-0.973700941,-0.168560132,0.976506041
0.03531736,-0.994703412,-0.040853988,0.991103926
0.035543752,-0.998744786,0.091230847,1.005814215
0.035770144,-0.984653413,0.224966317,1.020152188
0.03599654,-0.952091753,0.358094811,1.0347106
0.036222932,-0.89924866,0.488579959,1.047358529
0.036449324,-0.824683905,0.610774755,1.053149345
0.03667572,-0.731329083,0.718945742,1.051725208
0.036902112,-0.623508334,0.810031354,1.044913437
0.037128504,-0.505392432,0.882614553,1.034429959
0.0373549,-0.380794019,0.936371088,1.021794899
0.037581292,-0.253002018,0.971783519,1.008373229
0.037807684,-0.124673016,0.98984164,0.995329833
0.03803408,0.002157927,0.991753817,0.98358029
0.038260472,0.125960201,0.978729069,0.973776563
0.038486864,0.245544836,0.951878667,0.966365263
0.03871326,0.359945446,0.912226081,0.961717147
0.038939652,0.468410134,0.860770404,0.960333742
0.039166044,0.570633352,0.798452199,0.963148337
0.03939244,0.666968703,0.725313604,0.970927075
0.039618832,0.756484866,0.639650106,0.981421611
0.039845224,0.835724592,0.541117966,0.991244247
0.04007162,0.901925147,0.431663603,0.999802437
0.040298012,0.953529537,0.313449919,1.00746943
0.040524404,0.989350915,0.188525274,1.014357012
0.0407508,1.00838065,0.059043136,1.020317627
0.040977192,1.0098455,-0.07263568,1.025063876
0.041203584,0.993295968,-0.203924343,1.028222018
0.04142998,0.958717406,-0.332034528,1.029385992
0.041656372,0.90666008,-0.454056293,1.028199618
0.041882764,0.838366389,-0.567130506,1.024495213
0.04210916,0.755828142,-0.668739736,1.018489015
0.042335552,0.661667347,-0.757110298,1.011019681
0.042561944,0.558598518,-0.831628263,1.003637872
0.04278834,0.448299289,-0.892447412,0.997434636
0.043014732,0.331760764,-0.938661814,0.991151206
0.043241124,0.211482003,-0.969041765,0.98376658
0.04346752,0.090380527,-0.984020233,0.976464459
0.043693912,-0.029694598,-0.984874904,0.970860346
0.043920304,-0.14780277,-0.972736061,0.968061103
0.0441467,-0.263448715,-0.9482584,0.968599219
0.044373092,-0.376196057,-0.911579132,0.972499987
0.044599484,-0.485354334,-0.862420321,0.97933764
0.04482588,-0.589751363,-0.800314903,0.988310614
0.045052272,-0.687639356,-0.724924982,0.998364113
0.045278664,-0.776783586,-0.636384487,1.008377955
0.04550506,-0.854753792,-0.535565257,1.017434189
0.045731452,-0.91938895,-0.424097985,1.025135142
0.045957844,-0.969148636,-0.303898841,1.031603584
0.04618424,-1.00251484,-0.176600054,1.036223583
0.046410632,-1.01724231,-0.044695392,1.036779595
0.046637024,-1.0121789,0.08753144,1.032167879
0.04686342,-0.988355815,0.215858877,1.023442272
0.047089812,-0.947934151,0.337274253,1.012333076
0.047316204,-0.893345594,0.449895769,1.000472553
0.0475426,-0.826891899,0.552709281,0.989237762
0.047768992,-0.750523627,0.645307064,0.979706922
0.047995384,-0.665740132,0.727613151,0.972630821
0.04822178,-0.573606133,0.799624622,0.968423532
0.048448172,-0.474878162,0.861214876,0.967200331
0.048674564,-0.370183825,0.912053883,0.96887835
0.04890096,-0.260177374,0.951655388,0.973340243
0.049127352,-0.145526156,0.979504704,0.980607327
0.049353744,-0.026661709,0.99493289,0.990602302
0.04958014,0.095982008,0.996382773,1.001991176
0.049806532,0.22052227,0.981592119,1.01215316
0.050032924,0.343564361,0.949446142,1.019484447
0.05025932,0.461748719,0.900370836,1.023879522
0.050485712,0.572309315,0.835564554,1.025706076
0.050712104,0.672975957,0.756606102,1.025349432
0.0509385,0.761894584,0.665332794,1.023151084
0.051164892,0.837604523,0.563769758,1.019417677
0.051391284,0.899030864,0.454069108,1.014435249
0.05161768,0.945481122,0.338459074,1.008489097
0.051844072,0.976665676,0.219192952,1.001921393
0.052070464,0.992735684,0.098462142,0.995218932
0.05229686,0.994308591,-0.021769401,0.989123481
0.052523252,0.982357562,-0.140058547,0.984642776
0.052749644,0.957680464,-0.255699575,0.982534144
0.05297604,0.920211196,-0.368087113,0.982276768
0.053202432,0.869666159,-0.475653142,0.98256514
0.053428824,0.80669117,-0.57644254,0.983036646
0.05365522,0.732486427,-0.669071198,0.984192634
0.053881612,0.64814347,-0.752625346,0.986534869
0.054108004,0.55452776,-0.826285183,0.99024824
0.054334396,0.452409714,-0.889108777,0.995188967
0.054560792,0.342651874,-0.939966679,1.000947664
0.054787184,0.22638534,-0.97758615,1.006925003
0.055013576,0.105149791,-1.00068593,1.012428809
0.055239972,-0.019049889,-1.00819194,1.016813886
0.055466364,-0.143818408,-0.999483824,1.019651649
0.055692756,-0.266625673,-0.974588633,1.020912253
0.055919152,-0.385201782,-0.934116125,1.020953348
0.056145544,-0.497685134,-0.878769338,1.019926042
0.056371936,-0.60198611,-0.809099138,1.017028692
0.056598332,-0.695497453,-0.7264238,1.011408244
0.056824724,-0.776200771,-0.633256972,1.003502029
0.057051116,-0.843321323,-0.532406211,0.994647227
0.057277512,-0.896981299,-0.426234961,0.986251693
0.057503904,-0.937701643,-0.31647867,0.97944312
0.057730296,-0.966045082,-0.204309866,0.974985622
0.057956692,-0.982381821,-0.090507694,0.973265685
0.058183084,-0.986774862,0.024321817,0.974316179
0.058409476,-0.978980899,0.13951607,0.977868334
0.058635872,-0.958570123,0.254173517,0.983460857
0.058862264,-0.925115585,0.3670834,0.990589068
0.059088656,-0.878357053,0.476809859,0.998858754
0.059315052,-0.818153024,0.581849217,1.007922882
0.059541444,-0.744235575,0.680448651,1.016896958
0.059767836,-0.656558275,0.77001369,1.023989851
0.059994232,-0.556357622,0.847404957,1.027628965
0.060220624,-0.446211576,0.910172105,1.027518031
0.060447016,-0.329156756,0.957033455,1.024257204
0.060673412,-0.208104283,0.987628281,1.018717014
0.060899804,-0.085639156,1.00221539,1.011769753
0.061126196,0.036036428,1.0014571,1.004214947
0.061352592,0.155106246,0.986248434,0.996743921
0.061578984,0.270100564,0.957589269,0.989931523
0.061805376,0.379834175,0.916501999,0.984249915
0.062031772,0.483353883,0.863993347,0.98011548
0.062258164,0.579926193,0.801027238,0.977959025
0.062484556,0.669056475,0.728431404,0.978248877
0.062710952,0.750393152,0.646658361,0.981256918
0.062937344,0.823223054,0.555659235,0.986453382
0.063163736,0.885954022,0.455513746,0.992407302
0.063390132,0.936632216,0.347273588,0.997878853
0.063616524,0.973812044,0.232753426,1.002484054
0.063842916,0.996655643,0.113930024,1.006302521
0.064069312,1.00468361,-0.007266154,1.009441953
0.064295704,0.997640014,-0.128917754,1.011905385
0.064522096,0.975480258,-0.249069467,1.013597333
0.064748492,0.938413143,-0.365711242,1.014363939
0.064974884,0.886965215,-0.476806998,1.014052206
0.065201276,0.822039545,-0.580373943,1.012582927
0.065427672,0.744942665,-0.674619496,1.010051039
0.065654064,0.657313526,-0.758120835,1.006808272
0.065880456,0.560900688,-0.829967141,1.003455037
0.066106852,0.457203984,-0.889641941,1.000498266
0.066333244,0.347420275,-0.936527669,0.997784922
0.066559636,0.233038351,-0.969713271,0.994650701
0.066786032,0.116142355,-0.988647103,0.990912141
0.067012424,-0.001171422,-0.99355799,0.987158852
0.067238816,-0.117287524,-0.985125601,0.984228813
0.067465208,-0.231071517,-0.964048803,0.982784141
0.067691608,-0.341650814,-0.930832446,0.983174321
0.067918,-0.448189348,-0.885749459,0.985425796
0.068144392,-0.549707413,-0.828920603,0.989287606
0.068370784,-0.64497751,-0.760464013,0.994301503
0.068597176,-0.732521594,-0.680678666,0.999911332
0.068823568,-0.810715139,-0.590198576,1.005593396
0.069049968,-0.877978325,-0.490046978,1.01099198
0.06927636,-0.932930708,-0.381513,1.015911875
0.069502752,-0.974296987,-0.265968561,1.019993894
0.069729144,-1.00063407,-0.145060822,1.022311184
0.069955536,-1.01060903,-0.021247175,1.021782054
0.070181928,-1.00382054,0.102349438,1.018131084
0.070408328,-0.98101908,0.222762495,1.012021565
0.07063472,-0.943654418,0.337701142,1.004525722
0.070861112,-0.893407822,0.445593417,0.99673103
0.071087504,-0.831898153,0.545443892,0.989563576
0.071313896,-0.760536075,0.636648357,0.983736252
0.071540288,-0.680468917,0.718808889,0.979724166
0.071766688,-0.592612445,0.791579008,0.977786836
0.07199308,-0.497730523,0.854561448,0.978010942
0.072219472,-0.396525055,0.907280028,0.980389168
0.072445864,-0.28967315,0.949195206,0.984882073
0.072672256,-0.177785784,0.979654372,0.991330474
0.072898648,-0.061476547,0.997662485,0.9991098
0.07312504,0.058162898,1.00174415,1.006874265
0.07335144,0.179056585,0.990492821,1.013137289
0.073577832,0.298443407,0.963345587,1.017103187
0.073804224,0.413583606,0.920692384,1.018725865
0.074030616,0.522109568,0.863548934,1.018315162
0.074257008,0.622068226,0.793281913,1.016265071
0.0744834,0.711885512,0.711467206,1.012966567
0.0747098,0.790332079,0.61980468,1.008782636
0.074936192,0.856501758,0.520062983,1.004060768
0.075162584,0.909797132,0.414031953,0.99915328
0.075388976,0.949929535,0.303470552,0.994460497
0.075615368,0.976915479,0.190021783,0.990472131
0.07584176,0.991018534,0.075079754,0.987754704
0.07606816,0.992538512,-0.040329292,0.98675915
0.076294552,0.98146069,-0.155411124,0.987417703
0.076520944,0.957389891,-0.269088387,0.989003963
0.076747336,0.920086145,-0.379709661,0.990737941
0.076973728,0.869896412,-0.485441983,0.992373686
0.07720012,0.807595909,-0.584705055,0.994091154
0.07742652,0.734077156,-0.676205575,0.996123251
0.077652912,0.650232494,-0.758790791,0.998565761
0.077879304,0.556982219,-0.831327796,1.001335097
0.078105696,0.455364436,-0.892662883,1.004203792
0.078332088,0.346628249,-0.941654205,1.006863785
0.07855848,0.232292444,-0.977263927,1.009004563
0.07878488,0.114141062,-0.998692334,1.01041456
0.079011272,-0.005875431,-1.00550127,1.011067325
0.079237664,-0.125831261,-0.997644365,1.011127785
0.079464056,-0.243976459,-0.975300789,1.010736142
0.079690448,-0.358606815,-0.938645244,1.009653742
0.07991684,-0.467724025,-0.887986124,1.00728512
0.08014324,-0.569138229,-0.824265242,1.003331513
0.080369632,-0.661054194,-0.749138772,0.998201547
0.080596024,-0.742396891,-0.664526343,0.992748404
0.080822416,-0.812689543,-0.572189629,0.987865265
0.081048808,-0.871777952,-0.473559499,0.984255397
0.0812752,-0.919589281,-0.369747221,0.982357453
0.0815016,-0.955971539,-0.26164785,0.982341181
0.081727992,-0.980619371,-0.150084376,0.984139671
0.081954384,-0.993089676,-0.035951119,0.987519588
0.082180776,-0.992883682,0.079689525,0.992168426
0.082407168,-0.979551613,0.195597038,0.997779564
0.08263356,-0.952732801,0.310408056,1.004052951
0.08285996,-0.912071645,0.422624677,1.010486303
0.083086352,-0.857217312,0.53037113,1.016115056
0.083312744,-0.788245022,0.631183445,1.019722756
0.083539136,-0.706186533,0.722388029,1.020543884
0.083765528,-0.612978458,0.80178678,1.018604631
0.08399192,-0.510975838,0.867973745,1.014474729
0.08421832,-0.402545035,0.920258164,1.008917594
0.084444712,-0.289856941,0.958478689,1.002698444
0.084671104,-0.174808696,0.982823193,0.996499509
0.084897496,-0.059015147,0.993684351,0.990891377
0.085123888,0.056162264,0.991553009,0.98633157
0.08535028,0.169568896,0.976950705,0.98318629
0.08557668,0.280220985,0.950389624,0.981764238
0.085803072,0.387291729,0.912325323,0.982332378
0.086029464,0.490074396,0.863047361,0.985023661
0.086255856,0.587790668,0.80254668,0.989579043
0.086482248,0.679212511,0.730620563,0.995136042
0.08670864,0.762508571,0.647390068,1.000533221
0.08693504,0.835657656,0.553730786,1.004941501
0.087161432,0.896964788,0.451155901,1.008087478
0.087387824,0.945212781,0.341470182,1.010029087
0.087614216,0.979582846,0.226564407,1.010913983
0.087840608,0.999565661,0.108350374,1.010871314
0.088067,1.00492358,-0.011249619,1.009997956
0.0882934,0.995687187,-0.130316854,1.008375457
0.088519792,0.972173035,-0.246969149,1.006114171
0.088746184,0.934995413,-0.35942477,1.003402588
0.088972576,0.885043025,-0.466099411,1.000549817
0.089198968,0.823380828,-0.565706968,0.997980362
0.08942536,0.751053333,-0.657274604,0.996091014
0.08965176,0.66890806,-0.739945889,0.994957911
0.089878152,0.577720761,-0.812666416,0.994187981
0.090104544,0.47859776,-0.874195218,0.993273095
0.090330936,0.373105645,-0.923520267,0.992097506
0.090557328,0.262962341,-0.96011579,0.990971523
0.09078372,0.14973326,-0.983830035,0.990341587
0.09101012,0.034760401,-0.99465543,0.99054771
0.091236512,-0.080749892,-0.992578745,0.99173311
0.091462904,-0.195602596,-0.977536559,0.9938381
0.091689296,-0.308506608,-0.949458659,0.996648072
0.091915688,-0.418020159,-0.908359468,0.999857776
0.09214208,-0.522568464,-0.854451716,1.003165535
0.09236848,-0.620531261,-0.788219333,1.006348763
0.092594872,-0.710360169,-0.710404456,1.009286061
0.092821264,-0.790613353,-0.621899307,1.011828222
0.093047656,-0.859820545,-0.523701072,1.013554182
0.093274048,-0.91637212,-0.41715008,1.013752052
