Frequency (GHz),Re( S21 ),Im( S21 ),S2
0,0.02369058,0,0.000561244
0.000226394,0.021479158,-0.010048394,0.000562324
0.000452787,0.015212078,-0.018277552,0.000565476
0.000679181,0.005959739,-0.023127114,0.000570382
0.000905574,-0.004612655,-0.023564654,0.000576569
0.001131968,-0.014474005,-0.019337202,0.000583424
0.001358361,-0.02159691,-0.011129511,0.000590293
0.001584755,-0.024419924,-0.000523978,0.000596607
0.001811148,-0.022268806,0.010300946,0.000602009
0.002037542,-0.01556572,0.019083759,0.000606482
0.002263936,-0.005722572,0.024033083,0.000610337
0.002490329,0.005236167,0.024223734,0.000614207
0.002716723,0.015162936,0.019722467,0.00061889
0.002943116,0.022219056,0.01146865,0.000625216
0.00316951,0.025157677,0.00101596,0.000633941
0.003395903,0.023433551,-0.009765297,0.000644492
0.003622297,0.017323261,-0.018955398,0.000659403
0.00384869,0.007755755,-0.024837442,0.00067705
0.004075084,-0.00365049,-0.026160002,0.000697672
0.004301478,-0.014807637,-0.022395356,0.000720818
0.004527871,-0.023465827,-0.013966092,0.000745697
0.004754265,-0.027673913,-0.002324717,0.00077125
0.004980658,-0.026299667,0.010230786,0.000796341
0.005207052,-0.019420108,0.021045456,0.000820052
0.005433445,-0.008380451,0.02777916,0.000841914
0.005659839,0.004540843,0.029007141,0.000862033
0.005886233,0.016726401,0.024523292,0.000881164
0.006112626,0.025829738,0.015274562,0.000900488
0.00633902,0.030202154,0.003040249,0.000921413
0.006565413,0.0290833,-0.009974306,0.000945325
0.006791807,0.02263606,-0.021512924,0.000975197
0.0070182,0.011812871,-0.02950687,0.001010199
0.007244594,-0.00169275,-0.032401048,0.001052693
0.007470987,-0.015620969,-0.029318342,0.00110358
0.007697381,-0.027382469,-0.020333296,0.001163243
0.007923774,-0.034451988,-0.006664119,0.00123135
0.008150168,-0.03492507,0.009317965,0.001306585
0.008376562,-0.02812193,0.024409089,0.001386647
0.008602955,-0.014989968,0.035268243,0.001468548
0.008829348,0.001954468,0.039312277,0.001549275
0.009055742,0.019218728,0.035456147,0.001626498
0.009282136,0.033239901,0.024378702,0.001699212
0.009508529,0.041229725,0.008249105,0.001767938
0.009734923,0.041677885,-0.009883898,0.001834738
0.009961316,0.034472846,-0.026762791,0.001904624
0.01018771,0.020814538,-0.039373923,0.001983551
0.010414103,0.002726713,-0.045381386,0.002066905
0.010640497,-0.016867116,-0.043419074,0.002169716
0.01086689,-0.034619682,-0.033173021,0.002298972
0.011093284,-0.047087379,-0.015676625,0.002462978
0.011319677,-0.05125618,0.006563121,0.002670271
0.011546071,-0.045247003,0.029673519,0.002927809
0.011772465,-0.029043818,0.048940126,0.003238679
0.011998858,-0.004936261,0.059795559,0.003599875
0.012225252,0.022658553,0.059058808,0.004001353
0.012451645,0.048113678,0.045956411,0.004426918
0.012678039,0.065974288,0.022464497,0.00485726
0.012904432,0.072269201,-0.007165485,0.005274182
0.013130826,0.065306068,-0.037431486,0.005665999
0.013357219,0.045859315,-0.062696986,0.006033989
0.013583613,0.016818797,-0.077983156,0.006364245
0.013810007,-0.017399371,-0.07984826,0.006678483
0.0140364,-0.051058989,-0.066636041,0.007047382
0.014262794,-0.077850997,-0.038761754,0.007563251
0.014489187,-0.09152028,0.000878393,0.008376733
0.014715581,-0.086800322,0.046706416,0.009715785
0.014941974,-0.06066611,0.090658799,0.011899395
0.015168368,-0.013659129,0.123093463,0.015338572
0.015394761,0.04921547,0.134525612,0.020519303
0.015621155,0.11861074,0.117901586,0.027969292
0.015847548,0.182280749,0.070672102,0.038220817
0.016073942,0.227523878,-0.004189496,0.051784667
0.016300336,0.243765071,-0.098625585,0.069148416
0.016526729,0.224377573,-0.201084495,0.090780269
0.016753123,0.167357743,-0.298541754,0.117135793
0.016979516,0.075145349,-0.378271133,0.148735874
0.01720591,-0.045832828,-0.429239571,0.186347257
0.017432304,-0.187143907,-0.442821831,0.231114016
0.017658696,-0.337444305,-0.411735564,0.283394834
0.01788509,-0.482846648,-0.332325786,0.343581314
0.018111484,-0.60797894,-0.20506601,0.41169046
0.018337878,-0.697061539,-0.035419852,0.487149355
0.018564272,-0.735704124,0.165555567,0.568669204
0.018790664,-0.713283777,0.381427437,0.654260636
0.019017058,-0.625447631,0.591817439,0.74143262
0.019243452,-0.475905955,0.774609983,0.826507104
0.019469846,-0.274301261,0.909044266,0.901602659
0.019696238,-0.036816482,0.983294189,0.968222915
0.019922632,0.214654773,0.990504622,1.027176078
0.020149026,0.459501982,0.930541813,1.077050137
0.02037542,0.679676354,0.809717357,1.117602144
0.020601812,0.860920191,0.638720572,1.149147544
0.020828206,0.993242264,0.430785149,1.17210604
0.0210546,1.07081115,0.2002846,1.18675044
0.021280994,1.09162891,-0.038248427,1.193116619
0.021507388,1.05723393,-0.270865321,1.191111605
0.02173378,0.972532094,-0.484953165,1.180998246
0.021960174,0.845721364,-0.669817686,1.163900358
0.022186568,0.687057555,-0.81743747,1.140252101
0.022412962,0.507689774,-0.924614847,1.112661522
0.022639354,0.340108991,-0.955807686,1.029242458
0.022865748,0.149477169,-0.999432623,1.021208992
0.023092142,-0.026979962,-0.98958832,0.980012961
0.023318536,-0.186912283,-0.953031957,0.943206113
0.02354493,-0.330006272,-0.89687103,0.913281784
0.023771322,-0.457363069,-0.826411963,0.892137709
0.023997716,-0.571083784,-0.744851172,0.880939957
0.02422411,-0.673254013,-0.653290093,0.880058912
0.024450504,-0.765029967,-0.551177502,0.889067489
0.024676896,-0.846005201,-0.437046111,0.906734103
0.02490329,-0.913874447,-0.309400022,0.930894878
0.025129684,-0.964048326,-0.167993382,0.957610951
0.025356078,-0.998962104,-0.009958694,0.998024461
0.025582472,-1.00480556,0.154093072,1.033378888
0.025808864,-0.971682549,0.301887542,1.035303064
0.026035258,-0.924549282,0.458952725,1.065428979
0.026261652,-0.843808949,0.613920748,1.088912227
0.026488046,-0.731979966,0.748376548,1.095862128
0.026714438,-0.598400235,0.857562244,1.093495844
0.026940832,-0.4499726,0.938985646,1.084169384
0.027167226,-0.293364733,0.991775215,1.069680944
0.02739362,-0.134621695,1.01670027,1.05180244
0.027620014,0.0212323,1.01574373,1.032186136
0.027846406,0.170333639,0.991581142,1.01224671
0.0280728,0.309890419,0.947113156,0.993055402
0.028299194,0.437905192,0.885162771,0.975274088
0.028525588,0.552854717,0.808546364,0.959395561
0.02875198,0.653986394,0.720257699,0.946469357
0.028978374,0.741363525,0.622904539,0.937629941
0.029204768,0.816002309,0.519075394,0.935299033
0.029431162,0.881441176,0.408089936,0.943475943
0.029657554,0.933801174,0.285616875,0.953561632
0.029883948,0.968717396,0.155858517,0.962705271
0.030110342,0.986232042,0.021781543,0.973128076
0.030336736,0.985921144,-0.114860043,0.985233332
0.03056313,0.9669891,-0.252105981,0.998625345
0.030789522,0.928653359,-0.387535423,1.012580765
0.031015916,0.870408058,-0.518218517,1.026160619
0.03124231,0.792273462,-0.640736997,1.038241138
0.031468704,0.695069373,-0.751289427,1.047557236
0.031695096,0.580721498,-0.845938265,1.052849006
0.03192149,0.452493489,-0.921127439,1.053226116
0.032147884,0.314822376,-0.974410474,1.0485889
0.032374278,0.172775716,-1.00503433,1.039945453
0.032600672,0.030750141,-1.01460552,1.030369932
0.032827064,-0.110139072,-1.0046047,1.021361218
0.033053458,-0.246640131,-0.973216712,1.007982123
0.033279852,-0.373174399,-0.922938645,0.991074875
0.033506246,-0.487615764,-0.858196914,0.974271077
0.03373264,-0.589838088,-0.782435536,0.960114338
0.033959032,-0.680513561,-0.697958887,0.950245315
0.034185424,-0.760506034,-0.606004834,0.945611287
0.03441182,-0.830381095,-0.506924212,0.94650492
0.034638212,-0.890039802,-0.400522262,0.952588932
0.034864608,-0.93853265,-0.286527097,0.962941312
0.035091,-0.97413516,-0.165114477,0.9762021
0.035317392,-0.994717956,-0.03732552,0.990857006
0.035543788,-0.998310328,0.094801582,1.005610851
0.03577018,-0.98374176,0.228526533,1.019972227
0.035996576,-0.950679302,0.361579776,1.03453107
0.036222968,-0.897317767,0.491907895,1.047152552
0.03644936,-0.822241783,0.61384517,1.052887442
0.036675756,-0.728413999,0.721659303,1.051379104
0.036902148,-0.62018317,0.812300205,1.044458787
0.037128544,-0.501738608,0.884367526,1.033847552
0.037354936,-0.376906425,0.937556565,1.021070766
0.037581328,-0.248983607,0.972371399,1.007498974
0.037807724,-0.120629311,0.98982501,0.994304981
0.038034116,0.006125196,0.991146863,0.982409622
0.038260508,0.129757389,0.977566838,0.972473903
0.038486904,0.249091715,0.950212181,0.964949871
0.038713296,0.363179207,0.910119474,0.960216593
0.038939692,0.471286207,0.858291686,0.958775307
0.039166084,0.573126018,0.795669079,0.961562716
0.039392476,0.669065297,0.722284913,0.969343867
0.039618872,0.758176088,0.636426151,0.979869226
0.039845264,0.837004721,0.537748814,0.98975069
0.04007166,0.902795494,0.428194106,0.998389896
0.040298052,0.953993142,0.309917837,1.006151981
0.040524444,0.989406884,0.184963524,1.013137487
0.04075084,1.00802553,0.05548504,1.019194059
0.040977232,1.00907207,-0.076152772,1.024025687
0.041203624,0.992097557,-0.207356393,1.027254236
0.04143002,0.957091451,-0.335329533,1.028469941
0.041656412,0.904613018,-0.457155108,1.027315505
0.041882808,0.835916758,-0.569970548,1.023623252
0.0421092,0.753008902,-0.671259761,1.017612073
0.042335592,0.658524215,-0.759254575,1.010121651
0.042561988,0.555187881,-0.833352208,1.002709486
0.04278838,0.444682509,-0.893716097,0.996470996
0.043014776,0.328006268,-0.939449012,0.990152558
0.043241168,0.207664028,-0.969338,0.982740507
0.04346756,0.086569056,-0.983834028,0.975423596
0.043693956,-0.033439782,-0.984226108,0.969819251
0.043920348,-0.15143387,-0.971648991,0.967033979
0.044146744,-0.266926587,-0.946757615,0.967599784
0.044373136,-0.379487902,-0.909686267,0.971540172
0.044599528,-0.48842901,-0.860153079,0.978426217
0.044825924,-0.592575669,-0.797688246,0.987452461
0.045052316,-0.690176427,-0.721953213,0.997559942
0.045278708,-0.77899009,-0.633085072,1.007622269
0.045505104,-0.856582224,-0.531962872,1.016717604
0.045731496,-0.920789242,-0.420225918,1.02444265
0.045957892,-0.970070958,-0.299801677,1.030918709
0.046184284,-1.00290775,-0.172334239,1.035523045
0.046410676,-1.01706219,-0.040336557,1.036042536
0.046637072,-1.01139903,0.091892004,1.031372138
0.046863464,-0.986971915,0.220124468,1.022568342
0.04708986,-0.945962727,0.341349781,1.011365154
0.047316252,-0.890820384,0.453692555,0.999397891
0.047542644,-0.823860645,0.556147754,0.988046687
0.04776904,-0.747046232,0.648319423,0.978396147
0.047995432,-0.661883891,0.730143845,0.97120032
0.048221828,-0.569444358,0.801630557,0.966878427
0.04844822,-0.470485926,0.862666667,0.965550785
0.048674612,-0.365636289,0.91293329,0.967137088
0.048901008,-0.255546391,0.951954305,0.971520957
0.0491274,-0.140879676,0.979222298,0.978723392
0.049353792,-0.022062982,0.994072556,0.988667022
0.049580188,0.100469224,0.994947076,1.000013749
0.04980658,0.224828839,0.979588628,1.010141887
0.050032976,0.347619295,0.946893513,1.017446499
0.050259368,0.465481997,0.897295594,1.021812873
0.05048576,0.575653136,0.832001686,1.023603338
0.050712156,0.675863802,0.752598703,1.023196687
0.050938548,0.764261305,0.660933793,1.020928821
0.051164944,0.83938849,0.559043467,1.017102635
0.051391336,0.900175929,0.449092835,1.012001078
0.051617728,0.94594264,0.333323896,1.005912298
0.051844124,0.976413548,0.214001119,0.999179896
0.052070516,0.991758347,0.093324401,0.992294063
0.052296908,0.992616296,-0.026739778,0.986002127
0.052523304,0.979981184,-0.144751877,0.981316227
0.052749696,0.954669356,-0.260012031,0.978999836
0.052976092,0.916632652,-0.371923566,0.978542558
0.053202484,0.865607142,-0.478930384,0.978650037
0.053428876,0.802254677,-0.579100132,0.97896953
0.053655272,0.727781296,-0.671073735,0.980005573
0.053881664,0.643276513,-0.753960371,0.982260913
0.05410806,0.549598753,-0.826959312,0.985920493
0.054334452,0.447508484,-0.889142215,0.990837722
0.054560844,0.337857813,-0.93939054,0.996602488
0.05478724,0.221768096,-0.97643882,1.002613858
0.055013632,0.100769155,-0.999010444,1.00817629
0.055240028,-0.023142645,-1.00603557,1.01264315
0.05546642,-0.147580877,-0.99689585,1.015581451
0.055692812,-0.270023704,-0.971619606,1.016957459
0.055919208,-0.388209224,-0.930815876,1.017124597
0.0561456,-0.500280917,-0.875185192,1.016230116
0.056371992,-0.604151845,-0.805277944,1.013472019
0.056598388,-0.697219729,-0.722414255,1.007997706
0.05682478,-0.777473509,-0.629106522,1.000240073
0.057051176,-0.844144285,-0.528157949,0.991530393
0.057277568,-0.897356272,-0.421925843,0.983269696
0.05750396,-0.937629998,-0.312140375,0.976581627
0.057730356,-0.965523958,-0.199971795,0.972225232
0.057956748,-0.981403589,-0.086199425,0.970583345
0.058183144,-0.985327303,0.028566578,0.971685943
0.058409536,-0.977049232,0.143656477,0.975262385
0.058635928,-0.956139386,0.258158833,0.980848509
0.058862324,-0.922174871,0.37085098,0.987936942
0.059088716,-0.874904454,0.480287433,0.996133822
0.059315108,-0.814197481,0.584953129,1.005087701
0.059541504,-0.739803731,0.683086634,1.01391691
0.059767896,-0.651700616,0.772088289,1.020834019
0.059994292,-0.551153898,0.848824263,1.024273249
0.060220684,-0.440766722,0.910861433,1.023943853
0.060447076,-0.323594004,0.956942022,1.020451113
0.060673472,-0.202557519,0.986731589,1.014668777
0.060899864,-0.080246545,1.00051904,1.007477857
0.06112626,0.04113958,0.998994708,0.999682892
0.061352652,0.159794807,0.98308152,0.991983655
0.061579044,0.27426523,0.953803718,0.984962949
0.06180544,0.38338837,0.91220355,0.979101959
0.062031832,0.486237079,0.859300137,0.974823222
0.062258228,0.582105875,0.796062529,0.9725628
0.06248462,0.670528233,0.723314822,0.972792443
0.062711012,0.751175225,0.641499341,0.975785623
0.062937408,0.823350132,0.550552368,0.98101335
0.0631638,0.885473251,0.45053944,0.987048665
0.063390192,0.935599685,0.342494488,0.992649245
0.063616588,0.972286642,0.228212893,0.997422439
0.06384298,0.994692445,0.109653942,1.001437047
0.064069376,1.00232613,-0.011263961,1.004784548
0.064295768,0.994920075,-0.132629082,1.007456429
0.06452216,0.972418547,-0.252484351,1.009346178
0.064748556,0.935022473,-0.368814021,1.010290807
0.064974948,0.883255124,-0.479573071,1.010129945
0.065201344,0.818022192,-0.582769036,1.008780056
0.065427736,0.740635931,-0.67660147,1.006331131
0.065654128,0.652747333,-0.759643435,1.003137229
0.065880524,0.556114852,-0.830982029,0.999794861
0.066106916,0.452251792,-0.890103459,0.996815851
0.066333308,0.342367977,-0.936395466,0.9940523
0.066559704,0.227966189,-0.968957961,0.990848114
0.066786096,0.111138038,-0.987256706,0.987027467
0.067012492,-0.006018414,-0.991538286,0.983184394
0.067238888,-0.121892668,-0.982497394,0.980158952
0.06746528,-0.235356212,-0.960844994,0.978615649
0.067691672,-0.34554404,-0.927093983,0.978903937
0.067918064,-0.451625824,-0.881523728,0.981049968
0.068144456,-0.55262661,-0.824260294,0.984801202
0.068370848,-0.647323489,-0.755428135,0.989699367
0.068597248,-0.734242022,-0.675332248,0.995184992
0.06882364,-0.81176275,-0.584615767,1.000734357
0.069050032,-0.878311515,-0.484310597,1.005987872
0.069276424,-0.932516098,-0.37571463,1.010747756
0.069502816,-0.97311157,-0.260211557,1.014656182
0.069729216,-0.998669326,-0.139459848,1.016789472
0.069955608,-1.00787961,-0.015925814,1.01607494
0.070182,-1.00036943,0.107266352,1.012245067
0.070408392,-0.97691524,0.227159828,1.005964974
0.070634784,-0.938991129,0.341480792,0.998313472
0.070861184,-0.888295233,0.448678434,0.990380758
0.071087576,-0.826457977,0.547782123,0.983098042
0.071313968,-0.754894018,0.638213277,0.977181165
0.07154036,-0.674749553,0.719600379,0.973111665
0.071766752,-0.586932242,0.791620374,0.971152273
0.071993152,-0.492192149,0.853896737,0.971392749
0.072219544,-0.391213596,0.905967712,0.973825573
0.072445936,-0.284652114,0.947302341,0.978408551
0.072672328,-0.173100084,0.977247477,0.98497627
0.07289872,-0.05715473,0.994802594,0.992898864
0.07312512,0.062102281,0.998484135,1.000827261
0.073351512,0.182600379,0.986876726,1.007268571
0.073577904,0.301580638,0.959409297,1.01141708
0.073804296,0.416301548,0.916464269,1.013213735
0.074030688,0.524389386,0.859050393,1.012951806
0.074257088,0.623881936,0.788534999,1.011016115
0.07448348,0.713195503,0.706498623,1.00778813
0.074709872,0.791094422,0.614652991,1.003628684
0.074936264,0.856670022,0.514781296,0.998883309
0.075162656,0.90933013,0.4086909,0.993909537
0.075389048,0.948796868,0.298156559,0.98911283
0.075615448,0.975103855,0.184833363,0.9849909
0.07584184,0.988535464,0.070122361,0.982119509
0.076068232,0.98941493,-0.044949915,0.980962399
0.076294624,0.977749527,-0.159594327,0.981464487
0.076521016,0.953166068,-0.272744775,0.982915265
0.076747416,0.915444195,-0.382768542,0.984549831
0.076973808,0.864942908,-0.487858713,0.986132358
0.0772002,0.802437007,-0.586461306,0.987842014
0.077426592,0.728812575,-0.677306771,0.989912232
0.077652984,0.644947588,-0.759258151,0.992430331
0.077879384,0.551747799,-0.831193328,0.995307982
0.078105776,0.45023641,-0.891961873,0.998308808
0.078332168,0.341649383,-0.940419436,1.001113017
0.07855856,0.227497801,-0.975524485,1.00340327
0.078784952,0.109562308,-0.996469319,1.004955003
0.079011352,-0.010206819,-1.00281179,1.005735665
0.079237744,-0.129878521,-0.994499445,1.005897576
0.079464136,-0.247695908,-0.971713066,1.005579545
0.079690528,-0.361945063,-0.934630454,1.004538314
0.07991692,-0.470620632,-0.883572102,1.002183439
0.08014332,-0.571531236,-0.819495797,0.998221315
0.080369712,-0.66288662,-0.744072974,0.993063262
0.080596104,-0.743622899,-0.659236729,0.987568081
0.080822496,-0.813277185,-0.566757441,0.982633777
0.081048888,-0.871709883,-0.468070567,0.978968176
0.081275288,-0.918863714,-0.364288092,0.977016339
0.08150168,-0.954600215,-0.25630188,0.976952224
0.081728072,-0.978627205,-0.144929156,0.978715667
0.081954464,-0.99050951,-0.031056061,0.982073568
0.082180856,-0.989754736,0.084264211,0.986714895
0.082407248,-0.975915611,0.199799374,0.99233107
0.082633648,-0.948630571,0.314191848,0.998616478
0.08286004,-0.907542706,0.425946355,1.005064061
0.083086432,-0.852301836,0.533185184,1.01070486
0.083312824,-0.78298831,0.633441925,1.014319366
0.083539216,-0.70064193,0.724042296,1.01513636
0.083765616,-0.607208669,0.802791119,1.013175948
0.083992008,-0.505054593,0.868285775,1.009000329
0.0842184,-0.396555603,0.919843316,1.003368072
0.084444792,-0.28389442,0.957312644,0.99704354
0.084671184,-0.168977901,0.980895638,0.990709784
0.084897584,-0.053427599,0.991003275,0.984941999
0.085123976,0.061392628,0.988148153,0.980205827
0.085350368,0.174331844,0.972875237,0.976877819
0.08557676,0.284417242,0.945719242,0.975278052
0.085803152,0.390838563,0.907154083,0.975683313
0.086029552,0.492909849,0.857482493,0.978236345
0.086255944,0.5898754,0.796703339,0.982689198
0.086482336,0.68053031,0.724615872,0.988189665
0.086708728,0.763067424,0.64133811,0.993586465
0.08693512,0.835487366,0.547734916,0.998052677
0.08716152,0.896111786,0.44530195,1.00131016
0.087387912,0.943731606,0.335823387,1.003406691
0.087614304,0.977526963,0.221170366,1.004475294
0.087840696,0.996981561,0.103240922,1.004630921
0.088067088,1.00184619,-0.016051197,1.003953429
0.088293488,0.99214071,-0.134787843,1.002510951
0.08851988,0.968173444,-0.251081854,1.000401915
0.088746272,0.930553555,-0.363142252,0.997802214
0.088972664,0.880172193,-0.469373226,0.995014315
0.089199056,0.818100989,-0.568477035,0.992455368
0.089425448,0.745398223,-0.659472227,0.990522129
0.089651848,0.662929773,-0.741497338,0.989294186
0.08987824,0.571494639,-0.813499629,0.988387769
0.090104632,0.472222984,-0.874250889,0.987309164
0.090331024,0.36669901,-0.922760606,0.9859553
0.090557416,0.256651133,-0.958530009,0.984649582
0.090783816,0.14364402,-0.981434762,0.983847797
0.091010208,0.029013325,-0.991493642,0.983901415
0.0912366,-0.086048402,-0.988714635,0.984960957
0.091462992,-0.200363934,-0.973050892,0.986973744
0.091689384,-0.312661707,-0.944442153,0.989728323
0.091915784,-0.42152071,-0.902907729,0.992922076
0.092142176,-0.525384486,-0.84865886,0.996250719
0.092368568,-0.622648597,-0.782173872,0.999487241
0.09259496,-0.711775124,-0.704186141,1.002501948
0.092821352,-0.791327655,-0.615579188,1.005137194
0.093047752,-0.859836876,-0.517343879,1.006964142
