Frequency (GHz),Re( S21 ),Im( S21 ),S2
0,0.022856787,0,0.000522433
0.000226543,0.020710105,-0.009721483,0.000523416
0.000453086,0.014629243,-0.017670952,0.000526277
0.000679629,0.005660803,-0.022331774,0.000530753
0.000906171,-0.004569661,-0.022705829,0.000536436
0.001132714,-0.014085196,-0.018558316,0.000542804
0.001359257,-0.020918956,-0.010568123,0.000549288
0.0015858,-0.023565088,-0.000284427,0.000555394
0.001812343,-0.021385765,0.010171252,0.000560805
0.002038886,-0.014809672,0.01860565,0.000565497
0.002265428,-0.005224008,0.023290601,0.000569742
0.002491971,0.005395278,0.023344832,0.00057409
0.002718514,0.014959879,0.01885351,0.000579253
0.002945057,0.02168869,0.010749985,0.000585961
0.0031716,0.024382671,0.000561993,0.00059483
0.003398143,0.022532774,-0.00987944,0.000605329
0.003624685,0.016435143,-0.018701756,0.00061987
0.003851228,0.007024769,-0.02424123,0.000636985
0.004077771,-0.004094344,-0.025301402,0.000656925
0.004304314,-0.014870342,-0.021405224,0.000679311
0.004530857,-0.023111666,-0.013011256,0.000703442
0.0047574,-0.02694211,-0.001581361,0.000728378
0.004983943,-0.025306467,0.010613761,0.000753069
0.005210485,-0.01834048,0.020983022,0.00077666
0.005437028,-0.007411471,0.027271429,0.000798661
0.005663571,0.005222456,0.028140364,0.000819154
0.005890114,0.016999533,0.023447661,0.000838777
0.006116657,0.025646446,0.014172518,0.0008586
0.0063432,0.029589804,0.002093565,0.00087994
0.006569742,0.028133972,-0.010610163,0.000904096
0.006796285,0.021490295,-0.021726174,0.000933859
0.007022828,0.010646089,-0.029244795,0.000968597
0.007249371,-0.002690761,-0.031675603,0.001010584
0.007475914,-0.016268395,-0.028215256,0.001060761
0.007702457,-0.027534163,-0.019012129,0.001119591
0.007928999,-0.034032803,-0.005345429,0.001186805
0.008155542,-0.033961266,0.010384237,0.0012612
0.008382085,-0.026754849,0.024994774,0.001340561
0.008608628,-0.013459845,0.035224978,0.001421966
0.00883517,0.003357553,0.038615353,0.001502419
0.009061713,0.020221427,0.034215353,0.001579597
0.009288256,0.033646096,0.022811515,0.001652425
0.009514799,0.040956032,0.006630328,0.001721358
0.009741342,0.040758431,-0.011274877,0.001788373
0.009967885,0.033045437,-0.027686646,0.001858551
0.010194427,0.019092303,-0.0396563,0.001937138
0.01042097,0.000977402,-0.044942502,0.002020784
0.010647513,-0.018353518,-0.04227417,0.002123957
0.010874056,-0.035563625,-0.031449657,0.002253852
0.011100599,-0.04726002,-0.013615605,0.002418894
0.011327142,-0.050530981,0.008622511,0.002627728
0.011553684,-0.043649901,0.031336315,0.002887278
0.011780227,-0.026783479,0.049830128,0.003200396
0.01200677,-0.002392354,0.059648823,0.003563705
0.012233313,0.025003014,0.057805851,0.003966667
0.012459856,0.049778335,0.043757998,0.004392645
0.012686399,0.066592455,0.019684458,0.004822033
0.012912941,0.071664982,-0.010037986,0.005236631
0.013139484,0.063520774,-0.039877463,0.005625101
0.013366027,0.043137349,-0.064251863,0.005989133
0.01359257,0.013559595,-0.078300253,0.006314792
0.013819113,-0.020674205,-0.078749947,0.006628977
0.014045656,-0.053766221,-0.064133339,0.007003892
0.014272198,-0.079405874,-0.035089616,0.007536574
0.014498741,-0.091414973,0.005245809,0.008384216
0.014725284,-0.084706999,0.051066179,0.00978303
0.014951827,-0.056550972,0.094144359,0.012061173
0.01517837,-0.007873455,0.124805883,0.0156385
0.015404913,0.055915166,0.13372077,0.02100775
0.015631455,0.125148863,0.114186496,0.028700794
0.015857998,0.187449545,0.064135797,0.039250732
0.016084541,0.230215997,-0.012959793,0.053167362
0.016311084,0.243172601,-0.10864453,0.070936548
0.016537627,0.220104903,-0.211135551,0.093024389
0.01676417,0.159445331,-0.307351053,0.119887483
0.016990712,0.064043678,-0.384644151,0.152052716
0.017217256,-0.059337553,-0.432220817,0.19033578
0.017443798,-0.202073306,-0.441579491,0.235826068
0.01767034,-0.352485865,-0.4057464,0.288876426
0.017896884,-0.496513963,-0.321456045,0.349860104
0.018123426,-0.618699312,-0.189643681,0.418753564
0.01834997,-0.703322053,-0.016301267,0.494927642
0.018576512,-0.736255109,0.186974049,0.577030881
0.018803054,-0.707367718,0.403294563,0.663015593
0.019029598,-0.613004208,0.612024248,0.750347839
0.01925614,-0.457650095,0.791014135,0.835146971
0.019482684,-0.251466244,0.919934452,0.909514668
0.019709226,-0.011355998,0.987636983,0.975555769
0.01993577,0.240640745,0.987842858,1.03374148
0.020162312,0.484008998,0.921122372,1.082731134
0.020388854,0.700967014,0.794345796,1.122339998
0.020615398,0.877638042,0.618597925,1.152911926
0.02084194,1.00445831,0.407354057,1.174873824
0.021068484,1.07602668,0.175104573,1.188495028
0.021295026,1.09076333,-0.063604467,1.19381017
0.021521568,1.0506053,-0.294907421,1.190741883
0.021748112,0.960838139,-0.50637728,1.179627879
0.021974654,0.829987586,-0.687572062,1.161634733
0.022201198,0.668483615,-0.830861866,1.137201784
0.02242774,0.487488985,-0.933617711,1.109287541
0.022654284,0.323767573,-0.964755476,1.03557857
0.022880826,0.129628554,-0.999897599,1.01659877
0.023107368,-0.045217101,-0.986700833,0.97562312
0.023333912,-0.203358024,-0.947628677,0.939354595
0.023560454,-0.344652086,-0.889625192,0.910218043
0.023786998,-0.470372677,-0.817798615,0.89004503
0.02401354,-0.582687855,-0.735118449,0.87992427
0.024240082,-0.683642268,-0.642480612,0.880148087
0.024466626,-0.774265766,-0.539187253,0.89021037
0.024693168,-0.853970349,-0.423710108,0.908795613
0.024919712,-0.920243263,-0.294590652,0.933631315
0.025146254,-0.968286455,-0.151839033,0.960633751
0.025372798,-1.00094843,0.007586463,1.001955314
0.02559934,-1.00373292,0.172529697,1.037246271
0.025825882,-0.967603207,0.319579095,1.038386764
0.026052426,-0.917574465,0.476784825,1.069266668
0.026278968,-0.832885444,0.630325079,1.091007868
0.026505512,-0.718110979,0.762366712,1.096886382
0.026732054,-0.582291126,0.868673801,1.093657128
0.026958596,-0.432352722,0.946920216,1.083586772
0.02718514,-0.274963886,0.99643451,1.068486871
0.027411682,-0.116110303,1.01816547,1.050142527
0.027638226,0.039284121,1.0142324,1.030210603
0.027864768,0.187473461,0.987394512,1.010094221
0.028091312,0.3257792,0.940593421,0.990848071
0.028317854,0.45229575,0.876664817,0.973112647
0.028544396,0.565587938,0.798449278,0.957410965
0.02877094,0.665028989,0.70891732,0.944827323
0.028997482,0.750752866,0.610625267,0.936493083
0.029224026,0.823982835,0.506118357,0.935103504
0.029450568,0.888199747,0.394029319,0.944157895
0.02967711,0.93867892,0.270535886,0.95430778
0.029903654,0.971643925,0.140148357,0.963733479
0.030130196,0.987162828,0.005616894,0.974521998
0.03035674,0.984738767,-0.131302297,0.986950732
0.030583282,0.963551641,-0.268588185,1.000571378
0.030809826,0.922832131,-0.40374428,1.014628586
0.031036368,0.862123609,-0.533761919,1.028158903
0.03126291,0.781531692,-0.655153811,1.040018302
0.031489454,0.682002902,-0.764074564,1.048937898
0.031715996,0.565622926,-0.85659045,1.053676493
0.03194254,0.435823739,-0.929231465,1.053413447
0.032169082,0.29716453,-0.97971338,1.048145065
0.032395624,0.154759765,-1.00751781,1.039042722
0.032622168,0.012793622,-1.0145092,1.029392594
0.03284871,-0.127844766,-1.00184953,1.020046765
0.033075254,-0.263388723,-0.967835248,1.006078687
0.033301796,-0.388514191,-0.915442884,0.98897895
0.03352834,-0.501420498,-0.849066079,0.972335722
0.03375488,-0.602131426,-0.772028685,0.958590545
0.033981424,-0.691387534,-0.68650794,0.949309874
0.034207968,-0.770053506,-0.593618214,0.945364986
0.034434512,-0.838642299,-0.493614763,0.94697644
0.034661052,-0.896960676,-0.386253536,0.953730248
0.034887596,-0.943953514,-0.271275491,0.964638629
0.03511414,-0.9778108,-0.148931086,0.978294429
0.03534068,-0.996371984,-0.020376518,0.993172333
0.035567224,-0.997705877,0.11223083,1.008012776
0.035793768,-0.980755329,0.246098921,1.022445694
0.036020312,-0.945186317,0.37905848,1.037062505
0.036246852,-0.888984919,0.508807361,1.049179117
0.036473396,-0.811171055,0.629340708,1.054068207
0.03669994,-0.715071082,0.73519361,1.051836296
0.03692648,-0.605078518,0.823554575,1.044362151
0.037153024,-0.485375643,0.893178165,1.033356749
0.037379568,-0.359755218,0.943886161,1.020344902
0.037606108,-0.231453404,0.976277649,1.006688726
0.037832652,-0.103055127,0.991426229,0.993546327
0.038059196,0.0234806,0.990589976,0.981819839
0.03828574,0.146692097,0.97500211,0.972147686
0.03851228,0.265449256,0.9457829,0.964968601
0.038738824,0.378838301,0.903958738,0.960659858
0.038965368,0.486168414,0.850526214,0.959754567
0.039191908,0.587234497,0.786379993,0.963237848
0.039418452,0.682415128,0.711335838,0.971689081
0.039644996,0.770433962,0.623600006,0.982445457
0.03987154,0.847718716,0.52316457,0.992328189
0.04009808,0.911675751,0.412092566,1.000972958
0.040324624,0.960809231,0.292535573,1.00873144
0.040551168,0.99394244,0.166561991,1.015664471
0.040777708,1.01008451,0.036372162,1.021593652
0.041004252,1.008497,-0.095615022,1.026208431
0.041230796,0.988792241,-0.226754263,1.029127592
0.04145734,0.95104295,-0.354208529,1.029946375
0.04168388,0.895914614,-0.475042969,1.028328818
0.041910424,0.824784935,-0.586416006,1.024153921
0.042136968,0.739779234,-0.685886919,1.017714181
0.042363508,0.643612921,-0.771829009,1.009957611
0.042590052,0.538966179,-0.843816102,1.002510156
0.042816596,0.42735064,-0.902012825,0.996255706
0.043043136,0.309853524,-0.94536823,0.989730297
0.04326968,0.189154699,-0.972840548,0.982198232
0.043496224,0.068059824,-0.98508054,0.97501581
0.043722768,-0.051750083,-0.983402669,0.96975888
0.043949308,-0.169443548,-0.968888223,0.967455505
0.044175852,-0.284571826,-0.942115307,0.968562376
0.044402396,-0.396690726,-0.903142035,0.973029067
0.044628936,-0.505054474,-0.851635814,0.980363581
0.04485548,-0.608403862,-0.78711617,0.989707124
0.045082024,-0.704897761,-0.709285438,0.999966686
0.045308568,-0.792232871,-0.618373215,1.010018355
0.045535108,-0.86796701,-0.515379548,1.018982809
0.045761652,-0.930001736,-0.402041793,1.026540832
0.045988196,-0.976866424,-0.280287027,1.032828828
0.046214736,-1.00695825,-0.15177691,1.037001148
0.04644128,-1.01804268,-0.019296026,1.036783235
0.046667824,-1.00930309,0.11271587,1.031397595
0.046894368,-0.982047498,0.240163714,1.022095898
0.047120908,-0.938554347,0.360211313,1.010636452
0.047347452,-0.881290019,0.471130699,0.998636233
0.047573996,-0.812543511,0.572033525,0.987449311
0.047800536,-0.734219491,0.662603676,0.978121892
0.04802708,-0.647756994,0.742816925,0.971366107
0.048253624,-0.554163873,0.812686265,0.967556563
0.048480164,-0.454157352,0.872075856,0.966775199
0.048706708,-0.348348796,0.920636535,0.968918513
0.048933252,-0.237388864,0.957873702,0.973875502
0.049159796,-0.12192104,0.983267784,0.981680275
0.049386336,-0.002326803,0.996067345,0.99215557
0.04961288,0.120847166,0.994532168,1.003698271
0.049839424,0.245415851,0.976438344,1.01366078
0.050065964,0.367874354,0.940928578,1.020678129
0.050292508,0.484921664,0.888600528,1.024759919
0.050519052,0.593857288,0.820743501,1.026286373
0.050745596,0.692464471,0.739004314,1.02563442
0.050972136,0.778943419,0.645281315,1.023140825
0.05119868,0.851894319,0.54165262,1.019111491
0.051425224,0.91031146,0.430315822,1.013838661
0.051651764,0.953582466,0.313533455,1.007622747
0.051878308,0.98151058,0.193576306,1.000834805
0.052104852,0.994349122,0.072625205,0.994004597
0.052331392,0.992817998,-0.047414109,0.987935675
0.052557936,0.977941811,-0.165218115,0.983667211
0.05278448,0.950438082,-0.280188054,0.981837893
0.053011024,0.910128355,-0.391637236,0.981713347
0.053237564,0.856833577,-0.497870088,0.982038403
0.053464108,0.791344404,-0.596998096,0.982632692
0.053690652,0.714869976,-0.687749326,0.984038218
0.053917192,0.628456831,-0.769254088,0.98670984
0.054143736,0.532935321,-0.840682566,0.990767233
0.05437028,0.429074049,-0.901056409,0.996007192
0.054596824,0.31777063,-0.949206769,1.001971664
0.054823364,0.200225785,-0.983837903,1.008027384
0.055049908,0.078071877,-1.00368011,1.013468981
0.055276452,-0.046589974,-1.00771713,1.01766444
0.055502992,-0.171295598,-0.995436132,1.020235275
0.055729536,-0.293507963,-0.966994762,1.021225794
0.05595608,-0.411017776,-0.923088729,1.021028414
0.056182624,-0.52198261,-0.864414752,1.019678709
0.056409164,-0.624207616,-0.791595101,1.016257952
0.056635708,-0.715097129,-0.70619458,1.010074689
0.056862252,-0.792850792,-0.610881507,1.001788594
0.057088792,-0.856909692,-0.508440852,0.99280632
0.057315336,-0.90752697,-0.401140481,0.984518887
0.05754188,-0.945278466,-0.290607065,0.978003845
0.05776842,-0.970727682,-0.177922562,0.973968671
0.057994964,-0.984209001,-0.063805759,0.972738533
0.058221508,-0.985734105,0.051156003,0.974288662
0.058448052,-0.975015342,0.166279197,0.978303688
0.058674592,-0.951604187,0.28061372,0.984294589
0.058901136,-0.915088892,0.392897427,0.991756068
0.05912768,-0.865239859,0.501666903,1.000309695
0.05935422,-0.801909268,0.605394304,1.009560737
0.059580764,-0.724817514,0.702207327,1.018455559
0.059807308,-0.634082437,0.789333701,1.025108228
0.060033852,-0.531241894,0.863655865,1.028119403
0.060260392,-0.419051945,0.922925532,1.02739607
0.060486936,-0.300585657,0.966059923,1.023623512
0.06071348,-0.178728804,0.992846787,1.017688728
0.06094002,-0.056019373,1.00365686,1.010465263
0.061166564,0.065399729,0.999233067,1.002743847
0.061393108,0.183775246,0.980527818,0.995208143
0.061619652,0.297697216,0.948578179,0.988424194
0.061846192,0.406037152,0.904430926,0.982861469
0.062072736,0.507898033,0.84910804,0.978944876
0.06229928,0.602608323,0.783572257,0.977122273
0.06252582,0.68973577,0.708609879,0.977863393
0.062752364,0.768932104,0.624576271,0.981352099
0.062978908,0.839353979,0.531364501,0.986863335
0.063205448,0.899272501,0.42918551,0.992891233
0.063431992,0.946779728,0.319276154,0.998329116
0.063658536,0.980555832,0.203520641,1.002910391
0.06388508,0.999846399,0.083893858,1.006731001
0.06411162,1.00421798,-0.037673581,1.00987305
0.064338164,0.993452489,-0.159249201,1.012308156
0.064564708,0.967553318,-0.278853148,1.013918501
0.064791248,0.926794171,-0.394450426,1.014538574
0.065017792,0.871786356,-0.503992736,1.014020128
0.065244336,0.803532243,-0.605510831,1.012307432
0.06547088,0.723438382,-0.697265506,1.009542278
0.06569742,0.633216977,-0.777930737,1.006139972
0.065923964,0.53462106,-0.846706033,1.002730784
0.066150508,0.429095626,-0.903120756,0.999750156
0.066377048,0.317848116,-0.946509302,0.996907284
0.066603592,0.202500626,-0.975986063,0.993555299
0.066830136,0.085202754,-0.991172254,0.989681946
0.06705668,-0.032025918,-0.992447913,0.985978519
0.067283224,-0.147687688,-0.980543315,0.983276846
0.06750976,-0.260732263,-0.956140876,0.982186688
0.067736304,-0.370324552,-0.919700742,0.982989729
0.067962848,-0.47561878,-0.871455312,0.985647585
0.068189392,-0.575593472,-0.81150943,0.9898554
0.068415936,-0.668964744,-0.740001738,0.995116401
0.06864248,-0.754206121,-0.657291472,1.000858952
0.068869024,-0.829677224,-0.564100444,1.006573607
0.06909556,-0.893824756,-0.461535752,1.011937945
0.069322104,-0.945305824,-0.350932598,1.016756789
0.069548648,-0.98283118,-0.233704343,1.020574848
0.069775192,-1.00493503,-0.1116478,1.022359646
0.070001736,-1.01042807,0.012571191,1.021122919
0.07022828,-0.999184787,0.135771841,1.016804231
0.070454824,-0.972177923,0.255093575,1.010202646
0.07068136,-0.930972457,0.368401676,1.002429511
0.070907904,-0.877285182,0.474269301,0.99456066
0.071134448,-0.812724948,0.571814656,0.987493842
0.071360992,-0.738664567,0.660512805,0.981902508
0.071587536,-0.656208694,0.740010321,0.978225125
0.07181408,-0.566236377,0.809976816,0.976686077
0.072040624,-0.469489276,0.870016515,0.977348917
0.07226716,-0.366658807,0.919652283,0.980199002
0.072493704,-0.258404553,0.958337665,0.985183993
0.072720248,-0.145315528,0.985374987,0.992080468
0.072946792,-0.028048597,0.999660015,1.000106869
0.073173336,0.092115894,0.999656916,1.007799288
0.07339988,0.212889984,0.984085202,1.01374583
0.073626424,0.331448972,0.952607155,1.017318813
0.07385296,0.445104629,0.905787706,1.018569499
0.074079504,0.551569164,0.84475106,1.017832896
0.074306048,0.648966014,0.770938516,1.015503083
0.074532592,0.735794365,0.685981154,1.011963491
0.074759136,0.810898244,0.591623783,1.007574663
0.07498568,0.873447597,0.489669472,1.002686897
0.075212216,0.922927499,0.381930977,0.99766644
0.07543876,0.959139049,0.270170599,0.992939868
0.075665304,0.982188106,0.156003028,0.98903042
0.075891848,0.992399693,0.040753119,0.986517967
0.076118392,0.990060925,-0.074633375,0.985790776
0.076344936,0.975079119,-0.18935889,0.986636078
0.07657148,0.947050869,-0.302228361,0.988247331
0.076798016,0.905866921,-0.411511749,0.989936798
0.07702456,0.852010131,-0.515422642,0.991581763
0.077251104,0.786309183,-0.612468541,0.993399845
0.077477648,0.709660649,-0.701413929,0.995599737
0.077704192,0.622954488,-0.781124949,0.99822848
0.077930736,0.527127445,-0.850466609,1.001156796
0.07815728,0.423260152,-0.908280313,1.004122283
0.078383816,0.312665761,-0.953434825,1.006797844
0.07861036,0.196939021,-0.98493278,1.008877559
0.078836904,0.077929601,-1.0020498,1.010176824
0.079063448,-0.042382095,-1.00444889,1.010713815
0.079289992,-0.162086993,-0.992170274,1.010674046
0.079516536,-0.279458463,-0.965426326,1.010145023
0.07974308,-0.392740071,-0.924409747,1.008778144
0.079969616,-0.499847054,-0.869559348,1.005980537
0.08019616,-0.598627448,-0.802032351,1.001610714
0.080422704,-0.687456727,-0.723624349,0.99622895
0.080649248,-0.765440285,-0.636269271,0.990737415
0.080875792,-0.83222729,-0.541672885,0.986011777
0.081102336,-0.887723982,-0.441191673,0.982703961
0.08132888,-0.931871057,-0.335874408,0.981195285
0.081555416,-0.964500308,-0.226582468,0.981600459
0.08178196,-0.985281408,-0.114138335,0.983807012
0.082008504,-0.993756533,0.000534677,0.987552333
0.082235048,-0.989434779,0.116332971,0.992514542
0.082461592,-0.971892655,0.231981024,0.998390528
0.082688136,-0.940783322,0.34608984,1.004851436
0.08291468,-0.895743787,0.457095921,1.011293613
0.083141216,-0.83647716,0.562975943,1.016635952
0.08336776,-0.763268232,0.661144435,1.019690358
0.083594304,-0.67741996,0.748978734,1.019866946
0.083820848,-0.581043363,0.824462235,1.017349367
0.084047392,-0.476551056,0.886385858,1.012780798
0.084273936,-0.366296679,0.934219658,1.006939626
0.08450048,-0.25240773,0.967920005,1.000578798
0.084727016,-0.136726022,0.987758875,0.9943616
0.08495356,-0.020811049,0.994185448,0.988837805
0.085180104,0.094025932,0.987728775,0.984449009
0.085406648,0.206674844,0.968937039,0.981553477
0.085633192,0.316198409,0.938338935,0.980461391
0.085859736,0.421816915,0.896382332,0.981430795
0.086086272,0.522845805,0.843307436,0.984535167
0.086312816,0.618445635,0.779041052,0.989379964
0.08653936,0.707241178,0.703410566,0.994976508
0.086765904,0.787307084,0.616713583,1.000188088
0.086992448,0.856678188,0.520023644,1.004322108
0.087218992,0.913791418,0.414963275,1.007209275
0.087445536,0.957550943,0.303375065,1.008940239
0.087672072,0.987232566,0.187160224,1.009657089
0.087898616,1.00240386,0.068238333,1.009469969
0.08812516,1.00290239,-0.051461026,1.008461441
0.088351704,0.988839924,-0.170016438,1.006709984
0.088578248,0.960621059,-0.28555575,1.004334905
0.088804792,0.918951035,-0.396330893,1.001549181
0.089031336,0.864796102,-0.500821948,0.998694922
0.089257872,0.799258769,-0.597827733,0.996212578
0.089484416,0.723362863,-0.686438859,0.994452139
0.08971096,0.637929261,-0.765779436,0.993371887
0.089937504,0.543800831,-0.834733903,0.992500033
0.090164048,0.442234188,-0.892090738,0.991396962
0.090390592,0.334891021,-0.936978281,0.990080295
0.090617136,0.223479822,-0.969014704,0.988932727
0.090843672,0.109508403,-0.988131642,0.988396232
0.091070216,-0.005729852,-0.994351804,0.988768341
0.09129676,-0.12104921,-0.98766762,0.990140239
0.091523304,-0.235242814,-0.968022108,0.992405983
0.091749848,-0.34698832,-0.935371101,0.995319991
0.091976392,-0.454809934,-0.889783919,0.998567499
0.092202936,-0.557115436,-0.83155328,1.001858467
0.092429472,-0.652300239,-0.761250138,1.004997374
0.092656016,-0.73885566,-0.679681242,1.007874277
0.09288256,-0.815360367,-0.587772846,1.010289447
0.093109104,-0.880315006,-0.48658976,1.011724104
