Frequency (GHz),Re( S21 ),Im( S21 ),S2
0,0.024255654,0,0.000588337
0.000226438,0.021997619,-0.010275967,0.000589491
0.000452876,0.015596908,-0.018697228,0.00059285
0.000679313,0.006142639,-0.023671443,0.000598069
0.000905751,-0.004668925,-0.024141885,0.000604629
0.001132189,-0.014765879,-0.019844687,0.000611843
0.001358627,-0.022076674,-0.011472608,0.000619
0.001585064,-0.025001423,-0.000636311,0.000625476
0.001811502,-0.022844145,0.010441641,0.000630883
0.00203794,-0.016028486,0.019449733,0.000635204
0.002264378,-0.005990618,0.024554392,0.000638806
0.002490816,0.005205896,0.02480473,0.000642376
0.002717253,0.015370227,0.020261662,0.000646779
0.002943691,0.022624346,0.011876587,0.000652914
0.003170129,0.025691597,0.001227213,0.000661564
0.003396567,0.02400857,-0.009785826,0.000672174
0.003623004,0.017845467,-0.019206008,0.000687331
0.003849442,0.008136845,-0.025281711,0.000705373
0.00407588,-0.00348039,-0.026728423,0.000726522
0.004302318,-0.014886518,-0.022992235,0.000750251
0.004528756,-0.023788953,-0.014483991,0.0007757
0.004755193,-0.028189128,-0.002664743,0.000801728
0.004981631,-0.026914246,0.010136881,0.000827133
0.005208069,-0.020018943,0.021217953,0.00085096
0.005434507,-0.008851789,0.028184684,0.000872731
0.005660945,0.004280851,0.02956841,0.000892617
0.005887382,0.01671936,0.025137557,0.000911434
0.00611382,0.026070813,0.015835362,0.000930446
0.006340258,0.030646613,0.003455269,0.000951154
0.006566696,0.029656615,-0.00977133,0.000974994
0.006793133,0.023246817,-0.021555627,0.00100506
0.007019571,0.012362002,-0.029792251,0.001040397
0.007246009,-0.00129784,-0.032890156,0.001083447
0.007472447,-0.015454,-0.029937163,0.00113506
0.007698885,-0.027484698,-0.020980164,0.001195576
0.007925322,-0.034819298,-0.007223172,0.001264558
0.00815176,-0.035502311,0.008955392,0.001340613
0.008378198,-0.028808011,0.024319889,0.001421358
0.008604635,-0.015656738,0.035476435,0.001503711
0.008831073,0.001433434,0.039781869,0.001584652
0.009057511,0.018939331,0.036099721,0.001661888
0.009283949,0.033249568,0.025078803,0.00173448
0.009510386,0.041522741,0.008883286,0.001803051
0.009736824,0.042201594,-0.00942162,0.001869741
0.009963262,0.035140913,-0.026548909,0.001939728
0.0101897,0.021521296,-0.039443702,0.002018972
0.010416138,0.003356965,-0.045731843,0.002102671
0.010642575,-0.016419765,-0.044004832,0.002206034
0.010869013,-0.034440387,-0.033908904,0.002335954
0.011095451,-0.047225345,-0.016445443,0.002500686
0.011321889,-0.051710021,0.005895946,0.002708688
0.011548326,-0.045956735,0.029237688,0.002966864
0.011774764,-0.029894108,0.048832387,0.00327826
0.012001202,-0.005775562,0.060054664,0.00363992
0.01222764,0.021987747,0.059652198,0.004041846
0.012454077,0.047739994,0.046785306,0.004467972
0.012680515,0.06597171,0.023384895,0.00489912
0.012906953,0.072645269,-0.006313748,0.005317199
0.013133391,0.066004857,-0.036796585,0.00571063
0.013359829,0.04677422,-0.062393487,0.006080775
0.013586266,0.017805526,-0.078075267,0.006412784
0.013812704,-0.016503634,-0.080349371,0.006728391
0.014039142,-0.050414577,-0.067497648,0.007097562
0.01426558,-0.077598006,-0.039874867,0.007611455
0.014492017,-0.091755658,-0.000322454,0.008419205
0.014718455,-0.087554924,0.045620065,0.009747055
0.014944893,-0.061887119,0.089900203,0.011912062
0.015171331,-0.015205343,0.122850895,0.015323545
0.015397769,0.047559768,0.134922028,0.020465885
0.015624206,0.11710266,0.118966207,0.027865991
0.015850644,0.181174561,0.072329134,0.038055725
0.016077082,0.227028146,-0.002108436,0.051546225
0.01630352,0.24401255,-0.096352987,0.068826023
0.016529957,0.225411028,-0.198882416,0.090364347
0.016756395,0.169130638,-0.296669841,0.116618167
0.016982832,0.077530667,-0.37695989,0.148109763
0.01720927,-0.043025516,-0.42866379,0.18560384
0.017435708,-0.18414247,-0.443105161,0.230250633
0.017662146,-0.334518015,-0.41292581,0.282410027
0.017888584,-0.480272204,-0.334386408,0.34247566
0.018115022,-0.606015742,-0.207874909,0.410467057
0.01834146,-0.69592452,-0.038777009,0.485814594
0.018567898,-0.735539138,0.161912009,0.567233322
0.018794336,-0.714149535,0.377794832,0.652738493
0.019020772,-0.627310753,0.588493466,0.73984334
0.01924721,-0.47863391,0.771839797,0.824827092
0.019473648,-0.277630359,0.907065451,0.899846349
0.019700086,-0.040524907,0.982286036,0.966528125
0.019926524,0.210839108,0.99051106,1.025565289
0.020152962,0.45586288,0.931530118,1.075559326
0.0203794,0.676471531,0.811577857,1.11627235
0.020605838,0.858357966,0.641277552,1.148015296
0.020832276,0.991466165,0.433815837,1.171201337
0.021058712,1.06988943,0.203541681,1.186092608
0.02128515,1.09155273,-0.035013001,1.192713273
0.021511588,1.05792379,-0.267876536,1.190960584
0.021738026,0.973855078,-0.482392341,1.181096084
0.021964464,0.847507775,-0.667797327,1.164222699
0.022190902,0.689112306,-0.816018522,1.140761999
0.02241734,0.509816706,-0.923842609,1.11339824
0.022643778,0.3433339,-0.956503928,1.032777931
0.022870216,0.151281238,-0.999466121,1.02181854
0.023096652,-0.025348457,-0.989955187,0.980653817
0.02332309,-0.18553628,-0.953635752,0.943844859
0.023549528,-0.328898698,-0.897618711,0.913893704
0.023775966,-0.456508011,-0.827226341,0.892702983
0.024002404,-0.570449889,-0.745673656,0.881442277
0.024228842,-0.672802329,-0.654080272,0.880483976
0.02445528,-0.764719665,-0.551910698,0.889401585
0.024681718,-0.845796824,-0.437710673,0.906962901
0.024908154,-0.913728774,-0.309991986,0.930995304
0.025134592,-0.963905871,-0.168540791,0.957520526
0.02536103,-0.998949289,-0.010474402,0.998009395
0.025587468,-1.00480974,0.1536275,1.033244022
0.025813906,-0.971709847,0.301246524,1.034969495
0.026040344,-0.924746037,0.458500594,1.065378028
0.026266782,-0.843906462,0.613452494,1.088502079
0.02649322,-0.732162297,0.747873485,1.095376379
0.026719658,-0.59869194,0.857089221,1.093033972
0.026946094,-0.450365305,0.938591957,1.08378377
0.027172532,-0.293829978,0.991502047,1.069412365
0.02739897,-0.135114148,1.01657271,1.051675908
0.027625408,0.02076738,1.01576769,1.032215284
0.027851846,0.169950709,0.9917382,1.012427901
0.028078284,0.309633046,0.947361887,0.993367168
0.028304722,0.437793553,0.88544637,0.975678469
0.02853116,0.552880228,0.80881232,0.959853915
0.028757598,0.65413034,0.720467985,0.946960619
0.028984034,0.741597235,0.623035848,0.938140127
0.029210472,0.816336274,0.519128025,0.935898819
0.02943691,0.881871879,0.407916456,0.944093846
0.029663348,0.934117854,0.285237014,0.953936319
0.029889786,0.968895197,0.155379415,0.962900665
0.030116224,0.986271799,0.021252412,0.973183727
0.030342662,0.985825777,-0.115398556,0.985169289
0.0305691,0.966771424,-0.252618492,0.998463089
0.030795538,0.928333879,-0.387996286,1.012344909
0.031021974,0.870009601,-0.518611312,1.025874399
0.031248412,0.791817784,-0.641054034,1.037925678
0.03147485,0.694576025,-0.75152719,1.047228972
0.031701288,0.580210388,-0.846095145,1.052521089
0.031927726,0.451987892,-0.921209097,1.052919255
0.032154164,0.314345062,-0.974435151,1.048336682
0.032380602,0.172340631,-1.00504172,1.039810152
0.03260704,0.030311231,-1.01465762,1.030448857
0.032833478,-0.110676825,-1.00463688,1.02154462
0.033059914,-0.247210339,-0.973160148,1.008153625
0.033286352,-0.373748183,-0.922825754,0.991295077
0.03351279,-0.488207966,-0.858038962,0.974577878
0.033739228,-0.590463817,-0.782220662,0.960516683
0.033965664,-0.681177437,-0.697662652,0.950735877
0.034192104,-0.761198461,-0.605597079,0.946170919
0.03441854,-0.831078351,-0.506377339,0.947109235
0.03464498,-0.890702307,-0.399816275,0.953203653
0.034871416,-0.939110875,-0.285658628,0.963530087
0.035097856,-0.974577665,-0.164102346,0.976731205
0.035324292,-0.994983494,-0.036210526,0.991303356
0.035550732,-0.998382866,0.095964946,1.005977618
0.035777168,-0.983638823,0.229693517,1.020304446
0.036003604,-0.950411558,0.36275804,1.034875525
0.036230044,-0.896822572,0.493060023,1.047398912
0.03645648,-0.821547687,0.614859343,1.052992614
0.03668292,-0.727612019,0.722502768,1.0514295
0.036909356,-0.619340003,0.812992752,1.044539254
0.037135796,-0.500892162,0.884947777,1.034025526
0.037362232,-0.376068056,0.938068807,1.021400269
0.037588672,-0.248139918,0.972854793,1.008019867
0.037815108,-0.119747981,0.990302682,0.995038981
0.038041544,0.007085302,0.991621137,0.983362681
0.038267984,0.130835861,0.978016675,0.973634639
0.03849442,0.250316203,0.950598598,0.966295896
0.03872086,0.364559561,0.910393894,0.961720716
0.038947296,0.472818702,0.858407438,0.960420855
0.039173736,0.574808598,0.795577824,0.963348998
0.039400172,0.670886934,0.721895993,0.971223103
0.039626612,0.760026097,0.635643303,0.981682077
0.039853048,0.838742673,0.536583602,0.991411233
0.040079484,0.904335797,0.426701397,0.999897316
0.040305924,0.955276608,0.308154047,1.007512314
0.04053236,0.990391433,0.182990372,1.014360667
0.0407588,1.00868309,0.053367384,1.020289654
0.040985236,1.00939035,-0.078349993,1.0250076
0.041211676,0.992077351,-0.209570646,1.028137326
0.041438112,0.956745446,-0.337502569,1.029269833
0.041664552,0.903964937,-0.459234476,1.028048911
0.041890988,0.835002005,-0.571912706,1.024312492
0.042117424,0.751873195,-0.673036456,1.018291372
0.042343864,0.657215357,-0.760862291,1.010843451
0.0425703,0.553728223,-0.834816277,1.003533161
0.04279674,0.443041325,-0.895040095,0.997382387
0.043023176,0.326178819,-0.940570176,0.991064878
0.043249616,0.205704674,-0.970220923,0.983643052
0.043476052,0.084517472,-0.984483421,0.976350809
0.043702492,-0.035567306,-0.984647632,0.970795992
0.043928928,-0.153629124,-0.971835077,0.968065325
0.044155364,-0.269177794,-0.946689904,0.968678459
0.044381804,-0.381772757,-0.909338117,0.972646249
0.04460824,-0.490710586,-0.859497845,0.979533425
0.04483468,-0.594801009,-0.796706259,0.988529103
0.045061116,-0.692279756,-0.720641136,0.998574907
0.045287556,-0.780902505,-0.631464064,1.008555586
0.045513992,-0.858244956,-0.530078292,1.0175674
0.045740432,-0.92217046,-0.418136626,1.025236595
0.045966868,-0.971160471,-0.297548145,1.031687559
0.046193304,-1.00366902,-0.169942394,1.036231919
0.046419744,-1.01744735,-0.037888762,1.036634668
0.04664618,-1.01142967,0.094288185,1.031880239
0.04687262,-0.986716926,0.22240448,1.023074045
0.047099056,-0.945492983,0.343494952,1.011945763
0.047325496,-0.890191197,0.455714405,1.000115986
0.047551932,-0.823104501,0.558075011,0.988948737
0.047778372,-0.746170878,0.650184989,0.979511499
0.048004808,-0.660873652,0.731972814,0.972538184
0.048231244,-0.568269074,0.803432286,0.968433179
0.048457684,-0.469110459,0.864429891,0.967303659
0.04868412,-0.364030898,0.914628208,0.969063254
0.04891056,-0.253692359,0.953541517,0.973601238
0.049136996,-0.138762906,0.980658829,0.980946883
0.049363436,-0.019663548,0.995296001,0.991000785
0.049589872,0.103138775,0.995850801,1.002356425
0.049816308,0.227675796,0.980079174,1.012391455
0.050042748,0.350525588,0.946948588,1.019579816
0.050269184,0.468354225,0.896937668,1.02385286
0.050495624,0.578423738,0.831270754,1.025585087
0.05072206,0.67848593,0.751541436,1.025157687
0.0509485,0.766707003,0.659597635,1.022908669
0.051174936,0.841644883,0.557471812,1.01914093
0.051401376,0.902242243,0.447321385,1.014137487
0.051627812,0.947823763,0.331377774,1.008181115
0.051854248,0.978119314,0.211896122,1.001617359
0.052080688,0.993299901,0.091065347,0.994937591
0.052307124,0.994004846,-0.029164003,0.988896173
0.052533564,0.981216013,-0.147376031,0.984504559
0.05276,0.955705583,-0.262887269,0.982482878
0.05298644,0.917375207,-0.375060081,0.982247335
0.053212876,0.865975678,-0.482278615,0.982506537
0.053439316,0.802204549,-0.582601845,0.982957048
0.053665752,0.727274835,-0.674676895,0.984117598
0.053892188,0.64227432,-0.757606089,0.986483288
0.054118628,0.54806447,-0.830572486,0.990225318
0.054345064,0.445419461,-0.892631471,0.995189439
0.054571504,0.335211724,-0.942651033,1.00095787
0.05479794,0.218589514,-0.979358673,1.006924786
0.05502438,0.097113527,-1.00148284,1.012398916
0.055250816,-0.027191008,-1.00796711,1.016737046
0.055477256,-0.151916042,-0.998222113,1.019525871
0.055703692,-0.274535537,-0.972307265,1.020751179
0.055930128,-0.392800689,-0.93085289,1.020779484
0.056156568,-0.504856884,-0.874551713,1.019721172
0.056383004,-0.608580649,-0.803967476,1.016734109
0.056609444,-0.701360524,-0.720485508,1.011005952
0.05683588,-0.781235099,-0.626664162,1.003036252
0.05706232,-0.847485483,-0.52530545,0.99417746
0.057288756,-0.900266886,-0.418749213,0.985831369
0.057515196,-0.940111816,-0.308704197,0.979108508
0.057741632,-0.967581332,-0.196324155,0.974756808
0.057968068,-0.983037174,-0.082376979,0.973148052
0.058194508,-0.986530662,0.032530487,0.97430098
0.058420944,-0.977811515,0.147725672,0.977938233
0.058647384,-0.956450462,0.2622917,0.983594422
0.05887382,-0.922031403,0.375002921,0.990769099
0.05910026,-0.874308765,0.484419346,0.999077919
0.059326696,-0.813142121,0.589034081,1.008161258
0.059553136,-0.738261878,0.687066793,1.017091379
0.059779572,-0.649666965,0.775874496,1.024048399
0.060006008,-0.548679948,0.85232681,1.027510676
0.060232448,-0.437928528,0.914035976,1.027243161
0.060458884,-0.320455283,0.959779561,1.023868394
0.060685324,-0.199158549,0.989237964,1.018255877
0.06091176,-0.076607019,1.00270009,1.011276106
0.0611382,0.04501576,1.00084603,1.003719194
0.061364636,0.16391021,0.984583378,0.996270985
0.061591076,0.278621018,0.954918504,0.989499021
0.061817512,0.387974083,0.912878931,0.983871832
0.062043948,0.491026789,0.859475315,0.979805125
0.062270388,0.587056696,0.795674086,0.977732815
0.062496824,0.67558378,0.722296298,0.978125386
0.062723264,0.756255031,0.63977325,0.981231483
0.0629497,0.828319728,0.548044801,0.986466676
0.06317614,0.890146792,0.447236031,0.992381379
0.063402576,0.939801216,0.338460356,0.997781738
0.063629016,0.97588259,0.223556399,1.002324293
0.063855452,0.997587085,0.104500234,1.006100291
0.064081888,1.0044558,-0.016782576,1.009213109
0.064308328,0.996248603,-0.138376072,1.011659216
0.064534764,0.972936749,-0.2583251,1.013337775
0.064761204,0.934746861,-0.374619335,1.01409134
0.06498764,0.88222599,-0.485224813,1.013765817
0.06521408,0.816300929,-0.588166058,1.012286518
0.065440516,0.738299727,-0.681665957,1.009754964
0.065666956,0.649877846,-0.764327407,1.0065376
0.065893392,0.552780688,-0.835266531,1.003236667
0.066119828,0.448489726,-0.893974185,1.000332878
0.066346268,0.338205755,-0.939811468,0.997628728
0.066572704,0.223461419,-0.971866488,0.994459476
0.066799144,0.106368795,-0.989633858,0.990689493
0.06702558,-0.010988949,-0.99338758,0.986939641
0.067252016,-0.127023891,-0.983825147,0.984046989
0.067478456,-0.240619868,-0.961647153,0.982663168
0.067704896,-0.350912064,-0.927351236,0.983119592
0.067931328,-0.457060158,-0.881206751,0.985429326
0.068157768,-0.558074236,-0.823337317,0.98933119
0.068384208,-0.652713656,-0.753873169,0.994359872
0.068610648,-0.739491224,-0.673134685,0.999957575
0.06883708,-0.816783667,-0.581784368,1.00560861
0.06906352,-0.883025289,-0.480870575,1.010970171
0.06928996,-0.936851203,-0.371692896,1.015845785
0.0695164,-0.976986349,-0.255632967,1.01985054
0.069742832,-1.0019809,-0.134376556,1.022022783
0.069969272,-1.01054239,-0.010440201,1.02130492
0.070195712,-1.00235069,0.113035604,1.017483954
0.070422144,-0.978220105,0.233117312,1.011258255
0.070648584,-0.939634144,0.347560048,1.003710312
0.070875024,-0.888281703,0.454833418,0.995917822
0.071101464,-0.825779498,0.553973854,0.98879881
0.071327896,-0.753526151,0.644397378,0.983049641
0.071554336,-0.672659039,0.725716829,0.979135099
0.071780776,-0.584086061,0.797587991,0.97730313
0.072007208,-0.488568604,0.859613478,0.977634612
0.072233648,-0.386811018,0.911317945,0.980123161
0.072460088,-0.279488057,0.952161491,0.984725079
0.072686528,-0.16720961,0.981483579,0.99126907
0.07291296,-0.050601237,0.998261333,0.999086174
0.0731394,0.06918934,1.00100565,1.006799476
0.07336584,0.190023303,0.98835057,1.012945705
0.07359228,0.309122413,0.959805131,1.016782556
0.073818712,0.423766345,0.915814996,1.018295022
0.074045152,0.531616628,0.857428432,1.017799755
0.074271592,0.63074702,0.786033571,1.015690578
0.074498024,0.719608009,0.703219533,1.012353398
0.074724464,0.796993375,0.610696435,1.008148576
0.074950904,0.862017512,0.510239124,1.003418155
0.075177344,0.914105415,0.403642923,0.998516319
0.075403776,0.952991486,0.292667419,0.993846991
0.075630216,0.978714526,0.178949282,0.989904969
0.075856656,0.991553783,0.063866235,0.987257801
0.076083088,0.991805494,-0.051575083,0.986338127
0.076309528,0.979432225,-0.166574404,0.987034515
0.076535968,0.954037905,-0.280014127,0.988596235
0.076762408,0.915426672,-0.390213072,0.990272233
0.07698884,0.863994956,-0.495349318,0.991858231
0.07721528,0.800541937,-0.593869448,0.993548314
0.07744172,0.725969672,-0.684502363,0.99557545
0.077668152,0.641173899,-0.766106904,0.998023757
0.077894592,0.547082305,-0.837556779,1.000800406
0.078121032,0.444746017,-0.897703111,1.003669895
0.078347472,0.335430712,-0.945413709,1.006320844
0.078573904,0.2206738,-0.979666173,1.008442737
0.078800344,0.102275185,-0.999686599,1.00983351
0.079026784,-0.01781052,-1.00506699,1.010476869
0.079253224,-0.137665421,-0.995785236,1.010540004
0.079479656,-0.255549341,-0.972029746,1.010147293
0.079706096,-0.36974442,-0.933976591,1.009023209
0.079932536,-0.478224546,-0.881968737,1.006567569
0.080158968,-0.578806758,-0.817010999,1.002524236
0.080385408,-0.669742882,-0.740803301,0.997345059
0.080611848,-0.750010431,-0.655272841,0.991898143
0.080838288,-0.819168925,-0.562167764,0.987070323
0.08106472,-0.877082348,-0.462899595,0.98354948
0.08129116,-0.923682749,-0.358565301,0.981758896
0.0815176,-0.958815515,-0.250052214,0.981853302
0.081744032,-0.98217082,-0.138186648,0.983755069
0.081970472,-0.993305326,-0.023872716,0.987225377
0.082196912,-0.991725981,0.091814496,0.991950323
0.082423352,-0.976995349,0.207624361,0.997627787
0.082649784,-0.948760033,0.322187632,1.00395047
0.082876224,-0.90666467,0.433990389,1.010388482
0.083102664,-0.850374639,0.541116416,1.015944002
0.083329104,-0.780025661,0.641066015,1.019405667
0.083555536,-0.696731627,0.731179953,1.020059084
0.083781976,-0.602481842,0.809315681,1.017976241
0.084008416,-0.499648958,0.874126792,1.01374673
0.084234848,-0.3905949,0.924971342,1.008136359
0.084461288,-0.277477413,0.961722314,1.001903524
0.084687728,-0.16217792,0.984590411,0.995719955
0.084914168,-0.046297018,0.993984461,0.990148523
0.0851406,0.06881547,0.990406096,0.985639804
0.08536704,0.182014138,0.97438544,0.982556132
0.08559348,0.292324215,0.946442127,0.981206146
0.085819912,0.398928791,0.907033265,0.981853524
0.086046352,0.501125515,0.856440723,0.984617494
0.086272792,0.598117769,0.79464227,0.989201203
0.086499232,0.688634276,0.721449435,0.994706453
0.086725664,0.770817518,0.637043238,0.999983733
0.086952104,0.842665911,0.542365074,1.004245711
0.087178544,0.902532578,0.438967586,1.007257596
0.087404984,0.949245691,0.328668267,1.009090212
0.087631416,0.982023954,0.213359907,1.009893496
0.087857856,1.00038826,0.094951995,1.009792552
0.088084296,1.00412726,-0.024636153,1.008878494
0.088310728,0.993299663,-0.143491253,1.00723396
0.088537168,0.968247771,-0.259739876,1.004968549
0.088763608,0.929612219,-0.371614933,1.002276536
0.088990048,0.878302515,-0.477555275,0.999474349
0.08921648,0.815392137,-0.576301634,0.99698791
0.08944292,0.741916955,-0.666902363,0.99519953
0.08966936,0.658713222,-0.74849546,0.994148562
0.089895792,0.566572249,-0.820005417,0.993412997
0.090122232,0.466645718,-0.880197167,0.992505279
0.090348672,0.360530555,-0.928096712,0.991345788
0.090575112,0.24994494,-0.963221371,0.990267883
0.090801544,0.136437997,-0.985445082,0.989717337
0.091027984,0.021339009,-0.994770169,0.990023042
0.091254424,-0.094151594,-0.991185009,0.991312245
0.091480864,-0.208834291,-0.974628508,0.99351249
0.091707296,-0.321407199,-0.945038259,0.996399899
0.091933736,-0.430417299,-0.902445257,0.999666493
0.092160176,-0.534282267,-0.847086191,1.003012556
0.092386608,-0.631384194,-0.77947253,1.006223425
0.092613048,-0.720183969,-0.700367153,1.009179098
0.092839488,-0.799244881,-0.610675156,1.011716526
0.093065928,-0.867085814,-0.511415601,1.013383726
