Frequency (GHz),Re( S21 ),Im( S21 ),S2
0,0.024452118,0,0.000597906
0.000226532,0.022176551,-0.010358143,0.000599091
0.000453064,0.015725544,-0.018847451,0.000602519
0.000679597,0.006196502,-0.023863249,0.000607851
0.000906129,-0.00470161,-0.024339821,0.000614532
0.001132661,-0.014880907,-0.020010674,0.000621868
0.001359193,-0.02225277,-0.011573364,0.000629129
0.001585726,-0.025203744,-0.000651051,0.000635653
0.001812258,-0.023032412,0.01051554,0.000641069
0.00203879,-0.016165422,0.019596439,0.000645341
0.002265322,-0.006050743,0.024743684,0.000648861
0.002491855,0.0052318,0.024999345,0.000652339
0.002718387,0.01547474,0.020425318,0.000656661
0.002944919,0.022786327,0.011980285,0.000662744
0.003171451,0.025880858,0.001253549,0.00067139
0.003397984,0.024191115,-0.009840963,0.000682055
0.003624516,0.017987864,-0.019332757,0.000697319
0.003851048,0.008212503,-0.025457436,0.000715526
0.00407758,-0.003487012,-0.026920455,0.00073687
0.004304113,-0.014975709,-0.023163423,0.000760816
0.004530645,-0.023944167,-0.014599505,0.000786469
0.004757177,-0.028378984,-0.002700396,0.000812659
0.004983709,-0.027099114,0.010188098,0.000838159
0.005210242,-0.020160576,0.021343714,0.000862003
0.005436774,-0.008922742,0.028356854,0.000883726
0.005663306,0.00429166,0.029750628,0.000903518
0.005889838,0.016805818,0.025294067,0.000922225
0.006116371,0.026213309,0.015938036,0.000941159
0.006342903,0.030816646,0.003487202,0.000961826
0.006569435,0.029822208,-0.009814303,0.000985685
0.006795967,0.023378301,-0.021664489,0.001015895
0.007022499,0.012434046,-0.029947158,0.001051438
0.007249032,-0.001300146,-0.033061869,0.001094778
0.007475564,-0.015532351,-0.030091418,0.001146747
0.007702096,-0.027624967,-0.021083778,0.001207664
0.007928628,-0.034992278,-0.007251843,0.001277049
0.008155161,-0.035669241,0.009009619,0.001353468
0.008381693,-0.028929904,0.024444707,0.001434483
0.008608225,-0.015705843,0.035641853,0.001517015
0.008834757,0.001466174,0.039948188,0.001598007
0.009061289,0.019043008,0.036229491,0.001675212
0.009287822,0.03339814,0.025145646,0.001747739
0.009514354,0.04168297,0.008875835,0.00181625
0.009740886,0.042340312,-0.009499653,0.001882945
0.009967418,0.035230964,-0.026681744,0.001953136
0.01019395,0.02154371,-0.039603021,0.002032531
0.010420483,0.003302981,-0.045887828,0.002116602
0.010647015,-0.016543157,-0.044123009,0.002220516
0.010873547,-0.03461184,-0.033958376,0.002351151
0.011100079,-0.047408782,-0.01640621,0.002516756
0.011326612,-0.051859714,0.006025309,0.002725734
0.011553144,-0.046028473,0.029434105,0.002984987
0.011779676,-0.029858409,0.049050171,0.003297444
0.012006208,-0.005630252,0.060235996,0.003660075
0.012232741,0.022213381,0.059743956,0.004062775
0.012459273,0.04799265,0.046756227,0.004489439
0.012685805,0.066189557,0.023234218,0.004920886
0.012912337,0.072774507,-0.006557901,0.005339135
0.01313887,0.066010773,-0.03708614,0.005732804
0.013365402,0.046647284,-0.062669501,0.006103435
0.013591934,0.017554764,-0.07827577,0.006435266
0.013818466,-0.016843323,-0.080424562,0.006751808
0.014044998,-0.050785217,-0.067407221,0.007122872
0.014271531,-0.077922583,-0.039600708,0.007640145
0.014498063,-0.091943927,0.000119591,0.0084537
0.014724595,-0.087518543,0.046169151,0.009791086
0.014951127,-0.061563719,0.090448007,0.011970933
0.01517766,-0.014586516,0.123253003,0.015404069
0.015404192,0.048408013,0.135028511,0.020576034
0.015630724,0.118039526,0.118663602,0.02801438
0.015857256,0.182010219,0.071577311,0.038251031
0.016083789,0.227566689,-0.003260247,0.051797227
0.016310321,0.244093731,-0.097775891,0.069141874
0.016536853,0.224936754,-0.200395554,0.090754921
0.016763385,0.168071032,-0.298071623,0.117094564
0.016989918,0.07592313,-0.378051519,0.148687273
0.01721645,-0.045086037,-0.42928037,0.186314387
0.017442982,-0.186540604,-0.44307375,0.231111745
0.017669514,-0.337056309,-0.412105739,0.283438096
0.017896046,-0.482701004,-0.332690209,0.343683034
0.018122578,-0.608037353,-0.205291912,0.411854192
0.01834911,-0.697217405,-0.035403498,0.487365517
0.018575644,-0.735802352,0.16585207,0.56891201
0.018802176,-0.713166714,0.381951451,0.654493673
0.019028708,-0.625014901,0.592423856,0.741609652
0.01925524,-0.475133002,0.77503711,0.826433891
0.019481772,-0.273091942,0.909154475,0.901141068
0.019708304,-0.035400607,0.983068109,0.96767611
0.019934836,0.216088429,0.989861369,1.026519739
0.020161368,0.46081531,0.929493248,1.076308448
0.0203879,0.680769801,0.808319211,1.116827469
0.020614434,0.861729801,0.637040138,1.148398387
0.020840966,0.993724942,0.428881586,1.171428675
0.021067498,1.07092559,0.198210657,1.186169084
0.02129403,1.09132898,-0.040436164,1.192634026
0.021520562,1.05647302,-0.273093909,1.190715525
0.021747094,0.971292734,-0.487128466,1.180703718
0.021973626,0.844026029,-0.671800137,1.163695362
0.022200158,0.684940994,-0.819122016,1.140105042
0.022426692,0.505188882,-0.926060557,1.112803962
0.022653224,0.340577543,-0.960281134,1.038132919
0.022879756,0.146554545,-0.999585807,1.02065002
0.023106288,-0.02966198,-0.989290118,0.979574771
0.02333282,-0.189450994,-0.952391028,0.942940349
0.023559352,-0.332431167,-0.895948112,0.9132335
0.023785884,-0.459711641,-0.825228989,0.892337677
0.024012416,-0.573389709,-0.743385434,0.881397662
0.024238948,-0.675524294,-0.651480556,0.880759987
0.024465482,-0.767226458,-0.548939586,0.889971107
0.024692014,-0.848030925,-0.434294105,0.907767819
0.024918546,-0.915560782,-0.306071311,0.931931193
0.025145078,-0.965116262,-0.164171502,0.958401681
0.02537161,-0.999621689,-0.005625576,0.999275168
0.025598142,-1.0045712,0.158819661,1.034386981
0.025824674,-0.970580161,0.306052476,1.035693967
0.026051206,-0.922867179,0.46356082,1.066572464
0.02627774,-0.840709984,0.618057609,1.088788485
0.026504272,-0.728126228,0.751702368,1.095224254
0.026730804,-0.594060838,0.860049903,1.092594115
0.026957336,-0.445364654,0.940633476,1.083141011
0.027183868,-0.288668394,0.99263078,1.068645307
0.0274104,-0.129966751,1.01684201,1.05085903
0.027636932,0.025767177,1.01525772,1.031412185
0.027863464,0.174709007,0.990536213,1.011685226
0.028089996,0.314084649,0.94554913,0.992712324
0.02831653,0.441884339,0.883093953,0.975116699
0.028543062,0.556563318,0.806004107,0.959405347
0.028769594,0.657394171,0.717287838,0.946668939
0.028996126,0.744444609,0.619561136,0.938053777
0.029222658,0.818877578,0.515437007,0.936235796
0.02944919,0.884171367,0.40372315,0.944751388
0.029675722,0.935790181,0.280583322,0.954430263
0.029902254,0.9699108,0.150465399,0.963366796
0.030128788,0.986620128,0.016155625,0.973680281
0.03035532,0.985469639,-0.120605722,0.98569615
0.030581852,0.965669513,-0.257847935,0.999003166
0.030808384,0.92645061,-0.393139243,1.012869197
0.031034916,0.867324591,-0.523538768,1.026344788
0.031261448,0.788335979,-0.645615935,1.038293551
0.03148798,0.690341949,-0.755558074,1.04744001
0.031714512,0.575322747,-0.849428713,1.052525402
0.031941044,0.446607113,-0.923709631,1.052697396
0.032167578,0.30867371,-0.976030767,1.047915517
0.03239411,0.166593,-1.0057559,1.039298158
0.032620642,0.024577718,-1.01461852,1.030054805
0.032847174,-0.116411619,-1.00375259,1.021070927
0.033073706,-0.252651393,-0.971388698,1.007428729
0.033300238,-0.378726244,-0.920369446,0.990513485
0.03352677,-0.492699623,-0.855070174,0.973897921
0.033753304,-0.594497025,-0.778851807,0.96003685
0.033979836,-0.684797704,-0.69395256,0.950518051
0.034206368,-0.764442205,-0.60155642,0.946242011
0.0344329,-0.833951533,-0.501981676,0.947460762
0.034659432,-0.8931669,-0.395028889,0.953794934
0.034885964,-0.941082537,-0.280456603,0.964292248
0.035112496,-0.975938439,-0.158503696,0.977579258
0.035339028,-0.995610297,-0.030288503,0.992157257
0.03556556,-0.998181701,0.102085561,1.00678817
0.035792092,-0.982577801,0.235879987,1.021098503
0.036018624,-0.948442936,0.368950844,1.035668728
0.036245156,-0.893766165,0.499064296,1.047883129
0.036471688,-0.81745702,0.620305061,1.053014348
0.03669822,-0.722709537,0.727174699,1.051092118
0.036924752,-0.613846481,0.816793561,1.043959224
0.037151288,-0.495007604,0.887846649,1.0333042
0.03737782,-0.369964421,0.94008249,1.020628761
0.037604352,-0.241953552,0.974029124,1.007274256
0.037830884,-0.113579005,0.990697384,0.994381497
0.038057416,0.013166511,0.991293013,0.982835195
0.038283948,0.136778027,0.977012694,0.973262033
0.03851048,0.256076634,0.948956966,0.966094566
0.038737012,0.3701002,0.908147991,0.961706932
0.038963544,0.478113472,0.855592906,0.960631713
0.039190076,0.579872191,0.792214453,0.963855497
0.039416608,0.675736606,0.717887878,0.971982966
0.03964314,0.764484286,0.630865097,0.982426994
0.039869672,0.842584252,0.531106353,0.99202218
0.040096204,0.907440305,0.420655072,1.000398597
0.040322736,0.957565188,0.301656336,1.007927634
0.040549268,0.991796553,0.176158115,1.014692084
0.0407758,1.00915074,0.046327382,1.020531442
0.041002336,1.00888228,-0.085458614,1.02514663
0.041228868,0.990576565,-0.216597348,1.028156342
0.0414554,0.954263031,-0.344286591,1.029151189
0.041681932,0.900547862,-0.465611547,1.027780564
0.041908464,0.830741227,-0.577728629,1.023901355
0.042134996,0.746902466,-0.678169608,1.017777311
0.042361528,0.651694119,-0.765253484,1.01031812
0.04258806,0.547776699,-0.838483453,1.003113813
0.042814592,0.4366799,-0.897973239,0.997045273
0.043041124,0.319487959,-0.942651987,0.990665325
0.043267656,0.198871613,-0.9714185,0.983203821
0.043494188,0.077679224,-0.984862208,0.975987631
0.04372072,-0.042346273,-0.984279156,0.970598664
0.043947252,-0.16032356,-0.970763028,0.9680845
0.044173784,-0.275772899,-0.944920659,0.968925744
0.044400316,-0.388242334,-0.906846285,0.973102295
0.044626848,-0.496997565,-0.856236875,0.980148166
0.044853384,-0.600808322,-0.792629659,0.989232416
0.045079916,-0.697870016,-0.715726018,0.999286292
0.045306448,-0.78591305,-0.625732839,1.009200908
0.04553298,-0.862516761,-0.52361095,1.01810359
0.045759512,-0.925584495,-0.411051959,1.02567037
0.045986044,-0.973632097,-0.289947122,1.032028794
0.046212576,-1.00505328,-0.161922872,1.036351112
0.046439108,-1.01759028,-0.029693835,1.036371702
0.04666564,-1.01034296,0.102347627,1.031267934
0.046892172,-0.984530687,0.23009479,1.022244286
0.047118704,-0.94237107,0.350673199,1.011034926
0.047345236,-0.886291385,0.462306947,0.999240132
0.047571768,-0.818560898,0.564057052,0.988202302
0.0477983,-0.741081357,0.65555954,0.978959888
0.048024832,-0.655301452,0.736750782,0.972221708
0.048251364,-0.562248826,0.807613969,0.968364065
0.048477896,-0.462663084,0.867995322,0.967473008
0.048704432,-0.35717836,0.917538941,0.969454089
0.048930964,-0.24646464,0.955750287,0.97420343
0.049157496,-0.13118358,0.982118547,0.981765972
0.049384028,-0.011730596,0.995915294,0.99198488
0.04961056,0.111362875,0.995441675,1.003305818
0.049837092,0.235967085,0.978483081,1.013109605
0.050063624,0.358615398,0.944150388,1.020024959
0.050290156,0.476020783,0.893006206,1.02405587
0.050516688,0.585490406,0.826310754,1.025588478
0.05074322,0.684811294,0.745676696,1.025000243
0.050969752,0.772179663,0.652965605,1.022625513
0.051196284,0.846183538,0.550217807,1.018766215
0.051422816,0.905790806,0.439594239,1.013700079
0.051649348,0.950353384,0.323327959,1.007712524
0.05187588,0.979628325,0.20367153,1.001153747
0.052102412,0.9938187,0.082802683,0.994531893
0.052328944,0.993594706,-0.037357211,0.988626001
0.05255548,0.979943752,-0.15544951,0.984454307
0.052782012,0.95357424,-0.270834982,0.982655419
0.053008544,0.91431582,-0.382808954,0.982516114
0.053235076,0.861976922,-0.489669353,0.982780289
0.053461608,0.797335625,-0.58950007,0.983254431
0.05368814,0.721612871,-0.68099916,0.984484992
0.053914672,0.63587743,-0.763285756,0.986945251
0.054141204,0.540978789,-0.835535824,0.990778163
0.054367736,0.437693983,-0.896788359,0.995805384
0.054594268,0.326913625,-0.945895851,1.001591479
0.0548208,0.209816843,-0.98157841,1.007519283
0.055047332,0.08800409,-1.00257277,1.012896879
0.055273864,-0.036461458,-1.00785255,1.0170962
0.055500396,-0.161149353,-0.996877551,1.019733966
0.055726928,-0.283543378,-0.969764471,1.020839976
0.05595346,-0.401436627,-0.927168012,1.020791888
0.056179992,-0.512985229,-0.869753182,1.019624443
0.056406528,-0.615999639,-0.798101783,1.016422011
0.05663306,-0.707865655,-0.713715911,1.010464187
0.056859592,-0.786726952,-0.619218707,1.002371104
0.057086124,-0.851960421,-0.517387986,0.993526887
0.057312656,-0.903767109,-0.410506278,0.985310392
0.057539188,-0.942689002,-0.300228268,0.978799567
0.05776572,-0.969271183,-0.187666595,0.974705377
0.057992252,-0.983845472,-0.073568858,0.97336429
0.058218784,-0.986429453,0.041457437,0.974761785
0.058445316,-0.976748705,0.156718537,0.978598733
0.058671848,-0.954366386,0.271265358,0.984400093
0.05889838,-0.918878257,0.383843333,0.991672955
0.059124912,-0.870057225,0.493000358,1.000048928
0.059351444,-0.807757795,0.597223222,1.009148232
0.059577976,-0.731697321,0.694669485,1.017946663
0.059804508,-0.641959786,0.782605052,1.024583034
0.06003104,-0.540019929,0.857920229,1.027648643
0.060257576,-0.428581923,0.918339431,1.027029775
0.060484108,-0.310686916,0.962741017,1.023396626
0.06071064,-0.189202249,0.990872681,1.017626161
0.060937172,-0.066657707,1.00306427,1.01058118
0.061163704,0.054802798,1.00001919,1.003041727
0.061390236,0.1734166,0.982652009,0.995678288
0.061616768,0.287755728,0.951967716,0.989045891
0.0618433,0.396667302,0.90898633,0.983601097
0.062069832,0.499224663,0.854710996,0.979756151
0.062296364,0.594723582,0.790097475,0.977950159
0.062522896,0.682700515,0.715937674,0.978646746
0.062749428,0.762786686,0.632607043,0.982035199
0.06297596,0.834144652,0.540019035,0.987417859
0.063202492,0.895059645,0.438380599,0.993309318
0.063429024,0.943619668,0.328912079,0.998601234
0.063655556,0.978493929,0.213492393,1.003029371
0.063882088,0.998923004,0.094096318,1.006701285
0.06410862,1.00447333,-0.027351975,1.009714801
0.064335156,0.994924664,-0.148933753,1.01205635
0.064561688,0.970271111,-0.268686861,1.013618658
0.06478822,0.930767953,-0.384596229,1.014243242
0.065014752,0.876996696,-0.494628578,1.013780635
0.065241284,0.809924006,-0.59682101,1.012172213
0.065467816,0.730914593,-0.689425647,1.009543865
0.065694348,0.641644239,-0.77109319,1.006292037
0.06592088,0.54384321,-0.840990961,1.003031234
0.066147412,0.438947916,-0.898617089,1.000187946
0.066373944,0.328157216,-0.943285704,0.997475078
0.066600476,0.213075578,-0.974081576,0.994236119
0.066827008,0.095851287,-0.990578592,0.990433416
0.06705354,-0.021471558,-0.993115842,0.986740103
0.067280072,-0.137360647,-0.982405424,0.983988364
0.067506608,-0.2507357,-0.95912838,0.982795641
0.067733136,-0.360741198,-0.923755109,0.983457713
0.067959672,-0.466525555,-0.876532912,0.985956039
0.0681862,-0.567071199,-0.817576051,0.990000344
0.068412736,-0.661107719,-0.747026384,0.995111835
0.068639264,-0.747124314,-0.665234983,1.000732323
0.0688658,-0.823492706,-0.572905958,1.006361474
0.069092328,-0.888663769,-0.471122503,1.011679707
0.069318864,-0.941293657,-0.361195445,1.016495898
0.069545392,-0.980091751,-0.244512334,1.020366122
0.069771928,-1.00358546,-0.122828946,1.022270725
0.069998464,-1.01054811,0.001237332,1.021209014
0.070224992,-1.00079262,0.124527588,1.017092988
0.070451528,-0.975229502,0.244172692,1.010692885
0.070678056,-0.935378313,0.358010471,1.003104086
0.070904592,-0.882924378,0.464579403,0.995389479
0.07113112,-0.819458663,0.562962949,0.988439782
0.071357656,-0.74634707,0.652601421,0.982922564
0.071584184,-0.664695501,0.733111203,0.979272145
0.07181072,-0.575391293,0.804138958,0.977714604
0.072037248,-0.479186028,0.865270615,0.978312487
0.072263784,-0.376784235,0.916017294,0.981054043
0.072490312,-0.268859893,0.95582813,0.985893056
0.072716848,-0.156015292,0.98401159,0.992619581
0.072943376,-0.038907006,0.999482512,1.000479047
0.073169912,0.08120878,1.00071895,1.008033283
0.07339644,0.202078849,0.98642993,1.013879868
0.073622976,0.320898205,0.956248522,1.017386894
0.073849504,0.434984088,0.910709262,1.018602517
0.07407604,0.542049766,0.850910902,1.017867312
0.074302576,0.640216172,0.778267622,1.015577238
0.074529104,0.727976084,0.69438231,1.012115971
0.07475564,0.804161489,0.600971282,1.007842182
0.074982168,0.867920876,0.499809116,1.003095799
0.075208704,0.918711483,0.392685711,0.998232857
0.075435232,0.956298828,0.281348109,0.993664207
0.075661768,0.980749905,0.167407885,0.989895776
0.075888296,0.992354751,0.052200031,0.987492795
0.076114832,0.991377532,-0.063310184,0.98683759
0.07634136,0.977715552,-0.178311348,0.987722637
0.076567896,0.950954974,-0.291606545,0.98934974
0.076794424,0.91096127,-0.401457548,0.991018598
0.07702096,0.858199358,-0.506055474,0.992598281
0.077247488,0.793494642,-0.603881896,0.994307091
0.077474024,0.71775049,-0.693685532,0.996365383
0.077700552,0.631865084,-0.774327815,0.998837049
0.077927088,0.53677839,-0.844677627,1.001611334
0.078153624,0.433564782,-0.90358305,1.004440748
0.078380152,0.323522687,-0.949917495,1.007010176
0.078606688,0.208225697,-0.982682168,1.009022184
0.078833216,0.089500032,-1.00114155,1.010294659
0.079059752,-0.030694669,-1.00493801,1.010842567
0.07928628,-0.150461346,-0.994086027,1.010845646
0.079512816,-0.268080711,-0.968775094,1.01039245
0.079739344,-0.381809711,-0.929172933,1.009140995
0.07996588,-0.489573658,-0.875676334,1.006491409
0.080192408,-0.589208066,-0.809389353,1.00227727
0.080418944,-0.679049432,-0.732067227,0.997030556
0.080645472,-0.758159518,-0.645627737,0.99164103
0.080872008,-0.826146066,-0.551775753,0.986973804
0.081098536,-0.882886589,-0.451878548,0.983682951
0.081325072,-0.928301573,-0.346998662,0.982151882
0.0815516,-0.962212086,-0.238009393,0.98250057
0.081778136,-0.984283566,-0.125743613,0.984625595
0.082004672,-0.99405539,-0.01112855,0.988269963
0.0822312,-0.991035402,0.104732364,0.993120036
0.082457736,-0.974797308,0.220566034,0.998879167
0.082684264,-0.944992781,0.334988534,1.005228674
0.0829108,-0.901258707,0.446450144,1.011584988
0.083137328,-0.843285322,0.552953899,1.016888149
0.083363864,-0.771319449,0.651937544,1.019956254
0.083590392,-0.686613381,0.740776479,1.020187727
0.083816928,-0.591235995,0.817430496,1.017752618
0.084043456,-0.487572432,0.880657434,1.013284393
0.084269992,-0.377960116,0.929893732,1.007556202
0.08449652,-0.264517814,0.965063393,1.001317026
0.084723056,-0.149084389,0.986406744,0.99522442
0.084949584,-0.033221301,0.994343281,0.989822215
0.08517612,0.081752583,0.989373982,0.985544361
0.085402648,0.194715723,0.972022712,0.982742365
0.085629184,0.304713547,0.942796826,0.981716201
0.08585572,0.41094622,0.902131736,0.982718465
0.086082248,0.512711823,0.850265265,0.985824434
0.086308784,0.609164178,0.787127793,0.990651158
0.086535312,0.698936045,0.712541699,0.996227268
0.086761848,0.780103981,0.626781106,1.001416776
0.086988376,0.850688875,0.530894697,1.005520741
0.087214912,0.909105659,0.426491171,1.008367818
0.08744144,0.954239011,0.31540674,1.010053502
0.087667976,0.985349178,0.199538201,1.010728496
0.087894504,1.00199032,0.080798581,1.010513012
0.08812104,1.00398457,-0.038890917,1.00949752
0.088347568,0.991423428,-0.157617465,1.007763679
0.088574104,0.964687586,-0.273515075,1.005432635
0.088800632,0.924453199,-0.384835482,1.002712065
0.089027168,0.871657968,-0.490050912,0.99993751
0.089253696,0.807379961,-0.587944806,0.997541496
0.089480232,0.732627869,-0.677590489,0.995872465
0.089706768,0.648209035,-0.758101761,0.994893233
0.089933296,0.554944694,-0.828354478,0.994134755
0.090159832,0.454063147,-0.887114346,0.993145204
0.09038636,0.347209513,-0.93347162,0.991923711
0.090612896,0.236094803,-0.967006147,0.990841644
0.090839424,0.122239143,-0.987621903,0.990339431
0.09106596,0.006949592,-0.995325983,0.990722109
0.091292488,-0.108577609,-0.990100145,0.992087394
0.091519024,-0.223131761,-0.971880198,0.994338902
0.091745552,-0.335389793,-0.940612733,0.997238627
0.091972088,-0.443877548,-0.896353602,1.000477057
0.092198616,-0.547002196,-0.839377224,1.003765527
0.092425152,-0.6431548,-0.770234764,1.006909688
0.09265168,-0.73081702,-0.689713776,1.00979861
0.092878216,-0.808558881,-0.59872508,1.012239185
0.093104744,-0.874874771,-0.498312265,1.013720978
