Frequency (GHz),Re( S21 ),Im( S21 ),S2
0,0.024405494,0,0.000595628
0.000226518,0.022134213,-0.010338843,0.000596815
0.000453035,0.015695106,-0.018812334,0.00060024
0.000679553,0.006183489,-0.023818839,0.000605573
0.00090607,-0.004695178,-0.024294293,0.000612257
0.001132588,-0.014856315,-0.01997219,0.000619598
0.001359105,-0.022214657,-0.011548614,0.000626861
0.001585623,-0.025159124,-0.000644272,0.000633397
0.00181214,-0.022989195,0.010503512,0.000638827
0.002038658,-0.016131196,0.019568123,0.000643127
0.002265175,-0.006031171,0.024704313,0.000646678
0.002491693,0.005233683,0.024956117,0.000650199
0.00271821,0.015458911,0.020386281,0.000654578
0.002944728,0.022755779,0.01195278,0.000660694
0.003171245,0.025841244,0.001242611,0.000669314
0.003397763,0.02415023,-0.009833331,0.000679928
0.00362428,0.017953662,-0.019308025,0.000695134
0.003850798,0.008191897,-0.025420316,0.0007133
0.004077315,-0.003489902,-0.026878223,0.000734618
0.004303833,-0.014960518,-0.02312419,0.000758545
0.00453035,-0.023914019,-0.014570771,0.000784188
0.004756868,-0.028340083,-0.002687236,0.000810382
0.004983386,-0.027059075,0.010183838,0.000835904
0.005209903,-0.020126661,0.021323472,0.000859773
0.005436421,-0.00890098,0.028324928,0.000881529
0.005662938,0.004298055,0.029713249,0.00090135
0.005889456,0.016796194,0.025258033,0.00092008
0.006115973,0.026189553,0.015909836,0.000939016
0.006342491,0.030783281,0.003472152,0.000959666
0.006569008,0.02978579,-0.00981348,0.000983498
0.006795526,0.023345787,-0.021647899,0.001013657
0.007022043,0.01241192,-0.029917965,0.00104914
0.007248561,-0.001307211,-0.033025999,0.001092425
0.007475078,-0.015522862,-0.030056574,0.001144357
0.007701596,-0.027601244,-0.021057203,0.001205234
0.007928113,-0.034959983,-0.007239088,0.001274605
0.008154631,-0.035635777,0.009006584,0.001351027
0.008381148,-0.028902473,0.024427561,0.001432059
0.008607665,-0.015689677,0.035615381,0.001514621
0.008834183,0.001468939,0.039918557,0.001595649
0.0090607,0.019032901,0.036202442,0.001672868
0.009287218,0.033377662,0.025126217,0.001745395
0.009513735,0.041656371,0.008867504,0.001813886
0.009740253,0.04231282,-0.009495215,0.001880534
0.009966771,0.035208017,-0.026665051,0.001950629
0.010193288,0.021530762,-0.03957776,0.002029973
0.010419806,0.003303818,-0.045858912,0.002113955
0.010646323,-0.016528206,-0.044097822,0.0022178
0.010872841,-0.03458586,-0.033943862,0.002348367
0.011099358,-0.047378395,-0.016407332,0.002513913
0.011325876,-0.051834058,0.006007724,0.002722862
0.011552393,-0.046015617,0.029404357,0.002982053
0.011778911,-0.029863631,0.049016886,0.003294492
0.012005428,-0.005653027,0.060209002,0.003657081
0.012231946,0.022178736,0.059731487,0.004059747
0.012458463,0.047955073,0.046761856,0.00448636
0.012684981,0.06615781,0.023257192,0.004917753
0.012911498,0.072755426,-0.00652191,0.005335887
0.013138016,0.066008896,-0.037043605,0.005729403
0.013364533,0.046664465,-0.062628321,0.006099879
0.013591051,0.017591169,-0.078244992,0.006431728
0.013817568,-0.0167918,-0.080412708,0.006748168
0.014044086,-0.050727431,-0.067422859,0.007119114
0.014270603,-0.07787206,-0.03964901,0.007636102
0.014497121,-0.091918446,4.02E-05,0.008449002
0.014723638,-0.087536164,0.046069846,0.009785011
0.014950156,-0.061637268,0.090350211,0.011962313
0.015176673,-0.014717124,0.123185508,0.015391263
0.015403191,0.048234537,0.135020226,0.020557032
0.015629708,0.117851637,0.118734196,0.027986818
0.015856226,0.181843475,0.071731277,0.038212425
0.016082743,0.227454782,-0.003034197,0.051744884
0.016309261,0.244061217,-0.09750133,0.069072387
0.016535778,0.224997103,-0.200101793,0.090664424
0.016762296,0.168227866,-0.297788531,0.116978624
0.016988814,0.076171622,-0.377807558,0.148540667
0.01721533,-0.044756755,-0.429095328,0.186125968
0.017441848,-0.186137155,-0.442978442,0.230876941
0.017668366,-0.336604595,-0.41212818,0.28315229
0.017894884,-0.482236117,-0.332852066,0.34334217
0.0181214,-0.607606113,-0.205604509,0.411458403
0.018347918,-0.696873784,-0.035860267,0.48691903
0.018574436,-0.735599577,0.165280178,0.568424275
0.018800954,-0.713145196,0.381316692,0.65397849
0.01902747,-0.625189602,0.591795623,0.741084098
0.019253988,-0.47548905,0.774496734,0.825935028
0.019480506,-0.273606092,0.908759534,0.900704184
0.019707024,-0.036002901,0.982844532,0.967279583
0.019933542,0.215467289,0.989822805,1.026175338
0.020160058,0.460234404,0.929626763,1.076021625
0.020386576,0.680275261,0.808595061,1.116600403
0.020613094,0.861352265,0.637419224,1.148230992
0.020839612,0.99348104,0.429322064,1.171322011
0.021066128,1.0708195,0.198670372,1.186124318
0.021292646,1.09135509,-0.039996583,1.192655659
0.021519164,1.05661535,-0.272710592,1.190807065
0.021745682,0.971522689,-0.486830473,1.180860245
0.021972198,0.844304204,-0.671609581,1.163909018
0.022198716,0.685225844,-0.819044352,1.140368108
0.022425234,0.505443752,-0.926067531,1.113074458
0.022651752,0.340493917,-0.959922016,1.037386384
0.022878268,0.14666447,-0.999750733,1.021011995
0.023104786,-0.029673375,-0.989457011,0.979905686
0.023331304,-0.189552829,-0.952514231,0.943213635
0.023557822,-0.332590342,-0.895997941,0.913428646
0.023784338,-0.459889919,-0.825192451,0.892441319
0.024010856,-0.573548913,-0.743266463,0.881403391
0.024237374,-0.67563355,-0.651297092,0.880668596
0.024463892,-0.767266512,-0.548720062,0.889791607
0.024690408,-0.847996533,-0.434071273,0.90751599
0.024916926,-0.915463924,-0.305876434,0.931634589
0.025143444,-0.96498549,-0.164016902,0.95809854
0.025369962,-0.999436498,-0.005539128,0.998903995
0.025596478,-1.00439739,0.158841863,1.034044854
0.025822996,-0.970434308,0.306107372,1.035444469
0.026049514,-0.92271626,0.463532507,1.066267682
0.026276032,-0.840650141,0.618042171,1.088668785
0.026502548,-0.728089035,0.751733601,1.09521705
0.026729066,-0.594017148,0.860126078,1.092673242
0.026955584,-0.445290238,0.940747559,1.083289366
0.027182102,-0.288544357,0.992767096,1.068844353
0.027408618,-0.129781649,1.01697934,1.051090254
0.027635136,0.026015572,1.01537204,1.03165719
0.027861654,0.175014466,0.990605116,1.011928559
0.028088172,0.314433783,0.945553482,0.992939991
0.028314688,0.442259938,0.88302052,0.975319092
0.028541206,0.556945324,0.805841982,0.959569394
0.028767724,0.657756925,0.717032909,0.946780365
0.028994242,0.744763553,0.61921519,0.938100201
0.02922076,0.819113433,0.515004218,0.936176161
0.029447276,0.884293616,0.403270066,0.944601945
0.029673794,0.935843647,0.280129224,0.954275714
0.029900312,0.969890594,0.150008082,0.963190189
0.03012683,0.986525297,0.01571152,0.973479013
0.030353346,0.985308826,-0.121021152,0.985479602
0.030579864,0.965455353,-0.258224636,0.998784001
0.030806382,0.926197469,-0.393473148,1.01266287
0.0310329,0.867045581,-0.523831606,1.026167591
0.031259416,0.788040519,-0.645874739,1.038162038
0.031485934,0.690033615,-0.755793333,1.047369952
0.031712452,0.574997187,-0.84965086,1.052528349
0.03193897,0.446251929,-0.923924446,1.052777166
0.032165486,0.308271557,-0.976233661,1.048063514
0.032392004,0.166126817,-1.00592852,1.039490307
0.032618522,0.02405281,-1.01472521,1.030245789
0.03284504,-0.116968043,-1.00379312,1.021282151
0.033071556,-0.253255039,-0.971358955,1.007676334
0.033298074,-0.379369229,-0.920234025,0.990751673
0.033524592,-0.493350804,-0.854806423,0.974089037
0.033751108,-0.595118165,-0.778452873,0.960154506
0.033977628,-0.685351133,-0.693426251,0.950546141
0.034204144,-0.764895022,-0.600923598,0.946173565
0.03443066,-0.834280849,-0.501272202,0.947298356
0.03465718,-0.893361866,-0.394277543,0.953550205
0.034883696,-0.94114536,-0.279697806,0.963985451
0.035110216,-0.975881219,-0.157765239,0.977234024
0.035336732,-0.995451629,-0.029589081,0.991799459
0.035563248,-0.997939825,0.102737546,1.006438898
0.035789768,-0.982263207,0.236480504,1.020764037
0.036016284,-0.94806993,0.369485855,1.035356389
0.0362428,-0.893370986,0.499540806,1.047652735
0.03646932,-0.817041874,0.62075752,1.052897323
0.036695836,-0.722253144,0.72761482,1.05107293
0.036922356,-0.613330007,0.817216575,1.044016628
0.037148872,-0.49441728,0.888238192,1.033415532
0.037375388,-0.369292319,0.940421224,1.020768895
0.037601908,-0.241200686,0.974291682,1.007422053
0.037828424,-0.112754978,0.990858734,0.994514716
0.03805494,0.014044205,0.991331279,0.982934944
0.03828146,0.137684762,0.976911247,0.973312678
0.038507976,0.256983995,0.948705673,0.966083228
0.038734496,0.370977253,0.907743752,0.961622842
0.038961012,0.478927732,0.855039597,0.960464485
0.039187528,0.580586612,0.791523278,0.963589914
0.039414048,0.676315606,0.717094719,0.971627635
0.039640564,0.764926136,0.630015612,0.982031665
0.039867084,0.842899978,0.530221939,0.991615678
0.0400936,0.907632768,0.419751406,0.999988484
0.040320116,0.957638204,0.300750881,1.007522022
0.040546636,0.991758704,0.175266549,1.01430369
0.040773152,1.00901198,0.045461074,1.020171885
0.040999668,1.0086534,-0.086293101,1.024828181
0.041226188,0.990267038,-0.21739769,1.027890562
0.041452704,0.953878403,-0.345053107,1.028945654
0.041679224,0.900089025,-0.466346383,1.027639202
0.04190574,0.830203354,-0.578432322,1.02382156
0.042132256,0.746275425,-0.678836465,1.017745956
0.042358776,0.650966704,-0.765868664,1.01031246
0.042585292,0.546946526,-0.839019001,1.003103386
0.042811808,0.435764194,-0.898405015,0.997022004
0.043038328,0.318501472,-0.942974091,0.990643324
0.043264844,0.197818488,-0.971615374,0.983168589
0.043491364,0.076576255,-0.98491019,0.975912005
0.04371788,-0.043469727,-0.9841609,0.970462294
0.043944396,-0.161431476,-0.970472932,0.967877833
0.044170916,-0.276830345,-0.94446522,0.968649592
0.044397432,-0.389217883,-0.906241655,0.972764498
0.044623948,-0.497868866,-0.855507374,0.979766275
0.044850468,-0.601562023,-0.791802227,0.988827634
0.045076984,-0.698503137,-0.714826643,0.998883762
0.045303504,-0.786430001,-0.624781489,1.008824055
0.04553002,-0.862924635,-0.522619247,1.017769803
0.045756536,-0.925885439,-0.410025805,1.025385007
0.045983056,-0.973824322,-0.288895249,1.031794275
0.046209572,-1.00514424,-0.16085647,1.036189747
0.046436088,-1.01758981,-0.028605456,1.036307294
0.046662608,-1.01023793,0.103471734,1.031287075
0.046889124,-0.984294415,0.23125343,1.022313644
0.047115644,-0.941976726,0.3518489,1.011117801
0.04734216,-0.885718942,0.463470191,0.999302662
0.047568676,-0.817799509,0.565169632,0.98821275
0.047795196,-0.740133286,0.656579435,0.978893836
0.048021712,-0.654181123,0.737635851,0.97205959
0.048248232,-0.560982227,0.808327079,0.968093726
0.048474748,-0.461285859,0.86850822,0.967091172
0.048701264,-0.355731845,0.91783303,0.968962617
0.048927784,-0.24499236,0.955817044,0.973607478
0.0491543,-0.12973094,0.981957912,0.981071458
0.049380816,-0.010347028,0.995542586,0.991212102
0.049607336,0.112639569,0.994894266,1.002502273
0.049833852,0.237127066,0.977802157,1.012326304
0.050060372,0.359661013,0.94336158,1.019287115
0.050286888,0.47695455,0.892127335,1.023376825
0.050513404,0.586314976,0.825355053,1.024976215
0.050739924,0.685529351,0.744653463,1.024459271
0.05096644,0.772793412,0.651880622,1.022158003
0.051192956,0.846692204,0.549073517,1.018369415
0.051419476,0.906190336,0.438391536,1.013368064
0.051645992,0.950635016,0.322067857,1.007434638
0.051872512,0.979778886,0.20235692,1.000914989
0.052099028,0.99382031,0.081441231,0.994311483
0.052325544,0.993425906,-0.038749717,0.988396571
0.052552064,0.979584754,-0.15684475,0.984186566
0.05277858,0.953019619,-0.272192389,0.982335091
0.053005096,0.913577259,-0.384094834,0.98215225
0.053231616,0.861066401,-0.490860939,0.982379808
0.053458132,0.796262741,-0.590571642,0.982809217
0.053684652,0.720395267,-0.681922138,0.983987143
0.053911168,0.63454181,-0.764035761,0.986393953
0.054137684,0.539558053,-0.836097121,0.990181288
0.054364204,0.436222494,-0.897154927,0.995177027
0.05459072,0.325423419,-0.946071029,1.000950794
0.054817236,0.208334833,-0.981572509,1.006887993
0.055043756,0.086548999,-1.00239992,1.012296329
0.055270272,-0.037878178,-1.00752604,1.016543478
0.055496792,-0.16252178,-0.996406138,1.019238521
0.055723308,-0.284865737,-0.969150245,1.020400686
0.055949824,-0.402696788,-0.926410377,1.02040089
0.056176344,-0.514168143,-0.868858039,1.019283171
0.05640286,-0.617099166,-0.797075689,1.016141035
0.056629376,-0.708875239,-0.712553561,1.010236682
0.056855896,-0.787624419,-0.617911279,1.002166574
0.057082412,-0.852712572,-0.515936971,0.993309688
0.057308932,-0.904338241,-0.408927023,0.985048964
0.057535448,-0.943047166,-0.298549473,0.978469745
0.057761964,-0.969393492,-0.18592675,0.974292499
0.057988484,-0.983720005,-0.071812987,0.972862153
0.058215,-0.986057222,0.043183748,0.974173681
0.05844152,-0.976142287,0.15837276,0.977935696
0.058668036,-0.953547299,0.272811979,0.983678827
0.058894552,-0.917873085,0.385254771,0.990912239
0.059121072,-0.868894696,0.494255066,0.999266063
0.059347588,-0.806471229,0.598305643,1.008365486
0.059574104,-0.730324864,0.695578039,1.017203215
0.059800624,-0.640528798,0.783355832,1.023923501
0.06002714,-0.538537025,0.858530343,1.027096477
0.06025366,-0.427043647,0.918813646,1.026584793
0.060480176,-0.309089094,0.963072956,1.023045587
0.060706692,-0.187546253,0.991048694,1.017351111
0.060933212,-0.064950414,1.00306582,1.010359596
0.061159728,0.056546956,0.999826372,1.002850332
0.061386244,0.175174221,0.982245624,0.995492474
0.061612764,0.289497316,0.951332092,0.988841445
0.06183928,0.398356318,0.908112884,0.983356766
0.0620658,0.500820041,0.853597879,0.979450053
0.062292316,0.596180558,0.788752258,0.977561382
0.062518832,0.683972716,0.71438098,0.978158861
0.062745352,0.763833165,0.63087678,0.981446615
0.062971868,0.834941685,0.538165152,0.986749348
0.063198384,0.895603657,0.436448932,0.992593581
0.063424904,0.943913162,0.326938689,0.997860964
0.06365142,0.978540599,0.21150969,1.002278053
0.06387794,0.99873054,0.092135385,1.005951621
0.064104456,1.00405478,-0.029263314,1.008982343
0.064330972,0.994296014,-0.15077351,1.011357215
0.064557492,0.969449103,-0.270438969,1.012968799
0.064784008,0.929767013,-0.386250108,1.013655844
0.065010524,0.875826716,-0.496176511,1.013263567
0.065237044,0.808589995,-0.598255277,1.011727156
0.06546356,0.729416072,-0.690734863,1.009162457
0.06569008,0.639979959,-0.772258043,1.005956833
0.065916596,0.542016864,-0.841983378,1.00271829
0.066143112,0.436974823,-0.899406433,0.999878928
0.066369632,0.326059997,-0.943848133,0.99716442
0.066596148,0.210875168,-0.974396408,0.993916696
0.066822664,0.093571864,-0.990618229,0.990080169
0.067049184,-0.023792367,-0.992853284,0.98632372
0.067275704,-0.139673173,-0.981821299,0.983481658
0.067502216,-0.252983093,-0.958217561,0.98218134
0.067728736,-0.362866074,-0.92252773,0.9827292
0.067955256,-0.468474865,-0.875012517,0.985115604
0.068181768,-0.568800628,-0.815797031,0.98905895
0.068408288,-0.662582695,-0.745030046,0.994085597
0.068634808,-0.748321533,-0.663065016,0.999640332
0.06886132,-0.824397504,-0.570605278,1.005221628
0.06908784,-0.889266372,-0.468731701,1.010504088
0.06931436,-0.941588938,-0.358756512,1.015295963
0.06954088,-0.980084538,-0.24206847,1.019162846
0.069767392,-1.00329041,-0.120414868,1.021091387
0.069993912,-1.00997961,0.00360027,1.020071775
0.070220432,-0.999953568,0.126820728,1.015990635
0.070446944,-0.97411871,0.24637033,1.009605601
0.070673464,-0.933997035,0.360078633,1.002007083
0.070899984,-0.881281674,0.466479003,0.994260049
0.071126496,-0.817573309,0.564652681,0.987258766
0.071353016,-0.744248688,0.654043198,0.981678614
0.071579536,-0.66242218,0.734272599,0.977959394
0.071806048,-0.572987437,0.804996133,0.976333377
0.072032568,-0.476700485,0.865810454,0.976871095
0.072259088,-0.374265134,0.916236699,0.979564079
0.0724856,-0.266354799,0.955731809,0.98436817
0.07271212,-0.153570458,0.983614981,0.991082316
0.07293864,-0.03656175,0.998815119,0.998968403
0.07316516,0.083433874,0.999818444,1.006598132
0.073391672,0.204182044,0.985326469,1.012558558
0.073618192,0.322884172,0.954954505,1.016192295
0.073844712,0.436853766,0.909227133,1.017535192
0.074071224,0.54379642,0.849234879,1.016914426
0.074297744,0.641824901,0.77638942,1.014719735
0.074524264,0.729422212,0.692294002,1.011327749
0.074750776,0.805409908,0.598668396,1.007088968
0.074977296,0.868929327,0.497296482,1.002341966
0.075203816,0.919430971,0.389978886,0.997436842
0.075430328,0.956677496,0.278477311,0.992781444
0.075656848,0.980737448,0.164420843,0.988880156
0.075883368,0.991909266,0.049163859,0.986301077
0.07610988,0.990475714,-0.066311188,0.985439314
0.0763364,0.976362526,-0.181186214,0.986112226
0.07656292,0.949178815,-0.294272602,0.987536787
0.07678944,0.908805192,-0.403843611,0.989016539
0.077015952,0.855718136,-0.508099198,0.990418323
0.077242472,0.790756464,-0.605534256,0.991967521
0.077468992,0.714833498,-0.69491452,0.99389312
0.077695504,0.6288504,-0.775122583,0.996267844
0.077922024,0.533743083,-0.845046878,0.998985905
0.078148544,0.430575699,-0.903553307,1.001804011
0.078375056,0.32063216,-0.949526608,1.004405761
0.078601576,0.205468342,-0.981972337,1.00648691
0.078828096,0.086895756,-1.00015271,1.007856316
0.079054608,-0.033136088,-1.00370228,1.008516267
0.079281128,-0.152733713,-0.992626667,1.008635287
0.079507648,-0.270177811,-0.96711129,1.008300297
0.079734168,-0.383727044,-0.927321076,1.007170822
0.07996068,-0.491311133,-0.873645246,1.004642645
0.0801872,-0.590758204,-0.807175934,1.000528244
0.08041372,-0.680388927,-0.729665756,0.995341207
0.080640232,-0.759251893,-0.643041849,0.989966257
0.080866752,-0.826949298,-0.549025059,0.985273657
0.081093272,-0.883359432,-0.448996872,0.981922077
0.081319784,-0.928412795,-0.34403491,0.980310337
0.081546304,-0.961942434,-0.235021621,0.980568409
0.081772824,-0.983628571,-0.122792937,0.982603271
0.081999336,-0.993025601,-0.008274768,0.986168316
0.082225856,-0.989653409,0.107435353,0.990956225
0.082452376,-0.97309345,0.223072186,0.996672063
0.082678888,-0.943005383,0.337259293,1.003002983
0.082905408,-0.899032414,0.448458463,1.009374274
0.083131928,-0.84086585,0.554690182,1.014736576
0.083358448,-0.768739223,0.653406322,1.017899815
0.08358496,-0.683886945,0.74198097,1.018237113
0.08381148,-0.588368595,0.818363488,1.015896402
0.084038,-0.484569728,0.881298304,1.011494522
0.084264512,-0.374835253,0.930211544,1.005794983
0.084491032,-0.261295021,0.965021253,0.999541107
0.084717552,-0.1458022,0.985966146,0.993387523
0.084944064,-0.029933792,0.993469775,0.987878226
0.085170584,0.084977299,0.98804301,0.983450131
0.085397104,0.197797716,0.970224321,0.98045917
0.085623616,0.307564765,0.940540135,0.97921183
0.085850136,0.413475752,0.899448991,0.979970685
0.086076656,0.51483351,0.847216129,0.982828712
0.086303176,0.610810041,0.78379792,0.987428086
0.086529688,0.700068593,0.709033549,0.992824609
0.086756208,0.780717909,0.623196065,0.997893789
0.086982728,0.850801587,0.527323425,1.001933335
0.08720924,0.908750713,0.423011661,1.004766724
0.08743576,0.953463554,0.312082618,1.006488309
0.08766228,0.984209657,0.196414828,1.007247434
0.087888792,1.00054598,0.077901594,1.007160916
0.088115312,1.00228882,-0.041555144,1.006309709
0.088341832,0.989518285,-0.160057187,1.004764739
0.088568344,0.962598979,-0.275746793,1.002633088
0.088794864,0.922188342,-0.386875987,1.000104367
0.089021384,0.869208574,-0.491907656,0.997496687
0.089247896,0.804728448,-0.589608669,0.995226258
0.089474416,0.729758203,-0.679033637,0.993633715
0.089700936,0.645115495,-0.759283662,0.992685681
0.089927456,0.551631153,-0.82922709,0.991914496
0.090153968,0.450543672,-0.887620211,0.990859239
0.090380488,0.343517184,-0.933543205,0.989506971
0.090607008,0.232289746,-0.966576457,0.988228573
0.09083352,0.118408635,-0.98663789,0.987474931
0.09106004,0.003200892,-0.993757844,0.987564898
0.09128656,-0.112126783,-0.987948895,0.988615435
0.091513072,-0.22636418,-0.969178915,0.990548511
0.091739592,-0.338199139,-0.937424362,0.993143092
0.091966112,-0.446176738,-0.892765522,0.996103959
0.092192624,-0.548729062,-0.835493147,0.999152382
0.092419144,-0.644272566,-0.766167104,1.002099171
0.092645664,-0.731314898,-0.685578167,1.004838903
0.092872176,-0.808452845,-0.594634771,1.007186513
0.093098696,-0.874209762,-0.494370192,1.008644595
