Frequency (GHz),Re( S21 ),Im( S21 ),S2
0,0.024803791,0,0.000615228
0.000226448,0.022501668,-0.01049464,0.000616463
0.000452896,0.015973859,-0.019101502,0.000620032
0.000679344,0.006327051,-0.024198061,0.000625578
0.000905792,-0.004714191,-0.024704102,0.000632516
0.001132241,-0.015039901,-0.020344421,0.000640094
0.001358689,-0.022536116,-0.011818155,0.000647545
0.001585137,-0.025565557,-0.000761522,0.000654178
0.001811585,-0.023410343,0.010561225,0.000659584
0.002038033,-0.016493714,0.019791378,0.000663741
0.002264481,-0.006273306,0.02505393,0.000667054
0.002490929,0.005150871,0.025371902,0.000670265
0.002717378,0.015546705,0.020799037,0.0006743
0.002943826,0.022998538,0.012295826,0.00068012
0.003170274,0.026200796,0.001461036,0.000688616
0.003396722,0.024571382,-0.00977552,0.000699314
0.00362317,0.018371224,-0.019423422,0.000714771
0.003849618,0.0085374,-0.025697697,0.000733259
0.004076066,-0.003278145,-0.027280131,0.000754952
0.004302514,-0.014927153,-0.02358941,0.00077928
0.004528963,-0.024076426,-0.015021072,0.000805307
0.004755411,-0.028680397,-0.003039841,0.000831806
0.004981859,-0.027523495,0.009998806,0.000857519
0.005208307,-0.020633685,0.021346688,0.00088143
0.005434755,-0.009358377,0.028556962,0.000903079
0.005661203,0.003973037,0.03011472,0.000922681
0.005887651,0.016660838,0.025759168,0.000941118
0.006114099,0.026266929,0.01642579,0.000959758
0.006340548,0.031061947,0.003917754,0.000980193
0.006566996,0.030223277,-0.009511244,0.00100391
0.006793444,0.023877075,-0.021541806,0.001034164
0.007019892,0.012955443,-0.030032916,0.00106982
0.00724634,-0.000839686,-0.033357125,0.001113403
0.007472788,-0.01521613,-0.030564535,0.001165721
0.007699236,-0.027523072,-0.021668742,0.001227054
0.007925684,-0.035145819,-0.0078522,0.001296886
0.008152132,-0.036074411,0.008507052,0.001373733
0.008378581,-0.029529838,0.024147278,0.001455102
0.008605028,-0.01639602,0.035623834,0.001537887
0.008831477,0.000816645,0.040228531,0.001619002
0.009057925,0.018560862,0.036765434,0.001696203
0.009284373,0.033177093,0.02584351,0.001768607
0.009510821,0.041767538,0.009613504,0.001836947
0.009737269,0.042722009,-0.008848818,0.001903472
0.009963717,0.035853665,-0.026228903,0.001973441
0.010190165,0.022316419,-0.039433044,0.002052987
0.010416613,0.004107537,-0.046043899,0.002136912
0.010643061,-0.015838757,-0.044607054,0.002240656
0.01086951,-0.034138944,-0.034721136,0.002371025
0.011095958,-0.047279585,-0.017344711,0.002536198
0.011322406,-0.052142978,0.005063253,0.002744527
0.011548854,-0.046723757,0.028631855,0.003002893
0.011775302,-0.030879635,0.048588201,0.003314365
0.01200175,-0.006807848,0.060246941,0.003676041
0.012228198,0.021102451,0.060272113,0.004078041
0.012454646,0.047175832,0.047737632,0.004504441
0.012681095,0.06584511,0.024507672,0.004936204
0.012907543,0.072994329,-0.005215994,0.005355379
0.013133991,0.066786267,-0.035917126,0.005750445
0.013360439,0.047874637,-0.061893616,0.006122801
0.013586887,0.019057253,-0.07806205,0.006456863
0.013813335,-0.015303189,-0.080866359,0.006773556
0.014039783,-0.049478203,-0.068512864,0.007142105
0.014266231,-0.077126108,-0.041275114,0.007652072
0.014492679,-0.091906339,-0.001914106,0.008450439
0.014719128,-0.088409774,0.044097357,0.009760865
0.014945576,-0.063419253,0.088744514,0.01189759
0.015172024,-0.01726022,0.122348733,0.015267128
0.015398472,0.045258269,0.135290414,0.020351807
0.01562492,0.114915028,0.120297387,0.027676925
0.015851368,0.179483548,0.074561849,0.037773813
0.016077816,0.226170927,0.000815138,0.051153953
0.016304264,0.244225502,-0.093063168,0.068306849
0.016530713,0.226800725,-0.195613965,0.089703392
0.016757161,0.17166695,-0.293821663,0.115800711
0.016983608,0.081056468,-0.37490198,0.147121646
0.017210056,-0.038773164,-0.427691579,0.184423445
0.017436506,-0.179489449,-0.443453223,0.228867223
0.017662954,-0.329878777,-0.414724737,0.280816615
0.017889402,-0.476097971,-0.337638319,0.340668912
0.01811585,-0.602760434,-0.212441519,0.40845154
0.018342298,-0.694001079,-0.04437374,0.483606526
0.018568746,-0.735265911,0.155705556,0.56486018
0.018795194,-0.715700686,0.371500492,0.650240087
0.019021642,-0.630679607,0.582675934,0.737268011
0.01924809,-0.483615249,0.767029583,0.82221809
0.019474538,-0.283828378,0.903723896,0.897275428
0.019700986,-0.047467314,0.98073101,0.96408646
0.019927434,0.203692451,0.990861297,1.023296724
0.020153882,0.449052632,0.933735311,1.073509897
0.02038033,0.670480847,0.815437794,1.114483362
0.020606778,0.853577137,0.646475554,1.146524571
0.020833226,0.98816967,0.439954191,1.170038987
0.021059674,1.06822455,0.210178599,1.185278733
0.021286122,1.09153962,-0.028326279,1.19226112
0.021512572,1.05945969,-0.261562198,1.190869618
0.02173902,0.976733506,-0.476811081,1.181357149
0.021965468,0.851436377,-0.663216114,1.164799518
0.022191916,0.693746567,-0.812602341,1.141606864
0.022418364,0.514804602,-0.921656489,1.114474462
0.022644812,0.348481834,-0.95575422,1.034905718
0.02287126,0.156025276,-0.999308228,1.022960821
0.023097708,-0.020968802,-0.990629196,0.981785895
0.023324156,-0.181625456,-0.954936206,0.944890964
0.023550604,-0.325476915,-0.899367273,0.914796714
0.023777052,-0.453545898,-0.829287231,0.893421193
0.0240035,-0.567893863,-0.747959256,0.881946488
0.024229948,-0.670598745,-0.656549335,0.880759706
0.024456396,-0.762831807,-0.55455637,0.889445133
0.024682844,-0.844217837,-0.440545142,0.906783778
0.024909292,-0.912482679,-0.313027382,0.930610781
0.02513574,-0.963031828,-0.171777174,0.956937699
0.02536219,-0.998579383,-0.013918428,0.997354507
0.025588638,-1.0049752,0.150073752,1.032497284
0.025815086,-0.972412705,0.297654241,1.034184516
0.026041534,-0.92608124,0.455054045,1.064700647
0.026267982,-0.845824659,0.610215008,1.08778171
0.02649443,-0.734660149,0.745000064,1.09475063
0.026720878,-0.601676941,0.854714334,1.092551734
0.026947326,-0.453713179,0.936811507,1.083471448
0.027173774,-0.297398061,0.990371764,1.069281838
0.027400222,-0.138754427,1.01610899,1.051730271
0.02762667,0.017196702,1.01594687,1.032443769
0.027853118,0.166574553,0.992502332,1.012807961
0.028079566,0.306549847,0.948626697,0.993865419
0.028306014,0.43506828,0.887110412,0.976249291
0.028532462,0.550541639,0.810773432,0.960449654
0.02875891,0.652178347,0.722635925,0.947539276
0.028985358,0.740012109,0.625339389,0.938667273
0.029211808,0.815099299,0.521519899,0.936369872
0.029438256,0.88095367,0.410328925,0.944449195
0.029664704,0.933451474,0.287672609,0.954087184
0.029891152,0.968479455,0.157855466,0.962870803
0.0301176,0.986116946,0.023771139,0.972991698
0.030344048,0.985953093,-0.112841502,0.984836706
0.030570496,0.967213213,-0.250041246,0.998022024
0.030796944,0.929124177,-0.385435551,1.0118323
0.031023392,0.871175766,-0.516124368,1.025331579
0.03124984,0.793371022,-0.638713658,1.037392715
0.031476288,0.696505547,-0.749415994,1.046744309
0.031702736,0.582479417,-0.844295263,1.052116762
0.031929184,0.454536289,-0.919792593,1.052621652
0.032155632,0.317093074,-0.973458946,1.048170337
0.03238208,0.175194666,-1.00454199,1.039797781
0.032608528,0.033158928,-1.01464844,1.030610971
0.032834976,-0.107946813,-1.00507092,1.021820069
0.033061426,-0.244653657,-0.9739784,1.008489336
0.033287874,-0.371417642,-0.923976898,0.991684373
0.033514322,-0.486141264,-0.859457016,0.974999691
0.033740768,-0.588674605,-0.783839941,0.960942844
0.033967216,-0.67966181,-0.699425697,0.951136482
0.034193664,-0.759941816,-0.607461095,0.946520546
0.034420112,-0.830061078,-0.508313239,0.947383742
0.03464656,-0.889907777,-0.401808649,0.953386042
0.034873012,-0.938528776,-0.287701398,0.963608358
0.03509946,-0.974207401,-0.166194156,0.976700558
0.035325908,-0.994837344,-0.038349949,0.99117206
0.035552356,-0.998483717,0.093787156,1.005765764
0.035778804,-0.984017253,0.227503374,1.020047739
0.036005252,-0.951087832,0.360607177,1.0346056
0.0362317,-0.897787035,0.490993172,1.047095855
0.036458148,-0.822805226,0.612912297,1.052669924
0.036684596,-0.729159832,0.720735431,1.051133622
0.036911044,-0.621149242,0.81146723,1.044305446
0.037137492,-0.502914667,0.883716226,1.03387753
0.03736394,-0.378242522,0.937168837,1.021352834
0.037590388,-0.250397205,0.972305357,1.008076468
0.037816836,-0.122018121,0.990103662,0.995193683
0.038043284,0.00486694,0.99175328,0.983598255
0.038269732,0.12872231,0.978446603,0.973927188
0.03849618,0.248344854,0.951284707,0.96661776
0.038722628,0.362752169,0.911292076,0.962042384
0.038949076,0.471183956,0.85947901,0.960718489
0.039175524,0.573350847,0.796791375,0.963607689
0.039401972,0.669605553,0.72321552,0.971412285
0.03962842,0.758895397,0.637042224,0.981745019
0.039854868,0.837742925,0.538069844,0.991332365
0.040081316,0.903470755,0.428288698,0.999690614
0.040307764,0.954564631,0.309850872,1.007201198
0.040534212,0.989858031,0.184795856,1.01396843
0.04076066,1.00836051,0.055270571,1.019845754
0.040987108,1.00931144,-0.076373562,1.024542504
0.041213556,0.992270291,-0.207558751,1.027680966
0.041440004,0.95722872,-0.335503757,1.028849593
0.041666452,0.904743254,-0.457304448,1.027687714
0.0418929,0.836065233,-0.570108235,1.024028473
0.042119348,0.753196061,-0.671411514,1.018097727
0.042345796,0.658760071,-0.759465933,1.010753335
0.042572244,0.555441022,-0.833688915,1.003551936
0.042798696,0.444851875,-0.894196928,0.997481337
0.043025144,0.328030586,-0.939995229,0.991195096
0.043251592,0.207562789,-0.96989584,0.983780252
0.04347804,0.086351574,-0.984391749,0.97648371
0.043704488,-0.03378256,-0.984767377,0.970908048
0.043930936,-0.15190953,-0.972144425,0.968141288
0.044157384,-0.267531633,-0.947169185,0.96870264
0.044383832,-0.380203128,-0.90997386,0.972606844
0.04461028,-0.489218801,-0.860282779,0.979421495
0.044836728,-0.593391418,-0.797639966,0.98834289
0.045063176,-0.690960765,-0.721727371,0.998317177
0.045289624,-0.779690325,-0.632707834,1.008236206
0.045516072,-0.857165039,-0.531483054,1.017206141
0.04574252,-0.921257913,-0.419697195,1.024861878
0.045968968,-0.970452785,-0.299240947,1.031323752
0.046195416,-1.00318944,-0.171730116,1.035880285
0.046421864,-1.01720691,-0.039741423,1.036289278
0.046648312,-1.01144671,0.092401974,1.031562572
0.04687476,-0.98700422,0.220529914,1.022810773
0.047101208,-0.946049273,0.341683835,1.01175707
0.047327656,-0.890998721,0.454016089,1.00000933
0.047554104,-0.824133217,0.556531847,0.988923256
0.047780552,-0.74738133,0.648827434,0.979555892
0.048007,-0.662224174,0.730819643,0.972638207
0.048233448,-0.569717288,0.802488267,0.968565207
0.048459896,-0.470620245,0.86368984,0.967443555
0.048686344,-0.365574807,0.914080381,0.969187882
0.048912792,-0.255251974,0.953173399,0.973693099
0.04913924,-0.14032419,0.980461359,0.980995355
0.049365688,-0.021211861,0.995259821,0.990992054
0.049592136,0.101610519,0.995958924,1.002258876
0.049818584,0.226157904,0.98032558,1.01218564
0.050045032,0.34901318,0.947348475,1.019279333
0.05027148,0.466859281,0.897511661,1.02348477
0.050497932,0.57697165,0.832036495,1.025181014
0.05072438,0.677112222,0.752507448,1.02474842
0.050950828,0.76545167,0.660761297,1.022521751
0.051177276,0.840549946,0.558818281,1.018802083
0.051403724,0.901344836,0.448822021,1.01386372
0.051630172,0.947153389,0.332994759,1.007985052
0.05185662,0.977694094,0.213584498,1.001504079
0.052083068,0.993126214,0.092777602,0.99490736
0.052309516,0.994077682,-0.027475003,0.988945314
0.052535964,0.981518745,-0.145756513,0.984624008
0.052762412,0.956204474,-0.261377543,0.982645216
0.05298886,0.918024242,-0.373677492,0.982403377
0.053215308,0.866739929,-0.481018007,0.982616428
0.053441756,0.803065181,-0.581454039,0.983002484
0.053668204,0.728220403,-0.673634887,0.984088916
0.053894652,0.643298626,-0.756664515,0.98637431
0.0541211,0.54916662,-0.829728842,0.990033928
0.054347548,0.44660151,-0.891887307,0.994915877
0.054573996,0.336477131,-0.942014515,1.000608206
0.054800444,0.219939515,-0.978843987,1.006508941
0.055026892,0.098545075,-1.00110936,1.011931082
0.05525334,-0.025687918,-1.00775838,1.016236822
0.055479788,-0.150360718,-0.998202085,1.019015748
0.055706236,-0.272958517,-0.972499371,1.020261379
0.055932684,-0.39124465,-0.931268156,1.020332755
0.056159132,-0.503367126,-0.875183284,1.019324244
0.05638558,-0.607189536,-0.8047961,1.016375895
0.056612028,-0.700093567,-0.72149545,1.010686687
0.056838476,-0.780120909,-0.627836466,1.002767261
0.057064924,-0.84655118,-0.526612699,0.993969835
0.057291372,-0.899530232,-0.420155108,0.985684953
0.05751782,-0.939579904,-0.310170472,0.979016118
0.057744268,-0.967251062,-0.197814345,0.974705132
0.057970716,-0.982896805,-0.083860889,0.973118778
0.058197168,-0.986563146,0.031075856,0.97427255
0.058423616,-0.977999091,0.146314487,0.977890151
0.058650064,-0.95677799,0.260930836,0.983509023
0.058876512,-0.922490478,0.373696327,0.990637627
0.05910296,-0.874894977,0.483171761,0.998896171
0.059329408,-0.813852012,0.587855637,1.007929347
0.059555856,-0.73908639,0.68596369,1.016794876
0.059782304,-0.650605083,0.77484709,1.023674987
0.060008752,-0.549742162,0.85138315,1.027069713
0.0602352,-0.439123005,0.913199902,1.026763075
0.060461648,-0.321777463,0.959084094,1.023383035
0.060688096,-0.200590491,0.98871702,1.017797891
0.060914544,-0.078118265,1.00238144,1.010871015
0.061140992,0.043464769,1.00074792,1.003385586
0.06136744,0.162363738,0.984711707,0.996019129
0.061593888,0.277122319,0.955266774,0.989331389
0.061820336,0.386562258,0.913429797,0.983784373
0.062046784,0.489733547,0.860202551,0.979787376
0.062273232,0.585905671,0.796547174,0.977772856
0.06249968,0.674590588,0.72328037,0.978206955
0.062726128,0.755424559,0.640829086,0.981328182
0.062952576,0.82763958,0.549135089,0.98653662
0.063179024,0.889590919,0.448341519,0.992382121
0.063405472,0.939348161,0.339580506,0.997689888
0.06363192,0.975524426,0.224698737,1.002137428
0.063858368,0.997324407,0.105670348,1.005822195
0.064084816,1.00429642,-0.015580608,1.008854055
0.064311264,0.996203661,-0.137144208,1.011230268
0.064537712,0.973020732,-0.257069707,1.012854179
0.06476416,0.934974015,-0.373354405,1.01356992
0.064990608,0.882607281,-0.483969867,1.013222445
0.065217056,0.816843927,-0.586945534,1.011739061
0.065443504,0.739005804,-0.68050909,1.0092222
0.065669952,0.650739849,-0.763265789,1.006037016
0.065896404,0.553780258,-0.834332108,1.002782641
0.066122852,0.449595958,-0.893190086,0.999925055
0.0663493,0.339384049,-0.939183295,0.997246794
0.066575748,0.224688187,-0.971389592,0.994082521
0.066802196,0.107627966,-0.989305854,0.990309852
0.067028644,-0.009713586,-0.993208349,0.986557178
0.067255088,-0.125750467,-0.983792543,0.983660948
0.067481536,-0.239364907,-0.961754441,0.982267163
0.067707984,-0.349688321,-0.927589893,0.982704931
0.067934432,-0.455877334,-0.881568849,0.984987779
0.06816088,-0.556938171,-0.823815644,0.988852342
0.068387328,-0.651629686,-0.754463732,0.993836771
0.068613776,-0.738466024,-0.673837245,0.999388701
0.068840224,-0.815827847,-0.582600236,1.004998111
0.069066672,-0.882154167,-0.481799215,1.010326458
0.06929312,-0.936084747,-0.372727662,1.015180564
0.069519568,-0.976340592,-0.256758332,1.019165793
0.069746024,-1.00146246,-0.135578096,1.021308479
0.069972472,-1.0101614,-0.011710605,1.020563192
0.07019892,-1.00212431,0.111708075,1.016731827
0.070425368,-0.978166282,0.231754646,1.010519491
0.070651816,-0.939763308,0.346193671,1.003005133
0.070878264,-0.888594389,0.453498125,0.995260538
0.071104712,-0.826264143,0.552702248,0.988192209
0.07133116,-0.754163682,0.643216372,0.98249016
0.071557608,-0.6734249,0.724644959,0.978611413
0.071784056,-0.584954977,0.79663527,0.976800079
0.072010504,-0.489517659,0.858782113,0.977134256
0.072236952,-0.387820929,0.91060555,0.979607541
0.0724634,-0.280544817,0.95156455,0.984180487
0.072689848,-0.168299377,0.980995536,0.990676922
0.072916296,-0.05171584,0.997870266,0.998419596
0.073142744,0.068045028,1.00069928,1.006029175
0.073369192,0.188833386,0.988129139,1.012057243
0.07359564,0.307875484,0.959687173,1.015786784
0.073822088,0.422463894,0.915827453,1.017215665
0.074048536,0.530274093,0.85759896,1.01666659
0.074274984,0.629391372,0.786383033,1.014531774
0.074501432,0.718273461,0.703761041,1.011196368
0.07472788,0.795717597,0.611432076,1.007015678
0.074954328,0.860839248,0.511160851,1.002329626
0.075180776,0.91305989,0.404732525,0.99748678
0.075407224,0.952108979,0.293898612,0.992887902
0.075633672,0.978017867,0.180288479,0.989022884
0.07586012,0.9910568,0.065274201,0.986454302
0.076086568,0.991508067,-0.050140239,0.985602291
0.076313016,0.97931838,-0.165148363,0.986338471
0.076539464,0.954084396,-0.278615892,0.98790385
0.076765912,0.915617228,-0.388848305,0.989557913
0.07699236,0.864322364,-0.494021982,0.991110868
0.077218808,0.801003516,-0.592586637,0.992765555
0.077445256,0.726562679,-0.683272779,0.994755017
0.077671704,0.64189595,-0.764940262,0.997164015
0.077898152,0.547932029,-0.836464226,0.99990191
0.0781246,0.445721149,-0.896698475,1.002735498
0.078351048,0.336527646,-0.944512546,1.005354806
0.078577496,0.221886799,-0.978887379,1.007454252
0.078803944,0.103593662,-0.999051094,1.008834735
0.079030392,-0.016404184,-1.00459683,1.009483888
0.07925684,-0.136197641,-0.995499313,1.00956868
0.079483288,-0.254053444,-0.971936107,1.009202948
0.079709736,-0.368250519,-0.9340716,1.008098199
0.079936184,-0.476753473,-0.88224566,1.005651279
0.080162632,-0.577377617,-0.817467749,1.001618433
0.08038908,-0.668379724,-0.741437495,0.996461014
0.080615528,-0.748739958,-0.656075001,0.991045932
0.080841976,-0.818015993,-0.563120902,0.986255315
0.081068424,-0.876065612,-0.463981301,0.982769604
0.081294872,-0.922814667,-0.359751135,0.981007789
0.08152132,-0.958101332,-0.251318723,0.981119263
0.081747768,-0.981612086,-0.13951309,0.98302619
0.081974216,-0.992900789,-0.025242593,0.986489165
0.082200664,-0.991475701,0.09041509,0.991198954
0.082427112,-0.97690016,0.206209317,0.996856205
0.08265356,-0.948820889,0.320772618,1.003156152
0.082880008,-0.906877458,0.432591856,1.009562438
0.083106456,-0.850732863,0.539743483,1.015069432
0.083332904,-0.780530453,0.639722168,1.01847224
0.083559352,-0.697393537,0.72987622,1.019077042
0.0837858,-0.603311241,0.808075368,1.016970254
0.084012248,-0.50064671,0.872981369,1.012743599
0.084238696,-0.391750336,0.923954606,1.00716044
0.084465144,-0.278769255,0.960864365,1.000972625
0.084691592,-0.163577035,0.983915269,0.994846703
0.08491804,-0.047769174,0.993507087,0.989338226
0.085144488,0.067305073,0.990131676,0.984890709
0.085370944,0.180498794,0.974312127,0.981863935
0.085597392,0.290834188,0.946560979,0.980562212
0.08582384,0.397490978,0.907331526,0.981249576
0.086050288,0.499762565,0.856898785,0.984038149
0.086276736,0.596843183,0.795235097,0.988620645
0.086503184,0.687447846,0.722154677,0.994091918
0.086729632,0.769711077,0.637851715,0.999309952
0.08695608,0.841638505,0.543280959,1.003509574
0.087182528,0.901594341,0.439997017,1.006469731
0.087408976,0.948415697,0.329812914,1.008268893
0.087635424,0.981325805,0.214613318,1.009059212
0.087861872,0.999845326,0.096299224,1.008964216
0.08808832,1.0037607,-0.023217883,1.008074613
0.088314768,0.993124425,-0.142031372,1.006469034
0.088541216,0.968272746,-0.25827238,1.004256733
0.088767664,0.929836094,-0.370176435,1.001625755
0.088994112,0.878715694,-0.476182282,0.998890837
0.08922056,0.815973938,-0.575028837,0.996471631
0.089447008,0.742634654,-0.665756643,0.994738137
0.089673456,0.659525335,-0.747487247,0.993710852
0.089899904,0.567442656,-0.819126785,0.992959858
0.090126352,0.4675529,-0.879428506,0.992000211
0.0903528,0.361466467,-0.927419543,0.990765016
0.090579248,0.250909328,-0.962623775,0.989600023
0.090805696,0.137434274,-0.984917641,0.988950939
0.091032144,0.022373583,-0.994309068,0.9891511
0.091258592,-0.093069255,-0.990790248,0.990327202
0.09148504,-0.207694307,-0.974308491,0.992413961
0.091711488,-0.320201159,-0.944806874,0.995188811
0.091937936,-0.429142296,-0.9023242,0.998352072
0.092164384,-0.532944202,-0.847102344,1.001611904
0.092390832,-0.630000651,-0.779652715,1.004759176
0.09261728,-0.71878463,-0.700734138,1.007679676
0.092843728,-0.797865868,-0.61123836,1.010202276
0.093070176,-0.865761995,-0.512174129,1.01186617
