Frequency (GHz),Re( S21 ),Im( S21 ),S2
0,0.083392538,0,0.006954315
0.000226435,0.077945881,-0.024715809,0.006686432
0.00045287,0.062604331,-0.044821382,0.005928258
0.000679305,0.040196784,-0.05651984,0.004810274
0.000905739,0.014900005,-0.057515804,0.003530078
0.001132174,-0.008490935,-0.047455087,0.002324081
0.001358609,-0.025420828,-0.028030003,0.0014319
0.001585044,-0.032413032,-0.002720631,0.001058006
0.001811479,-0.027735015,0.023798969,0.001335622
0.002037914,-0.011767949,0.046494249,0.0023002
0.002264348,0.013000687,0.060888246,0.003876396
0.002490783,0.042605367,0.063994087,0.00591046
0.002717218,0.071422458,0.054539487,0.008075723
0.002943653,0.094421566,0.033859767,0.010061916
0.003170088,0.107161142,0.005159359,0.011510129
0.003396523,0.10694883,-0.026067738,0.012117579
0.003622957,0.093507864,-0.054383729,0.011701311
0.003849392,0.068930201,-0.07400582,0.010228234
0.004075827,0.037652593,-0.080278024,0.007862279
0.004302262,0.005941894,-0.070653379,0.005027206
0.004528697,-0.019040793,-0.045299519,0.002414598
0.004755132,-0.030375175,-0.007382615,0.000977154
0.004981567,-0.022574881,0.037109952,0.001886774
0.005208001,0.007329813,0.080077075,0.006466064
0.005434436,0.059382282,0.11255455,0.016194782
0.005660871,0.128908142,0.125250712,0.03230505
0.005887306,0.20891875,0.111257121,0.056025191
0.006113741,0.289631277,0.066219114,0.088271248
0.006340176,0.359711796,-0.010349523,0.129499689
0.00656661,0.408101976,-0.114345744,0.179622172
0.006793045,0.426004738,-0.239830941,0.238998917
0.00701948,0.406039804,-0.376348823,0.306506759
0.007245915,0.344882667,-0.512024045,0.381112677
0.00747235,0.24302876,-0.634307086,0.461408458
0.007698785,0.104795486,-0.731194377,0.545627311
0.007925219,-0.061995626,-0.792389274,0.631724219
0.008151654,-0.246716484,-0.81031251,0.717475387
0.008378089,-0.436915934,-0.780839562,0.800605955
0.008604524,-0.619476676,-0.703716576,0.878968371
0.008830959,-0.781868041,-0.582612813,0.950755323
0.009057393,-0.91367811,-0.425102204,1.015519573
0.009283828,-1.00230634,-0.244045123,1.064176021
0.009510263,-1.04666722,-0.041739609,1.097254464
0.009736698,-1.04639769,0.162583783,1.121381612
0.009963133,-1.00255048,0.358265251,1.133461455
0.010189568,-0.920364261,0.535686016,1.134029881
0.010416002,-0.807286322,0.687572718,1.124467448
0.010642437,-0.671881139,0.809482694,1.106686497
0.010868872,-0.522782564,0.899799585,1.082940902
0.011095307,-0.367794007,0.959352732,1.055630096
0.011321742,-0.213259295,0.990766466,1.027097717
0.011548177,-0.06378229,0.997676253,0.999426086
0.011774611,0.077647425,0.9840554,0.974394153
0.012001046,0.209572196,0.9538697,0.95378791
0.012227481,0.331819057,0.910392642,0.938918649
0.012453916,0.444945097,0.856606364,0.931750602
0.012680351,0.552672207,0.793559313,0.935182952
0.012906786,0.653869152,0.717239678,0.941977624
0.01313322,0.745878696,0.628886044,0.951832685
0.013359655,0.827751458,0.528877139,0.964883504
0.01358609,0.897664666,0.417383999,0.980011255
0.013812525,0.953227937,0.295230806,0.995804729
0.01403896,0.991920531,0.164137572,1.010847482
0.014265395,1.01150882,0.026741281,1.023865189
0.014491829,1.01040876,-0.113549881,1.033819438
0.014718264,0.987957656,-0.252821177,1.039978878
0.014944699,0.944568276,-0.386995405,1.041974672
0.015171134,0.881756246,-0.51222235,1.039865813
0.015397569,0.802019536,-0.625271499,1.034199784
0.015624004,0.708598793,-0.723923206,1.026177058
0.015850438,0.604799509,-0.807506442,1.0178491
0.016076873,0.492367357,-0.875978291,1.009763581
0.016303308,0.373354435,-0.927876532,1.000348393
0.016529743,0.251092434,-0.963059425,0.990530866
0.016756178,0.127974823,-0.982578754,0.981838563
0.016982612,0.005522336,-0.987530649,0.975247279
0.017209048,-0.11523331,-0.978784621,0.97129805
0.017435482,-0.233500123,-0.956908464,0.970196116
0.017661918,-0.348512143,-0.922166884,0.971852476
0.017888352,-0.459343165,-0.874598503,0.975918685
0.018114786,-0.56477654,-0.8141675,0.981841258
0.018341222,-0.66326493,-0.740964055,0.988948098
0.018567656,-0.75299716,-0.655403316,0.99655823
0.018794092,-0.832085609,-0.558376789,1.004151099
0.019020526,-0.898871064,-0.451223493,1.01157183
0.01924696,-0.952029288,-0.335284382,1.018775382
0.019473396,-0.989760995,-0.211847633,1.024506247
0.01969983,-1.01002276,-0.0835189,1.027121382
0.019926266,-1.01210403,0.046221651,1.026491009
0.0201527,-0.996412933,0.174196854,1.023183277
0.020379136,-0.963954628,0.297682047,1.017823126
0.02060557,-0.916148186,0.414396942,1.011052324
0.020832004,-0.854689181,0.522542715,1.003544485
0.02105844,-0.781391382,0.620811045,0.995978845
0.021284874,-0.698039651,0.708337903,0.989001939
0.02151131,-0.606277406,0.78461045,0.983185851
0.021737744,-0.507549703,0.849352062,0.979005626
0.021964178,-0.403099298,0.902421892,0.976854315
0.022190614,-0.293969154,0.943754256,0.977089959
0.022417048,-0.180929825,0.973297179,0.980043
0.022643484,-0.064395405,0.990666211,0.98556631
0.022869918,0.054977424,0.994695604,0.992441862
0.023096354,0.175508589,0.984123111,0.999301562
0.023322788,0.294993252,0.958385706,1.00552418
0.023549222,0.411211252,0.917450011,1.010809216
0.023775658,0.521936834,0.861651242,1.014860922
0.024002092,0.624949455,0.791731238,1.017400175
0.024228528,0.718139052,0.70887959,1.018233971
0.024454962,0.799641967,0.614715755,1.017302735
0.024681396,0.867968619,0.511210144,1.014705335
0.024907832,0.92209208,0.400562227,1.010703902
0.025134266,0.96149683,0.285051733,1.005730645
0.025360702,0.98617506,0.166871637,1.000387392
0.025587136,0.996564507,0.04793714,0.995438786
0.025813572,0.993334174,-0.070318118,0.991657419
0.026040006,0.976937294,-0.186900467,0.989338261
0.02626644,0.947447956,-0.30069077,0.988072568
0.026492876,0.905117691,-0.41020152,0.987503322
0.02671931,0.850585997,-0.514023781,0.987716986
0.026945746,0.784586966,-0.610986352,0.98888103
0.02717218,0.707815647,-0.699997485,0.990999469
0.027398614,0.620985329,-0.779919565,0.993897307
0.02762505,0.524933398,-0.849543035,0.997278441
0.027851484,0.420713067,-0.907624543,1.000781796
0.02807792,0.309653491,-0.952971697,1.00404034
0.028304354,0.193375528,-0.984555066,1.006742773
0.02853079,0.07375031,-1.00162506,1.008691869
0.028757224,-0.04720794,-1.00381267,1.009868466
0.028983658,-0.167516783,-0.991149962,1.01044012
0.029210094,-0.285386175,-0.963922501,1.010591857
0.029436528,-0.399106622,-0.922428727,1.010160852
0.029662964,-0.506729901,-0.867120683,1.008673471
0.029889398,-0.606237411,-0.799032092,1.005976083
0.030115834,-0.696016312,-0.719706059,1.002415518
0.030342268,-0.774969459,-0.630828977,0.998522861
0.030568702,-0.842380941,-0.534027576,0.994791102
0.030795138,-0.897784352,-0.430809766,0.991613797
0.031021572,-0.940864265,-0.322562009,0.989271815
0.031248008,-0.971389413,-0.210575581,0.987939467
0.031474442,-0.989172041,-0.096086897,0.987694018
0.031700876,-0.994056821,0.019674674,0.988536056
0.031927312,-0.985940337,0.135455504,0.990426542
0.032153746,-0.964797378,0.249977797,0.99332288
0.032380182,-0.930667222,0.361974508,0.997167023
0.032606616,-0.883551478,0.470153868,1.001707874
0.032833052,-0.823402286,0.572962463,1.006277309
0.033059486,-0.750479817,0.668417692,1.010002167
0.03328592,-0.665710986,0.75442338,1.012325753
0.033512356,-0.57058692,0.829189301,1.01312433
0.033738792,-0.466902167,0.891349196,1.012501023
0.033965224,-0.356599152,0.939935863,1.010642382
0.03419166,-0.241685197,0.974358678,1.007786568
0.034418096,-0.12415535,0.994385839,1.004217748
0.034644528,-0.005918748,1.00011504,1.000265125
0.034870964,0.111267842,0.991923511,0.996292784
0.0350974,0.225847885,0.970405638,0.992694369
0.035323836,0.336498618,0.936295688,0.989880935
0.035550268,0.442149669,0.890376806,0.988267186
0.035776704,0.541953981,0.833342075,0.988173131
0.03600314,0.63512522,0.765659273,0.989618167
0.036229572,0.720640361,0.687640667,0.992172217
0.036456008,0.797150075,0.599800229,0.995208557
0.036682444,0.863254189,0.503070533,0.998287756
0.03690888,0.917734444,0.3986983,1.001196844
0.037135312,0.959574759,0.288108736,1.003790362
0.037361748,0.987941146,0.172878221,1.005914587
0.037588184,1.00220251,0.05473635,1.007405939
0.037814616,1.00198662,-0.06445127,1.008131153
0.038041052,0.987230837,-0.182738796,1.008018193
0.038267488,0.958215594,-0.298180133,1.007088516
0.03849392,0.915564477,-0.408928394,1.005480743
0.038720356,0.860196948,-0.513339996,1.003456741
0.038946792,0.793225586,-0.610059083,1.001378915
0.039173228,0.715792477,-0.69802171,0.999593178
0.03939966,0.628941655,-0.776308835,0.998223013
0.039626096,0.533711553,-0.843948364,0.997096863
0.039852532,0.431368083,-0.899959564,0.99600564
0.040078964,0.323412389,-0.943592131,0.994961683
0.0403054,0.211389631,-0.974404275,0.994149267
0.040531836,0.096768841,-0.9921664,0.993758374
0.040758272,-0.01905288,-0.996760011,0.993893532
0.040984704,-0.134699568,-0.988137007,0.994558718
0.04121114,-0.248769999,-0.966328919,0.995678092
0.041437576,-0.359814405,-0.931482911,0.99712682
0.041664008,-0.466341972,-0.883908749,0.998769511
0.041890444,-0.566858351,-0.824117243,1.00049762
0.04211688,-0.659929514,-0.752830505,1.002260733
0.042343316,-0.744239271,-0.670940578,1.004053352
0.042569748,-0.818580747,-0.579429984,1.005813546
0.042796184,-0.881753922,-0.479366541,1.00728226
0.04302262,-0.932519078,-0.372065932,1.008024889
0.043249052,-0.969799042,-0.259243578,1.007717415
0.043475488,-0.992939293,-0.142893627,1.006347028
0.043701924,-1.00175738,-0.025035968,1.004144648
0.043928356,-0.996439397,0.092441618,1.001436925
0.044154792,-0.977423191,0.207835361,0.998551632
0.044381228,-0.945318103,0.319627196,0.99578786
0.044607664,-0.900846243,0.426472247,0.993402531
0.044834096,-0.844802856,0.527178884,0.991609441
0.045060532,-0.778030634,0.620687366,0.990584474
0.045286968,-0.701401591,0.70605433,0.990476909
0.0455134,-0.615791917,0.78243351,0.991401883
0.045739836,-0.522046745,0.849040806,0.993403094
0.045966272,-0.420969546,0.90505594,0.996341613
0.046192708,-0.313431144,0.949503183,0.999795377
0.04641914,-0.200602412,0.981277883,1.003147611
0.046645576,-0.08408019,0.999399543,1.005868925
0.046872012,0.034239478,1.00325,1.007682904
0.047098444,0.152362168,0.992621601,1.008511873
0.04732488,0.268318146,0.967672467,1.008384631
0.047551316,0.380222619,0.928877532,1.007382709
0.047777752,0.486324996,0.876994491,1.005631339
0.048004184,0.585056782,0.813027501,1.003305156
0.04823062,0.675075114,0.738179028,1.000634687
0.048457056,0.755295455,0.653781712,0.997901751
0.048683488,0.824904799,0.561223269,0.995439485
0.048909924,0.883339942,0.461852193,0.993596901
0.04913636,0.930207908,0.356893301,0.99265958
0.049362792,0.965142369,0.247429714,0.992721256
0.049589228,0.98767221,0.134529129,0.993594481
0.049815664,0.997267544,0.019443147,0.99492059
0.0500421,0.993540227,-0.096337959,0.996403185
0.050268532,0.976365566,-0.211205959,0.997897676
0.050494968,0.945864558,-0.323551536,0.999345359
0.050721404,0.90235585,-0.431796551,1.000694341
0.050947836,0.846339107,-0.534392238,1.001864948
0.051174272,0.778513491,-0.629826665,1.002764884
0.051400708,0.699793935,-0.716659844,1.003312883
0.051627144,0.611315727,-0.793576241,1.003470168
0.051853576,0.514410615,-0.859446764,1.003267021
0.052080012,0.410547912,-0.913377821,1.002808632
0.052306448,0.301251739,-0.954731584,1.002265008
0.05253288,0.188013956,-0.983075678,1.001787036
0.052759316,0.072282717,-0.998081267,1.001391007
0.052985752,-0.044435598,-0.999470651,1.000916105
0.053212188,-0.16047886,-0.98712033,1.00016001
0.05343862,-0.274100572,-0.961215258,0.999065896
0.053665056,-0.383640975,-0.922268689,0.997759932
0.053891492,-0.487627625,-0.871017456,0.996452109
0.054117924,-0.584779739,-0.808318257,0.995345748
0.05434436,-0.673963368,-0.735091507,0.994586145
0.054570796,-0.754153728,-0.652310014,0.9942562
0.054797228,-0.824413121,-0.561006546,0.994385339
0.055023664,-0.883889198,-0.462290674,0.994972782
0.0552501,-0.931828499,-0.357351571,0.996004497
0.055476536,-0.967594981,-0.247448429,0.997470772
0.055702968,-0.990667224,-0.133881599,0.999345831
0.055929404,-1.00059927,-0.017982064,1.001522254
0.05615584,-0.99697715,0.098831549,1.003731113
0.056382272,-0.979466438,0.214934021,1.005551137
0.056608708,-0.947998703,0.328460366,1.006587753
0.056835144,-0.902928948,0.437454671,1.006647274
0.05706158,-0.845031202,0.540075898,1.005759708
0.057288012,-0.775389194,0.634723961,1.004102909
0.057514448,-0.695277154,0.720069349,1.001910188
0.057740884,-0.606081128,0.795047104,0.999434231
0.057967316,-0.509239376,0.858836889,0.996925544
0.058193752,-0.406199694,0.910841346,0.994630149
0.058420188,-0.298382431,0.950658321,0.992783318
0.058646624,-0.187148124,0.978052139,0.991610407
0.058873056,-0.073774017,0.992908478,0.991309851
0.059099492,0.040558584,0.99516952,0.992007372
0.059325928,0.154720679,0.98475033,0.993671701
0.05955236,0.267514557,0.961499691,0.996045694
0.059778796,0.377529651,0.925287545,0.998685678
0.060005232,0.483124882,0.876203716,1.001142604
0.060231668,0.582570136,0.814692378,1.003111634
0.0604581,0.674208045,0.741548061,1.004450015
0.060684536,0.756543875,0.657841206,1.005113687
0.060910972,0.828279555,0.564857781,1.005111334
0.061137404,0.888333559,0.464055985,1.004484469
0.06136384,0.93586725,0.35702467,1.003314125
0.061590276,0.970305026,0.245435327,1.001730343
0.061816708,0.991344035,0.130979419,0.999918604
0.062043144,0.9989416,0.015298583,0.998118367
0.06226958,0.993267357,-0.100081734,0.996596396
0.062496016,0.974618971,-0.213787213,0.995587111
0.062722448,0.943320513,-0.324563175,0.995194845
0.062948884,0.899682701,-0.431161195,0.995328939
0.06317532,0.84408766,-0.532236755,0.995759941
0.063401752,0.777126014,-0.626378238,0.996274539
0.063628188,0.699646056,-0.71223104,0.996777658
0.063854624,0.612693191,-0.788591564,0.997269601
0.06408106,0.517438054,-0.854421377,0.997778029
0.064307492,0.415142804,-0.908828378,0.998312568
0.064533928,0.307156384,-0.951055348,0.998851319
0.064760364,0.194920346,-0.980492473,0.999359431
0.064986796,0.079958662,-0.996700287,0.99980485
0.065213232,-0.036148276,-0.99943912,1.000185252
0.065439668,-0.151809707,-0.988682747,1.000539761
0.065666104,-0.265477717,-0.964600384,1.000932319
0.065892536,-0.375674516,-0.927508771,1.001403862
0.066118972,-0.480963528,-0.877820671,1.001895046
0.066345408,-0.579877496,-0.816060901,1.002213305
0.06657184,-0.670903325,-0.742973089,1.002120282
0.066798276,-0.752590895,-0.659612298,1.001481439
0.067024712,-0.823708117,-0.567310691,1.000336482
0.067251144,-0.883315206,-0.467556089,0.99885445
0.067477584,-0.93075043,-0.3618792,0.997252918
0.067704016,-0.96557796,-0.25179258,0.9957403
0.067930448,-0.98753804,-0.138768345,0.994488034
0.068156888,-0.996515095,-0.024237283,0.99362978
0.06838332,-0.992518783,0.090408996,0.993267321
0.068609752,-0.975671589,0.203818306,0.993476951
0.068836192,-0.946196318,0.314682543,0.994312575
0.069062624,-0.904392362,0.421736747,0.995787428
0.069289056,-0.850602627,0.52372998,0.997817921
0.069515496,-0.785218179,0.619355857,1.000169266
0.069741928,-0.708765805,0.707183361,1.002457272
0.06996836,-0.622056305,0.785691679,1.004265461
0.0701948,-0.526272118,0.853428304,1.005302212
0.070421232,-0.422915488,0.909178495,1.005463046
0.070647672,-0.313683122,0.95205009,1.004796475
0.070874104,-0.200352773,0.981477499,1.003439315
0.071100536,-0.084704667,0.997195721,1.001574187
0.071326976,0.031530805,0.999206841,0.999408503
0.071553408,0.146715,0.987744987,0.997165451
0.07177984,0.259333938,0.963238835,0.995083145
0.07200628,0.368023336,0.926264346,0.993406815
0.072232712,0.471579909,0.87748611,0.992369484
0.072459144,0.568940699,0.817590714,0.992148095
0.072685584,0.65911901,0.747233391,0.99279561
0.072912016,0.741097212,0.667044699,0.994173708
0.073138448,0.813753009,0.577739298,0.995976656
0.073364888,0.875901103,0.480253994,0.997846641
0.07359132,0.926429749,0.375809878,0.999505144
0.07381776,0.964426279,0.265860945,1.00080009
0.074044192,0.989224017,0.152005762,1.001669907
0.074270624,1.00040376,0.035920296,1.002097951
0.074497064,0.997789025,-0.080681935,1.002092513
0.074723496,0.981444955,-0.196084782,1.001683441
0.074949928,0.951679587,-0.308610827,1.000934679
0.075176368,0.909033835,-0.416668892,0.999955479
0.0754028,0.854248941,-0.518804491,0.998899353
0.075629232,0.788213193,-0.613735378,0.997951152
0.075855672,0.711889505,-0.700351954,0.997279527
0.076082104,0.626258075,-0.777665555,0.996962892
0.076308536,0.532325387,-0.844728887,0.99693721
0.076534976,0.431209624,-0.900601923,0.997025564
0.076761408,0.324221134,-0.944422483,0.99705317
0.07698784,0.212848812,-0.975519538,0.996942986
0.07721428,0.098669961,-0.993473113,0.996724587
0.077440712,-0.016735548,-0.99809891,0.996481513
0.077667152,-0.131824076,-0.989404678,0.996299204
0.077893584,-0.245095029,-0.967555583,0.996235379
0.078120016,-0.35508579,-0.932862401,0.996318177
0.078346456,-0.460376441,-0.885786712,0.996564567
0.078572888,-0.55960542,-0.826938689,0.996985821
0.07879932,-0.651494324,-0.757074356,0.997606435
0.07902576,-0.734865904,-0.677067757,0.998448644
0.079252192,-0.808638155,-0.587879241,0.999497668
0.079478624,-0.871786773,-0.490545034,1.000646608
0.079705064,-0.923309565,-0.386227131,1.00167195
0.079931496,-0.962263823,-0.276299834,1.002293263
0.080157928,-0.987891018,-0.162386075,1.002297901
0.080384368,-0.999744058,-0.046279017,1.001629929
0.0806108,-0.997724414,0.070192769,1.000381031
0.080837232,-0.982043266,0.185277164,0.998736604
0.081063672,-0.953146219,0.297355831,0.996908205
0.081290104,-0.911655784,0.404960454,0.995109238
0.081516544,-0.858319819,0.506773114,0.993531901
0.081742976,-0.793979883,0.601618707,0.992349123
0.081969408,-0.719542086,0.688455462,0.991711737
0.082195848,-0.635949194,0.766362131,0.991742293
0.08242228,-0.544155419,0.834510565,0.992513003
0.082648712,-0.445115507,0.892116547,0.993999748
0.082875152,-0.339820027,0.938377798,0.996030543
0.083101584,-0.229392394,0.972451687,0.998283154
0.083328016,-0.115196817,0.993526101,1.00036442
0.083554456,0.001136744,1.00097024,1.001942714
0.083780888,0.117797971,0.99446094,1.002828923
0.08400732,0.232926756,0.974024713,1.002979015
0.08423376,0.34471634,0.940007567,1.002443581
0.084460192,0.451476306,0.893029094,1.001331818
0.084686632,0.551672339,0.833935022,0.999789991
0.084913064,0.643952787,0.763752759,0.997993469
0.085139496,0.727170706,0.683643162,0.996145209
0.085365936,0.800390542,0.594846308,0.99446715
0.085592368,0.862880111,0.498624414,0.993188392
0.0858188,0.914068282,0.39620623,0.992500201
0.08604524,0.953475416,0.288764894,0.992500533
0.086271672,0.980634451,0.177454382,0.993133984
0.086498104,0.995069265,0.063506641,0.994195936
0.086724544,0.996363103,-0.05168169,0.99541043
0.086950976,0.984280586,-0.166547045,0.99654619
0.087177408,0.958843589,-0.279442847,0.997469333
0.087403848,0.920338392,-0.388730764,0.998134363
0.08763028,0.869280279,-0.492836654,0.998536171
0.087856712,0.806385458,-0.590279937,0.998687911
0.088083152,0.732551754,-0.679689229,0.99860952
0.088309584,0.648844063,-0.759827793,0.998336893
0.088536024,0.556472659,-0.829620361,0.997931764
0.088762456,0.456756681,-0.888178766,0.997488186
0.088988888,0.351075053,-0.934808493,0.997120611
0.089215328,0.240817413,-0.968989193,0.996933083
0.08944176,0.127364263,-0.99032408,0.996963439
0.089668192,0.012117621,-0.998493254,0.997135615
0.089894632,-0.103431627,-0.993268967,0.997281342
0.090121064,-0.217674896,-0.974597871,0.997223371
0.090347496,-0.328946441,-0.942692041,0.996874045
0.090573936,-0.435630798,-0.898045361,0.996259663
0.090800368,-0.536247253,-0.841383815,0.99548784
0.0910268,-0.629478872,-0.77359587,0.99469422
0.09125324,-0.71416533,-0.695679724,0.994002397
0.091479672,-0.789288342,-0.608715534,0.993510688
0.091706112,-0.853960812,-0.513854861,0.993295887
0.091932544,-0.907423198,-0.412309021,0.993415589
0.092158976,-0.949045062,-0.30533722,0.993917348
0.092385416,-0.978315353,-0.194228351,0.994825582
0.092611848,-0.99482125,-0.080291405,0.996116029
0.09283828,-0.998215199,0.035124809,0.997667336
0.09306472,-0.988216519,0.150573015,0.999244121
