Frequency (GHz),Re( S21 ),Im( S21 ),S2
0,0.083486393,0,0.006969978
0.000226445,0.078031726,-0.024762901,0.006702152
0.000452889,0.062666841,-0.044910904,0.005944122
0.000679334,0.040222205,-0.056642469,0.004826195
0.000905779,0.014877859,-0.057658069,0.003545804
0.001132224,-0.00856655,-0.047600143,0.002339159
0.001358668,-0.025550215,-0.028158972,0.001445741
0.001585113,-0.032589868,-0.00281457,0.001070021
0.001811558,-0.027945928,0.02375699,0.001345369
0.002038002,-0.01199334,0.046515983,0.002307577
0.002264447,0.012785015,0.060977966,0.003881769
0.002490892,0.042425893,0.064145751,0.005914634
0.002717336,0.071302034,0.054737795,0.008080206
0.002943781,0.094377443,0.034079865,0.010068539
0.003170226,0.107201852,0.005370044,0.011521074
0.00339667,0.107070178,-0.025903162,0.012134997
0.003623115,0.093688585,-0.054302506,0.011726313
0.00384956,0.069135331,-0.074033216,0.010260611
0.004076005,0.037836153,-0.080428243,0.007900277
0.004302449,0.006050784,-0.070922136,0.005066561
0.004528894,-0.019060012,-0.045662288,0.002448329
0.004755339,-0.030567784,-0.007792466,0.000995112
0.004981783,-0.022969579,0.036719002,0.001875887
0.005208228,0.006728386,0.079783388,0.00641066
0.005434673,0.058598887,0.112440109,0.016076608
0.005661117,0.127999276,0.125388518,0.032106095
0.005887562,0.207966655,0.111701176,0.055727282
0.006114007,0.288738489,0.066996671,0.087858469
0.006340452,0.358990908,-0.009250598,0.128960046
0.006566896,0.40765959,-0.112976819,0.178950103
0.006793341,0.425928175,-0.238270938,0.23818785
0.007019786,0.40639016,-0.374706626,0.305558018
0.00724623,0.345686913,-0.510425866,0.380034007
0.007472675,0.244275287,-0.632884622,0.460213361
0.00769912,0.106433436,-0.730074584,0.544336975
0.007925564,-0.06005434,-0.791680992,0.630365317
0.008152009,-0.244590744,-0.810096622,0.716081169
0.008378454,-0.434745431,-0.781159639,0.799213971
0.008604898,-0.617410481,-0.704574168,0.87762046
0.008831343,-0.78004998,-0.583964467,0.94949247
0.009057788,-0.912228703,-0.426865876,1.014375683
0.009284232,-1.00132906,-0.246065289,1.063208013
0.009510677,-1.04621613,-0.043912966,1.096496539
0.009737122,-1.04647493,0.160416141,1.120843117
0.009963566,-1.00311697,0.356244117,1.133153526
0.010190011,-0.921340823,0.533928156,1.133948188
0.010416456,-0.808567047,0.686159909,1.12459609
0.0106429,-0.673346817,0.8084566,1.10699801
0.010869345,-0.524315119,0.899161577,1.083397886
0.01109579,-0.369290262,0.959068656,1.056187985
0.011322234,-0.214640364,0.990776956,1.027709462
0.011548679,-0.064998977,0.997907281,1.000043808
0.011775124,0.076613843,0.984429955,0.974972017
0.012001569,0.208712533,0.954319537,0.9542867
0.012228013,0.331104308,0.910865307,0.93930567
0.012454458,0.444332898,0.857072592,0.932005152
0.012680903,0.552125931,0.794015944,0.935304363
0.012907347,0.653357327,0.717691302,0.941956602
0.013133792,0.745378971,0.629354954,0.951677469
0.013360237,0.8272596,0.529391885,0.964614214
0.013586681,0.897193074,0.417971194,0.979655331
0.013813126,0.952802539,0.295908004,0.995394225
0.014039571,0.991575718,0.164909244,1.010417463
0.014266015,1.01128089,0.027595509,1.023450551
0.01449246,1.01032913,-0.112639785,1.033452672
0.014718905,0.988046288,-0.251893848,1.039685978
0.014945349,0.944830954,-0.38609603,1.041775676
0.015171794,0.882182717,-0.51139617,1.039772389
0.015398239,0.802584291,-0.624557734,1.034213907
0.015624684,0.709265709,-0.723350406,1.026293656
0.015851128,0.605527341,-0.807089448,1.018056738
0.016077573,0.493112236,-0.875719309,1.010043985
0.016304018,0.374074847,-0.927761853,1.000674047
0.016530462,0.251757652,-0.963062882,0.99087203
0.016756907,0.128567234,-0.98266834,0.9821666
0.016983352,0.006037497,-0.987672687,0.975533788
0.017209796,-0.114786692,-0.97895062,0.971520301
0.017436242,-0.233105138,-0.957078636,0.970337521
0.017662686,-0.348147124,-0.922332287,0.971903268
0.01788913,-0.458987147,-0.874761343,0.975876608
0.018115576,-0.564413905,-0.814340115,0.981712879
0.01834202,-0.662889123,-0.741164625,0.988746991
0.018568464,-0.752611876,-0.655651867,0.996304007
0.01879491,-0.831704438,-0.558690727,1.003867601
0.019021354,-0.898515344,-0.451613069,1.011284187
0.019247798,-0.951725841,-0.33575049,1.018510468
0.019474244,-0.989536285,-0.212379143,1.02428696
0.019700688,-1.00989807,-0.084094338,1.026965969
0.019927132,-1.01209164,0.045630697,1.026411648
0.020153578,-0.996513844,0.173621774,1.023184362
0.020380022,-0.964159548,0.297152817,1.017903431
0.020606466,-0.916437447,0.413938254,1.011202472
0.020832912,-0.855036438,0.522169948,1.003748765
0.021059356,-0.781768322,0.620529413,0.996218462
0.0212858,-0.698419034,0.708142161,0.989254467
0.021512246,-0.606637776,0.784486651,0.983428697
0.02173869,-0.507877886,0.849280715,0.97921768
0.021965134,-0.403391093,0.90238148,0.977016709
0.02219158,-0.294230074,0.943727136,0.977192244
0.022418024,-0.181171313,0.973269582,0.980076724
0.022644468,-0.064632691,0.990633428,0.985531973
0.022870914,0.054729782,0.994660556,0.992344971
0.023097358,0.175239399,0.984095514,0.999152828
0.023323802,0.294696778,0.958379686,1.005337814
0.023550248,0.410889655,0.917482197,1.01060389
0.023776692,0.52159965,0.861736655,1.014656257
0.024003138,0.624612868,0.791879892,1.017214998
0.024229582,0.717822433,0.709094703,1.018084343
0.024456026,0.799366295,0.614992857,1.017202688
0.024682472,0.867751539,0.511537015,1.014662851
0.024908916,0.921946049,0.400920838,1.010722036
0.02513536,0.961426735,0.285420448,1.005806199
0.025361806,0.986177862,0.16722925,1.000512398
0.02558825,0.996630907,0.048265293,0.995602703
0.025814694,0.993449092,-0.070032977,0.991845716
0.02604114,0.977083087,-0.186664909,0.989535147
0.026267584,0.947606266,-0.300505042,0.988260916
0.026494028,0.905272543,-0.410058588,0.987666423
0.026720474,0.850726724,-0.513911724,0.987841219
0.026946918,0.784709513,-0.610890687,0.988956451
0.027173362,0.707922399,-0.699904621,0.991020602
0.027399808,0.621084392,-0.779819608,0.993864443
0.027626252,0.525036633,-0.849431038,0.997196554
0.027852696,0.420833081,-0.907501698,1.000659814
0.028079142,0.309801221,-0.952845335,1.003891029
0.028305586,0.193557575,-0.98443687,1.006580486
0.02853203,0.07396768,-1.00153017,1.008533899
0.028758476,-0.046960414,-1.00375509,1.009729561
0.02898492,-0.167250201,-0.991141677,1.010334454
0.029211364,-0.285116106,-0.96397084,1.010530974
0.02943781,-0.398850948,-0.922534227,1.010151479
0.029664254,-0.506505907,-0.867277384,1.008718295
0.029890698,-0.606058896,-0.799227655,1.00607223
0.030117144,-0.69589144,-0.719923794,1.002555165
0.030343588,-0.774899364,-0.63105154,0.99869507
0.030570034,-0.842360914,-0.534238577,0.994982767
0.030796478,-0.897803664,-0.430995792,0.991808792
0.031022922,-0.940908909,-0.322716087,0.989455248
0.031249368,-0.971444607,-0.210696474,0.988097629
0.031475812,-0.989224911,-0.096179485,0.987816418
0.031702256,-0.994098008,0.01960141,0.988615065
0.031928702,-0.985965848,0.135389373,0.990458936
0.032155146,-0.964809418,0.249907598,0.993311021
0.03238159,-0.930672646,0.361890763,0.997116498
0.032608036,-0.883560777,0.470051736,1.001628281
0.03283448,-0.823427379,0.572843015,1.006181768
0.033060924,-0.750530958,0.668287098,1.009904364
0.03328737,-0.665794849,0.754291654,1.01223868
0.033513814,-0.570705831,0.829069018,1.013060582
0.03374026,-0.46705246,0.891253591,1.012470964
0.033966704,-0.356772453,0.93987608,1.010653629
0.034193148,-0.241869524,0.97434181,1.007842829
0.034419592,-0.1243359,0.994413853,1.004318327
0.034646036,-0.006081539,1.00018394,1.000404899
0.034872484,0.11113447,0.992024779,0.996464033
0.035098928,0.225751311,0.970526695,0.99288572
0.035325372,0.336440861,0.936423123,0.990080718
0.035551816,0.442127496,0.890497684,0.988462848
0.03577826,0.541959703,0.833445787,0.9883522
0.036004704,0.635148525,0.76573956,0.989770723
0.036231152,0.720669746,0.687696457,0.9922913
0.036457596,0.797174871,0.599834085,0.995288704
0.03668404,0.863266349,0.503090382,0.998328722
0.036910484,0.917729318,0.398713171,1.001199294
0.037136928,0.959553719,0.28812933,1.00376185
0.037363372,0.987909257,0.172913224,1.005863683
0.03758982,1.00216854,0.054791685,1.007343911
0.037816264,1.00196052,-0.064374611,1.008068974
0.038042708,0.987223148,-0.182644144,1.007968427
0.038269152,0.958234429,-0.298074573,1.007061672
0.038495596,0.915613651,-0.408822209,1.005483956
0.03872204,0.860277057,-0.51324445,1.00349648
0.038948488,0.793332815,-0.609985232,1.001458939
0.039174932,0.715918124,-0.69797802,0.999712077
0.039401376,0.629074931,-0.776300788,0.998378182
0.03962782,0.533840239,-0.843976021,0.997280925
0.039854264,0.431480914,-0.900019109,0.996210176
0.040080708,0.323500186,-0.943674922,0.995174729
0.040307156,0.211447701,-0.974499822,0.994360033
0.0405336,0.096797228,-0.992263854,0.993957259
0.040760044,-0.019050429,-0.99684906,0.994070967
0.040986488,-0.134715721,-0.988210738,0.994708788
0.041212932,-0.248795673,-0.966384172,0.995797655
0.04143938,-0.359840572,-0.931520224,0.997215165
0.041665824,-0.466360778,-0.88393259,0.998829199
0.041892268,-0.566865981,-0.824135542,1.000536432
0.042118712,-0.659924746,-0.752851248,1.002285672
0.042345156,-0.744225323,-0.670971274,1.004073782
0.0425716,-0.818564355,-0.579476416,1.00584052
0.042798048,-0.881743908,-0.479430467,1.007325892
0.043024492,-0.932524383,-0.372145444,1.008093956
0.043250936,-0.969826937,-0.259332716,1.007817745
0.04347738,-0.992994308,-0.142983332,1.006481929
0.043703824,-1.00184011,-0.025116531,1.004314446
0.043930268,-0.996546149,0.092380099,1.00163831
0.044156716,-0.977547824,0.207800731,0.998780892
0.04438316,-0.945450962,0.319624215,0.99603716
0.044609604,-0.900976539,0.426501602,0.99366234
0.044836048,-0.844920754,0.527237535,0.991870499
0.045062492,-0.778128624,0.620769322,0.990838707
0.045288936,-0.701474905,0.706150115,0.990715027
0.045515384,-0.615839779,0.78253454,0.99161894
0.045741828,-0.522071958,0.849138737,0.993595724
0.045968272,-0.420977861,0.905145049,0.996509919
0.046194716,-0.313429028,0.949580193,0.999940299
0.04642116,-0.200597107,0.981343448,1.003274162
0.046647604,-0.084077694,0.999457002,1.005983357
0.046874052,0.034236036,1.0033046,1.007792227
0.047100496,0.152352288,0.992679834,1.008624472
0.04732694,0.26830411,0.967741013,1.008509764
0.047553384,0.380210131,0.928960323,1.007527025
0.047779828,0.486320943,0.877093136,1.005800429
0.048006276,0.585068941,0.813140988,1.003503932
0.04823272,0.675110102,0.738302588,1.000864361
0.048459164,0.75535816,0.653908491,0.998162264
0.048685608,0.824996889,0.561344624,0.995727654
0.048912052,0.883459628,0.461959481,0.993907476
0.049138496,0.930351675,0.356979191,0.992988382
0.049364944,0.965303659,0.247488245,0.993061585
0.049591388,0.987842798,0.13455683,0.993938934
0.049817832,0.997439206,0.019439835,0.995262877
0.050044276,0.99370569,-0.096369773,0.996738132
0.05027072,0.976519227,-0.211261511,0.998221227
0.050497164,0.946003318,-0.323625058,0.999655456
0.050723612,0.902479053,-0.431882232,1.000990703
0.050950056,0.84644872,-0.534485459,1.002150141
0.0511765,0.778612435,-0.629924893,1.003042695
0.051402944,0.699886143,-0.716762662,1.003589327
0.051629388,0.611403942,-0.793685555,1.003751541
0.051855832,0.51449573,-0.859565675,1.003559006
0.05208228,0.410629362,-0.913510561,1.003118018
0.052308724,0.301326096,-0.954881966,1.002596985
0.052535168,0.188075811,-0.98324585,1.002144912
0.052761612,0.072325125,-0.998271644,1.001777199
0.052988056,-0.044419639,-0.999678731,1.00133067
0.0532145,-0.160496071,-0.987340331,1.000599918
0.053440948,-0.274155319,-0.961439192,0.999526459
0.053667392,-0.383734494,-0.922487438,0.998235235
0.053893836,-0.487758666,-0.871221542,0.996935492
0.05412028,-0.584943056,-0.808499694,0.995830134
0.054346724,-0.674152672,-0.735244095,0.995065704
0.054573172,-0.754360914,-0.652430117,0.994725446
0.054799616,-0.824630082,-0.561094701,0.994842036
0.05502606,-0.884108543,-0.462348372,0.995413933
0.055252504,-0.932045877,-0.357383221,0.996432283
0.055478948,-0.967808187,-0.247458935,0.997888611
0.055705392,-0.990876019,-0.133875579,0.999757956
0.05593184,-1.00080657,-0.01796196,1.001936423
0.056158284,-0.997186422,0.098864809,1.004155011
0.056384728,-0.979681015,0.214982823,1.005992505
0.056611172,-0.948220253,0.328529119,1.00705303
0.056837616,-0.903156817,0.437548757,1.007141151
0.05706406,-0.845262706,0.54020232,1.006287589
0.057290508,-0.775618315,0.634887755,1.004666232
0.057516952,-0.695495307,0.720274389,1.002508918
0.057743396,-0.606278121,0.795294404,1.000066349
0.05796984,-0.509404659,0.859123766,0.997586752
0.058196284,-0.406323314,0.911161721,0.995314317
0.058422728,-0.298456013,0.951004028,0.993484653
0.058649176,-0.187167138,0.978412092,0.992321759
0.05887562,-0.073736228,0.99327147,0.992025244
0.059102064,0.040651843,0.99552393,0.992720468
0.059328508,0.154865488,0.98508662,0.994378968
0.059554952,0.267705053,0.961809397,0.996743312
0.059781396,0.377758592,0.925565124,0.999372353
0.060007844,0.483384758,0.876445174,1.001816967
0.060234288,0.582854033,0.814896822,1.003775654
0.060460732,0.674510002,0.741715372,1.005105436
0.060687176,0.75685966,0.657972574,1.005764453
0.06091362,0.828606069,0.564954698,1.005761828
0.061140068,0.888669252,0.464118451,1.005138976
0.061366512,0.936210632,0.357052326,1.003976711
0.061592956,0.970654368,0.245426372,1.002404006
0.0618194,0.991696894,0.130931377,1.000605755
0.062045844,0.999293685,0.015208429,0.998819165
0.062272288,0.993613839,-0.100215897,0.997311687
0.062498736,0.974953294,-0.213967353,0.996315954
0.06272518,0.943635106,-0.324789226,0.995935255
0.062951624,0.899968982,-0.431430489,0.996076435
0.063178068,0.84433794,-0.532545388,0.996511147
0.063404512,0.777333617,-0.626719952,0.99702545
0.063630956,0.699806333,-0.712597907,0.997524681
0.063857404,0.612802982,-0.788974762,0.99800867
0.064083848,0.517497599,-0.854812741,0.998508587
0.064310292,0.415153116,-0.909219742,0.999032649
0.064536736,0.307120919,-0.951440871,0.99956299
0.06476318,0.194842532,-0.980867624,1.000064908
0.064989624,0.079841897,-0.99706167,1.000506702
0.065216072,-0.036301028,-0.999785304,1.000888419
0.065442516,-0.151997194,-0.989011645,1.001247181
0.06566896,-0.265698999,-0.964910567,1.00164836
0.065895404,-0.375929505,-0.927798212,1.002132515
0.066121848,-0.4812527,-0.878085554,1.002638401
0.066348292,-0.580201089,-0.816296041,1.00297253
0.06657474,-0.671258986,-0.743172109,1.00289341
0.066801184,-0.752975285,-0.659768343,1.002266046
0.067027628,-0.824114978,-0.567417562,1.001128187
0.067254072,-0.883736491,-0.46760878,0.999648157
0.06748052,-0.931176186,-0.361874908,0.998042538
0.06770696,-0.965997636,-0.251731038,0.996519948
0.067933408,-0.987941504,-0.13865304,0.995253081
0.068159848,-0.996893704,-0.024073655,0.994376598
0.068386296,-0.992865801,0.090613186,0.993993248
0.068612744,-0.975983322,0.204054639,0.994181741
0.068839184,-0.946472108,0.314941764,0.994997766
0.069065632,-0.904634297,0.422011852,0.996457215
0.069292072,-0.850814462,0.524015486,0.998477478
0.06951852,-0.785405576,0.619649351,1.000827237
0.069744968,-0.7089324,0.707484841,1.003119948
0.069971408,-0.622205794,0.786004066,1.004942442
0.070197856,-0.526405573,0.853755295,1.006000931
0.070424296,-0.423031002,0.909525156,1.006191238
0.070650744,-0.313776493,0.952419817,1.005559195
0.070877184,-0.200417221,0.981873691,1.004243008
0.071103632,-0.08473172,0.9976179,1.002420939
0.07133008,0.031550411,0.999651372,1.000298294
0.07155652,0.146789476,0.988205731,0.998097717
0.071782968,0.259470075,0.963707149,0.996056189
0.072009408,0.368225992,0.926728845,0.994416733
0.072235856,0.471850336,0.877934933,0.993412486
0.072462304,0.569277883,0.818011463,0.993220062
0.072688744,0.659518182,0.747613847,0.993890697
0.072915192,0.741552532,0.667375207,0.995289825
0.073141632,0.814256072,0.578010499,0.997109088
0.07336808,0.876442134,0.480459303,0.998991956
0.07359452,0.926998913,0.375944823,1.000661495
0.073820968,0.965012789,0.265922755,1.001964595
0.074047416,0.989818335,0.151993141,1.002842251
0.074273856,1.00099635,0.035833024,1.003277698
0.074500304,0.998371005,-0.08084318,1.003280283
0.074726744,0.982007504,-0.19631891,1.002879852
0.074953192,0.952213526,-0.308915764,1.002139548
0.07517964,0.909529805,-0.41704157,1.001168137
0.07540608,0.854697645,-0.519240797,1.00011907
0.075632528,0.788605273,-0.614229381,0.999176009
0.075858968,0.712215424,-0.700895488,0.998505295
0.076085416,0.626510382,-0.778248906,0.998186618
0.076311864,0.532498181,-0.845339954,0.998153951
0.076538304,0.431299478,-0.901227295,0.998229877
0.076764752,0.324227393,-0.945047736,0.998238626
0.076991192,0.212775022,-0.976130426,0.998103819
0.07721764,0.098522857,-0.994057178,0.997856426
0.07744408,-0.016945828,-0.998646557,0.997582107
0.077670528,-0.132087097,-0.989909708,0.997368231
0.077896976,-0.245398849,-0.968015015,0.997273664
0.078123416,-0.355420321,-0.933277965,0.997331365
0.078349864,-0.460733265,-0.886161804,0.997557884
0.078576304,-0.559980333,-0.827279925,0.997970048
0.078802752,-0.651885629,-0.757387578,0.998590817
0.0790292,-0.735275686,-0.677358449,0.999444803
0.07925564,-0.809071541,-0.588150084,1.00051728
0.079482088,-0.872250676,-0.49079591,1.001701867
0.079708528,-0.92381078,-0.386453003,1.002772281
0.079934976,-0.962807536,-0.276492864,1.003446655
0.080161416,-0.98848033,-0.162534669,1.003510881
0.080387864,-1.00037742,-0.046370447,1.002905201
0.080614312,-0.998396635,0.070172221,1.001719981
0.080840752,-0.982743859,0.185339808,1.000136337
0.0810672,-0.953862607,0.297511429,0.998366923
0.08129364,-0.91237092,0.405215383,0.996620202
0.081520088,-0.859016895,0.507129908,0.995090769
0.081746536,-0.794641018,0.602075338,0.99394906
0.081972976,-0.720150828,0.689006448,0.9933471
0.082199424,-0.636491239,0.766999006,0.993408573
0.082425864,-0.544618547,0.83522296,0.994206755
0.082652312,-0.445490211,0.892892778,0.995719041
0.08287876,-0.340098858,0.939206123,0.997775375
0.0831052,-0.229569152,0.973319054,1.000051976
0.083331648,-0.115267038,0.994420409,1.00215844
0.083558088,0.001176184,1.00187898,1.003762874
0.083784536,0.117949784,0.995371938,1.004677447
0.084010976,0.233192593,0.974924564,1.004856691
0.084237424,0.345096767,0.940881968,1.004350656
0.084463872,0.451970428,0.89386344,1.003269117
0.084690312,0.552277327,0.834713757,1.001757302
0.08491676,0.644663453,0.764459014,0.999988552
0.0851432,0.727977991,0.684260607,0.998164534
0.085369648,0.801283419,0.595359862,0.996508483
0.085596096,0.863843203,0.499020368,0.995246407
0.085822536,0.915084422,0.396473825,0.994570993
0.086048984,0.954524279,0.288896382,0.994577719
0.086275424,0.981695592,0.177445918,0.995213289
0.086501872,0.99612087,0.06335862,0.996271102
0.086728312,0.997385085,-0.051964756,0.997477344
0.08695476,0.985254109,-0.166957259,0.998600386
0.087181208,0.959753096,-0.279968828,0.99950855
0.087407648,0.921170771,-0.389359444,1.000156366
0.087634096,0.870026767,-0.493555188,1.000543299
0.087860536,0.80703938,-0.591074884,1.000682079
0.088086984,0.733108997,-0.680548787,1.000595453
0.088313432,0.649301648,-0.760741353,1.000320036
0.088539872,0.556827903,-0.830578446,0.999917869
0.08876632,0.457006484,-0.889172912,0.999483394
0.08899276,0.35121575,-0.935830653,0.999131514
0.089219208,0.240844771,-0.970029593,0.998963615
0.089445656,0.127273262,-0.99137181,0.999016549
0.089672096,0.011904132,-0.999535918,0.99921376
0.089898544,-0.103770874,-0.994291246,0.999383476
0.090124984,-0.218139961,-0.97558248,0.999346218
0.090351432,-0.329534262,-0.943620563,0.999012597
0.090577872,-0.436334133,-0.898899138,0.998407136
0.09080432,-0.537054598,-0.84214592,0.997637392
0.091030768,-0.630375504,-0.774252117,0.996839617
0.091257208,-0.715134025,-0.696218908,0.996137442
0.091483656,-0.7903108,-0.609131336,0.995632145
0.091710096,-0.855018377,-0.514144361,0.995400849
0.091936544,-0.908498645,-0.412473291,0.995504004
0.092162992,-0.950123429,-0.305380046,0.995991503
0.092389432,-0.979384661,-0.194155261,0.99689058
0.09261588,-0.995871305,-0.080108084,0.998176961
0.09284232,-0.999239385,0.035413276,0.999733449
0.093068768,-0.989208579,0.150962457,1.001323276
