Frequency (GHz),Re( S21 ),Im( S21 ),S2
0,0.083581366,0,0.006985845
0.000226391,0.078121595,-0.024801327,0.006718089
0.000452782,0.062740564,-0.044986077,0.005960126
0.000679174,0.040268574,-0.056749884,0.004842107
0.000905565,0.01488606,-0.057789914,0.003561269
0.001131956,-0.008606102,-0.047744345,0.002353587
0.001358347,-0.025643479,-0.028299267,0.001458437
0.001584738,-0.032736961,-0.00293139,0.001080302
0.00181113,-0.028139459,0.023684215,0.001352771
0.002037521,-0.012217395,0.046505891,0.002312063
0.002263912,0.012554741,0.061043084,0.00388388
0.002490303,0.042220626,0.064289019,0.005915659
0.002716694,0.071152203,0.054947868,0.008081904
0.002943086,0.094310366,0.034334004,0.010073269
0.003169477,0.107238658,0.005631633,0.011531845
0.003395868,0.107210338,-0.025681945,0.012153619
0.003622259,0.093915932,-0.054160055,0.011753514
0.00384865,0.069417454,-0.07401567,0.010297102
0.004075041,0.038118105,-0.080564126,0.007943568
0.004301433,0.006263996,-0.071218059,0.00511125
0.004527824,-0.018989299,-0.046096355,0.002485467
0.004754215,-0.03070662,-0.008311716,0.001011981
0.004980606,-0.023366528,0.036196772,0.001856201
0.005206997,0.006056207,0.079361931,0.006334994
0.005433389,0.057674304,0.112235747,0.015923188
0.00565978,0.126891688,0.125504583,0.031852901
0.005886171,0.206782624,0.112220138,0.055352413
0.006112562,0.287618816,0.067965575,0.087343903
0.006338953,0.358092636,-0.007841015,0.128291817
0.006565345,0.407122999,-0.111183181,0.178110836
0.006791736,0.425896764,-0.236202806,0.237179819
0.007018127,0.406962126,-0.372514814,0.304385459
0.007244518,0.346909463,-0.508291066,0.378705983
0.007470909,0.24614051,-0.631001174,0.458747632
0.0076973,0.108874008,-0.72863251,0.542758884
0.007923692,-0.057162561,-0.790848672,0.62870918
0.008150083,-0.241420314,-0.810002327,0.714387538
0.008376474,-0.431503981,-0.781878114,0.797529071
0.008602865,-0.614322603,-0.706115007,0.875990664
0.008829256,-0.777335286,-0.586270869,0.947963679
0.009055647,-0.910071135,-0.429808736,1.01296502
0.009282039,-0.999959528,-0.249484584,1.062161615
0.00950843,-1.04563355,-0.047587052,1.095614048
0.009734821,-1.04673934,0.156713411,1.120222339
0.009961212,-1.00418735,0.352727294,1.132808778
0.010187603,-0.923116624,0.530782938,1.133874829
0.010413994,-0.81090337,0.683526397,1.124772611
0.010640386,-0.676075637,0.806419194,1.107390183
0.010866777,-0.527264893,0.897747815,1.083959407
0.011093168,-0.372305453,0.958256364,1.056866609
0.011319559,-0.217594698,0.990505636,1.028448868
0.01154595,-0.067802444,0.998093784,1.000788373
0.011772342,0.074013457,0.984982073,0.975667676
0.011998733,0.206329644,0.955149412,0.954882321
0.012225124,0.328927487,0.911903679,0.939761611
0.012451515,0.442323208,0.858260214,0.932260415
0.012677906,0.55021894,0.795383036,0.935375056
0.012904297,0.651586473,0.719254255,0.941891615
0.013130689,0.743743896,0.631117702,0.951464537
0.01335708,0.825779021,0.531376421,0.964271892
0.013583471,0.895909548,0.420194328,0.979217191
0.013809862,0.951775074,0.298369825,0.994900344
0.014036253,0.990870595,0.167586446,1.009909753
0.014262645,1.01096213,0.03044036,1.022971044
0.014489036,1.01044822,-0.109698899,1.033039454
0.014715427,0.988633454,-0.248945534,1.039369985
0.014941818,0.945889831,-0.38323763,1.041578653
0.015168209,0.883687913,-0.508723438,1.039703864
0.0153946,0.804484069,-0.622153878,1.034270065
0.015620992,0.711488366,-0.721274674,1.02645285
0.015847383,0.608002067,-0.805367827,1.01828385
0.016073774,0.495786399,-0.874381483,1.010347131
0.016300165,0.376865596,-0.926829636,1.001040852
0.016526556,0.2545892,-0.962518334,0.991257204
0.016752948,0.131387547,-0.982479751,0.982529149
0.016979338,0.008813711,-0.987807453,0.975841246
0.01720573,-0.112072878,-0.979379833,0.971745187
0.017432122,-0.230462268,-0.957784057,0.970463157
0.017658512,-0.345580846,-0.923305988,0.971920069
0.017884904,-0.45650658,-0.876007199,0.97578687
0.018111294,-0.56203723,-0.815868735,0.981527641
0.018337686,-0.660646021,-0.742987454,0.988483522
0.018564078,-0.75054419,-0.657775164,0.995984748
0.018790468,-0.829862118,-0.561109781,1.003515321
0.01901686,-0.896948814,-0.454312414,1.010916944
0.01924325,-0.950489998,-0.338710397,1.018155969
0.019469642,-0.988701999,-0.215559587,1.023997578
0.019696032,-1.00952113,-0.087416947,1.026774635
0.019922424,-1.01219523,0.04225513,1.02632468
0.020148816,-0.997098207,0.170280442,1.023200263
0.020375206,-0.965205073,0.29392761,1.018014273
0.020601598,-0.917907655,0.410900593,1.01139376
0.020827988,-0.856882334,0.519376874,1.003999672
0.02105438,-0.783934534,0.618021607,0.99650406
0.021280772,-0.700849235,0.705943644,0.989546079
0.021507162,-0.609280944,0.782608509,0.983699347
0.021733554,-0.510690689,0.84772414,0.979441197
0.021959944,-0.406339586,0.901142359,0.97716941
0.022186336,-0.297291219,0.942799747,0.977253432
0.022412728,-0.18433392,0.972652793,0.98003245
0.022639118,-0.067893393,0.990343273,0.985389311
0.02286551,0.051389907,0.994732976,0.992134616
0.0230919,0.171861097,0.984562516,0.998899585
0.023318292,0.291329771,0.959262788,1.005058132
0.023544684,0.407590091,0.918796957,1.01031753
0.023771074,0.518431962,0.863488734,1.014384493
0.023997466,0.621647477,0.794061542,1.016979318
0.024223856,0.715131402,0.711681664,1.017903713
0.024450248,0.79701668,0.617943704,1.01709001
0.02467664,0.865800858,0.514795125,1.014625146
0.02490303,0.920437396,0.404417932,1.010758864
0.025129422,0.96038574,0.28908211,1.005909236
0.025355812,0.985611439,0.170981422,1.000664555
0.025582204,0.996529281,0.052041605,0.995778937
0.025808594,0.993795693,-0.066284128,0.992023465
0.026034986,0.977864325,-0.182986706,0.989702773
0.026261378,0.94881016,-0.29694435,0.988416667
0.026487768,0.906876206,-0.406661242,0.987797819
0.02671416,0.852702558,-0.510713518,0.98792995
0.02694055,0.787033617,-0.60792017,0.988988847
0.027166942,0.710575402,-0.697189212,0.990990199
0.027393334,0.624049067,-0.777390063,0.993772548
0.027619724,0.528293669,-0.847322762,0.997050064
0.027846116,0.424357921,-0.905754864,1.000471519
0.028072506,0.313560426,-0.951502144,1.003676471
0.028298898,0.197507173,-0.983538806,1.006357666
0.02852529,0.078052104,-1.00111163,1.008316627
0.02875168,-0.042804457,-1.00384188,1.009530742
0.028978072,-0.163090184,-0.991746962,1.010160445
0.029204462,-0.281019211,-0.965101123,1.010391975
0.029430854,-0.394891739,-0.924190223,1.010067054
0.029657246,-0.502767801,-0.869441986,1.008704829
0.029883636,-0.602619827,-0.80185914,1.006128736
0.030110028,-0.692812562,-0.722965181,1.002667899
0.030336418,-0.772224188,-0.634440184,0.998844544
0.03056281,-0.840118587,-0.537911952,0.995148508
0.0307892,-0.896012425,-0.434894711,0.991971675
0.031015592,-0.939578474,-0.326785624,0.989596553
0.031241984,-0.97058022,-0.214887142,0.988202447
0.031468374,-0.98882854,-0.100446694,0.98787142
0.031694766,-0.994171679,0.015299607,0.988611405
0.031921156,-0.986512482,0.131093815,0.990392465
0.032147548,-0.965832055,0.2456581,0.993179461
0.03237394,-0.93217659,0.357729137,0.99692333
0.03260033,-0.885556281,0.466025472,1.001389667
0.032826722,-0.825923681,0.569016695,1.005929926
0.033053112,-0.753519475,0.664739251,1.009669871
0.033279504,-0.669243813,0.751102865,1.012042795
0.033505896,-0.574565113,0.826310754,1.012914531
0.033732288,-0.471259087,0.88898617,1.012381538
0.033958676,-0.361253113,0.938146353,1.010622391
0.034185068,-0.246543944,0.973183334,1.007869718
0.03441146,-0.129121304,0.993843138,1.004396494
0.034637852,-0.010895548,1.00020289,1.000524534
0.034864244,0.106368802,0.992620528,0.996609835
0.035090632,0.221102715,0.9716748,0.993038328
0.035317024,0.331967145,0.938092232,0.990219221
0.035543416,0.437874317,0.892652869,0.988563062
0.035769808,0.537962735,0.83605814,0.988397118
0.0359962,0.631442964,0.768788099,0.989755358
0.036222588,0.717299581,0.691162407,0.992224162
0.03644898,0.794190645,0.603689969,0.995180359
0.036675372,0.860716701,0.507297456,0.998183948
0.036901764,0.915658414,0.403227061,1.001022394
0.037128156,0.958002448,0.292899877,1.003559028
0.037354544,0.986915588,0.177883208,1.005644814
0.037580936,1.00176573,0.059895691,1.007122072
0.037807328,1.00217342,-0.059210666,1.007857467
0.03803372,0.988064885,-0.177501068,1.007778846
0.038260112,0.959703922,-0.293037295,1.006902474
0.0384865,0.917694271,-0.403974801,1.005358415
0.038712892,0.862938106,-0.508665621,1.003402889
0.038939284,0.796532691,-0.605743885,1.001389982
0.039165676,0.719611466,-0.694133997,0.999662668
0.039392064,0.633213043,-0.772909582,0.99834798
0.039618456,0.538367271,-0.841092885,0.99727656
0.039844848,0.436327398,-0.897690356,0.996229574
0.04007124,0.328591079,-0.941931367,0.995206797
0.040297632,0.216709405,-0.973357499,0.994387787
0.04052402,0.10216102,-0.991730213,0.993965689
0.040750412,-0.013648566,-0.996926427,0.994048584
0.040976804,-0.129337832,-0.988898635,0.994648785
0.041203196,-0.243503422,-0.967679322,0.995697187
0.041429588,-0.354696751,-0.933415949,0.997075119
0.041655976,-0.461430758,-0.886417449,0.998654238
0.041882368,-0.56221503,-0.827190042,1.000329106
0.04210876,-0.655619204,-0.756449759,1.002052779
0.042335152,-0.740329146,-0.675081253,1.003821943
0.042561544,-0.815142095,-0.584059775,1.005582456
0.042787932,-0.878863871,-0.484439671,1.007083499
0.043014324,-0.930255353,-0.377514392,1.007892138
0.043240716,-0.968225121,-0.264975011,1.007671641
0.043467108,-0.992094159,-0.148801088,1.006392584
0.0436935,-1.0016551,-0.031010045,1.004274562
0.043919888,-0.997072697,0.086505972,1.001637246
0.04414628,-0.978767693,0.202034757,0.99880424
0.044372672,-0.94733572,0.314047039,0.996070509
0.044599064,-0.90348953,0.421185017,0.993690149
0.044825456,-0.848020256,0.522244036,0.991877188
0.045051844,-0.781770289,0.616153181,0.990809527
0.045278236,-0.705613673,0.701958835,0.990636862
0.045504628,-0.620431483,0.778809786,0.991479908
0.04573102,-0.527076542,0.845920384,0.993390977
0.045957412,-0.426356494,0.902478039,0.996246471
0.0461838,-0.319136381,0.947518229,0.999638824
0.046410192,-0.206570253,0.979943275,1.002960092
0.046636584,-0.090235256,0.998767078,1.005678077
0.046862976,0.027987089,1.00335693,1.007508406
0.047089368,0.146110564,0.993490338,1.008371349
0.047315756,0.262170464,0.969308555,1.008292427
0.047542148,0.374284863,0.931268632,1.007350424
0.04776854,0.480701059,0.880109847,1.005666851
0.047994932,0.57984376,0.816818297,1.003410916
0.048221324,0.670358241,0.742578626,1.000803187
0.048447712,0.751145303,0.658713162,0.998122296
0.048674104,0.821373999,0.566602707,0.995693874
0.048900496,0.880463302,0.467595458,0.993861139
0.049126888,0.928008854,0.362922847,0.992913426
0.04935328,0.963639617,0.253674209,0.992951916
0.049579668,0.986884415,0.140916958,0.993798438
0.04980606,0.997209907,0.02589713,0.99509826
0.050032452,0.99421674,-0.089899145,0.996548782
0.050258844,0.977770925,-0.204861313,0.998004139
0.050485232,0.947987616,-0.317377478,0.999408984
0.050711624,0.905179679,-0.425868452,1.00071419
0.050938016,0.849842906,-0.528786123,1.001847729
0.051164408,0.782668233,-0.624621689,1.002721817
0.0513908,0.704560339,-0.711936057,1.003258221
0.051617188,0.616641819,-0.789411962,1.003418379
0.05184358,0.520230591,-0.855914772,1.003229965
0.052069972,0.416784972,-0.91054213,1.002796683
0.052296364,0.307820171,-0.952644169,1.00228417
0.052522756,0.194822684,-0.981778502,1.001844905
0.052749144,0.079234973,-0.997608125,1.001500152
0.052975536,-0.037447274,-0.999843836,1.001089995
0.053201928,-0.153571144,-0.988342643,1.000405276
0.05342832,-0.267388999,-0.963264287,0.999374963
0.053654712,-0.377229422,-0.925101399,0.998114635
0.0538811,-0.48160544,-0.874577343,0.996829329
0.054107492,-0.579220831,-0.812542498,0.995722082
0.054333884,-0.668929517,-0.739914894,0.994940749
0.054560276,-0.749696791,-0.657666802,0.994570901
0.054786668,-0.820578516,-0.566832423,0.994648097
0.055013056,-0.880716562,-0.468520224,0.995172863
0.055239448,-0.929355383,-0.363920152,0.996139305
0.05546584,-0.96585542,-0.254289836,0.997540013
0.055692232,-0.989693522,-0.140927687,0.99935388
0.055918624,-1.00042784,-0.025159901,1.001488884
0.056145012,-0.997642756,0.091607042,1.003682919
0.056371404,-0.980998516,0.207766637,1.005525064
0.056597796,-0.950404942,0.321470648,1.006612931
0.056824188,-0.906190157,0.430767328,1.006741092
0.05705058,-0.849103153,0.533810794,1.005930128
0.057276968,-0.780205667,0.628988624,1.004347572
0.05750336,-0.700757027,0.714956522,1.002223239
0.057729752,-0.612131238,0.790632486,0.99980438
0.057956144,-0.515760064,0.855177701,0.997337344
0.058182536,-0.413088024,0.907976866,0.995063705
0.058408924,-0.305537254,0.948611379,0.993216562
0.058635316,-0.194475055,0.976831436,0.992020201
0.058861708,-0.081186235,0.99251312,0.991673498
0.0590881,0.033138413,0.995595098,0.992307754
0.059314492,0.147365317,0.985995889,0.99390443
0.05954088,0.260301352,0.963567138,0.996218423
0.059767272,0.370547026,0.928176224,0.998816201
0.059993664,0.476471454,0.879899859,1.001248808
0.060220056,0.576346159,0.819165051,1.003206276
0.060446448,0.668510973,0.746749461,1.004541679
0.060672836,0.751465499,0.663710535,1.00521207
0.060899228,0.823904514,0.571321189,1.005226549
0.06112562,0.884737551,0.471025497,1.004625553
0.061352012,0.933113873,0.364401758,1.003490141
0.0615784,0.968442142,0.253110379,1.001945046
0.061804792,0.990401387,0.138837367,1.000170722
0.062031184,0.998930812,0.02322357,0.998402101
0.062257576,0.994183898,-0.092200987,0.996902645
0.062483968,0.976446152,-0.206055939,0.995906138
0.062710356,0.946035445,-0.317080766,0.995523275
0.062936748,0.903255463,-0.424027145,0.995669451
0.06316314,0.848475397,-0.52555263,0.996116066
0.063389532,0.782269478,-0.620240748,0.996644122
0.063615924,0.705471039,-0.706724286,0.997148603
0.063842312,0.619118392,-0.783786356,0.997628635
0.064068704,0.524378657,-0.85037595,0.998112232
0.064295096,0.422511756,-0.905591369,0.998611912
0.064521488,0.314865023,-0.948669016,0.999112885
0.06474788,0.202875704,-0.978990674,0.999581291
0.064974268,0.088064089,-0.996109247,0.999988916
0.06520066,-0.027993051,-0.999775827,1.000335315
0.065427052,-0.143707559,-0.989953101,1.000659005
0.065653444,-0.257531911,-0.966800749,1.001026373
0.065879836,-0.367988348,-0.930627644,1.001483236
0.066106224,-0.47364524,-0.881837666,1.001977483
0.066332616,-0.573041618,-0.820941746,1.002322046
0.066559008,-0.664666712,-0.748661339,1.002275639
0.0667854,-0.74706161,-0.666025996,1.001691676
0.067011792,-0.818975627,-0.574348867,1.000597699
0.067238184,-0.879447341,-0.475106835,0.99915413
0.067464576,-0.927794397,-0.36982733,0.997574697
0.06769096,-0.963563025,-0.260023326,0.996065833
0.067917352,-0.986479044,-0.147170708,0.994800122
0.068143744,-0.996415138,-0.032704301,0.993912699
0.068370136,-0.993370652,0.081978619,0.993505746
0.068596528,-0.977460802,0.195520818,0.99365801
0.06882292,-0.948903382,0.306609482,0.994427003
0.069049312,-0.907995224,0.413975686,0.995831195
0.069275704,-0.855078816,0.516370296,0.997798064
0.069502096,-0.790542185,0.612494409,1.000106347
0.069728488,-0.714898109,0.700927615,1.002378828
0.069954872,-0.628935874,0.780154467,1.004201326
0.070181264,-0.533811867,0.848715067,1.005272374
0.070407656,-0.431007326,0.905379236,1.005478876
0.070634048,-0.322205245,0.949234426,1.004862215
0.07086044,-0.209174603,0.979693949,1.003554248
0.071086832,-0.093692064,0.996472418,1.001735483
0.071313224,0.022512265,0.999550581,0.999608166
0.071539616,0.137795731,0.989144385,0.997394278
0.071766008,0.250636876,0.965665042,0.995327817
0.0719924,0.359661818,0.929674804,0.993651865
0.072218784,0.463654518,0.881829679,0.992599095
0.072445176,0.561542869,0.82281208,0.992350113
0.072671568,0.652333975,0.753276289,0.992964783
0.07289796,0.735013247,0.673851788,0.994320705
0.073124352,0.808461607,0.585240662,0.996116802
0.073350744,0.871491492,0.488362134,0.997994995
0.073577136,0.922980845,0.384419322,0.999671855
0.073803528,0.961999476,0.274853647,1.000987519
0.07402992,0.987864256,0.161255777,1.001879214
0.074256312,1.00013947,0.045296826,1.002330762
0.074482696,0.998630643,-0.071312934,1.002348696
0.074709088,0.983385861,-0.186858386,1.001963808
0.07493548,0.954694986,-0.299659371,1.001238255
0.075161872,0.9130795,-0.408119857,1.000275991
0.075388264,0.859266281,-0.510775387,0.999230038
0.075614656,0.794130921,-0.606331646,0.998281985
0.075841048,0.718629003,-0.693667054,0.997601626
0.07606744,0.633736789,-0.771785736,0.99727554
0.076293832,0.540453553,-0.839735687,0.997246067
0.076520224,0.439883918,-0.896572173,0.997339523
0.076746608,0.333323717,-0.941419184,0.99737478
0.076973,0.222252369,-0.97358638,0.997266555
0.077199392,0.108245775,-0.99263382,0.997039048
0.077425784,-0.007113583,-0.998360813,0.996774916
0.077652176,-0.122277528,-0.990761876,0.996560889
0.077878568,-0.235741809,-0.969991446,0.996457606
0.07810496,-0.346040875,-0.936352074,0.996499494
0.078331352,-0.451752484,-0.890294135,0.996703954
0.078557744,-0.551512122,-0.832418144,0.997085587
0.078784128,-0.644037664,-0.763469994,0.997670944
0.07901052,-0.728147447,-0.684313953,0.998484291
0.079236912,-0.802756667,-0.595901728,0.999517136
0.079463304,-0.866840363,-0.499259174,1.000671938
0.079689696,-0.919395447,-0.395529628,1.001731675
0.079916088,-0.959469497,-0.286064267,1.002414481
0.08014248,-0.986283779,-0.172463551,1.002499369
0.080368872,-0.999361753,-0.056508046,1.001917073
0.080595264,-0.998574257,0.059975583,1.000747617
0.080821656,-0.984105587,0.175229788,0.999169285
0.08104804,-0.956381023,0.287625045,0.997392828
0.081274432,-0.916004479,0.395680994,0.995627655
0.081500824,-0.863711536,0.498065501,0.994066861
0.081727216,-0.800334096,0.593590379,0.992884203
0.081953608,-0.726771772,0.681200385,0.992231173
0.08218,-0.643964589,0.759963155,0.992234389
0.082406392,-0.552865028,0.829041779,0.992970011
0.082632784,-0.454427332,0.88764888,0.994424734
0.082859176,-0.349635988,0.934984028,0.996440457
0.083085568,-0.239599198,0.970204055,0.998703684
0.083311952,-0.12565951,0.992488444,1.000823624
0.083538344,-0.009427436,1.00118601,1.002462303
0.083764736,0.107297845,0.995945215,1.003419699
0.083991128,0.222657144,0.976763546,1.003643229
0.08421752,0.33483845,0.943960011,1.00317729
0.084443912,0.442140639,0.898130596,1.002126912
0.084670304,0.543015242,0.840100527,1.000634449
0.084896696,0.636093616,0.77088064,0.998872049
0.085123088,0.720208645,0.691619277,0.997037717
0.08534948,0.794404507,0.60355109,0.995352439
0.085575864,0.857930005,0.507936478,0.994043359
0.085802256,0.910199225,0.406008869,0.993305831
0.086028648,0.950724244,0.298946142,0.993245384
0.08625504,0.979036987,0.187903434,0.993821122
0.086481432,0.99465853,0.074104533,0.994837073
0.086707824,0.997162998,-0.041064929,0.996020373
0.086934216,0.986297667,-0.156051576,0.997135182
0.087160608,0.962065399,-0.269210815,0.998044295
0.087387,0.924732983,-0.378901839,0.998697693
0.087613392,0.874800265,-0.483547539,0.999093726
0.087839776,0.81296742,-0.581661403,0.999246014
0.088066168,0.740116119,-0.671866179,0.999176032
0.08829256,0.657295048,-0.752916753,0.998920417
0.088518952,0.565698385,-0.823724806,0.998537219
0.088745344,0.466632813,-0.883387089,0.998118931
0.088971736,0.361467212,-0.931192696,0.997778382
0.089198128,0.251586199,-0.966603816,0.997618553
0.08942452,0.138365611,-0.98920989,0.997681249
0.089650912,0.023200512,-0.998678029,0.997896069
0.089877296,-0.092428088,-0.994763136,0.998096648
0.090103688,-0.206917658,-0.977385402,0.998097141
0.09033008,-0.318599045,-0.946727335,0.997797998
0.090556472,-0.425842822,-0.903256118,0.997213724
0.090782864,-0.527149141,-0.847680032,0.996447654
0.091009256,-0.621180356,-0.780875385,0.995631402
0.091235648,-0.706759155,-0.703835845,0.9948934
0.09146204,-0.782852054,-0.617639303,0.994335647
0.091688432,-0.84855932,-0.523435652,0.994037801
0.091914824,-0.903111219,-0.422436267,0.994062274
0.092141208,-0.945869565,-0.315900683,0.994462476
0.0923676,-0.976317227,-0.205117092,0.995268349
0.092593992,-0.994038463,-0.091392405,0.996465038
0.092820384,-0.998685122,0.023932606,0.997944743
0.093046776,-0.989971399,0.139425054,0.999482717
