Frequency (GHz),Re( S21 ),Im( S21 ),S2
0,0.08359205,0,0.006987631
0.000226406,0.078132488,-0.024802122,0.006719831
0.000452812,0.062751725,-0.044988155,0.005961713
0.000679218,0.040279493,-0.056753807,0.004843432
0.000905624,0.014895783,-0.057795804,0.003562239
0.00113203,-0.008598382,-0.047751848,0.002354171
0.001358436,-0.025638726,-0.028307548,0.001458662
0.001584842,-0.032735582,-0.002939182,0.001080257
0.001811248,-0.028141389,0.02367848,0.001352608
0.002037654,-0.012221761,0.046503652,0.002311961
0.00226406,0.012549409,0.06104552,0.003884043
0.002490466,0.042217948,0.064295575,0.005916276
0.002716872,0.071152054,0.054958168,0.008083015
0.002943279,0.094314024,0.034347616,0.010074894
0.003169685,0.10724856,0.005647828,0.011534152
0.003396091,0.107227735,-0.025668029,0.012156635
0.003622497,0.093939096,-0.054149162,0.011756685
0.003848903,0.069445849,-0.074011482,0.010300425
0.004075309,0.038148727,-0.080569014,0.007946691
0.004301715,0.006292764,-0.071233176,0.005113764
0.004528121,-0.018966958,-0.046120949,0.002486887
0.004754527,-0.030695345,-0.008343248,0.001011814
0.004980933,-0.023369765,0.036163099,0.001853916
0.005207339,0.00603659,0.079332344,0.006330061
0.005433745,0.057640486,0.112218469,0.01591541
0.005660151,0.126846552,0.125505164,0.031841594
0.005886557,0.206731781,0.112244353,0.055336824
0.006112963,0.287570804,0.068019025,0.087323555
0.006339369,0.35806036,-0.007756992,0.128267392
0.006565775,0.40711695,-0.111072093,0.178081221
0.006792181,0.425928175,-0.23607184,0.237144724
0.007018587,0.407041043,-0.372375637,0.304346026
0.007244993,0.347041816,-0.508158743,0.37866333
0.007471399,0.246326745,-0.630893171,0.458703059
0.007697805,0.109108888,-0.728566527,0.542713934
0.007924211,-0.056889974,-0.790840626,0.628665365
0.008150617,-0.241125837,-0.810064495,0.714346155
0.008377023,-0.431206942,-0.782017648,0.797491029
0.008603429,-0.614043951,-0.706333995,0.875957686
0.008829835,-0.777096331,-0.586565375,0.947937647
0.009056241,-0.909894645,-0.430173039,1.012957108
0.009282647,-0.999827504,-0.249894351,1.062102224
0.009509053,-1.04560053,-0.048028499,1.095587205
0.009735459,-1.04679716,0.156256333,1.120200336
0.009961865,-1.0043366,0.352274865,1.132789587
0.010188271,-0.923353672,0.5303545,1.133857899
0.010414677,-0.811221004,0.683139324,1.124758853
0.010641083,-0.676463008,0.806087315,1.107378961
0.010867489,-0.527709246,0.897482634,1.083952127
0.011093896,-0.372792512,0.958065212,1.056863207
0.011320302,-0.218110427,0.990392327,1.02844912
0.011546708,-0.068333641,0.998059392,1.000792036
0.011773114,0.073478095,0.985024869,0.975673023
0.01199952,0.205800042,0.955268025,0.954890657
0.012225926,0.328411877,0.912096381,0.939774169
0.012452332,0.441832095,0.858529031,0.932287697
0.012678738,0.549768567,0.795713246,0.935405047
0.012905144,0.651169896,0.71964258,0.941907676
0.01313155,0.743369997,0.631565988,0.95147455
0.013357956,0.825457454,0.531881571,0.964278014
0.013584362,0.895648956,0.420751512,0.979218887
0.013810768,0.951584041,0.298972666,0.994896842
0.014037174,0.9907583,0.168226942,1.009902313
0.01426358,1.01093614,0.031107677,1.022959567
0.014489986,1.01051474,-0.109016739,1.033024689
0.014716392,0.988797009,-0.248262718,1.039353902
0.014942798,0.946151555,-0.382569104,1.041561884
0.015169204,0.884046614,-0.508084595,1.039688371
0.01539561,0.804935873,-0.621559918,1.034258491
0.015622016,0.712027311,-0.720740438,1.026449671
0.015848422,0.608617425,-0.804910362,1.018295861
0.016074828,0.496460021,-0.874007881,1.010362329
0.016301234,0.377588063,-0.926541924,1.001052682
0.01652764,0.255350471,-0.962323368,0.991270128
0.016754046,0.132175326,-0.98238188,0.982544475
0.016980452,0.009615633,-0.987808824,0.975858733
0.017206858,-0.111268699,-0.979481637,0.971765001
0.017433264,-0.229667217,-0.957986116,0.970484429
0.01765967,-0.344806463,-0.923607111,0.971941592
0.017886076,-0.455763936,-0.876405537,0.975807431
0.018112482,-0.561337888,-0.816361725,0.981546691
0.018338888,-0.660001278,-0.743571401,0.988500115
0.018565294,-0.749966145,-0.658445716,0.99599998
0.0187917,-0.829362869,-0.561860561,1.003530058
0.019018106,-0.896542251,-0.455134571,1.010935486
0.019244512,-0.950187862,-0.339589655,1.018178107
0.019470918,-0.988509536,-0.216480523,1.02401492
0.019697324,-1.00944269,-0.088367723,1.026783399
0.01992373,-1.01223719,0.041288,1.026328828
0.020150136,-0.997263908,0.16931352,1.02320237
0.020376542,-0.965494633,0.292977661,1.018015796
0.020602948,-0.918319046,0.40998435,1.011397037
0.020829354,-0.857410252,0.518510342,1.004005315
0.02105576,-0.784572065,0.617219567,0.996513319
0.021282166,-0.701587677,0.705219865,0.989560327
0.021508572,-0.610109746,0.781974614,0.983718199
0.021734978,-0.511598945,0.847190797,0.979465727
0.021961386,-0.407315582,0.900718749,0.977200248
0.022187792,-0.298321605,0.942494035,0.977290786
0.022414198,-0.18540439,0.972473621,0.980079731
0.022640604,-0.068986222,0.990294278,0.985441856
0.02286701,0.050289664,0.994814157,0.992184257
0.023093416,0.17076616,0.984774411,0.998941722
0.023319822,0.290254325,0.959607482,1.005094093
0.023546228,0.406550407,0.919273496,1.010346994
0.023772634,0.51744473,0.864094436,1.014408243
0.02399904,0.620729387,0.794790924,1.016997585
0.024225446,0.714298546,0.712527037,1.017917191
0.024451852,0.796284318,0.618894994,1.017099729
0.024678258,0.865182996,0.515840113,1.014632639
0.024904664,0.919946194,0.405542135,1.010765423
0.02513107,0.960031509,0.29027006,1.005917206
0.025357476,0.985402703,0.172215745,1.00067675
0.025583882,0.996472716,0.053303599,0.995799147
0.025810288,0.993894696,-0.065015085,0.992053628
0.026036694,0.978117645,-0.181731641,0.989740517
0.0262631,0.949212611,-0.295720398,0.988455135
0.026489506,0.907423615,-0.405483931,0.987834835
0.026715912,0.853390634,-0.509598672,0.987966381
0.026942318,0.787856042,-0.606884718,0.989026204
0.027168724,0.711523175,-0.696248829,0.99102766
0.02739513,0.625111699,-0.776560068,0.993810175
0.027621536,0.52945894,-0.846617103,0.997087288
0.027847942,0.425611377,-0.905186236,1.000507166
0.028074348,0.314886868,-0.951082289,1.00371126
0.028300754,0.198888764,-0.98327744,1.006391264
0.02852716,0.079470195,-1.00101686,1.008350266
0.028753566,-0.041370656,-1.00391972,1.009566335
0.028979972,-0.161662772,-0.992000937,1.010200711
0.029206378,-0.279622734,-0.965530932,1.010438854
0.029432784,-0.393548787,-0.924788952,1.010115253
0.02965919,-0.501497388,-0.870201111,1.008749604
0.029885596,-0.601440191,-0.802770197,1.006170293
0.030112002,-0.691741347,-0.724017799,1.002707864
0.030338408,-0.771279037,-0.63562119,0.99888565
0.030564814,-0.839314401,-0.539205611,0.995191355
0.03079122,-0.89536202,-0.436283827,0.992016725
0.031017626,-0.939093292,-0.328251719,0.989645402
0.031244032,-0.970267594,-0.216410816,0.988252845
0.031470438,-0.9886958,-0.102007806,0.987924977
0.031696844,-0.994222999,0.013721306,0.988667646
0.03192325,-0.986750126,0.129519358,0.990451075
0.032149656,-0.96625632,0.244109616,0.993240781
0.032376062,-0.93278569,0.356229395,0.996988525
0.032602468,-0.886343837,0.464597613,1.001456339
0.032828874,-0.826879323,0.567681432,1.005991623
0.03305528,-0.754632533,0.663514495,1.009721745
0.033281686,-0.670502663,0.750005841,1.012082583
0.033508092,-0.575956702,0.825359285,1.012944072
0.0337345,-0.472767025,0.888197064,1.012402684
0.033960904,-0.362858862,0.937535405,1.010639189
0.034187312,-0.248226091,0.972762465,1.007883006
0.034413716,-0.130857125,0.993622899,1.004410053
0.034640124,-0.012660679,1.00019038,1.000541089
0.034866528,0.104599498,0.992819667,0.996631946
0.035092936,0.219355017,0.972086906,0.993069576
0.03531934,0.330267221,0.93871516,0.990262589
0.035545748,0.43624869,0.893481851,0.988622738
0.035772152,0.536438286,0.837083399,0.988474652
0.03599856,0.630044103,0.769995451,0.989848566
0.036224964,0.716046631,0.692534268,0.99232649
0.036451372,0.793101728,0.605208576,0.995287771
0.036677776,0.859807491,0.508944154,0.998293073
0.036904184,0.914944887,0.404981256,1.001133964
0.037130588,0.957497358,0.294738352,1.003671887
0.037356996,0.986629128,0.17978099,1.005758241
0.0375834,1.00170493,0.061826408,1.007235272
0.037809808,1.00234234,-0.057273991,1.007970477
0.038036212,0.988463104,-0.175585747,1.007889663
0.03826262,0.960329235,-0.291170686,1.007012608
0.038489024,0.918540537,-0.402183682,1.005468432
0.038715432,0.863996029,-0.506976664,1.003514476
0.038941836,0.79779011,-0.60418278,1.001505891
0.039168244,0.721051693,-0.692725182,0.999783722
0.039394648,0.634815753,-0.771674156,0.998472043
0.039621056,0.540110171,-0.840047359,0.997398562
0.03984746,0.43818897,-0.896848261,0.996346377
0.040073868,0.330549091,-0.941305518,0.99531878
0.040300272,0.218740121,-0.97295934,0.994497118
0.04052668,0.104239047,-0.991568446,0.994073762
0.040753084,-0.011550465,-0.997007489,0.994157346
0.040979492,-0.127247468,-0.989225268,0.994758549
0.041205896,-0.241449505,-0.968251646,0.995809113
0.041432304,-0.352707833,-0.934230804,0.997190011
0.041658708,-0.459535539,-0.88746804,0.998772434
0.041885116,-0.560442328,-0.828466833,1.000452896
0.04211152,-0.653997004,-0.757939219,1.002183941
0.042337928,-0.738884866,-0.676765621,1.003962551
0.042564332,-0.813901067,-0.585916698,1.005733324
0.04279074,-0.877846837,-0.486442149,1.007241034
0.043017144,-0.929477692,-0.37963438,1.008051042
0.043243552,-0.967699707,-0.267184228,1.007830135
0.043469956,-0.991830885,-0.151070148,1.006550694
0.043696364,-1.00166154,-0.033307716,1.004435245
0.043922772,-0.997352123,0.084212422,1.001802989
0.044149176,-0.979318678,0.199778304,0.998976444
0.044375584,-0.948153019,0.311860263,0.996250971
0.044601988,-0.904563785,0.41909948,0.993880015
0.044828396,-0.849338412,0.520289898,0.992077316
0.0450548,-0.783315778,0.614358902,0.991020469
0.045281208,-0.707366824,0.700350344,0.990858428
0.045507612,-0.622370005,0.777410865,0.991712076
0.04573402,-0.529174685,0.844753444,0.993634228
0.045960424,-0.428584963,0.901560247,0.996495949
0.046186832,-0.321464658,0.946862578,0.999888268
0.046413236,-0.208968207,0.979557931,1.003201452
0.046639644,-0.092673637,0.99865824,1.005906683
0.046866048,0.025537884,1.00352919,1.007723019
0.047092456,0.14368166,0.993945599,1.008572273
0.04731886,0.259794086,0.970045388,1.008481022
0.047545268,0.371993214,0.932282329,1.007529292
0.047771672,0.478526354,0.881391704,1.005838807
0.04799808,0.577817559,0.81835562,1.003579052
0.048224484,0.668511391,0.744355917,1.000973211
0.048450892,0.74950707,0.660710216,0.998298838
0.048677296,0.8199718,0.568795443,0.995882009
0.048903704,0.879322469,0.469955981,0.994066629
0.049130108,0.927151859,0.365418702,0.993141397
0.049356516,0.963082731,0.256268859,0.993202075
0.04958292,0.98663789,0.143572554,0.994067404
0.049809328,0.997279465,0.028575925,0.995382915
0.050035732,0.994603753,-0.087233998,0.996846396
0.05026214,0.978473246,-0.202247903,0.998314107
0.050488544,0.948997736,-0.3148534,0.999729366
0.050714952,0.90648675,-0.423470885,1.001045818
0.050941356,0.85142976,-0.526550531,1.002188098
0.051167764,0.784513891,-0.622580588,1.003068634
0.051394168,0.706639767,-0.710118532,1.00360809
0.051620576,0.61892724,-0.787844539,1.003769946
0.05184698,0.522692084,-0.854619682,1.003581816
0.052073388,0.419390023,-0.909538507,1.003148287
0.052299792,0.31053406,-0.951947808,1.002636032
0.0525262,0.19760859,-0.981400192,1.002195492
0.052752604,0.082054958,-0.997553587,1.001846175
0.052979012,-0.034629721,-1.00011373,1.001426691
0.053205416,-0.150790855,-0.98893404,1.000728417
0.053431824,-0.264679432,-0.9641729,0.999684583
0.053658228,-0.374625385,-0.926320434,0.998413726
0.053884636,-0.479141414,-0.876097023,0.997122488
0.05411104,-0.576931655,-0.814348459,0.996013547
0.054337448,-0.666849256,-0.741988838,0.995235366
0.054563852,-0.747858047,-0.659985781,0.99487289
0.05479026,-0.819010913,-0.569368958,0.994959886
0.055016664,-0.879448235,-0.471243948,0.995500057
0.055243072,-0.928409517,-0.366794944,0.996482762
0.055469476,-0.965252697,-0.257277191,0.997904322
0.055695884,-0.989449441,-0.143984869,0.999741839
0.055922288,-1.00055027,-0.028240984,1.001898396
0.056148696,-0.998133361,0.088548489,1.004111041
0.0563751,-0.981850624,0.204775408,1.005963616
0.056601508,-0.9516083,0.318588436,1.007056948
0.056827912,-0.907730281,0.428034961,1.007188191
0.05705432,-0.850961566,0.531267047,1.006380262
0.057280724,-0.782359123,0.626670539,1.004801762
0.057507132,-0.703178108,0.712898374,1.002683543
0.057733536,-0.614788532,0.788864732,1.000272504
0.057959944,-0.518618464,0.853727579,0.99781589
0.058186352,-0.416110069,0.90686667,0.995554747
0.058412756,-0.30868265,0.947860003,0.993723564
0.058639164,-0.197701633,0.976453125,0.992546641
0.058865568,-0.084449105,0.992517173,0.99222199
0.059091976,0.02988538,0.995985985,0.992881218
0.05931838,0.144170493,0.986770093,0.994500347
0.059544788,0.257210821,0.96471554,0.99683348
0.059771192,0.367604107,0.929682791,0.999442871
0.0599976,0.473716438,0.881744385,1.001880424
0.060224004,0.573817015,0.821324348,1.003839651
0.060450412,0.666243076,0.749195933,1.005174382
0.060676816,0.749491453,0.666412711,1.00584334
0.060903224,0.822252393,0.574242949,1.005853962
0.061129628,0.883431494,0.474128574,1.005249109
0.061356036,0.932172298,0.367644727,1.004107838
0.06158244,0.967878461,0.256450921,1.00255579
0.061808848,0.990225494,0.142232522,1.000776619
0.062035252,0.999147296,0.02662931,0.999004439
0.06226166,0.994792938,-0.088828847,0.997503554
0.062488064,0.97744298,-0.202762797,0.996507531
0.062714472,0.94740957,-0.313910574,0.996124742
0.062940876,0.904991031,-0.421022117,0.996268389
0.063167284,0.850552976,-0.522751927,0.996709942
0.063393688,0.784667015,-0.61768055,0.997231586
0.063620096,0.70816344,-0.70444119,0.997732848
0.0638465,0.622076809,-0.78181535,0.998214798
0.064072908,0.527568638,-0.848749876,0.99870502
0.064299312,0.425894111,-0.904340446,0.999217436
0.06452572,0.318395317,-0.94781822,0.999734956
0.064752124,0.206505626,-0.97856009,1.000224423
0.064978532,0.091742106,-0.996112943,1.000657609
0.065204936,-0.024321089,-1.00022018,1.001031924
0.065431344,-0.140097231,-0.990837157,1.001385506
0.065657748,-0.25403896,-0.968116164,1.0017847
0.065884156,-0.364667892,-0.932356596,1.002271494
0.06611056,-0.470548302,-0.883954763,1.002791728
0.066336968,-0.570213318,-0.823413312,1.00315271
0.066563372,-0.662145317,-0.751450121,1.003113705
0.06678978,-0.744879067,-0.669092596,1.002529726
0.067016184,-0.817159712,-0.577651858,1.001431664
0.067242592,-0.878021002,-0.478603393,0.999982088
0.067469,-0.926775992,-0.373472422,0.998395389
0.0676954,-0.962966204,-0.263770938,0.996879018
0.067921808,-0.986312449,-0.150974438,0.995605528
0.068148216,-0.996684134,-0.036517654,0.994712802
0.068374624,-0.994075596,0.078203365,0.994302057
0.068601024,-0.978598297,0.191831365,0.994453899
0.068827432,-0.950465977,0.303054094,0.995227357
0.06905384,-0.909969687,0.410604089,0.996640549
0.069280248,-0.85744524,0.513231575,0.998618989
0.069506648,-0.793273032,0.609635532,1.000937585
0.069733056,-0.717960894,0.698391914,1.003219111
0.069959464,-0.632292867,0.777980149,1.005047382
0.070185872,-0.537421584,0.846937954,1.006125857
0.070412272,-0.434823185,0.904030204,1.006341812
0.07063868,-0.326176316,0.94833982,1.005739403
0.070865088,-0.213245362,0.979273438,1.004450051
0.071091496,-0.097803623,0.996537864,1.002653263
0.071317896,0.018419912,1.00010657,1.000552445
0.071544304,0.133783206,0.990186036,0.998366332
0.071770712,0.246763378,0.967180967,0.996331188
0.07199712,0.355984032,0.931644976,0.994686992
0.07222352,0.46022743,0.884227693,0.9936679
0.072449928,0.558416605,0.82560426,0.993451499
0.072676336,0.649554372,0.756422698,0.99409618
0.072902744,0.73261869,0.677306056,0.995473638
0.073129152,0.80648303,0.588953674,0.997281308
0.073355552,0.869953215,0.492284268,0.999162397
0.07358196,0.921901882,0.388500273,1.000835542
0.073808368,0.961395144,0.279041708,1.002144898
0.074034776,0.987744212,0.165497914,1.003028188
0.074261176,1.00050855,0.049538579,1.003471429
0.074487584,0.999488235,-0.067126468,1.003482695
0.074713992,0.9847247,-0.182782486,1.003092172
0.0749404,0.95650214,-0.295749217,1.002363943
0.0751668,0.915336311,-0.404428571,1.001403031
0.075393208,0.861947179,-0.507355571,1.000362615
0.075619616,0.797204375,-0.603233218,0.999425131
0.075846024,0.722056627,-0.690936923,0.998759604
0.076072424,0.637472928,-0.769465446,0.998448807
0.076298832,0.544447064,-0.837859511,0.998431166
0.07652524,0.444081575,-0.895166934,0.998532285
0.076751648,0.337670386,-0.940505445,0.998571782
0.076978048,0.226691946,-0.973179162,0.99846692
0.077204456,0.112720519,-0.992742538,0.998243662
0.077430864,-0.002662509,-0.998988628,0.997985368
0.077657272,-0.117910199,-0.99190563,0.997779594
0.077883672,-0.231517479,-0.971641064,0.9976867
0.07811008,-0.342018038,-0.938490331,0.99774044
0.078336488,-0.447987795,-0.892897606,0.997959199
0.078562896,-0.54806006,-0.835457027,0.998358273
0.078789296,-0.640949607,-0.766907752,0.998963899
0.079015704,-0.72547102,-0.688107431,0.999800037
0.079242112,-0.80053556,-0.600001156,1.00085857
0.07946852,-0.865110755,-0.50360775,1.002037384
0.07969492,-0.918184519,-0.400066525,1.003116035
0.079921328,-0.958796501,-0.290726185,1.003812445
0.080147736,-0.986160815,-0.177186981,1.003908379
0.080374144,-0.999793172,-0.061228547,1.003335322
0.080600544,-0.999558449,0.055323564,1.00217779
0.080826952,-0.98563236,0.170711547,1.000613581
0.08105336,-0.958431423,0.283304781,0.998852392
0.081279768,-0.918552816,0.39162004,0.997105532
0.081506168,-0.866723835,0.494321704,0.995564153
0.081732576,-0.803770006,0.590216279,0.994401479
0.081958984,-0.730584562,0.678243279,0.993767748
0.082185392,-0.648102701,0.757463992,0.99378881
0.082411792,-0.557272971,0.827035785,0.994541354
0.0826382,-0.459044725,0.886164069,0.996008817
0.082864608,-0.354400277,0.934039176,0.998028739
0.083091016,-0.244447142,0.969809711,1.000285281
0.083317416,-0.130529851,0.992648125,1.002388342
0.083543824,-0.014261262,1.00189698,1.004000942
0.083770232,0.102558926,0.997202337,1.004930834
0.08399664,0.218071312,0.97855562,1.005126199
0.08422304,0.330463171,0.94627136,1.004635394
0.084449448,0.43803376,0.900940001,1.00356646
0.084675856,0.539232731,0.843380153,1.002062021
0.084902264,0.63269031,0.774596155,1.000296232
0.085128664,0.717236757,0.695730329,0.998469256
0.085355072,0.791913331,0.608009934,0.996802804
0.08558148,0.855963767,0.512688041,0.995522998
0.085807888,0.908796966,0.410990536,0.994825146
0.086034288,0.949916363,0.304088444,0.994810878
0.086260696,0.978843749,0.193131194,0.995434743
0.086487104,0.995087802,0.079341322,0.996494779
0.086713512,0.998213649,-0.03589588,0.997719003
0.086939912,0.987957478,-0.151025265,0.998868609
0.08716632,0.964314818,-0.264400572,0.999810731
0.087392728,0.927542269,-0.374377817,1.000493411
0.087619136,0.878131211,-0.479375511,1.000915304
0.087845544,0.816773415,-0.577901244,1.001088659
0.088071944,0.744344056,-0.668571174,1.001035488
0.088298352,0.661886752,-0.750131428,1.000791232
0.08852476,0.570591986,-0.821487367,1.000416709
0.088751168,0.471763015,-0.881727636,1.000003966
0.088977568,0.366766751,-0.930133939,0.999666994
0.089203976,0.256985664,-0.966161251,0.999509194
0.089430384,0.143794373,-0.989391446,0.999572255
0.089656792,0.028588101,-0.99948287,0.999783287
0.089883192,-0.087149829,-0.996182382,0.999974431
0.0901096,-0.201815322,-0.979405046,0.999963668
0.090336008,-0.313736796,-0.949328005,0.999654438
0.090562416,-0.421285152,-0.906413794,0.999067145
0.090788816,-0.52295965,-0.851363122,0.998305961
0.091015224,-0.617421091,-0.785045028,0.9975045
0.091241632,-0.703489542,-0.708444297,0.996790858
0.09146804,-0.780126929,-0.622630835,0.996267182
0.09169444,-0.846427143,-0.528746724,0.996012007
0.091920848,-0.901613653,-0.427995563,0.996087381
0.092147256,-0.945038736,-0.32163009,0.996544127
0.092373664,-0.976175547,-0.210933715,0.997411731
0.092600064,-0.994596124,-0.097208403,0.998670924
0.092826472,-0.999939144,0.018205766,1.000209742
0.09305288,-0.991905332,0.133875147,1.001798743
