Frequency (GHz),Re( S21 ),Im( S21 ),S2
0,0.056681376,4.56E-05,3.21E-03
0.000226446,0.051940333,-0.02191798,3.18E-03
0.000452892,0.038496122,-0.03993972,3.08E-03
0.000679337,0.018747004,-0.050758109,2.93E-03
0.000905783,-0.003767576,-0.052378494,2.76E-03
0.001132229,-0.024981933,-0.044439461,2.60E-03
0.001358675,-0.041022465,-0.02829762,2.48E-03
0.00158512,-0.048905727,-0.006808019,2.44E-03
0.001811566,-0.047089759,0.016170675,2.48E-03
0.002038012,-0.035773218,0.036461942,2.61E-03
0.002264458,-0.016881164,0.050325658,2.82E-03
0.002490903,0.006264206,0.055139758,3.08E-03
0.002717349,0.029524369,0.049882684,3.36E-03
0.002943795,0.048921853,0.035340026,3.64E-03
0.003170241,0.060408734,0.013927867,3.84E-03
0.003396686,0.062061645,-0.010478579,3.96E-03
0.003623132,0.053292833,-0.033594102,3.97E-03
0.003849578,0.035566028,-0.051172201,3.88E-03
0.004076024,0.011807736,-0.059821039,3.72E-03
0.00430247,-0.01377527,-0.057652894,3.51E-03
0.004528915,-0.036486872,-0.044669434,3.33E-03
0.004755361,-0.051957533,-0.02284055,3.22E-03
0.004981807,-0.056946315,0.004162234,3.26E-03
0.005208253,-0.049981177,0.03155335,3.49E-03
0.005434698,-0.031710409,0.054254327,3.95E-03
0.005661144,-0.004882113,0.067807429,4.62E-03
0.00588759,0.026329542,0.069337033,5.50E-03
0.006114036,0.055997863,0.05762047,6.46E-03
0.006340481,0.078909859,0.03423306,7.40E-03
0.006566927,0.090605013,0.002825702,8.22E-03
0.006793373,0.088299505,-0.031165958,8.77E-03
0.007019819,0.071615346,-0.061719235,8.94E-03
0.007246264,0.042955689,-0.08294569,8.73E-03
0.00747271,0.006845614,-0.08992444,8.13E-03
0.007699156,-0.03020988,-0.079942904,7.30E-03
0.007925602,-0.060772296,-0.053078439,6.51E-03
0.008152047,-0.077621602,-0.012499448,6.18E-03
0.008378493,-0.075003155,0.035705391,6.90E-03
0.008604939,-0.04977278,0.083202086,9.40E-03
0.008831384,-0.002232022,0.12053334,1.45E-02
0.00905783,0.064073049,0.138763115,2.34E-02
0.009284276,0.140506521,0.129980326,3.66E-02
0.009510722,0.217252791,0.090156697,5.53E-02
0.009737167,0.28264758,0.019232361,8.03E-02
0.009963613,0.325035095,-0.07828667,1.12E-01
0.010190059,0.335602224,-0.195312679,1.51E-01
0.010416505,0.307348877,-0.32047084,1.97E-01
0.01064295,0.237688988,-0.440901548,2.51E-01
0.010869396,0.1283281,-0.543322265,3.12E-01
0.011095842,-0.014906591,-0.615398943,3.79E-01
0.011322288,-0.182525918,-0.646933496,4.52E-01
0.011548733,-0.362151891,-0.630922258,5.29E-01
0.011775179,-0.539625585,-0.564343095,6.10E-01
0.012001625,-0.700308025,-0.448572308,6.92E-01
0.012228071,-0.830462575,-0.289447188,7.73E-01
0.012454516,-0.918427825,-0.097140662,8.53E-01
0.012680962,-0.954448581,0.115501441,9.24E-01
0.012907408,-0.935212255,0.335677952,9.87E-01
0.013133854,-0.862106383,0.547083378,1.04E+00
0.013360299,-0.739697516,0.735200942,1.09E+00
0.013586745,-0.576622963,0.888215303,1.12E+00
0.013813191,-0.384373277,0.997751296,1.14E+00
0.014039637,-0.17587699,1.05942678,1.15E+00
0.014266082,0.035926893,1.07289243,1.15E+00
0.014492528,0.239359409,1.04137206,1.14E+00
0.014718974,0.424958229,0.970811844,1.12E+00
0.01494542,0.586039603,0.868718743,1.10E+00
0.015171865,0.720339775,0.743570924,1.07E+00
0.015398311,0.824544489,0.604662061,1.05E+00
0.015624757,0.90067178,0.457206935,1.02E+00
0.015851203,0.93388164,0.315699995,9.72E-01
0.016077648,0.967226863,0.171127364,9.65E-01
0.016304094,0.97336334,0.025840966,9.48E-01
0.01653054,0.96099335,-0.113163628,9.36E-01
0.016756986,0.932721317,-0.24631311,9.31E-01
0.016983432,0.889586151,-0.37366873,9.31E-01
0.017209878,0.831792057,-0.494911194,9.37E-01
0.017436322,0.759070933,-0.609099627,9.47E-01
0.017662768,0.671089828,-0.714535058,9.61E-01
0.017889214,0.567865849,-0.808785677,9.77E-01
0.01811566,0.450139254,-0.88886708,9.93E-01
0.018342106,0.319693118,-0.951558173,1.01E+00
0.018568552,0.179548413,-0.993978143,1.02E+00
0.018794998,0.033657976,-1.01420426,1.03E+00
0.019021444,-0.113354236,-1.0116713,1.04E+00
0.019247888,-0.257959992,-0.988568187,1.04E+00
0.019474334,-0.400500059,-0.943396807,1.05E+00
0.01970078,-0.533194602,-0.874294221,1.05E+00
0.019927226,-0.651116967,-0.786077261,1.04E+00
0.020153672,-0.752126038,-0.68281132,1.03E+00
0.020380118,-0.834948123,-0.568257749,1.02E+00
0.020606564,-0.899139762,-0.445976943,1.01E+00
0.02083301,-0.94498086,-0.319141358,9.95E-01
0.021059454,-0.973254085,-0.190384567,9.83E-01
0.0212859,-0.984981,-0.061761729,9.74E-01
0.021512346,-0.98118782,0.065169543,9.67E-01
0.021738792,-0.962770104,0.189182699,9.63E-01
0.021965238,-0.930478334,0.309218526,9.61E-01
0.022191684,-0.885005355,0.42428267,9.63E-01
0.02241813,-0.827211678,0.533626854,9.69E-01
0.022644576,-0.757300019,0.637649298,9.80E-01
0.02287102,-0.67275542,0.735122442,9.93E-01
0.023097466,-0.57365346,0.821538329,1.00E+00
0.023323912,-0.46232149,0.894141912,1.01E+00
0.023550358,-0.340956867,0.951031685,1.02E+00
0.023776804,-0.212011233,0.990536153,1.03E+00
0.02400325,-0.078347631,1.01140606,1.03E+00
0.024229696,0.056871545,1.0130111,1.03E+00
0.024456142,0.190388933,0.995439291,1.03E+00
0.024682586,0.319075048,0.959500074,1.02E+00
0.024909032,0.440131336,0.906653523,1.02E+00
0.025135478,0.551259041,0.838883817,1.01E+00
0.025361924,0.65079695,0.758541167,9.99E-01
0.02558837,0.737866104,0.66814661,9.91E-01
0.025814816,0.812624097,0.569966674,9.85E-01
0.026041262,0.875804067,0.464785516,9.83E-01
0.026267708,0.926329851,0.352542907,9.82E-01
0.026494152,0.9626351,0.235074699,9.82E-01
0.026720598,0.984517097,0.114467829,9.82E-01
0.026947044,0.992034554,-0.007800144,9.84E-01
0.02717349,0.985065818,-0.130414918,9.87E-01
0.027399936,0.963383734,-0.251940608,9.92E-01
0.027626382,0.926805258,-0.37071079,9.96E-01
0.027852828,0.875342131,-0.484812558,1.00E+00
0.028079274,0.809345722,-0.592139065,1.01E+00
0.028305718,0.729622126,-0.690504551,1.01E+00
0.028532164,0.637498319,-0.777819276,1.01E+00
0.02875861,0.534811616,-0.852314591,1.01E+00
0.028985056,0.423742831,-0.912823081,1.01E+00
0.029211502,0.306265265,-0.958929241,1.01E+00
0.029437948,0.183560878,-0.990104377,1.01E+00
0.029664394,0.057410095,-1.00484276,1.01E+00
0.02989084,-0.069048099,-1.00250804,1.01E+00
0.030117284,-0.192977861,-0.983846068,1.01E+00
0.03034373,-0.312288105,-0.950042546,1.00E+00
0.030570176,-0.42537266,-0.902350068,9.95E-01
0.030796622,-0.53094548,-0.842006743,9.91E-01
0.031023068,-0.627945781,-0.770204842,9.88E-01
0.031249514,-0.715456784,-0.688080192,9.85E-01
0.03147596,-0.79263854,-0.596728265,9.84E-01
0.031702406,-0.858687043,-0.497257739,9.85E-01
0.03192885,-0.912846267,-0.390847534,9.86E-01
0.032155296,-0.95448035,-0.278772652,9.89E-01
0.032381742,-0.983178079,-0.162289113,9.93E-01
0.032608188,-0.998582184,-0.042310983,9.99E-01
0.032834634,-0.999617815,0.08037506,1.01E+00
0.03306108,-0.984741807,0.20379439,1.01E+00
0.033287526,-0.953480124,0.324994236,1.01E+00
0.033513972,-0.906419337,0.441250861,1.02E+00
0.033740416,-0.844612777,0.550263703,1.02E+00
0.033966864,-0.769410312,0.650039077,1.01E+00
0.034193308,-0.682428896,0.738883555,1.01E+00
0.034419756,-0.585499763,0.815446734,1.01E+00
0.0346462,-0.480585456,0.878756106,1.00E+00
0.034872644,-0.36968711,0.928221941,9.98E-01
0.035099092,-0.254755378,0.963622034,9.93E-01
0.035325536,-0.137605727,0.985069811,9.89E-01
0.035551984,-0.019810122,0.992980421,9.86E-01
0.035778428,0.097487301,0.987942755,9.86E-01
0.036004876,0.213673666,0.970269442,9.87E-01
0.03623132,0.328021795,0.939484179,9.90E-01
0.036457764,0.438833624,0.895029724,9.94E-01
0.036684212,0.544025242,0.837182343,9.97E-01
0.036910656,0.641816258,0.766737998,1.00E+00
0.037137104,0.730657041,0.684641063,1.00E+00
0.037363548,0.809079528,0.591973782,1.01E+00
0.037589996,0.87568742,0.490032434,1.01E+00
0.03781644,0.929224551,0.380373389,1.01E+00
0.038042888,0.96866554,0.264806122,1.01E+00
0.038269332,0.993308246,0.145344391,1.01E+00
0.038495776,1.00284863,0.02411549,1.01E+00
0.038722224,0.997427106,-0.096775912,1.00E+00
0.038948668,0.977609813,-0.215441138,1.00E+00
0.039175116,0.944190621,-0.330429465,1.00E+00
0.03940156,0.89772135,-0.440676272,1.00E+00
0.039628008,0.838375926,-0.544836819,1.00E+00
0.039854452,0.766740739,-0.641015351,9.99E-01
0.040080896,0.684148729,-0.727517009,9.97E-01
0.040307344,0.592167974,-0.803207099,9.96E-01
0.040533788,0.492281795,-0.867308259,9.95E-01
0.040760236,0.385874987,-0.919202864,9.94E-01
0.04098668,0.274300873,-0.958348989,9.94E-01
0.041213128,0.158943012,-0.98426801,9.94E-01
0.041439572,0.041261111,-0.99656719,9.95E-01
0.04166602,-0.077189386,-0.994989812,9.96E-01
0.041892464,-0.194773912,-0.979478359,9.97E-01
0.042118908,-0.309848368,-0.950229347,9.99E-01
0.042345356,-0.420893043,-0.90768218,1.00E+00
0.0425718,-0.526615918,-0.852328658,1.00E+00
0.042798248,-0.625723243,-0.784436762,1.01E+00
0.043024692,-0.716401696,-0.704302907,1.01E+00
0.04325114,-0.796513855,-0.612982333,1.01E+00
0.043477584,-0.864352763,-0.512284994,1.01E+00
0.043704028,-0.918849707,-0.404253274,1.01E+00
0.043930476,-0.959403455,-0.290894628,1.01E+00
0.04415692,-0.985736728,-0.174125969,1.00E+00
0.044383368,-0.997829258,-0.055764485,9.99E-01
0.044609812,-0.995872378,0.062483706,9.96E-01
0.04483626,-0.980236351,0.179034859,9.93E-01
0.045062704,-0.951441228,0.292434156,9.91E-01
0.045289152,-0.910132647,0.401370585,9.89E-01
0.045515596,-0.857047677,0.504710615,9.89E-01
0.04574204,-0.792915463,0.601538658,9.91E-01
0.045968488,-0.718249917,0.691080391,9.93E-01
0.046194932,-0.633267105,0.772313237,9.97E-01
0.04642138,-0.53837353,0.843628109,1.00E+00
0.046647824,-0.434721768,0.903240263,1.00E+00
0.046874272,-0.324035943,0.949774861,1.01E+00
0.047100716,-0.208221525,0.982331991,1.01E+00
0.04732716,-0.089221314,1.00036097,1.01E+00
0.047553608,0.030997727,1.00360227,1.01E+00
0.047780052,0.150464356,0.992090285,1.01E+00
0.0480065,0.267250061,0.966164172,1.00E+00
0.048232944,0.379535407,0.926464021,1.00E+00
0.048459392,0.485681236,0.873903632,1.00E+00
0.048685836,0.584303916,0.809614241,9.97E-01
0.048912284,0.674343526,0.734843433,9.95E-01
0.049138728,0.755078316,0.650770605,9.94E-01
0.049365172,0.825944781,0.558290541,9.94E-01
0.04959162,0.886131167,0.458069384,9.95E-01
0.049818064,0.934455872,0.351052463,9.96E-01
0.050044512,0.969842076,0.238738805,9.98E-01
0.050270956,0.991654515,0.122877069,9.98E-01
0.050497404,0.999608278,0.005181579,9.99E-01
0.050723848,0.993612587,-0.112701684,1.00E+00
0.050950292,0.973721325,-0.229144007,1.00E+00
0.05117674,0.940151513,-0.342501909,1.00E+00
0.051403184,0.893324912,-0.451124549,1.00E+00
0.051629632,0.83390224,-0.553395152,1.00E+00
0.051856076,0.76279819,-0.647798777,1.00E+00
0.052082524,0.681155026,-0.733008921,1.00E+00
0.052308968,0.590255618,-0.807970405,1.00E+00
0.052535416,0.491348952,-0.871895075,1.00E+00
0.05276186,0.385518432,-0.924062788,1.00E+00
0.052988304,0.273871392,-0.963535726,1.00E+00
0.053214752,0.157961786,-0.989291251,1.00E+00
0.053441196,0.039788589,-1.00071073,1.00E+00
0.053667644,-0.078603581,-0.997742236,1.00E+00
0.053894088,-0.195370808,-0.980715036,1.00E+00
0.054120536,-0.308885038,-0.95015955,9.98E-01
0.05434698,-0.417681932,-0.906723142,9.97E-01
0.054573424,-0.520418942,-0.851146638,9.95E-01
0.054799872,-0.615853548,-0.784266114,9.94E-01
0.055026316,-0.702841163,-0.707018018,9.94E-01
0.055252764,-0.78035444,-0.620444179,9.94E-01
0.055479208,-0.847515762,-0.525668085,9.95E-01
0.055705656,-0.903616548,-0.423824519,9.96E-01
0.0559321,-0.94804287,-0.315954685,9.99E-01
0.056158548,-0.980055034,-0.203017831,1.00E+00
0.056384992,-0.998657167,-0.086212508,1.00E+00
0.056611436,-1.00291848,0.032699481,1.01E+00
0.056837884,-0.992426455,0.151561067,1.01E+00
0.057064328,-0.967349112,0.268214256,1.01E+00
0.057290776,-0.928259313,0.380696356,1.01E+00
0.05751722,-0.875992358,0.487264514,1.00E+00
0.057743668,-0.81157738,0.58638519,1.00E+00
0.057970112,-0.736197591,0.676733613,1.00E+00
0.058196556,-0.651155829,0.757204056,9.97E-01
0.058423004,-0.557832062,0.826918781,9.95E-01
0.058649448,-0.457632333,0.885235071,9.93E-01
0.058875896,-0.351918727,0.931740701,9.92E-01
0.05910234,-0.241913244,0.966197133,9.92E-01
0.059328788,-0.128631815,0.988381922,9.93E-01
0.059555232,-0.013011696,0.997852981,9.96E-01
0.05978168,0.103721879,0.993937969,9.99E-01
0.060008124,0.219859526,0.976117611,1.00E+00
0.060234568,0.333449841,0.94434911,1.00E+00
0.060461016,0.442606032,0.899036467,1.00E+00
0.06068746,0.545603395,0.840873361,1.00E+00
0.060913908,0.640868902,0.770762622,1.00E+00
0.061140352,0.726973772,0.689797938,1.00E+00
0.0613668,0.802656293,0.599257827,1.00E+00
0.061593244,0.86686033,0.500587106,1.00E+00
0.061819688,0.918780506,0.395355612,1.00E+00
0.062046136,0.957893431,0.285187483,9.99E-01
0.06227258,0.983960211,0.171660319,9.98E-01
0.062499028,0.996950567,0.056190819,9.97E-01
0.062725472,0.996857822,-0.060004693,9.97E-01
0.06295192,0.983516395,-0.175732255,9.98E-01
0.063178364,0.956707895,-0.289513975,9.99E-01
0.063404812,0.916521788,-0.399568707,1.00E+00
0.063631256,0.863512933,-0.504113257,1.00E+00
0.0638577,0.798558533,-0.601584077,1.00E+00
0.064084148,0.722691059,-0.690651596,9.99E-01
0.064310592,0.63702631,-0.77015841,9.99E-01
0.06453704,0.542763412,-0.839080632,9.99E-01
0.064763484,0.441196144,-0.896521926,9.98E-01
0.064989932,0.33371979,-0.94173497,9.98E-01
0.065216376,0.221815661,-0.974154592,9.98E-01
0.06544282,0.107005849,-0.993429661,9.98E-01
0.065669268,-0.00922311,-0.999419868,9.99E-01
0.065895712,-0.125497252,-0.992119789,1.00E+00
0.06612216,-0.240526408,-0.971505344,1.00E+00
0.066348604,-0.352890134,-0.937470436,1.00E+00
0.066575052,-0.460838348,-0.890054941,1.00E+00
0.066801496,-0.562437236,-0.829773188,1.00E+00
0.067027944,-0.655910373,-0.757643342,1.00E+00
0.067254384,-0.739817441,-0.674983919,1.00E+00
0.067480832,-0.813041091,-0.583236754,1.00E+00
0.06770728,-0.874725282,-0.483883977,9.99E-01
0.067933728,-0.924225926,-0.378419846,9.97E-01
0.068160168,-0.961086512,-0.268339932,9.96E-01
0.068386616,-0.985027015,-0.155127317,9.94E-01
0.068613064,-0.995938122,-0.040233519,9.94E-01
0.068839512,-0.993868232,0.074958623,9.93E-01
0.069065952,-0.97897613,0.189178407,9.94E-01
0.0692924,-0.951425672,0.301278234,9.96E-01
0.069518848,-0.911265671,0.410113484,9.99E-01
0.069745288,-0.858475983,0.514295757,1.00E+00
0.069971736,-0.793280602,0.612089455,1.00E+00
0.070198184,-0.716414809,0.701645255,1.01E+00
0.070424632,-0.629082084,0.781317651,1.01E+00
0.070651072,-0.532760143,0.849789679,1.01E+00
0.07087752,-0.429059595,0.90605855,1.01E+00
0.071103968,-0.319658637,0.949397027,1.00E+00
0.071330408,-0.206269383,0.979336441,1.00E+00
0.071556856,-0.090602368,0.995659649,1.00E+00
0.071783304,0.02567713,0.998393178,9.97E-01
0.072009752,0.141002297,0.987790942,9.96E-01
0.072236192,0.253961384,0.964286566,9.94E-01
0.07246264,0.36334157,0.928402603,9.94E-01
0.072689088,0.468096256,0.880614758,9.95E-01
0.072915528,0.56717509,0.821254551,9.96E-01
0.073141976,0.659292221,0.75063026,9.98E-01
0.073368424,0.74291873,0.669332027,1.00E+00
0.073594872,0.816546202,0.578392923,1.00E+00
0.073821312,0.878918946,0.479175776,1.00E+00
0.07404776,0.929078698,0.37319988,1.00E+00
0.074274208,0.966315389,0.262052715,1.00E+00
0.074500648,0.990134656,0.147366747,1.00E+00
0.074727096,1.00025189,0.03081123,1.00E+00
0.074953544,0.996606469,-0.085929789,1.00E+00
0.075179992,0.97937429,-0.201197878,1.00E+00
0.075406432,0.94896251,-0.313418597,9.99E-01
0.07563288,0.905966878,-0.421168298,9.98E-01
0.075859328,0.851077557,-0.52321285,9.98E-01
0.076085776,0.78495568,-0.618456125,9.99E-01
0.076312216,0.708194911,-0.705764472,1.00E+00
0.076538664,0.621498287,-0.783820212,1.00E+00
0.076765112,0.525928259,-0.851229548,1.00E+00
0.076991552,0.422935098,-0.906801045,1.00E+00
0.077218,0.31417039,-0.949699938,1.00E+00
0.077444448,0.201314047,-0.979421556,1.00E+00
0.077670896,0.086003557,-0.995705366,9.99E-01
0.077897336,-0.030172171,-0.998476863,9.98E-01
0.078123784,-0.145664737,-0.987824738,9.97E-01
0.078350232,-0.258969009,-0.963999093,9.96E-01
0.078576672,-0.368640661,-0.927413166,9.96E-01
0.07880312,-0.473328292,-0.878632665,9.96E-01
0.079029568,-0.571809471,-0.818335652,9.97E-01
0.079256016,-0.662990928,-0.747234344,9.98E-01
0.079482456,-0.745816112,-0.665999234,1.00E+00
0.079708904,-0.819103897,-0.575315654,1.00E+00
0.079935352,-0.881499946,-0.476112634,1.00E+00
0.080161792,-0.931685627,-0.369758964,1.00E+00
0.08038824,-0.968661308,-0.257992953,1.00E+00
0.080614688,-0.991852045,-0.142702252,1.00E+00
0.080841136,-1.00105441,-0.025755053,1.00E+00
0.081067576,-0.996349394,0.091070019,1.00E+00
0.081294024,-0.978041649,0.206103876,9.99E-01
0.081520472,-0.946621239,0.317795932,9.97E-01
0.081746912,-0.9027372,0.424727172,9.95E-01
0.08197336,-0.847170234,0.525626898,9.94E-01
0.082199808,-0.780785978,0.61939019,9.93E-01
0.082426256,-0.704473913,0.705079019,9.93E-01
0.082652696,-0.619062781,0.781868517,9.95E-01
0.082879144,-0.525292158,0.848908007,9.97E-01
0.083105592,-0.423941135,0.905171633,9.99E-01
0.08333204,-0.31608057,0.949483037,1.00E+00
0.08355848,-0.203202218,0.980770767,1.00E+00
0.083784928,-0.087098621,0.998305738,1.00E+00
0.084011376,0.030342644,1.00175428,1.00E+00
0.084237816,0.147264287,0.991118371,1.00E+00
0.084464264,0.261888504,0.966669977,1.00E+00
0.084690712,0.372537673,0.928913713,1.00E+00
0.08491716,0.477658331,0.878565252,1.00E+00
0.0851436,0.575851917,0.816525996,9.98E-01
0.085370048,0.665911555,0.743845046,9.97E-01
0.085596496,0.746846616,0.661655366,9.96E-01
0.085822936,0.817874432,0.571087122,9.95E-01
0.086049384,0.878340006,0.473182082,9.95E-01
0.086275832,0.9275648,0.368896335,9.96E-01
0.08650228,0.964736104,0.259260148,9.98E-01
0.08672872,0.988999546,0.145593017,9.99E-01
0.086955168,0.999709785,0.029537894,1.00E+00
0.087181616,0.996583641,-0.087106563,1.00E+00
0.087408056,0.979681253,-0.202559128,1.00E+00
0.087634504,0.949322402,-0.315133721,1.00E+00
0.087860952,0.90602231,-0.423248976,1.00E+00
0.0880874,0.850467265,-0.525424063,9.99E-01
0.08831384,0.783509374,-0.62029016,9.99E-01
0.088540288,0.706154406,-0.706614971,9.98E-01
0.088766736,0.619535387,-0.783334732,9.97E-01
0.088993176,0.524857223,-0.849577427,9.97E-01
0.089219624,0.423323661,-0.904647231,9.98E-01
0.089446072,0.316080183,-0.947939217,9.98E-01
0.08967252,0.204262391,-0.978814006,1.00E+00
0.08989896,0.089172401,-0.996566176,1.00E+00
0.090125408,-0.027576299,-1.00059319,1.00E+00
0.090351856,-0.144127756,-0.990630746,1.00E+00
0.090578304,-0.258595884,-0.966831148,1.00E+00
0.090804744,-0.369227111,-0.929688096,1.00E+00
0.091031192,-0.474451184,-0.879921257,9.99E-01
0.09125764,-0.572875619,-0.818404198,9.98E-01
0.09148408,-0.663268805,-0.746124625,9.97E-01
0.091710528,-0.744552732,-0.66416651,9.95E-01
0.091936976,-0.815805495,-0.573690712,9.95E-01
0.092163424,-0.876269042,-0.475905567,9.94E-01
0.092389864,-0.925342321,-0.372021943,9.95E-01
0.092616312,-0.962534189,-0.26320371,9.96E-01
0.09284276,-0.98736316,-0.150562584,9.98E-01
0.0930692,-0.999266148,-0.035269279,1.00E+00
0.093295648,-0.997649014,0.081258193,1.00E+00
0.093522096,-0.982110262,0.197272524,1.00E+00
0.093748544,-0.952653766,0.310836375,1.00E+00
0.093974984,-0.909718692,0.420045108,1.00E+00
0.094201432,-0.854081333,0.523169816,1.00E+00
0.09442788,-0.786746979,0.618700922,1.00E+00
0.09465432,-0.708877683,0.705345988,1.00E+00
0.094880768,-0.621747017,0.782025754,9.98E-01
0.095107216,-0.526703894,0.847871304,9.96E-01
0.095333664,-0.425132692,0.902225018,9.95E-01
0.095560104,-0.318402976,0.944630027,9.94E-01
0.095786552,-0.207814753,0.974794328,9.93E-01
0.096013,-0.094559498,0.992510021,9.94E-01
0.09623944,0.020242924,0.997536302,9.95E-01
0.096465888,0.135394976,0.989536166,9.98E-01
0.096692336,0.249446064,0.968181849,1.00E+00
0.096918784,0.360671014,0.933386683,1.00E+00
0.097145224,0.467243701,0.88546139,1.00E+00
0.097371672,0.567429662,0.825095177,1.00E+00
0.09759812,0.659683466,0.75325048,1.00E+00
0.097824568,0.742665946,0.671080112,1.00E+00
0.098051008,0.815241694,0.579875767,1.00E+00
0.098277456,0.876480222,0.48103714,1.00E+00
0.098503904,0.925667167,0.376042038,9.98E-01
0.098730344,0.962314248,0.266400099,9.97E-01
0.098956792,0.986151218,0.153596044,9.96E-01
0.09918324,0.997081578,0.03902768,9.96E-01
