Frequency (GHz),Re( S21 ),Im( S21 ),S2
0.0,0.0567174815,3.88966837e-05,0.0032168742206548
0.000226495359,0.0519724265,-0.0219409894,0.0031825401321488
0.000452990719,0.0385164954,-0.0399756655,0.0030815742500661
0.000679486063,0.0187507477,-0.0508014709,0.0029323799849126
0.000905981438,-0.0037822437,-0.0524220467,0.0027623763476231
0.00113247675,-0.0250137877,-0.0444755442,0.0026037636069868
0.00135897213,-0.0410669073,-0.0283198636,0.0024885055495093
0.0015854675,-0.0489562117,-0.00681218831,0.0024431165735861
0.00181196288,-0.0471381322,0.0161856227,0.0024839778894914
0.00203845825,-0.0358115621,0.0364935882,0.0026142499597533
0.0022649535,-0.0169029385,0.0503684543,0.0028226905185059
0.002491449,0.00626303395,0.0551859364,0.0030847131706036
0.00271794425,0.029545404,0.0499242358,0.0033653602177372
0.00294443975,0.0489346609,0.0353622027,0.0036450864171938
0.003170935,0.0604367033,0.0139365038,0.0038468212439396
0.0033974305,0.0620925911,-0.0104835285,0.0039653942393221
0.00362392575,0.0533275791,-0.03361848,0.0039740328901771
0.00385042125,0.0355844125,-0.0512112044,0.0038888378690687
0.0040769165,0.011806746,-0.0598672777,0.0037234901903174
0.004303412,-0.0137965092,-0.0576977544,0.0035193745289084
0.004529907,-0.0365259014,-0.0447049402,0.003332673151368
0.0047564025,-0.0520091429,-0.0228603557,0.0032275468079231
0.004982898,-0.0570029505,0.00416172761,0.0032666563424052
0.0052093935,-0.0500347018,0.0315727405,0.0035003093268952
0.0054358885,-0.0317529589,0.0542907938,0.0039557406903392
0.005662384,-0.00490693469,0.0678553879,0.0046284316751113
0.0058888795,0.0260601714,0.0692669675,0.0054770453200434
0.006115375,0.0559998453,0.0576509945,0.0064596198404629
0.00634187,0.0789285749,0.0342558138,0.0074031807148451
0.0065683655,0.0906322822,0.00283569004,0.0082222517147833
0.006794861,0.0883251801,-0.0311709717,0.0087729669164196
0.007021356,0.0716434643,-0.0617515296,0.008946037384845
0.0072478515,0.0429635346,-0.0829907581,0.0087333312353381
0.007474347,0.00683015632,-0.0899763778,0.0081423995973639
0.0077008425,-0.0302495211,-0.0799921677,0.0073137804201242
0.0079273375,-0.0608332008,-0.0531164147,0.0065220318301554
0.008153833,-0.0776980147,-0.0125195822,0.0061937214267839
0.0083803285,-0.0750872642,0.0357067175,0.0069130669196654
0.008606824,-0.0498563312,0.0832250565,0.0094120637901522
0.008833319,-0.00230736379,0.120574921,0.0145436355018156
0.009059814,0.0639984831,0.138801813,0.0233617491311879
0.00928631,0.140451312,0.130010456,0.0366292897118492
0.009512805,0.217205554,0.0902029425,0.0553148235241052
0.009739301,0.282599628,0.0192765929,0.0802341367795707
0.009965796,0.324991673,-0.0782504156,0.1117427150609116
0.010192291,0.335545063,-0.195283845,0.1507262694216579
0.010418787,0.307266265,-0.320441276,0.1970951689715583
0.010645282,0.237574562,-0.440859228,0.2507985314222478
0.010871777,0.128181085,-0.54325068,0.3115516918722396
0.011098273,-0.0150803048,-0.615280867,0.3787979608891325
0.011324768,-0.182713345,-0.646752834,0.4516733947281207
0.011551263,-0.362334549,-0.630668223,0.5290287329010112
0.011777759,-0.539780915,-0.56401062,0.6094714156710217
0.012004254,-0.700411797,-0.448164225,0.6914278579466199
0.01223075,-0.830490589,-0.288976163,0.7732218411997694
0.012457245,-0.918348014,-0.0966325179,0.852700918333438
0.01268374,-0.954226613,0.116058424,0.9240179867388156
0.012910236,-0.934872925,0.336250067,0.98705149345556
0.013136731,-0.861636281,0.547627568,1.0423130339691056
0.013363226,-0.739093304,0.735684991,1.0874913180003063
0.013589722,-0.575892806,0.888607919,1.1212765577120642
0.013816217,-0.383532584,0.998022437,1.1431460277451362
0.014042712,-0.174948856,1.05955064,1.1532546609401186
0.014269208,0.036913693,1.0728488,1.1523671683923384
0.014495703,0.24037236,1.04114676,1.141765447310467
0.014722199,0.425963312,0.970397294,1.1231156513725318
0.014948694,0.58700496,0.868107915,1.0981861751502486
0.015175189,0.72124207,0.742813349,1.0719617949904805
0.015401685,0.82534045,0.603729248,1.045675863296848
0.01562818,0.901354551,0.456106812,1.020473450561215
0.015854675,0.93435365,0.314740211,0.9720781436886472
0.016081171,0.967564821,0.169761047,0.965000495915298
0.016307666,0.973457634,0.0244408287,0.9482171193004204
0.016534161,0.960868716,-0.114592358,0.9364000978994887
0.016760657,0.93237251,-0.247743785,0.9306954804098264
0.016987152,0.88901037,-0.375068367,0.9310157178915835
0.017213648,0.830991387,-0.496243834,0.9368046280512032
0.017440142,0.75805366,-0.610328913,0.9471467334831573
0.017666638,0.669870317,-0.715625048,0.9608454509226828
0.017893134,0.566465139,-0.809702277,0.976500531081274
0.018119628,0.448584795,-0.889578402,0.9925780516100656
0.018346124,0.318021178,-0.952036083,1.0075101729904905
0.01857262,0.177803993,-0.994207263,1.0200623417286951
0.018799116,0.0318873301,-1.01418161,1.0295811398830987
0.01902561,-0.115101121,-1.01142013,1.0362189474246737
0.019252106,-0.259725541,-0.988147378,1.0438925972960176
0.019478602,-0.402277917,-0.942661643,1.0504384956893182
0.019705096,-0.534857273,-0.873280168,1.0486905543031046
0.019931592,-0.652637124,-0.784826756,1.0418882525564748
0.020158088,-0.75347966,-0.681347132,1.031965512318341
0.020384582,-0.836109638,-0.566601276,1.0201163327213192
0.020611078,-0.900084794,-0.444152385,1.0074239774912106
0.020837574,-0.945686579,-0.317175806,0.9949235976124728
0.021064068,-0.973699152,-0.188308716,0.9835502111270876
0.021290564,-0.985147595,-0.0596099645,0.9740691318019752
0.02151706,-0.981063247,0.0673581362,0.9670222131265208
0.021743554,-0.962347686,0.191364884,0.962733587577888
0.02197005,-0.929762185,0.311349452,0.9613962019166744
0.022196546,-0.884012461,0.426320106,0.9632268639831276
0.02242304,-0.825975001,0.535551608,0.9690502271083355
0.022649536,-0.755801857,0.639479458,0.9801704242486222
0.022876032,-0.670950472,0.736772895,0.9930088346837038
0.023102526,-0.571599782,0.822931528,1.0039426105588622
0.023329022,-0.460072428,0.895250142,1.0131394557568352
0.023555518,-0.338556021,0.951835275,1.020610570089678
0.023782014,-0.209501043,0.991018295,1.0260079480427948
0.024008508,-0.0757725686,1.0115546,1.0289841909334017
0.024235004,0.0594660081,1.01282036,1.029341287749879
0.0244615,0.192957297,0.994909108,1.027076651646902
0.024687994,0.321572334,0.958637476,1.0223945763858582
0.02491449,0.442513764,0.905471325,1.0156967517267037
0.025140986,0.553485811,0.83740294,1.0075902268989714
0.02536748,0.652833521,0.756789625,0.998922142648898
0.025593976,0.739690721,0.666159153,0.9909103798591772
0.025820472,0.814239264,0.567765415,0.985343145509384
0.026046966,0.87719208,0.462344438,0.9832283245642623
0.026273462,0.927408159,0.349875063,0.9824984530890232
0.026499958,0.963358641,0.232246965,0.9819985239410782
0.026726452,0.984872043,0.111536808,0.9824134006218228
0.026952948,0.992010474,-0.0107863117,0.9842011250457942
0.027179444,0.98465538,-0.133407265,0.9873437157177244
0.027405938,0.962585092,-0.254888058,0.9915379814516596
0.027632434,0.925622702,-0.373560607,0.9963249135599892
0.02785893,0.873789072,-0.487511754,1.0011750526347778
0.028085424,0.807444751,-0.594636083,1.005559097123035
0.02831192,0.727404773,-0.692752898,1.00902428147058
0.028538416,0.635004938,-0.779778659,1.0112860283162222
0.02876491,0.532089472,-0.853957236,1.0123621671299985
0.028991406,0.420837313,-0.914139986,1.01275595801714
0.029217902,0.303196251,-0.959922552,1.0133792724586477
0.029444398,0.180329427,-0.990736067,1.014076656696777
0.029670892,0.0540714227,-1.005054,1.013057261668802
0.029897388,-0.0724157691,-1.00228488,1.0098190242909588
0.030123884,-0.196313411,-0.983196795,1.005214893036727
0.030350378,-0.315540463,-0.948978126,1.0001252674167262
0.030576874,-0.42849353,-0.900882602,0.9951961678381512
0.03080337,-0.533886671,-0.840152323,0.9908909033137584
0.031029864,-0.630659521,-0.767984927,0.9875322795271448
0.03125636,-0.717896581,-0.685521603,0.9853153691911792
0.031482856,-0.794760823,-0.593866825,0.9843225716112178
0.03170935,-0.860453129,-0.494135737,0.984549713786424
0.031935846,-0.914225936,-0.387514532,0.9859765745662552
0.032162342,-0.955456436,-0.275281549,0.9886769323136614
0.032388836,-0.983748078,-0.158683613,0.9929407700034278
0.032615332,-0.998736382,-0.038612444,0.9989652815621032
0.032841828,-0.999312043,0.084133327,1.0057029759969227
0.033068322,-0.983942091,0.207531258,1.0112112614885147
0.033294818,-0.952196598,0.328623861,1.014672003261321
0.033521314,-0.904680014,0.444706768,1.016210037236046
0.033747808,-0.842448473,0.553490877,1.0160715805822609
0.033974304,-0.766855597,0.652988911,1.0144620245391924
0.0342008,-0.67952162,0.741511762,1.0115893252317691
0.034427296,-0.582281709,0.817714095,1.0077083297976297
0.034653792,-0.477102637,0.880627871,1.0031323734143462
0.034880284,-0.365989625,0.929670513,0.998235668349324
0.03510678,-0.250896007,0.964625895,0.993451923633095
0.035333276,-0.133639023,0.985617757,0.9893017513821056
0.035559772,-0.0157861132,0.993071496,0.9864401975376412
0.035786268,0.101533122,0.987580895,0.985624999032068
0.036012764,0.217716351,0.969437361,0.9872092063953994
0.036239256,0.332006335,0.938142598,0.9903397406623218
0.036465752,0.442667902,0.893169165,0.9937060287678788
0.036692248,0.54762578,0.83482939,0.9968341053283803
0.036918744,0.645116568,0.763932824,0.9997687458927134
0.03714524,0.733600914,0.681428254,1.002514766371124
0.037371736,0.811617255,0.588402331,1.004939871739969
0.037598232,0.877775967,0.486157447,1.006839711516343
0.037824724,0.930827916,0.376254976,1.0080084161696636
0.03805122,0.969758213,0.260509729,1.0082963105846068
0.038277716,0.993875384,0.140937746,1.007651727168708
0.038504212,1.00288641,0.0196658559,1.0061678972509676
0.038730708,0.996944129,-0.101205148,1.0041400783292704
0.038957204,0.976624608,-0.219798207,1.0021068767515684
0.039183696,0.942716837,-0.334680438,1.0007260303431564
0.039410192,0.895748913,-0.4447864,1.0002010567656416
0.039636688,0.835889101,-0.548734844,0.9998205181902926
0.039863184,0.763761163,-0.644614458,0.998858913569746
0.04008968,0.68072474,-0.730745971,0.9973758457808006
0.040316176,0.588353276,-0.806012571,0.995815841989962
0.040542668,0.488131285,-0.869645953,0.9945562349650294
0.040769164,0.381446779,-0.921033919,0.9938051251579734
0.04099566,0.269657403,-0.959640324,0.9936246664395294
0.041222156,0.154151604,-0.98499316,0.9939742422625584
0.041448652,0.0363941602,-0.996710002,0.9947553629835034
0.041675148,-0.082057476,-0.994545281,0.9958537453268594
0.04190164,-0.199569389,-0.97845453,0.9972012083033543
0.042128136,-0.314504147,-0.948646605,0.9988432396582236
0.042354632,-0.425355643,-0.90556711,1.0009792137456957
0.042581128,-0.530844688,-0.849699676,1.0037856221723225
0.042807624,-0.629664302,-0.781293631,1.0068968710543114
0.04303412,-0.719970584,-0.70066005,1.0092821474913036
0.043260616,-0.799626946,-0.608893991,1.0101551450451949
0.043487108,-0.86695081,-0.507823884,1.0094888041205017
0.043713604,-0.920894027,-0.399493486,1.007640854320709
0.0439401,-0.960866213,-0.285907865,1.0050071865538197
0.044166596,-0.986597717,-0.168983445,1.00193045987368
0.044393092,-0.99807471,-0.0505379662,0.9987072127692164
0.044619588,-0.995496809,0.0677214637,0.995600093374853
0.04484608,-0.979242742,0.184210151,0.9928497274911215
0.045072576,-0.949842036,0.297474176,0.9906907787395042
0.045299072,-0.907951355,0.406207174,0.9893799312554024
0.045525568,-0.854316056,0.509283781,0.9892258931290512
0.045752064,-0.789664268,0.605800867,0.9905643466139276
0.04597856,-0.714497209,0.69498688,0.993513025040924
0.046205052,-0.629024684,0.775796831,0.9975327760709424
0.046431548,-0.533681571,0.84659946,1.0015466648973197
0.046658044,-0.429657876,0.905623615,1.0047600224544997
0.04688454,-0.318691134,0.951521695,1.006957574945879
0.047111036,-0.202685356,0.983415365,1.0081871336549302
0.047337532,-0.0835807845,1.00076711,1.0085205559953874
0.047564028,0.0366575643,1.00332785,1.0080105516060311
0.04779052,0.156060457,0.991141379,1.0067160994050706
0.048017016,0.272702634,0.96455735,1.0047376080295605
0.048243512,0.384768456,0.924225867,1.0022402179645256
0.048470008,0.490625441,0.871070385,0.9994769389804928
0.048696504,0.588899076,0.806229115,0.996807507587337
0.048923,0.678542197,0.730952144,0.9947105499277834
0.049149492,0.758843601,0.646411002,0.9936907942852912
0.049375988,0.829232752,0.553485513,0.9939731700903668
0.049602484,0.888872087,0.452846348,0.9951634019446728
0.04982898,0.936568975,0.34547314,0.9965131353940102
0.050055476,0.97126776,0.232894927,0.997601108637753
0.050281972,0.992360115,0.116867438,0.998436595907497
0.050508464,0.99957943,-0.00089789863,0.9991598431010748
0.05073496,0.99284631,-0.118758008,0.999847259744744
0.050961456,0.972225904,-0.235084981,1.0004881567003876
0.051187952,0.937947333,-0.348237455,1.00101452454669
0.051414448,0.890444338,-0.456567854,1.0013453243824235
0.051640944,0.830390096,-0.558465958,1.001431937779747
0.051867436,0.758710086,-0.65242672,1.001301619568086
0.052093932,0.676554024,-0.737137198,1.0010965960658835
0.052320428,0.585203826,-0.811557293,1.0010887577865262
0.052546924,0.48589769,-0.874907613,1.0015598964326935
0.05277342,0.37970829,-0.926456988,1.0025009361087562
0.052999916,0.267757207,-0.965245962,1.0033936890577464
0.053226412,0.151633739,-0.990257323,1.0036023565582466
0.053452904,0.0333554372,-1.00090146,1.0029163178209346
0.0536794,-0.0850365087,-0.997152746,1.0015448066672257
0.053905896,-0.201705217,-0.979355454,0.9998220998445632
0.054132392,-0.315029413,-0.948050439,0.9980431659432172
0.054358888,-0.423548132,-0.903893352,0.9964162119104852
0.054585384,-0.525923014,-0.847635269,0.9950805659075466
0.054811876,-0.620916367,-0.780122101,0.9941276272771328
0.055038372,-0.70739156,-0.702300906,0.9936293817276544
0.055264868,-0.784332275,-0.615222514,0.993675859339156
0.055491364,-0.850874841,-0.520014465,0.9944030388560114
0.05571786,-0.906323791,-0.417807609,0.9959860122709088
0.055944356,-0.95006752,-0.309631646,0.9985000487636198
0.056170848,-0.981351733,-0.196444511,1.0016416697641324
0.056397344,-0.99916923,-0.0794689506,1.0046544642882582
0.05662384,-1.00260723,0.0395020172,1.006781667011142
0.056850336,-0.991287231,0.158302784,1.007710145765798
0.057076832,-0.96540314,0.274784923,1.0075099766299755
0.057303328,-0.92554158,0.386998743,1.0063952433924763
0.05752982,-0.872546613,0.493210584,1.0045942720273928
0.057756316,-0.807454288,0.591894627,1.002321676681056
0.057982812,-0.731455326,0.681733489,0.9997874439578792
0.058209308,-0.645859599,0.761629701,0.9972144230657902
0.058435804,-0.552052796,0.830714345,0.9948486125601964
0.0586623,-0.451446056,0.888356984,0.9929816724995312
0.058888796,-0.345399648,0.934155881,0.99194812684541
0.059115288,-0.235128343,0.967881143,0.9920792446569122
0.059341784,-0.121639505,0.989304006,0.9935185854642932
0.05956828,-0.00587956002,0.997965157,0.9959690238120632
0.059794776,0.110894732,0.993190825,0.9987256564495324
0.060021272,0.226946294,0.974489272,1.0011339616034245
0.060247768,0.340322196,0.941854656,1.0029093901191406
0.06047426,0.449148029,0.89571476,1.0040388832364424
0.060700756,0.551712632,0.836778402,1.0045849223620409
0.060927252,0.646454692,0.765958667,1.004596348361232
0.061153748,0.731956303,0.684358299,1.0041063109116013
0.061380244,0.80696708,0.593264282,1.003158376500702
0.06160674,0.870443821,0.494127721,1.0018346501777338
0.061833232,0.921595156,0.388522238,1.000287160983193
0.062059728,0.959912896,0.278071731,0.9987566554884432
0.062286224,0.985171199,0.164347127,0.9975722694922518
0.06251272,0.997343361,0.0487532765,0.9970706617002618
0.062739216,0.996412277,-0.067500487,0.997393741501562
0.062965712,0.982197642,-0.183204189,0.998275982817508
0.063192208,0.954489291,-0.296848327,0.9991687358763816
0.0634187,0.913411021,-0.406634688,0.99967146276912
0.063645196,0.859549284,-0.510786653,0.999727976507855
0.063871692,0.793801725,-0.607756078,0.9994886289589178
0.064098188,0.717211485,-0.696226418,0.9991235393370158
0.064324684,0.630904734,-0.775052428,0.998747049532306
0.06455118,0.536088824,-0.84322089,0.998412696550095
0.064777672,0.434066653,-0.899848223,0.9981406836828802
0.065004168,0.326239765,-0.944202304,0.9979503751461636
0.065230664,0.214092419,-0.975733876,0.997892160647255
0.06545716,0.0991447642,-0.994108975,0.998082338443824
0.065683656,-0.0171270091,-0.999200523,0.9986950196041848
0.065910152,-0.133359864,-0.991005063,0.9998758882177324
0.066136644,-0.248266011,-0.969488144,1.001543273574417
0.06636314,-0.36040467,-0.934537888,1.0032525902653096
0.066589636,-0.468000323,-0.88621521,1.0044017007634485
0.066816132,-0.569115639,-0.825071931,1.004636301878447
0.067042628,-0.661991358,-0.752153933,1.0039680969940528
0.06726912,-0.74520731,-0.668794334,1.0026197960679395
0.067495616,-0.817663372,-0.576440871,1.0008574676696491
0.067722112,-0.878516316,-0.476580888,0.9989202602850804
0.067948608,-0.927134454,-0.370714098,0.9970072382498318
0.068175104,-0.963074625,-0.260339707,0.9952894963597364
0.0684016,-0.986070931,-0.146944344,0.9939285211967972
0.068628096,-0.996029735,-0.0319788903,0.9930978824289898
0.068854592,-0.993014455,0.0831787586,0.992996413721184
0.069081088,-0.9771927,0.197269365,0.9938207753007932
0.069307584,-0.948726773,0.309153557,0.9956584116127456
0.06953408,-0.907655478,0.41768074,0.998295667310356
0.069760568,-0.853964984,0.52143997,1.001155836211721
0.069987064,-0.787910581,0.618677378,1.0035647817007125
0.07021356,-0.710265815,0.707553387,1.005109323412786
0.070440056,-0.622258127,0.786447167,1.005704323099874
0.070666552,-0.525374174,0.854067862,1.0054499356074331
0.070893048,-0.42122674,0.90943265,1.00449971137705
0.071119544,-0.311494231,0.951830685,1.003010308853851
0.07134604,-0.197887689,0.9808079,1.0011436741601707
0.071572536,-0.0821156874,0.99616003,0.9990777914867752
0.071799032,0.0341604091,0.997928798,0.9970288194276042
0.072025528,0.149380118,0.986378729,0.9952574166773496
0.072252024,0.262142569,0.961952329,0.9940710097504442
0.072478512,0.371245712,0.925173342,0.993769091425836
0.072705008,0.475647628,0.876507044,0.9945052642036444
0.072931504,0.57428205,0.816276312,0.9961068904845236
0.073158,0.665836692,0.744802594,0.9980694044426316
0.073384496,0.748771012,0.662712991,0.99984653685167
0.073610992,0.821590483,0.571076989,1.0011398491214796
0.073837488,0.88306582,0.471277028,1.0019072795727852
0.074063984,0.932261944,0.364840925,1.002221232785515
0.07429048,0.968488872,0.253359437,1.0021616995047893
0.074516976,0.991269052,0.138466701,1.001787360738802
0.074743472,1.00033545,0.0218324549,1.0011476686136629
0.074969968,0.995644569,-0.0948611423,1.0003067440976563
0.075196464,0.977389455,-0.20996131,0.9993738984421132
0.075422952,0.945991337,-0.321904212,0.9985219313823888
0.075649448,0.90205431,-0.429279536,0.9979828982179516
0.075875944,0.846267641,-0.530865848,0.997987468776464
0.07610244,0.779282331,-0.625568211,0.998616538022534
0.076328936,0.701690316,-0.71223563,0.9996488922096768
0.076555432,0.614216745,-0.789530754,1.0006210213502034
0.076781928,0.517962754,-0.856060088,1.0011242887978322
0.077008424,0.414408594,-0.910656333,1.0010294396140638
0.07723492,0.305217564,-0.952514172,1.0004410092349396
0.077461416,0.192072198,-0.981152773,0.9995524932101408
0.077687912,0.076609835,-0.996330738,0.998544006302352
0.077914408,-0.0395815074,-0.997991145,0.9975530212264672
0.078140896,-0.154956579,-0.986239851,0.9966805850758854
0.078367392,-0.26801461,-0.961344242,0.9960145828000068
0.078593888,-0.377319396,-0.923733711,0.9956538954356364
0.078820384,-0.481533676,-0.873987854,0.9957294500615984
0.07904688,-0.579450667,-0.812790215,0.9963910090864913
0.079273376,-0.669988155,-0.740848064,0.997739981772852
0.079499872,-0.752087593,-0.658824623,0.9996856314156258
0.079726368,-0.824550629,-0.567409992,1.0018378388057356
0.079952864,-0.886011243,-0.467563063,1.003631140604347
0.08017936,-0.935165465,-0.360687137,1.004629657725923
0.080405856,-0.971044719,-0.24854143,1.0047006887242338
0.080632352,-0.993104219,-0.133016601,1.0039494059371932
