Frequency (GHz),Re( S21 ),Im( S21 ),S2
0.0,0.0567145199,4.15887844e-05,0.0032165384971144842
0.000226482141,0.0519689471,-0.0219391603,0.0031820982173516948
0.000452964281,0.0385122038,-0.0399739631,0.003081107567452896
0.000679446438,0.0187455341,-0.0507986657,0.002931899485594619
0.000905928563,-0.00378789566,-0.0524168275,0.002761871958695803
0.00113241063,-0.0250183959,-0.0444672592,0.0026032572741691213
0.00135889288,-0.0410687886,-0.0283084624,0.002488014440523704
0.001585375,-0.0489533544,-0.0067990208,0.0024426575908508322
0.00181185713,-0.0471293926,0.0161984507,0.002483569451925265
0.00203833925,-0.0357968546,0.0365031585,0.0026138953797296633
0.00226482125,-0.0168837383,0.0503717698,0.0028223758117670787
0.0024913035,0.00628355192,0.055180952,0.0030844204883576395
0.00271778575,0.0295626931,0.0499098264,0.0033649435946029246
0.00294426775,0.0489549227,0.0353419483,0.003645637766202848
0.00317075,0.0604443774,0.0139087029,0.003846974775634099
0.003397232,0.0620867349,-0.0105150379,0.003965328672581315
0.00362371425,0.0533038005,-0.0336447097,0.003973261638541074
0.00385019625,0.0355508439,-0.0512265898,0.003888026004539631
0.0040766785,0.0117673902,-0.0598674193,0.0037225793657610687
0.0043031605,-0.0138347913,-0.0576804541,0.0035184362354967625
0.0045296425,-0.0365555622,-0.0446707942,0.003331788982216823
0.004756125,-0.0520229675,-0.0228135642,0.003226847859013578
0.004982607,-0.0569956526,0.00421378715,0.003266260417445392
0.005209089,-0.0500043966,0.0316206627,0.0035003059889172627
0.0054355715,-0.0317019559,0.0543244854,0.003956163721860358
0.0056620535,-0.00484248623,0.0678660199,0.004629246329954936
0.0058885355,0.0261275731,0.0692484602,0.005477999316166828
0.0061150175,0.0560639203,0.0576099604,0.006462070696694321
0.0063415,0.0789705813,0.0341880582,0.007405176034346496
0.006567982,0.0906428769,0.00275119883,0.008223700227710747
0.006794464,0.0882989466,-0.0312577859,0.008773753150039889
0.007020946,0.0715761781,-0.0618181005,0.00894462682083102
0.0072474285,0.0428700782,-0.0830256641,0.008731104504120143
0.0074739105,0.00672425702,-0.0899667293,0.008139228013410498
0.0077003925,-0.0303478334,-0.0799324811,0.007310192526876012
0.0079268745,-0.0609017275,-0.0530096069,0.006519038836176784
0.008153357,-0.0777154192,-0.0123779718,0.006192900567313323
0.008379839,-0.0750373006,0.0358618312,0.006916667418352052
0.008606321,-0.049731046,0.0833651572,0.009422926371234827
0.008832803,-0.00211075204,0.12066792,0.014565202191300764
0.009059285,0.0642555356,0.138822868,0.02340056253498829
0.009285768,0.140731752,0.129933625,0.036688172926630125
0.00951225,0.217475832,0.0900018588,0.05539607209154737
0.009738732,0.282815695,0.0189567786,0.08034407679322243
0.009965214,0.325103104,-0.0786700547,0.1118810057369358
0.010191696,0.335517913,-0.195770457,0.15089834177786443
0.010418178,0.307075471,-0.320948869,0.197303521402251
0.01064466,0.237209707,-0.441332936,0.251043205493406
0.010871143,0.127650172,-0.543633163,0.3118315823250141
0.011097625,-0.0157502498,-0.615517616,0.3791100059750858
0.011324107,-0.183478519,-0.646799445,0.45201388898674133
0.011550589,-0.363137245,-0.63049382,0.5293911157643825
0.011777071,-0.540554583,-0.56360352,0.6098481849586943
0.012003553,-0.701087356,-0.447533071,0.6918093303817618
0.012230035,-0.831003666,-0.288149983,0.7735975056083397
0.012456517,-0.918647766,-0.0956571698,0.8530640121109367
0.012683,-0.954282522,0.117109917,0.9243698644544273
0.012909482,-0.93465817,0.337305158,0.9873606643611538
0.013135964,-0.861157954,0.548616886,1.042573509341803
0.013362446,-0.738380492,0.736540854,1.0876981805772115
0.013588928,-0.574991465,0.889275253,1.1214256604210602
0.01381541,-0.382501721,0.998462796,1.1432355215640995
0.014041892,-0.173853204,1.05974507,1.1532845499303703
0.014268375,0.038009733,1.07279813,1.1523405675342282
0.014494857,0.241410837,1.04086983,1.1416891952252697
0.014721339,0.426897347,0.969926178,1.1229981356453262
0.014947821,0.587800682,0.867484927,1.0980397403318605
0.015174303,0.721877337,0.74206984,1.0717745371118372
0.015400785,0.825815737,0.602917075,1.0454806308034088
0.015627267,0.901669621,0.455263942,1.0202733623196631
0.015853749,0.934545875,0.313839525,0.9718712399317412
0.016080232,0.967630446,0.168940082,0.9648494313323257
0.016306714,0.973422647,0.0236306041,0.9481100551426176
0.016533196,0.960738719,-0.115379713,0.9363313643577232
0.016759678,0.932154953,-0.24850598,0.9306680784981924
0.01698616,0.888706565,-0.375804633,0.931028480858364
0.017212642,0.830598712,-0.496950984,0.9368545008746272
0.017439124,0.757567048,-0.610999763,0.9472285426014905
0.017665606,0.669284642,-0.716246605,0.9609511311910943
0.017892088,0.565778911,-0.810256958,0.9766221141197596
0.01811857,0.447801322,-0.890045166,0.9927064215049153
0.018345052,0.317150205,-0.952393234,1.0076371247005207
0.018571536,0.176861465,-0.994432747,1.020176466107912
0.018798018,0.0308959223,-1.01425755,1.02967293574677
0.0190245,-0.116115503,-1.01133072,1.0362726352526612
0.019250982,-0.260714412,-0.987877131,1.0438732305772969
0.019477464,-0.403205335,-0.942248046,1.0504059223632802
0.019703946,-0.535713077,-0.872728467,1.048643477980978
0.019930428,-0.653394759,-0.784151495,1.0418182781994032
0.02015691,-0.754121065,-0.680571914,1.0318767108023574
0.020383392,-0.836624801,-0.565751731,1.0200160787777859
0.020609874,-0.900470793,-0.443252653,1.0073205634375872
0.020836356,-0.945945621,-0.316246748,0.9948251235096512
0.021062838,-0.973837554,-0.187367022,0.9834659825138514
0.02128932,-0.985171974,-0.05866763,0.9740057091648736
0.021515802,-0.980979562,0.0682930127,0.9669848366453542
0.021742286,-0.962159216,0.192287087,0.9627246807606802
0.021968768,-0.929468393,0.312253982,0.9614140428608587
0.02219525,-0.883609414,0.427200317,0.9632657073543239
0.022421732,-0.825454533,0.536393404,0.9690930699049554
0.022648214,-0.755168259,0.64025718,0.9802083559426433
0.022874696,-0.670216501,0.737480044,0.9930669735109249
0.023101178,-0.570761979,0.823555768,1.0040133396780662
0.02332766,-0.459136248,0.895768881,1.0132079823955096
0.023554142,-0.337535977,0.952226937,1.0206666753177465
0.023780624,-0.208418205,0.991265833,1.0260460998486058
0.024007106,-0.0746515542,1.01164627,1.0290010301493884
0.024233588,0.0605978519,1.01275015,1.0293349659799167
0.02446007,0.194072291,0.99467802,1.0270484176051091
0.024686552,0.322644472,0.958251953,1.022346260740473
0.024913034,0.443520576,0.904943466,1.015633177991465
0.025139518,0.554409325,0.836747885,1.0075167226989288
0.025366,0.653660238,0.75602299,0.9988424681507566
0.025592482,0.740409672,0.66529572,0.9908248774414661
0.025818964,0.814837337,0.566821277,0.9852462458291624
0.026045446,0.877664685,0.461345434,0.9831349087687977
0.026271928,0.927764416,0.348836213,0.9824335150960025
0.02649841,0.963599503,0.231172115,0.9819645489354202
0.026724892,0.984992802,0.110432886,0.9824062423021002
0.026951374,0.992005706,-0.0119096953,0.9842171615786974
0.027177856,0.984519303,-0.134539127,0.987379034673528
0.027404338,0.962311745,-0.256014675,0.9915874083803007
0.02763082,0.925207734,-0.374665797,0.99638381049506
0.027857302,0.87323004,-0.488576442,1.001237642435781
0.028083784,0.806742072,-0.59563911,1.0056187200964453
0.028310266,0.726563692,-0.693671405,1.0090748166473449
0.02853675,0.634035349,-0.780590236,1.0113219403200875
0.028763232,0.531005263,-0.854640245,1.0123765377073592
0.028989714,0.419657916,-0.914673805,1.012740936014641
0.029216196,0.301949382,-0.960288584,1.013327593850907
0.029442678,0.179049194,-0.990931153,1.014003163857959
0.02966916,0.0527810901,-1.00508451,1.0129807157140847
0.029895642,-0.073697947,-1.00215352,1.0097430650404053
0.030122124,-0.197567374,-0.98290801,1.005141023391416
0.030348606,-0.316747546,-0.948539734,1.000056634873813
0.030575088,-0.429638058,-0.900304496,0.9951370463998253
0.03080157,-0.534955919,-0.839444757,0.9908453353279236
0.031028052,-0.631643236,-0.767157912,0.9875044395287516
0.031254534,-0.718784988,-0.684583426,0.9853063261280577
0.031481016,-0.795544446,-0.592825472,0.9843330058134696
0.031707498,-0.861120999,-0.492998779,0.984577171014249
0.031933982,-0.914765239,-0.386289924,0.9860153478666529
0.032160464,-0.955851912,-0.273979396,0.9887175871065805
0.032386946,-0.983982682,-0.157319948,0.9929714845146359
0.032613428,-0.998796523,-0.0372120067,0.9989792277995304
0.03283991,-0.999194145,0.0855439082,1.005706699632411
0.033066392,-0.983646333,0.208931357,1.0112124203622084
0.033292874,-0.951719999,0.329990655,1.0146647888838891
0.033519356,-0.904024005,0.446013242,1.0161872136555907
0.03374584,-0.841622889,0.554710031,1.0160323057807275
0.03397232,-0.765874445,0.654095471,1.0144045506867698
0.034198804,-0.678404093,0.742484689,1.0115156267985794
0.034425284,-0.581049621,0.818537593,1.0076224532184772
0.034651768,-0.475779146,0.88129127,1.003040098346702
0.034878248,-0.364597052,0.930167139,0.9981419168025361
0.035104732,-0.249455065,0.964951992,0.9933601763189224
0.035331212,-0.132168874,0.985772073,0.9892151911611453
0.035557696,-0.0143045913,0.993052185,0.9863572634655343
0.035784176,0.103006199,0.987386942,0.9855432502645389
0.03601066,0.219159469,0.9690727,0.9871327707376519
0.03623714,0.333402783,0.937616169,0.9902814960823817
0.036463624,0.444007576,0.892485499,0.9936730934706748
0.036690104,0.548894167,0.833988965,0.9968224003083951
0.036916588,0.646294653,0.762937486,0.9997703860403906
0.037143072,0.734667063,0.680283725,1.0025216399569215
0.037369552,0.812549353,0.58711952,1.004945781825749
0.037596036,0.878552616,0.484751701,1.0068389107028368
0.037822516,0.931430101,0.374746144,1.007996705491739
0.038049,0.970169485,0.258921087,1.0082689589184268
0.03827548,0.994083345,0.139295995,1.0076050710294289
0.038501964,1.00288391,0.0179999992,1.006100136908088
0.038728444,0.996728539,-0.102865577,1.0040491073886175
0.038954928,0.976197839,-0.221422642,1.00199020725853
0.039181408,0.942086458,-0.336236954,1.000582183582184
0.039407892,0.89493227,-0.446246266,1.0000394978062956
0.039634372,0.834908664,-0.550080657,0.9996612064278165
0.039860856,0.762634456,-0.645834684,0.9987137525357959
0.040087336,0.679465413,-0.731829345,0.9972474376663896
0.04031382,0.586976528,-0.806947231,0.9957052780415021
0.040540304,0.486652434,-0.870421708,0.9944645412757616
0.040766784,0.379881561,-0.921640992,0.9937321185225408
0.040993268,0.268021703,-0.960069418,0.9935689206578789
0.041219748,0.1524629,-0.98523587,0.9939346554110668
0.041446232,0.0346704721,-0.996757329,0.9947272145508511
0.041672712,-0.0837951824,-0.994389713,0.9958325339136717
0.041899196,-0.20129776,-0.978089452,0.9971797642946778
0.042125676,-0.31619674,-0.948067486,0.9988123363969877
0.04235216,-0.426981419,-0.904773831,1.00092881743367
0.04257864,-0.532370269,-0.848700047,1.0037098730929346
0.042805124,-0.631059706,-0.780105948,1.0068016426417852
0.043031604,-0.721214414,-0.699305594,1.0091785447610562
0.043258088,-0.80070132,-0.607392609,1.0100483853175695
0.043484572,-0.867838025,-0.506196856,1.0093780946601854
0.043711052,-0.921579301,-0.397765756,1.0075260046779002
0.043937536,-0.961339056,-0.284106225,1.0048891276747218
0.044164016,-0.986853004,-0.167135268,1.0018130493132558
0.0443905,-0.998110473,-0.0486694537,0.9985932320357401
0.04461698,-0.995314538,0.0695854649,0.9954931664795027
0.044843464,-0.978845298,0.186046869,0.9927515548814119
0.045069944,-0.949233651,0.299262196,0.9906023861455322
0.045296428,-0.907136023,0.407924771,0.9892983830196589
0.045522908,-0.853298724,0.510908306,0.9891460095198178
0.045749392,-0.788452685,0.607307017,0.9904794493811475
0.045975872,-0.713104606,0.696348071,0.9934188150838362
0.046202356,-0.62747103,0.776991606,0.9974358492837201
0.046428836,-0.531985939,0.847610772,1.0014530601041478
0.04665532,-0.427838355,0.906434178,1.0046685770556418
0.046881804,-0.316770017,0.952113628,1.0068636042935026
0.047108284,-0.200689808,0.983772099,1.0080839418059426
0.047334768,-0.0815428272,1.00087702,1.0084040418318492
0.047561248,0.0387042835,1.00318515,1.0078784667417708
0.047787732,0.158081442,0.990747273,1.006569901261736
0.048014212,0.274665087,0.963918388,1.004579568741236
0.048240696,0.386641741,0.923353493,1.0020735089188122
0.048467176,0.492382228,0.869978905,0.9993035535952429
0.04869366,0.590515554,0.804936647,0.9966316251995295
0.04892014,0.679996729,0.729477406,0.9945328373151883
0.049146624,0.76011616,0.644776046,0.9935127261885398
0.049373104,0.830308676,0.55171603,0.9938030751998339
0.049599588,0.889743209,0.450967163,0.9950143600658863
0.049826068,0.937231421,0.343504041,0.996397762693009
0.050052552,0.971714199,0.230851576,0.9975209346798954
0.050279036,0.992580295,0.114766791,0.9983870583387248
0.050505516,0.999562025,-0.00303489552,0.999133452412918
0.050732,0.992581308,-0.12090604,0.9998359234994725
0.05095848,0.971705973,-0.237215921,1.0004838911397549
0.051184964,0.937168002,-0.350319535,1.0010076405752883
0.051411444,0.889406443,-0.458566636,1.0013271805022688
0.051637928,0.829099834,-0.560345471,1.0013935816090394
0.051864408,0.757180333,-0.654150546,1.001234993514089
0.052090892,0.674803853,-0.73867023,1.0009939487118986
0.052317372,0.583259642,-0.812865674,1.0009424139534424
0.052543856,0.48379454,-0.875962734,1.0013678682905665
0.052770336,0.377487421,-0.92723918,1.0022692499403036
0.05299682,0.265460491,-0.965748906,1.0031402217221579
0.0532233,0.14929682,-0.990480244,1.0033406542164118
0.053449784,0.0310106538,-1.00084698,1.0026563380242237
0.053676268,-0.0873577073,-0.996824622,1.0012906960501553
0.053902748,-0.203974217,-0.97876215,0.9995808274733856
0.054129232,-0.317218661,-0.947200716,0.9978168752775456
0.054355712,-0.425633162,-0.902798951,0.9962095345208186
0.054582196,-0.527880669,-0.846307695,0.9948947153201007
0.054808676,-0.622724831,-0.778572738,0.9939617235007951
0.05503516,-0.709027886,-0.700542569,0.9934804341067487
0.05526164,-0.785771966,-0.613267958,0.993535170860995
0.055488124,-0.852091432,-0.51788044,0.9942599586224043
0.055714604,-0.907289386,-0.415516734,0.9958281861822837
0.055941088,-0.950755954,-0.307214618,0.9983177055793361
0.056167568,-0.981743038,-0.193938464,1.0014315204801487
0.056394052,-0.999251842,-0.0769132674,1.0044198944425367
0.056620532,-1.00237393,0.0420686752,1.006523268976728
0.056847016,-0.990733862,0.160839334,1.0074228766749986
0.0570735,-0.964532375,0.277247101,1.007188657436045
0.05729998,-0.924364507,0.389341503,1.0060365477596518
0.057526464,-0.871082604,0.495391905,1.00419804253095
0.057752944,-0.805730224,0.593877017,1.0018911051879085
0.057979428,-0.729503751,0.683486581,0.9993296291301397
0.058205908,-0.643715262,0.763129532,0.9967360211422676
0.058432392,-0.549751997,0.831943691,0.9943575632001914
0.058658872,-0.449023634,0.889304459,0.9924846446878486
0.058885356,-0.342889905,0.934813738,0.9914502117044417
0.059111836,-0.232565537,0.968245387,0.9915858584468781
0.05933832,-0.119057603,0.989374459,0.9930365329536482
0.0595648,-0.00330999331,0.997748137,0.995512300942683
0.059791284,0.113426127,0.992695153,0.9983091530759135
0.060017764,0.229418784,0.973720968,1.0007655019748956
0.060244248,0.342713118,0.940815628,1.0025863271383162
0.060470732,0.451431423,0.894407392,1.0037549125360465
0.060697212,0.553858459,0.835207045,1.0043300006234868
0.060923696,0.648430705,0.764132261,1.004360491487769
0.061150176,0.733729064,0.68229109,1.0038794708517043
0.06137666,0.808503032,0.590976,1.0029297853291927
0.06160314,0.871711016,0.491644412,1.001594323266578
0.061829624,0.922564387,0.385875732,1.0000251287072217
0.062056104,0.960558951,0.275299251,0.9984631759473814
0.062282588,0.985473752,0.161491826,0.9972381257457718
0.062509068,0.9972893,0.0458635017,0.996689408682676
0.062735552,0.995999157,-0.0703737065,0.9969667793112588
0.062962032,0.981434166,-0.186011881,0.9978134420652738
0.063188516,0.953391552,-0.299548686,0.9986848667092953
0.063414996,0.911996067,-0.409191042,0.9991741350765143
0.06364148,0.857835829,-0.513163865,0.9992194618578554
0.063867964,0.791812718,-0.609920979,0.9989709810108658
0.064094444,0.714972794,-0.698147595,0.9985961605644504
0.064320928,0.628445864,-0.776702225,0.9982105502986571
0.064547408,0.533442438,-0.844574988,0.997867745014584
0.064773892,0.431266606,-0.900885582,0.997585717306238
0.065000372,0.323322535,-0.944904864,0.9973826636496846
0.065226856,0.211097121,-0.976087332,0.9973084741853668
0.065453336,0.0961126909,-0.994102478,0.9974773861177794
0.06567982,-0.0201503653,-0.998827875,0.9980631610987392
0.0659063,-0.136326671,-0.990266621,0.9992129418926998
0.066132784,-0.251127303,-0.968394578,1.0008529810118518
0.066359264,-0.363116413,-0.933108985,1.0025459072777168
0.066585748,-0.47052595,-0.884475589,1.0036917371602996
0.066812228,-0.571422875,-0.823046386,1.0039294555809266
0.067038712,-0.664049685,-0.749869883,1.003266825579033
0.067265192,-0.746989548,-0.666281819,1.001924847151193
0.06749168,-0.819145977,-0.573734045,1.0001708860273466
0.06771816,-0.879680693,-0.473715216,0.9982442275068868
0.06794464,-0.927965641,-0.367724985,0.9963418954697911
0.06817112,-0.963561356,-0.257263422,0.994634955075709
0.068397608,-0.986205518,-0.143817261,0.9932847282951905
0.068624088,-0.9958058,-0.0288375206,0.9924607939079954
0.068850568,-0.992427409,0.0862965286,0.992359252982864
0.069077048,-0.976240814,0.20032233,0.9931751628160114
0.069303536,-0.947413623,0.312097162,0.9949972115744403
0.069530016,-0.905993521,0.420470417,0.9976196316661312
0.069756496,-0.851972401,0.524034441,1.0004690674198873
0.069982976,-0.785608411,0.621038735,1.002869685804345
0.070209464,-0.707677424,0.70964396,1.0044018864037572
0.070435944,-0.619412363,0.788228691,1.0049761447528174
0.070662424,-0.522307277,0.855503619,1.004691333729252
0.070888912,-0.417982399,0.910490751,1.003702693530339
0.071115392,-0.308121681,0.952486277,1.0021690781755865
0.071341872,-0.194440842,0.981043458,1.0002535075222667
0.071568352,-0.0786502212,0.995968044,0.9981382019639949
0.07179484,0.0375882685,0.997307897,0.9960359193473907
0.07202132,0.152714983,0.985336959,0.9942107888040579
0.0722478,0.265330464,0.960504532,0.9929692111189943
0.07247428,0.374234438,0.923341811,0.9926115145259355
0.072700768,0.478388667,0.87432313,0.9932966523670337
0.072927248,0.576734126,0.81377852,0.9948577317063743
0.073153728,0.667968631,0.742033839,0.9967963102210922
0.073380208,0.750558674,0.659714401,0.998561414003427
0.073606696,0.823013186,0.567888439,0.9998479834797273
0.073833176,0.884104609,0.467939794,1.0006086104638054
0.074059656,0.932900488,0.361399233,1.0009127261236266
0.074286144,0.968715608,0.249860123,1.0008400102483848
0.074512624,0.991078138,0.134959161,1.0004498507593709
0.074739104,0.999726832,0.018367067,0.9997910877709387
0.074965584,0.994624913,-0.0982334316,0.9989285246441694
0.075192072,0.975971818,-0.213189885,0.9979709165965384
0.075418552,0.94419533,-0.32493943,0.9970904543625339
0.075645032,0.899906933,-0.432074189,0.9965205928614743
0.075871512,0.843804002,-0.533375978,0.9964951276986727
0.076098,0.776546597,-0.627756059,0.9971022869234918
0.07632448,0.698732018,-0.714074731,0.9981291544310746
0.07655096,0.611085892,-0.791006565,0.9991173532745349
0.07677744,0.514704287,-0.85716629,0.9996545517685426
0.077003928,0.41106239,-0.911390722,0.9996053366201935
0.077230408,0.301821947,-0.952876747,0.9990705826641728
0.077456888,0.188662365,-0.981145442,0.9982398663247686
0.077683376,0.0732194185,-0.995957017,0.9972914629570163
0.077909856,-0.0429204293,-0.997255325,0.996360346492152
0.078136336,-0.158212781,-0.985146344,0.9955446031683203
0.078362816,-0.271156251,-0.959897816,0.994929529617945
0.078589304,-0.38031286,-0.921938777,0.9946089800176354
0.078815784,-0.484341115,-0.871849895,0.9947085550909542
0.079042264,-0.582030118,-0.810319901,0.9953774002157436
0.079268744,-0.672294199,-0.738063693,0.9967175049338498
0.079495232,-0.754074514,-0.655754328,0.9986421113550678
0.079721712,-0.826178074,-0.564091027,1.0007688967002641
0.079948192,-0.88724494,-0.464037806,1.0025346689528973
0.080174672,-0.935974538,-0.357002556,1.0034991607748465
