Frequency (GHz),Re( S21 ),Im( S21 ),S2
0.0,0.0566802993,4.76754649e-05,0.0032126586016875337
0.0002265395,0.0519352704,-0.0219263528,0.0031780372586311836
0.000453079,0.0384802483,-0.0399538018,0.003077035787503336
0.0006796185,0.0187171344,-0.0507695675,0.0029278801042847196
0.000906158,-0.00380923832,-0.0523777641,0.0027579404686938055
0.0011326975,-0.0250280667,-0.0444189161,0.002599444230238488
0.001359237,-0.0410616472,-0.0282544307,0.0024843717249583707
0.0015857765,-0.048925437,-0.00674549257,0.0024392000556528945
0.001812316,-0.0470797569,0.0162426773,0.002480328075635033
0.0020388555,-0.0357283987,0.0365282111,0.002610828679832325
0.002265395,-0.016804453,0.0503688827,0.002819413985075568
0.0024919345,0.00636131177,0.0551444627,0.003081378053906832
0.002718474,0.0296225101,0.0498390682,0.0033614258236688535
0.0029450135,0.0490084104,0.0352496915,0.00364436504078
0.003171553,0.0604498759,0.013796919,0.0038445424702179616
0.0033980925,0.0620406531,-0.0106296167,0.003962031388263459
0.003624632,0.0531997047,-0.0337334387,0.00396815346669386
0.0038511715,0.0354130641,-0.0512704216,0.0038827412399924555
0.004077711,0.0116141727,-0.0598512627,0.003717062654289836
0.0043042505,-0.0139775462,-0.0575983413,0.0035129407182844206
0.00453079,-0.0366593376,-0.044528503,0.0033266946126917826
0.0047573295,-0.052062165,-0.0226292163,0.003222550454839411
0.004983869,-0.0569534712,0.00441137329,0.003263158096032955
0.0052104085,-0.0498768389,0.0317955948,0.00349865890734234
0.005436948,-0.031501174,0.0544399731,0.003956034634507
0.0056634875,-0.00459640985,0.0678912625,0.004630350507353082
0.005890027,0.0266500916,0.0692934692,0.005511812256059739
0.0061165665,0.0562883615,0.0574352406,0.00646718650313457
0.006343106,0.0791082457,0.0339209363,0.007408744457200226
0.0065696455,0.090660356,0.00243129907,0.00822521136521452
0.006796185,0.0881761387,-0.031575378,0.008772035931884522
0.0070227245,0.071310252,-0.0620596856,0.008936556617074352
0.007249264,0.0425066799,-0.0831436515,0.008719684620874515
0.0074758035,0.00631957315,-0.0899154618,0.008124727275505459
0.007702343,-0.0307189208,-0.0796932206,0.0072946615047169375
0.0079288825,-0.0611554496,-0.0525957346,0.006506300313891778
0.008155422,-0.0777730122,-0.0118383626,0.006188788255710428
0.0083819615,-0.0748396143,0.0364442989,0.006929154790885305
0.008608501,-0.0492528193,0.0838822871,0.009462078298125277
0.008835041,-0.00137084629,0.120999731,0.014642814121623167
0.00906158,0.0652042627,0.138870671,0.02353665913824085
0.00928812,0.141755417,0.129607186,0.03689262091168249
0.009514659,0.218441635,0.0892269388,0.05567819450909217
0.009741199,0.283560961,0.0177568216,0.08072212331657774
0.009967738,0.325456649,-0.0802196488,0.11235722243190453
0.010194278,0.335354537,-0.197544619,0.15148654198233952
0.010420817,0.306309879,-0.322777897,0.19801131276473724
0.010647357,0.235812932,-0.443018496,0.25187312669653866
0.010873896,0.125657216,-0.544969857,0.3127818809714711
0.011100436,-0.0182401445,-0.616313457,0.3801749801506717
0.011326975,-0.186306149,-0.646894217,0.45318210914325335
0.011553515,-0.366095483,-0.629778445,0.5306467924596213
0.011780054,-0.54340452,-0.562033653,0.6111702994609547
0.012006594,-0.703579664,-0.445138425,0.6931725610058336
0.012233133,-0.83290267,-0.285038322,0.7749737027017045
0.012459673,-0.919746816,-0.0920157582,0.8544011052992587
0.012686212,-0.954415739,0.121074595,0.92556846040533
0.012912752,-0.933788896,0.341326475,0.9884654648288246
0.013139291,-0.859295249,0.552405417,1.043540069684916
0.013365831,-0.735616386,0.739836097,1.0884889177758943
0.01359237,-0.571491241,0.891859472,1.122015556335839
0.01381891,-0.378483266,1.0001812,1.143612015475467
0.014045449,-0.169562027,1.06051672,1.1534469943999073
0.014271989,0.0423269495,1.07261646,1.1522976409169072
0.014498528,0.245529428,1.03979623,1.1414608999362204
0.014725068,0.430633187,0.968073428,1.122611103745448
0.014951607,0.591021955,0.864993513,1.0975207288241033
0.015178147,0.724522233,0.739138305,1.0712579000295794
0.015404686,0.827840567,0.599665701,1.0449189573267028
0.015631226,0.903106689,0.451817781,1.0197409989443067
0.015857765,0.935418963,0.310642123,0.9715071649219427
0.016084305,0.968007028,0.16543147,0.9644051775237538
0.016310844,0.973299861,0.0202267338,0.9477217401828354
0.016537384,0.960198641,-0.118679591,0.9360662754981741
0.016763923,0.931229055,-0.251696199,0.9305385294672406
0.016990462,0.887405455,-0.378876686,0.9310359847580997
0.017217002,0.82891655,-0.499887377,0.9369900365478425
0.017443542,0.755490303,-0.61376673,0.9474751967819247
0.017670082,0.666800141,-0.71879065,0.9612824265650424
0.01789662,0.562885523,-0.812506676,0.9770072105475526
0.01812316,0.444518685,-0.891915143,0.9931094836268396
0.0183497,0.313527465,-0.953792632,1.0080198561668137
0.01857624,0.172979891,-0.995283902,1.0205120882707175
0.018802778,0.0268595833,-1.01450586,1.0299435771893894
0.019029318,-0.120183393,-1.01096678,1.0364978782165606
0.019255858,-0.26478219,-0.986941874,1.044163870795828
0.019482398,-0.407165885,-0.940597892,1.0505084523426769
0.019708936,-0.539354086,-0.870442688,1.0485733031775608
0.019935476,-0.656622052,-0.78133291,1.0416336354217588
0.020162016,-0.756865919,-0.677318215,1.0316059837145009
0.020388556,-0.838842869,-0.56216383,1.0196855306324202
0.020615094,-0.902141213,-0.439429402,1.006956967535189
0.020841634,-0.947069108,-0.312278181,0.9944575576565844
0.021068174,-0.974428833,-0.183329418,0.9831212260859606
0.021294714,-0.985253215,-0.0546229072,0.973707559658816
0.021521252,-0.980573833,0.072295934,0.9667517440372443
0.021747792,-0.96128732,0.1962073,0.9625706161660723
0.021974332,-0.92814827,0.316056013,0.9613506144574491
0.022200872,-0.881858885,0.430851042,0.9633077134459289
0.02242741,-0.82329452,0.539877951,0.9692820686379888
0.02265395,-0.75255692,0.643582344,0.9805401513484207
0.02288049,-0.667091727,0.740528762,0.9933942195810951
0.02310703,-0.567174554,0.826211214,1.0043119448444529
0.023333568,-0.455144644,0.897956133,1.0134818637542005
0.023560108,-0.333204001,0.953875065,1.020902545911162
0.023786648,-0.203826457,0.992310643,1.0262256367842464
0.024013188,-0.0698980391,1.01203907,1.02910881507649
0.024239726,0.0654037744,1.01246333,1.0293596483004552
0.024466266,0.198816225,0.993709922,1.0269873004044965
0.024692806,0.327215105,0.956625342,1.022201769896778
0.024919346,0.447816402,0.902705073,1.0154159787201609
0.025145884,0.558345675,0.833963573,1.007245133882132
0.025372424,0.657174945,0.752773046,0.998546167119871
0.025598964,0.74347049,0.661666095,0.990550390773389
0.025825504,0.817449927,0.562876999,0.9850548991555512
0.026052042,0.879817426,0.457093805,0.9830134496626436
0.026278582,0.929386795,0.344319552,0.9823157686098527
0.026505122,0.96466285,0.226476789,0.981866150125873
0.026731662,0.985494077,0.105623744,0.9823549510986596
0.0269582,0.991939306,-0.0167802349,0.9842251630710609
0.02718474,0.983873665,-0.139418468,0.9874448978999992
0.02741128,0.961073697,-0.260843456,0.9917019596032717
0.02763782,0.923367023,-0.37937519,0.9965321939514186
0.027864358,0.870785117,-0.493087679,1.0014021791703107
0.028090898,0.803704679,-0.599865556,1.0057798963216822
0.028317438,0.722964168,-0.697522998,1.0092155209508402
0.028543978,0.629924834,-0.783980548,1.011430796132308
0.028770516,0.526454806,-0.857495964,1.0124539910367871
0.028997056,0.414748341,-0.916945815,1.0128058140082665
0.029223596,0.296744317,-0.961946666,1.013398577900312
0.029450136,0.173603371,-0.991914272,1.0140320534198537
0.029676674,0.0472100377,-1.00532699,1.0129111444820953
0.029903214,-0.0792593285,-1.00165224,1.0095892510512887
0.030129754,-0.203009292,-0.981693804,1.0049354974503315
0.030356294,-0.321981221,-0.946654797,0.999827211359762
0.030582832,-0.434589326,-0.897796392,0.9949062437613521
0.030809372,-0.539562643,-0.836363912,0.9906324390170893
0.031035912,-0.635852575,-0.76355505,0.9873248115146331
0.031262452,-0.722551048,-0.680509031,0.9851725582384574
0.03148899,-0.798824728,-0.588328362,0.9842512075978771
0.03171553,-0.863876522,-0.488130093,0.9845536329550051
0.03194207,-0.916959643,-0.381103426,0.986054808199625
0.03216861,-0.957455456,-0.268531203,0.9888299572087952
0.032395148,-0.984972417,-0.151659444,0.993171249205211
0.032621688,-0.999135792,-0.0313737504,0.9992566430696288
0.032848228,-0.998808861,0.0915008783,1.0059915515417888
0.033074768,-0.982478738,0.214886546,1.0114406982738826
0.033301306,-0.94976604,0.335811496,1.0148248915830396
0.033527846,-0.901308298,0.451580793,1.0162818606501656
0.033754384,-0.838187158,0.559914708,1.0160621920708421
0.033980924,-0.761777282,0.658836663,1.014370375884283
0.034207464,-0.673719406,0.74667412,1.0114200794987673
0.034434004,-0.575865448,0.822102666,1.0074738076445482
0.034660544,-0.47019124,0.88417697,1.0028487164511184
0.034887084,-0.358705163,0.932337403,0.997922426995641
0.035113624,-0.243359149,0.966391087,0.9931354084350458
0.035340164,-0.125961542,0.986480772,0.9890106235887336
0.0355667,-0.00806507003,0.993047774,0.986208926800944
0.03579324,0.109222047,0.98668915,0.9854849342785927
0.03601978,0.225312248,0.96767664,0.9871636887005031
0.03624632,0.33942309,0.93549186,0.9903530541514076
0.03647286,0.44979018,0.889629006,0.9937509743409806
0.0366994,0.554341137,0.830430627,0.9969091224300659
0.03692594,0.651320875,0.758717895,0.9998717264039967
0.03715248,0.739192128,0.675448716,1.002635970043217
0.037379016,0.81649369,0.581723392,1.0050640506098019
0.037605556,0.881839395,0.478862256,1.0069497787953754
0.037832096,0.933989406,0.368445694,1.0080884399473746
0.038058636,0.971942842,0.252305865,1.0083311376284352
0.038285176,0.995029032,0.132474259,1.0076322038204562
0.038511716,1.00298154,0.0110865161,1.006094880420007
0.038738256,0.995980024,-0.109756984,1.0040228037438168
0.038964796,0.974626124,-0.228190094,1.0019668005829923
0.039191332,0.93971926,-0.342799485,1.0005837745312127
0.039417872,0.891780317,-0.452525884,1.000051809478602
0.039644412,0.830987036,-0.555969238,0.999641247602366
0.039870952,0.758000255,-0.651217163,0.9986481799658335
0.040097492,0.674203098,-0.736617863,0.9971556934434844
0.040324032,0.581172884,-0.8110798,0.9956123630649174
0.040550572,0.480391264,-0.873849869,0.9943893600788347
0.040777112,0.373243868,-0.924324214,0.9936862375863191
0.041003648,0.261088938,-0.96197176,0.9935571005834654
0.041230188,0.145319521,-0.986326933,0.9939585819448559
0.041456728,0.0274053663,-0.997012258,0.9947844967042958
0.041683268,-0.0910879746,-0.993792176,0.9959199081955452
0.041909808,-0.208520159,-0.976634264,0.9972951423282069
0.042136348,-0.323251307,-0.945763528,0.9989600583722149
0.042362888,-0.433778226,-0.901639998,1.001118235345147
0.042589428,-0.538825214,-0.844749928,1.0039350520981511
0.042815964,-0.637069464,-0.775345325,1.007017874960603
0.043042504,-0.72664398,-0.693769097,1.0093270336224358
0.043269044,-0.80542028,-0.601166368,1.0101028294495897
0.043495584,-0.871750355,-0.499397099,1.0093461439322418
0.043722124,-0.924619317,-0.390515834,1.007423497974262
0.043948664,-0.963463604,-0.276531011,1.004731516277351
0.044175204,-0.988038659,-0.159358278,1.0016154524456435
0.044401744,-0.998351514,-0.0408113711,0.998371313517154
0.044628284,-0.99462074,0.0774099454,0.9952627160849786
0.04485482,-0.977240682,0.193730012,0.9925306681053453
0.04508136,-0.946753144,0.306705296,0.9904096542683324
0.0453079,-0.903823555,0.415040135,0.9891553322336563
0.04553444,-0.849202216,0.517621815,0.9890767470232049
0.04576098,-0.78361547,0.613558173,0.9905068364784189
0.04598752,-0.707551777,0.702075839,0.9935400008434118
0.04621406,-0.621221304,0.782106459,0.997606421752979
0.0464406,-0.525091231,0.851997018,1.0016197195539878
0.046667136,-0.420392424,0.909987271,1.0048066235386233
0.046893676,-0.30888623,0.954755127,1.0069680556163991
0.047120216,-0.192488939,0.985445917,1.0081556469693165
0.047346756,-0.0731507614,1.00154281,1.0084390341560956
0.047573296,0.0471555702,1.00282049,1.007872582964727
0.047799836,0.166456759,0.989349365,1.0065200186426873
0.048026376,0.282829046,0.961505651,1.0044853861662038
0.048252916,0.394464999,0.919965923,1.001939934917312
0.048479452,0.499746412,0.865677118,0.9991433489356597
0.048705992,0.597319365,0.799796462,0.9964648044317207
0.048932532,0.686160505,0.723582685,0.9943881406536643
0.049159072,0.765579283,0.63820374,0.9934156523087818
0.049385612,0.835011065,0.544527352,0.9937535157485662
0.049612152,0.893604219,0.443228066,0.9949796187047002
0.049838692,0.940165579,0.33531341,0.9963463988622332
0.050065232,0.973663449,0.222333848,0.9974528518850627
0.050291768,0.993514121,0.106048346,0.9983165603157383
0.050518308,0.999467492,-0.0118335765,0.9990753010975514
0.050744848,0.991455376,-0.129668236,0.9997976140266531
0.050971388,0.969554543,-0.245824367,1.0004656312628895
0.051197928,0.934009373,-0.358656168,1.0010077556962973
0.051424468,0.885272563,-0.466513246,1.0013421194940455
0.051651008,0.824038208,-0.567785621,1.001419479658207
0.051877548,0.751254857,-0.660974681,1.0012713890891423
0.052104084,0.668093801,-0.7447806,1.0010474690709876
0.052330624,0.575850666,-0.818181455,1.0010248828385606
0.052557164,0.475769103,-0.880412817,1.0014829677073
0.052783704,0.368925393,-0.930745125,1.00239243331147
0.053010244,0.256465971,-0.968219399,1.003223598880894
0.053236784,0.14001362,-0.991840005,1.0033504093039045
0.053463324,0.0216010697,-1.00106132,1.0025903726123269
0.053689864,-0.0967370197,-0.99589628,1.0011674514982765
0.0539164,-0.213179171,-0.976715922,0.9994193512365573
0.05414294,-0.326117814,-0.944078386,0.9976368275205036
0.05436948,-0.43410641,-0.898653448,0.9960263948053768
0.05459602,-0.535817385,-0.841202438,0.9947218117653822
0.05482256,-0.630024552,-0.772581339,0.9938128614938337
0.0550491,-0.71560061,-0.69374603,0.993367787173133
0.05527564,-0.791540265,-0.60575521,0.9934753655584142
0.05550218,-0.856990874,-0.509742498,0.9942707723865638
0.055728716,-0.911266565,-0.406840771,0.9959261654347737
0.055955256,-0.95375663,-0.298079014,0.9985028078561691
0.056181796,-0.98369664,-0.184426144,1.0016720821379983
0.056408336,-1.00007653,-0.0671398342,1.0046608231932443
0.056634876,-1.00201213,0.0519485623,1.006726961792174
0.056861416,-0.989169896,0.170658007,1.007581238505863
0.057087956,-0.961784065,0.286843598,1.0073078374015099
0.057314496,-0.920472682,0.398565799,1.0061246544407816
0.057541032,-0.866106808,0.504104733,1.0042625846969502
0.057767572,-0.799746037,0.601951301,1.001939092472798
0.057994112,-0.722600818,0.690807939,0.9993675507596969
0.058220652,-0.635996461,0.769599259,0.9967745178578736
0.058447192,-0.541328311,0.837480247,0.9944095044052937
0.058673732,-0.440010667,0.893844724,0.9925677776964211
0.058900272,-0.333401114,0.938312829,0.9915872678824242
0.059126812,-0.222703859,0.970668554,0.9917944505379428
0.059353348,-0.108916283,0.990682781,0.99331512927243
0.059579888,0.00700721098,0.997885704,0.9958249792532938
0.059806428,0.123781234,0.99160701,0.9986062561717027
0.060032968,0.239644781,0.971384346,1.0010171687143858
0.060259508,0.352641016,0.937247217,1.0027880319397573
0.060486048,0.460902184,0.889651835,1.0039112107348371
0.060712588,0.562725246,0.829329371,1.0044469080890162
0.060939128,0.656557024,0.757214785,1.0044413563863328
0.061165664,0.74099052,0.67443347,1.0039274561861111
0.061392204,0.814789772,0.58229351,1.0029481043439321
0.061618744,0.876931906,0.482266992,1.001591019333521
0.061845284,0.926649272,0.375942767,1.0000118373577462
0.062071824,0.963462353,0.26495412,0.9984603913532711
0.062298364,0.98717165,0.15087156,0.997270094180556
0.062524904,0.99777025,0.0350923464,0.99677694456092
0.062751444,0.995246828,-0.0811795741,0.9971063718951189
0.06297798,0.979424894,-0.196722046,0.9979726863693373
0.06320452,0.950117528,-0.310005426,0.9988266811622722
0.06343106,0.907488286,-0.41922605,0.9992854702258203
0.0636576,0.852159798,-0.522622049,0.9993101274283591
0.06388414,0.785052359,-0.618666828,0.9990558504390465
0.06411068,0.707222998,-0.70606339,0.9986898795984
0.06433722,0.619809926,-0.78368175,0.9983214296511879
0.06456376,0.524031699,-0.850523412,0.9979992959169484
0.064790296,0.421203107,-0.905719995,0.9977407666892535
0.065016836,0.312737286,-0.948556721,0.9975644630089177
0.065243376,0.200127915,-0.978504479,0.9975221977853088
0.065469916,0.0848998576,-0.99525106,0.9977326582516238
0.065696456,-0.031470567,-0.998689413,0.9983709402255861
0.065922996,-0.147624463,-0.988829136,0.9995760422785449
0.066149536,-0.262268245,-0.96564126,1.0012476753497677
0.066376076,-0.373941123,-0.929027855,1.002924718836402
0.066602612,-0.480848789,-0.87908721,1.0040098806683506
0.066829152,-0.581059039,-0.816420615,1.0041722274005815
0.067055692,-0.672838151,-0.742113173,1.0034431389812268
0.067282232,-0.754796982,-0.657520711,1.0020519694302539
0.067508768,-0.825864911,-0.564105213,1.0002675425548135
0.067735312,-0.885224819,-0.463362157,0.9983274687132755
0.067961848,-0.932268322,-0.356794924,0.9964268419968615
0.068188392,-0.966574848,-0.245905727,0.9947365633576217
0.068414928,-0.987899423,-0.132181451,0.9934172059521983
0.068641472,-0.996167839,-0.0170699805,0.9926417476922004
0.068868008,-0.991459787,0.098056443,0.9926075752518977
0.069094552,-0.973954022,0.211945638,0.9935073904372036
0.069321088,-0.943814337,0.323461205,0.9954126538668016
0.069547624,-0.901080549,0.431440115,0.9980867286173546
0.069774168,-0.845756114,0.534444809,1.0009346582354275
0.070000704,-0.778138518,0.630704105,1.0032872212590873
0.070227248,-0.699051917,0.718386412,1.0047526196076086
0.070453784,-0.609762728,0.795896828,1.0052623452784635
0.070680328,-0.511784017,0.861974895,1.0049235996669172
0.070906864,-0.406747788,0.915668666,1.0038928689371125
0.0711334,-0.296345323,0.956299305,1.0023289112074574
0.071359944,-0.182296738,0.983445644,1.0003974353880154
0.07158648,-0.0663131997,0.996937454,0.9982817276424543
0.071813024,0.0499488711,0.996848404,0.9962016302815117
0.07203956,0.164939821,0.983472347,0.9944230018652004
0.072266104,0.277276039,0.957274973,0.9932573757356802
0.07249264,0.385774761,0.91879189,0.9930007033543793
0.072719184,0.489404917,0.868488491,0.9937894317832341
0.07294572,0.587094903,0.806689024,0.995427606570652
0.073172256,0.677516878,0.73373419,0.997394981549823
0.0733988,0.759129107,0.650290251,0.9991544116402604
0.073625336,0.830456436,0.557462454,1.0004222797135243
0.07385188,0.890296996,0.456656516,1.0011639146918823
0.074078416,0.937743008,0.349415243,1.0014529610936371
0.07430496,0.972129703,0.237340853,1.0013668399576359
0.074531496,0.993004024,0.122078434,1.0009601357280848
0.074758032,1.00012743,0.0053056078,1.0002830257125324
0.074984576,0.993486941,-0.111290224,0.9994018158955077
0.075211112,0.973307908,-0.226057678,0.9984303575580882
0.075437656,0.940042853,-0.337441295,0.9975471930476566
0.075664192,0.894322336,-0.444046885,0.9969900767467001
0.075890736,0.83685267,-0.544671118,0.9969890180694987
0.076117272,0.768293321,-0.638228953,0.9976108235406853
0.076343816,0.689250648,-0.723568439,0.9986177416853166
0.076570352,0.600482345,-0.799351335,0.9995416034229812
0.076796888,0.503129125,-0.864206314,0.9999914695807323
0.077023432,0.398697764,-0.917004764,0.9998576442172954
0.077249968,0.288861305,-0.956982493,0.9992563454347981
0.077476512,0.175299495,-0.98369199,0.9983798441374151
0.077703048,0.0596446469,-0.996918023,0.9974030284860542
0.077929592,-0.0565206222,-0.996626675,0.9964593100554308
0.078156128,-0.171655267,-0.982943654,0.9956437576277131
0.078382664,-0.284264088,-0.956155717,0.9950398268782559
0.078609208,-0.392917335,-0.916711688,0.9947443510593117
0.078835744,-0.496285766,-0.865209401,0.9948868691129855
0.079062288,-0.59317261,-0.802346587,0.9956137909247608
0.079288824,-0.682502031,-0.72884053,0.9970175404898058
0.079515368,-0.763211608,-0.645364523,0.9989873261329631
0.079741904,-0.83409214,-0.552634835,1.0011149588652568
0.079968448,-0.893779397,-0.451656133,1.0028348729781973
0.080194984,-0.940998733,-0.3438811,1.0037328264448153
0.08042152,-0.974829376,-0.231099203,1.0036991539397846
