Frequency (GHz),Re( S21 ),Im( S21 ),S2
0.0,0.056660302,4.57747992e-05,0.0032103919180634
0.000226438688,0.0519196391,-0.0219122563,0.0031757959004311
0.000452877375,0.038476821,-0.0399282128,0.0030747279316681
0.000679316063,0.0187305603,-0.0507406481,0.0029254472587599
0.00090575475,-0.00377925439,-0.0523550287,0.0027553317939221
0.0011321935,-0.0249864124,-0.0444108695,0.0025966461343689
0.00135863213,-0.0410171188,-0.0282658264,0.0024813609767282
0.00158507088,-0.0488883965,-0.00677655078,0.0024359969528151
0.0018115095,-0.0470597669,0.0161970407,0.0024769657881197
0.00203794825,-0.0357317477,0.0364775099,0.002607366522201
0.002264387,-0.0168324132,0.0503248945,0.0028159251405716
0.0024908255,0.00631316984,0.0551191457,0.0030779763361265
0.00271726425,0.0295647178,0.0498417914,0.0033582767085547
0.002943703,0.0489473715,0.0352828242,0.0036407228602871
0.00317014175,0.0604091994,0.0138608618,0.0038413948619876
0.00339658025,0.0620339401,-0.0105442954,0.0039593918898128
0.003623019,0.0532342866,-0.0336446352,0.003965850747552
0.00384945775,0.035488002,-0.0511967093,0.0038805013291007
0.0040758965,0.0117211938,-0.059810929,0.0037147336119401
0.004302335,-0.0138552403,-0.057605058,0.0035103103909541
0.004528774,-0.0365439542,-0.0445873961,0.0033234964795499
0.0047552125,-0.051977627,-0.0227348041,0.0032185450260165
0.004981651,-0.0569198169,0.00427520508,0.0032581429344055
0.00520809,-0.0499059297,0.0316534676,0.0034925438303255
0.0054345285,-0.0315933153,0.0543208458,0.0039488918600725
0.0056609675,-0.00473853946,0.0678230673,0.0046224222141943
0.005887406,0.0264790021,0.0692934468,0.0055027193216362
0.0061138445,0.0561250858,0.0575154796,0.0064580556496753
0.0063402835,0.0789886639,0.0340773948,0.0074004778610622
0.006566722,0.0906150863,0.00264179963,0.0082180729704415
0.0067931605,0.0882308111,-0.031346608,0.0087672858604695
0.0070195995,0.0714676678,-0.0618572086,0.008933941796555
0.007246038,0.0427520797,-0.0830127895,0.0087188635392464
0.007472477,0.00661875959,-0.0898948833,0.0081248980220308
0.0076989155,-0.0304169897,-0.0798059255,0.0072941790073214
0.007925354,-0.0609118529,-0.0528418496,0.0065025148928602
0.008151793,-0.0776488036,-0.0121913292,0.0061779652081741
0.0083782315,-0.0748842582,0.036038287,0.0069064102560586
0.00860467,-0.0494929105,0.0834984407,0.0094215377890924
0.008831109,-0.00180091802,0.120725408,0.0145778674424812
0.009057548,0.0646210089,0.138787761,0.023437917394647
0.009283986,0.141104415,0.129785001,0.0367546024170622
0.009510425,0.217822537,0.0897117406,0.055494854026598
0.009736864,0.283094406,0.0185425896,0.0804862703375668
0.009963302,0.325263441,-0.079181321,0.1120659876464655
0.010189741,0.335537732,-0.196343735,0.151136431869454
0.01041618,0.306939453,-0.321541697,0.197600890717579
0.010642618,0.236914843,-0.441898137,0.2514026063177854
0.010869057,0.127207547,-0.544125319,0.312254122790609
0.011095496,-0.0163170397,-0.615896344,0.3795945523371377
0.011321935,-0.184134498,-0.647032678,0.4525567997535636
0.011548373,-0.363839328,-0.630560577,0.5299856978660645
0.011774812,-0.541254282,-0.563495815,0.6104837313058498
0.012001251,-0.701735079,-0.447257072,0.6924710095531493
0.012227689,-0.831554532,-0.287725389,0.7742688391649403
0.012454128,-0.919074833,-0.0951137245,0.8537451692422399
0.012680567,-0.95457083,0.117697544,0.9250581813505208
0.012907005,-0.934771538,0.337895185,0.9879709843010698
0.013133444,-0.8611148,0.549167931,1.0431041152178608
0.013359883,-0.738211453,0.737009645,1.0881393661633971
0.013586321,-0.574738145,0.889630139,1.1217657195352002
0.01381276,-0.382211953,0.99868983,1.1434673535615032
0.014039199,-0.173575997,1.05984735,1.1534050320365667
0.014265638,0.0382311791,1.07279611,1.1523531166865086
0.014492076,0.241543934,1.04079688,1.1416016174699308
0.014718515,0.426923543,0.96982497,1.122824184003174
0.014944954,0.587715268,0.867405772,1.0978020095392278
0.015171392,0.721686125,0.742019832,1.071424294098824
0.015397831,0.825553834,0.602962852,1.0451033337240736
0.01562427,0.901354909,0.455433756,1.019860578082666
0.015850708,0.934297502,0.313943356,0.9714722530199826
0.016077147,0.967371881,0.169382706,0.9644988572413606
0.016303586,0.973282814,0.0241470486,0.9478625159838494
0.016530024,0.960715652,-0.11479938,0.9361534616461696
0.016756463,0.932263672,-0.247890264,0.9305651371169134
0.016982902,0.888953507,-0.375188202,0.9310045245275916
0.01720934,0.830979705,-0.496368766,0.9369092219822496
0.01743578,0.758067787,-0.610481858,0.9473548686342096
0.017662218,0.669885278,-0.715816915,0.9611401414812544
0.017888656,0.566455126,-0.809931099,0.976859794899024
0.018115096,0.448528349,-0.889832139,0.9929789154539812
0.018341534,0.317902654,-0.952295423,1.0079286700869927
0.018567972,0.177614599,-0.994443715,1.020465248080932
0.018794412,0.0316308811,-1.01436436,1.029935567477372
0.01902085,-0.115416221,-1.0115062,1.0364656967083608
0.019247288,-0.259999424,-0.988069773,1.0438815767966032
0.019473728,-0.402446628,-0.942565978,1.0503939112716667
0.019700166,-0.534983039,-0.873160839,1.0486167027808595
0.019926604,-0.652696967,-0.784683585,1.0417416592994515
0.020153044,-0.753461421,-0.681208253,1.0317487968906514
0.020379482,-0.836018085,-0.566498935,1.0198472818032014
0.02060592,-0.899938226,-0.444114,1.007126055612027
0.02083236,-0.945512474,-0.317219615,0.994622122630349
0.021058798,-0.973531604,-0.188440457,0.9832735898211816
0.021285236,-0.985019505,-0.0598221123,0.9738421103504789
0.021511676,-0.981002331,0.0670857504,0.9668660713341648
0.021738114,-0.962370574,0.19106254,0.9626620158923412
0.021964552,-0.929869831,0.31105116,0.961410726741314
0.022190992,-0.884187639,0.426056415,0.9633118497230464
0.02241743,-0.826180041,0.535326898,0.969148347869064
0.02264387,-0.756044388,0.639252365,0.9802467027843876
0.022870308,-0.671272159,0.736591995,0.9931740785466014
0.023096746,-0.571950376,0.822833538,1.004182263864139
0.023323186,-0.460415691,0.895220339,1.0134020638782824
0.023549624,-0.338877589,0.9518525,1.0208612020827028
0.023776062,-0.209798783,0.991063952,1.0262232863021392
0.024002502,-0.0760520101,1.01161456,1.029147926244244
0.02422894,0.0591943301,1.01288581,1.0294416328153435
0.024455378,0.192680746,0.994979799,1.0271106702971968
0.024681818,0.321280003,0.958719492,1.022363904668418
0.024908256,0.442199826,0.905576348,1.0156092081714474
0.025134694,0.553150654,0.837543309,1.007454440471297
0.025361134,0.652482748,0.756975293,0.9987453306500672
0.025587572,0.739327967,0.666393876,0.9906866407586564
0.02581401,0.813852668,0.568060935,0.9850493910837924
0.02604045,0.876792789,0.462755203,0.9829079727459696
0.026266888,0.927072763,0.350415081,0.9822546368886906
0.026493326,0.96312964,0.232873723,0.9818488743104103
0.026719766,0.984760642,0.112214729,0.9823456674367956
0.026946204,0.992021382,-0.0100859236,0.984208148200055
0.027172642,0.984787822,-0.132712275,0.9874196022951792
0.027399082,0.962831438,-0.254224181,0.9916743122062688
0.02762552,0.925969601,-0.372949749,0.9965112172552624
0.027851958,0.87421757,-0.486970007,1.001396147414285
0.028078398,0.807933629,-0.594172478,1.00579768248177
0.028304836,0.727932453,-0.692368984,1.0092604661357891
0.028531276,0.635551751,-0.779469728,1.01149908506756
0.028757714,0.532638013,-0.853708923,1.012522178102408
0.028984152,0.421381086,-0.91392684,1.012824288510925
0.029210592,0.303759128,-0.959714949,1.013322391177393
0.02943703,0.180959284,-0.990551293,1.0139381265297644
0.029663468,0.0547673404,-1.00494039,1.0129046490278415
0.029889908,-0.0716784298,-1.00225985,1.009662604220616
0.030116346,-0.195547938,-0.983265162,1.0050493748589382
0.030342784,-0.314756811,-0.949149191,0.999956036846844
0.030569224,-0.42770642,-0.901167274,0.9950352374378072
0.030795662,-0.533117652,-0.840559244,0.9907542735478448
0.0310221,-0.629934371,-0.768516421,0.9874348011138148
0.03124854,-0.717243135,-0.68617171,0.9852693303089524
0.031474978,-0.794204772,-0.594619691,0.9843337967925074
0.031701416,-0.860014737,-0.494967729,0.9846184006085966
0.031927856,-0.913915336,-0.388395518,0.9860923197784812
0.032154294,-0.955269158,-0.276180714,0.9888149510115788
0.032380732,-0.983663917,-0.159582615,0.9930613126180212
0.032607172,-0.998740911,-0.0395208932,0.9990453083044356
0.03283361,-0.999426663,0.0832083523,1.0057772846077966
0.033060048,-0.98418504,0.206621647,1.011312697968794
0.033286488,-0.952552497,0.3277601,1.0147829426929451
0.033512926,-0.905127645,0.443899065,1.0163024336511202
0.033739364,-0.842974782,0.552739143,1.016127043292322
0.033965804,-0.767454505,0.652291358,1.0144704329662793
0.034192244,-0.680193067,0.740868986,1.011549462811535
0.03441868,-0.583027363,0.817131042,1.0076240458067396
0.03464512,-0.477924109,0.880114257,1.003012559338106
0.03487156,-0.366884649,0.92923981,0.9980909701606892
0.035097996,-0.251857728,0.964292347,0.9932920456360904
0.035324436,-0.134654775,0.985392988,0.9891312492298688
0.035550876,-0.0168424677,0.992959976,0.986253182656146
0.035777312,0.100439303,0.987584174,0.985410554322388
0.036003752,0.21657981,0.969575465,0.9869833964296024
0.036230192,0.330850571,0.938456953,0.9901635529650702
0.036456628,0.441549957,0.893672526,0.9936169482539224
0.036683068,0.546592653,0.835501969,0.9968270685164552
0.036909508,0.644196451,0.764744937,0.9998238861481292
0.037135944,0.732808888,0.682350278,1.002610768218474
0.037362384,0.810961068,0.589407384,1.005058918125424
0.037588824,0.877257347,0.487220913,1.006964670930032
0.03781526,0.93044436,0.377355635,1.008123982322063
0.0380417,0.969503343,0.261629581,1.0083867697424111
0.03826814,0.993740141,0.14206326,1.0077014376765274
0.038494576,1.00286126,0.0207881071,1.0061628522055883
0.038721016,0.99701798,-0.100090168,1.0040628941735483
0.038947456,0.97678709,-0.218684435,1.001935901301937
0.039173892,0.942970097,-0.333548665,1.0004473157594718
0.039400332,0.896126211,-0.443622768,0.9998433463291984
0.039626772,0.83643496,-0.547565818,0.9994517673522108
0.039853208,0.764488339,-0.643488824,0.9985202870798818
0.040079648,0.681622684,-0.729704797,0.9970785741081752
0.040306088,0.589405954,-0.805085838,0.9955625851588124
0.040532524,0.489319563,-0.868859589,0.99435062013176
0.040758964,0.382747382,-0.920411348,0.9936526079550312
0.040985404,0.271041304,-0.959199607,0.9935272745429748
0.04121184,0.155586004,-0.984746695,0.993933057954111
0.04143828,0.0378430188,-0.996660113,0.99476347491707
0.04166472,-0.0806283355,-0.994685173,0.9958995218715404
0.041891156,-0.198189408,-0.978767037,0.99726395416115
0.042117596,-0.313192219,-0.949106574,0.9988926548521614
0.042344036,-0.424113512,-0.906149387,1.00097898262145
0.042570472,-0.529658735,-0.850394845,1.0037097679643745
0.042796912,-0.628531873,-0.782119215,1.0067627818491045
0.043023352,-0.718919396,-0.701630354,1.00913025159917
0.043249788,-0.798689067,-0.609996736,1.010000243675984
0.043476228,-0.866142809,-0.509037197,1.009322233512027
0.043702668,-0.920223415,-0.400800884,1.0074524821294435
0.043929104,-0.960340619,-0.287297398,1.0047938993988736
0.044155544,-0.986228108,-0.170444086,1.0016970674616352
0.044381984,-0.997874916,-0.052055832,0.9984641576272192
0.044608424,-0.995479822,0.0661664382,0.995358073553226
0.04483486,-0.979419589,0.18264316,0.9926212552117144
0.0450613,-0.950216115,0.295924693,0.9904820891328376
0.04528774,-0.908518076,0.404704779,0.9891910525641806
0.045514176,-0.855062723,0.507852554,0.9890464768684976
0.045740616,-0.790578008,0.6044541,0.990378345740058
0.045967056,-0.715578437,0.693733573,0.9933187698067094
0.046193492,-0.630282998,0.774665296,0.9973629783946356
0.046419932,-0.535104215,0.845638216,1.001440513270429
0.046646372,-0.431203216,0.904867887,1.0047221064125873
0.046872808,-0.320312649,0.950983167,1.006969177026747
0.047099248,-0.204344586,0.983089209,1.008221102679757
0.047325688,-0.0852493122,1.00064385,1.0085555597733953
0.047552124,0.0350017175,1.00339615,1.0080289540627725
0.047778564,0.154434085,0.991391182,1.0067063623571444
0.048005004,0.271119595,0.964979768,1.0046917874422978
0.04823144,0.383241445,0.924813271,1.0021535913834074
0.04845788,0.489165872,0.871814251,0.9993433385762114
0.04868432,0.587516367,0.807122052,0.9966214883175694
0.048910756,0.677241623,0.73198837,0.9944631897389312
0.049137196,0.757626772,0.64759475,0.9933772858787024
0.049363636,0.828114927,0.554835916,0.9936172260037744
0.049590072,0.887896478,0.454378664,0.9948201259432294
0.049816512,0.935794115,0.347169429,0.9962372381008192
0.050042952,0.970734596,0.234708965,0.9974139541226544
0.050269388,0.992085993,0.118746191,0.9983352753838044
0.050495828,0.999565959,0.00099675369,0.9991330999095082
0.050722268,0.993086457,-0.116891183,0.9998842597399522
0.050948704,0.972703457,-0.233284965,1.000573890154802
0.051175144,0.938639522,-0.346537352,1.0011322885915603
0.051401584,0.891323268,-0.454993337,1.0014761047925953
0.05162802,0.831424117,-0.557032883,1.0015516950725214
0.05185446,0.759867191,-0.651140511,1.0013821130235716
0.0520809,0.677806437,-0.735991955,1.0011057238633572
0.052307336,0.586534619,-0.810536146,1.0009917032580085
0.052533776,0.487311333,-0.873992026,1.0013343967818216
0.052760216,0.381228387,-0.925647199,1.0021578200711674
0.052986652,0.269401014,-0.964573741,1.002979408170963
0.053213092,0.153389633,-0.989762604,1.0031583917887354
0.053439532,0.0351951756,-1.00061071,1.0024604933522188
0.053665968,-0.0831415802,-0.997079909,1.0010808672896012
0.053892408,-0.199782401,-0.979511976,0.9993567188767492
0.054118848,-0.31310752,-0.948445618,0.9975854093839523
0.054345284,-0.421661288,-0.904533923,0.995979859655589
0.054571724,-0.524109006,-0.848520815,0.9946778236585722
0.054798164,-0.619215012,-0.781243265,0.9937682701940204
0.0550246,-0.70584029,-0.703638256,0.9933173102940056
0.05525104,-0.782960892,-0.616746902,0.9934044995280332
0.05547748,-0.849701941,-0.521692455,0.9941564061430944
0.055703916,-0.905355394,-0.419610053,0.995740986023558
0.055930356,-0.949306667,-0.311542571,0.9982419215559388
0.056156796,-0.980816603,-0.198454842,1.0013855330337045
0.056383232,-0.998890758,-0.0815523639,1.0044335344754929
0.056609672,-1.00260413,0.0373949483,1.0066134236514164
0.056836112,-0.991553664,0.156223819,1.0075845502147696
0.057062552,-0.965917885,0.272773087,1.0074025175543828
0.057288988,-0.926281333,0.385079384,1.0062832398460764
0.057515428,-0.873490453,0.491401166,1.0044606774283047
0.057741868,-0.808585048,0.590208828,1.0021562404982958
0.057968304,-0.732758462,0.680184364,0.99958573266269
0.058194744,-0.647320867,0.760229647,0.9969734210313764
0.058421184,-0.55365783,0.829476237,0.9945678204679892
0.05864762,-0.453178763,0.887290835,0.9926560171092074
0.05887406,-0.347246617,0.933268845,0.9915709500655786
0.0591005,-0.23708275,0.967179954,0.9916452937670046
0.059326936,-0.123702198,0.988805532,0.9930386139038342
0.059553376,-0.00804303307,0.997707725,0.9954853949056408
0.059779816,0.108667426,0.993219137,0.9982928635764904
0.060006252,0.224717751,0.974825859,1.0007835229895858
0.060232692,0.338156015,0.942492843,1.002642249586903
0.060459132,0.447095186,0.896630466,1.0038402979037515
0.060685568,0.549811304,0.837939501,1.0044350773423094
0.060912008,0.644732237,0.767331004,1.0044765271266722
0.061138448,0.730431139,0.685906053,1.003996762362876
0.061364884,0.8056494,0.594952345,1.0030392485413588
0.061591324,0.869336128,0.495923668,1.0016855879286066
0.061817764,0.920692921,0.390397578,1.0000857236877785
0.0620442,0.959204793,0.280004412,0.9984763056536384
0.06227064,0.984643281,0.166327789,0.9971873242120736
0.06249708,0.996987164,0.0507870279,0.9965627273836782
0.062723516,0.996239424,-0.0653994977,0.996770084231264
0.062949956,0.98224479,-0.181035265,0.9975785946557644
0.063176396,0.954796195,-0.294642061,0.9984497180968058
0.063402832,0.913996518,-0.404440671,0.9989618912750546
0.063629272,0.860412478,-0.5086537,0.9990382188217904
0.063855712,0.794930875,-0.605724692,0.9988174985267606
0.064082148,0.718590498,-0.6943326,0.9984700632386478
0.064308588,0.632514179,-0.773328125,0.9981105755520596
0.064535028,0.53790462,-0.841696262,0.9977939776821172
0.064761464,0.436059624,-0.898548782,0.9975379093167048
0.064987904,0.328377008,-0.943146646,0.9973570552440814
0.065214344,0.216339037,-0.974933326,0.9972975690755096
0.06544078,0.101469457,-0.993565083,0.9974676248606718
0.06566722,-0.0147463363,-0.998910248,0.998039137993694
0.06589366,-0.130934104,-0.990970016,0.9991653122013232
0.066120096,-0.245804533,-0.969728351,1.0007929431765272
0.066346536,-0.35793668,-0.935085952,1.0025044045171687
0.066572976,-0.46558246,-0.887092829,1.0037007143228749
0.066799412,-0.56681174,-0.826273143,1.004002855444926
0.067025852,-0.659855127,-0.753653884,1.0034029654964716
0.067252288,-0.743279874,-0.67056042,1.0021162479640324
0.067478728,-0.815977335,-0.578438163,1.0004097196485169
0.067705168,-0.877098739,-0.478772432,0.9985252395985847
0.067931608,-0.926007271,-0.373059511,0.9966628646924268
0.068158048,-0.962253034,-0.262795657,0.9949924587802668
0.068384488,-0.985561848,-0.149465635,0.9936721322791284
0.06861092,-0.995829582,-0.0345209688,0.9928682536731854
0.06883736,-0.993109941,0.0806540102,0.9927724242743652
0.0690638,-0.977566838,0.194787785,0.9935792039425244
0.06929024,-0.949369073,0.306730449,0.9953852051126209
0.06951668,-0.908571362,0.41533342,0.9980037696154314
0.06974312,-0.855163634,0.519205391,1.0008790789595488
0.069969552,-0.789381742,0.616608799,1.003329945607177
0.070195992,-0.711974442,0.705697358,1.0049163671493917
0.070422432,-0.624158502,0.784830749,1.0055331401947851
0.070648872,-0.527423203,0.852701902,1.0052757687371967
0.070875312,-0.423387706,0.908318937,1.0043004409047525
0.071101752,-0.313736856,0.950966656,1.0027683956365872
0.071328184,-0.200187355,0.980189919,1.0008472544111229
0.071554624,-0.0844505504,0.995784342,0.998718351235236
0.071781064,0.0318094641,0.997790754,0.9965982307742176
0.072007504,0.147029594,0.986472964,0.99474661021475
0.072233944,0.259803355,0.962274015,0.9934690632134764
0.072460384,0.368923128,0.925724626,0.9930703575561444
0.072686816,0.473347783,0.877304077,0.993720567191837
0.072913256,0.572029412,0.817349195,0.9952773547602138
0.073139696,0.663684428,0.746173382,0.9972517359750052
0.073366136,0.746786833,0.664374948,0.9990846454721726
0.073592576,0.819832981,0.572994411,1.000448711772583
0.073819016,0.881572664,0.473400325,1.0012782296221625
0.074045448,0.931053817,0.367119312,1.001637799393623
0.074271888,0.967574,0.255744636,1.0016047643187729
0.074498328,0.99064678,0.140914947,1.001238065012381
0.074724768,0.999996722,0.0243046749,1.00058416123274
0.074951208,0.99557519,-0.092397511,0.9997072589825312
0.075177648,0.977570415,-0.207530588,0.998712861238898
0.07540408,0.946402729,-0.319520801,0.9977716677303292
0.07563052,0.902680695,-0.426946133,0.9971154376093369
0.07585696,0.847107232,-0.528577328,0.9969846541823216
0.0760834,0.780354142,-0.623323262,0.9974844758868768
0.07630984,0.703025937,-0.710057318,0.9984268629400812
0.07653628,0.615837395,-0.787470043,0.999364765702808
0.07676272,0.519860566,-0.854179144,0.9998770181264128
0.076989152,0.416552603,-0.909006894,0.9998096044056028
0.077215592,0.307568043,-0.95113343,0.9992529027384148
0.077442032,0.194586501,-0.980066538,0.9983943252787284
0.077668472,0.0792443231,-0.995557666,0.9974147290749448
0.077894912,-0.0368721075,-0.997541964,0.9964495222524687
0.078121352,-0.152217805,-0.986117661,0.9955983014951288
0.078347784,-0.265290439,-0.96154201,0.9949420540196529
0.078574224,-0.374649048,-0.924236238,0.9945745327996988
0.078800664,-0.478944629,-0.874772787,0.9946153865236952
0.079027104,-0.576959133,-0.813837886,0.9952139458410606
0.079253544,-0.667601407,-0.742150307,0.996478716808574
0.079479984,-0.749818146,-0.660388768,0.9983405769714352
0.079706416,-0.822433293,-0.569249094,1.0004410524546448
0.079932856,-0.884098411,-0.469671935,1.0022217268593692
0.080159296,-0.933507144,-0.363035768,1.0032305567463866
0.080385736,-0.96967411,-0.25108701,1.0033125661950322
0.080612176,-0.992040038,-0.135716289,1.0025623480949728
