Frequency (GHz),Re( S21 ),Im( S21 ),S2
0.0,0.0568449832,5.03850752e-05,0.0032313546536640847
0.000226461281,0.0520966984,-0.0219724718,0.003196855501182358
0.000452922563,0.0386300161,-0.0400514267,0.003096394924591732
0.000679383812,0.0188418347,-0.0509212576,0.0029479892104276816
0.000905845125,-0.00372859603,-0.0525823422,0.0027788051395928326
0.00113230638,-0.0250141434,-0.0446668789,0.0026208374407030288
0.00135876762,-0.041136533,-0.0285245553,0.0025058646023228474
0.001585229,-0.0491041802,-0.00700456463,0.002460284438769919
0.00181169025,-0.0473632291,0.0160372537,0.0025004689770172506
0.0020381515,-0.0360985734,0.0364217237,0.0026296489587943296
0.00226461275,-0.0172219668,0.0504001305,0.002836769294877333
0.002491074,0.0059536444,0.0553352833,0.003097439459532911
0.00271753525,0.0292923227,0.0501857959,0.0033766542792773926
0.0029439965,0.0488311909,0.0357209519,0.0036604716093543562
0.003170458,0.0604668297,0.0143277878,0.003861522997210631
0.00339691925,0.0622774959,-0.0101260021,0.003981022414103721
0.0036233805,0.0536404774,-0.0333516113,0.0039896307920061986
0.00384984175,0.0360062048,-0.0510967411,0.003907323735139972
0.004076303,0.0122675793,-0.0599496923,0.0037444591087464683
0.0043027645,-0.0133828092,-0.0579916686,0.0035421332090958303
0.0045292255,-0.0362500809,-0.0451871492,0.003355946818079605
0.004755687,-0.0519504957,-0.023468975,0.0032496467910263435
0.004982148,-0.0572122186,0.00352210621,0.0032856431892887067
0.0052086095,-0.0505198166,0.0310173649,0.0035143287946373877
0.0054350705,-0.032471519,0.053935267,0.00396341257252865
0.005661532,-0.00576779386,0.0677931979,0.004629185127520019
0.005887993,0.0254606176,0.0696819723,0.005503820312191398
0.0061144545,0.0552889444,0.0582991876,0.006455662647686286
0.006340916,0.0784953982,0.0351615474,0.0073978619541390095
0.006567377,0.0905869678,0.00386607042,0.008220945235690636
0.0067938385,0.0887151062,-0.0301891044,0.008781752092551378
0.0070202995,0.0724199936,-0.0609903559,0.008964478985832705
0.007246761,0.0440439582,-0.0826426446,0.008769676960405256
0.007473222,0.00802732259,-0.0901703835,0.008195135968500999
0.0076996835,-0.029177973,-0.0807834268,0.0073773161539396875
0.0079261445,-0.0601544678,-0.054458566,0.0065842954070775925
0.008152606,-0.0776626021,-0.0142536312,0.006234645767328539
0.0083790675,-0.0758824348,0.0338456146,0.006903669538827983
0.008605529,-0.0515625216,0.0815813765,0.009314214625385219
0.00883199,-0.00486643845,0.119528055,0.014310638155270663
0.009058451,0.0608125925,0.138740823,0.022947187373288387
0.009284912,0.136977196,0.131209761,0.035978753605699534
0.009511374,0.21389395,0.0927372128,0.05435081248451498
0.009737835,0.279966861,0.0231373645,0.07891678089419918
0.009964296,0.323484987,-0.0732752159,0.11001179407958178
0.010190758,0.335581452,-0.189560294,0.14854801598779474
0.010417219,0.309113741,-0.314475596,0.1944462053545703
0.01064368,0.241323844,-0.435230941,0.2476631696866818
0.010870141,0.133735344,-0.538556874,0.30792864876745013
0.011096603,-0.00800167397,-0.612080097,0.37470607192985156
0.011323064,-0.174561277,-0.645510137,0.4471549763976296
0.011549525,-0.353697717,-0.631701171,0.5241484444537834
0.011775986,-0.531335175,-0.567450285,0.6043168941388619
0.012002448,-0.69285965,-0.453930438,0.6861073371409944
0.012228909,-0.824491262,-0.296771735,0.7678593038092629
0.01245537,-0.914448261,-0.10594514,0.8474399947355438
0.012681832,-0.952850461,0.105886348,0.9191359197206898
0.012908293,-0.936170697,0.325934678,0.9826489882444295
0.013134754,-0.865527868,0.537938893,1.0385167428866908
0.013361215,-0.745273292,0.727320611,1.0844275509539307
0.013587677,-0.583860278,0.882123888,1.1190353780064737
0.013814138,-0.392654955,0.993779659,1.1417759243282082
0.014040599,-0.184538171,1.0576874,1.1527569726747855
0.014267061,0.0275213327,1.07328391,1.1526957752184723
0.014493522,0.231747434,1.04361379,1.1428366158437484
0.014719983,0.418533474,0.974494278,1.12480936671325
0.014946444,0.581031859,0.873366594,1.1003672286881567
0.015172906,0.716775239,0.748734117,1.074369521203277
0.015399367,0.822346985,0.609889448,1.048219702520335
0.015625828,0.899646223,0.4621768,1.0229707210164056
0.015852289,0.933600962,0.320166469,0.9741173241192533
0.016078751,0.967643023,0.174999475,0.9669578362108542
0.016305212,0.974106312,0.0291657802,0.949733749812916
0.016531673,0.961880684,-0.110286556,0.9373775746866491
0.016758135,0.933642149,-0.243740097,0.9310968972749075
0.016984596,0.890515983,-0.371248454,0.9308441305758464
0.017211058,0.832782269,-0.492521524,0.9361037591640708
0.017437518,0.760224342,-0.606674492,0.945994989412791
0.01766398,0.672529221,-0.712078035,0.9593506810283281
0.01789044,0.56970185,-0.80637008,0.9747929038126288
0.018116902,0.452439725,-0.886621296,0.9907990272787952
0.018343364,0.322464377,-0.949641109,1.0058015103367481
0.018569824,0.182729602,-0.99255085,1.018547297282801
0.018796286,0.0371250883,-1.01340222,1.028362331682211
0.019022748,-0.109768547,-1.01158059,1.035344423975239
0.019249208,-0.254456222,-0.989236772,1.0433373599914932
0.01947567,-0.397312224,-0.944756389,1.0504216378961455
0.019702132,-0.530480325,-0.876217961,1.0491672903911031
0.019928592,-0.648997724,-0.788397729,1.0427690248495376
0.020155054,-0.750656009,-0.685329378,1.0331608001976749
0.020381516,-0.834107757,-0.570774913,1.0215197515977286
0.020607976,-0.898844182,-0.448323697,1.008915000806997
0.020834438,-0.945098102,-0.321198493,0.9963788943094735
0.021060898,-0.9736287,-0.192095369,0.9848534762549362
0.02128736,-0.985461295,-0.0631333888,0.975119788724449
0.021513822,-0.981650293,0.0640750155,0.967742905358311
0.021740282,-0.963136375,0.188266098,0.9630758005042863
0.021966744,-0.930725932,0.308366328,0.9613405527414721
0.022193206,-0.885166049,0.423391432,0.962779238993281
0.022419666,-0.827364564,0.532627285,0.9682239464893814
0.022646128,-0.75753969,0.636531591,0.9790388482662873
0.02287259,-0.673158944,0.733906865,0.9917622503813234
0.02309905,-0.574301183,0.820280731,1.0026823264450937
0.023325512,-0.463258296,0.892941475,1.0119527265879993
0.023551972,-0.342177719,0.950002372,1.0195900981856694
0.023778434,-0.213461414,0.989782989,1.0252361405806534
0.024004896,-0.0799324363,1.01100588,1.0285220837674278
0.024231356,0.0552724004,1.01299894,1.0292218906871013
0.024457818,0.188902035,0.995800972,1.0273035546632858
0.02468428,0.317812949,0.960175037,1.022941172230028
0.02491074,0.439174563,0.907543302,1.0165091417913041
0.025137202,0.550644994,0.839870334,1.0085920873505316
0.025363664,0.650515974,0.759503782,1.0000170273014723
0.025590124,0.737867117,0.668983281,0.9919865126074165
0.025816586,0.812829614,0.570605278,0.9862823646768464
0.026043048,0.876121461,0.465179026,0.9839803406550832
0.026269508,0.926644206,0.352686286,0.9830571008458442
0.02649597,0.962848783,0.235017747,0.9823111203295372
0.02672243,0.98457092,0.114289053,0.9824418841452832
0.026948892,0.991906345,-0.0080118347,0.983942386746519
0.027175354,0.984772265,-0.130574301,0.9868260619948689
0.027401814,0.96297437,-0.251980364,0.9908137411184693
0.027628276,0.926350594,-0.370593429,0.9954649126221308
0.027854738,0.874920428,-0.484535664,1.0002605650196241
0.028081198,0.809026897,-0.591733754,1.004673355692381
0.02830766,0.729455173,-0.690029681,1.0082458100774216
0.028534122,0.637502134,-0.777348399,1.0106795042824173
0.028760582,0.534971774,-0.851923943,1.0119692036333743
0.028987044,0.4240143,-0.912579179,1.012588884548804
0.029213504,0.306573808,-0.958876491,1.013431624744094
0.029439966,0.18381229,-0.990247905,1.0143778713119331
0.029666428,0.0575222708,-1.00514114,1.0136175229584883
0.029892888,-0.0691317543,-1.00289571,1.0105790045889997
0.03011935,-0.193287164,-0.984240711,1.0060897049569484
0.030345812,-0.312820047,-0.950354517,1.0010300897873854
0.030572272,-0.426089257,-0.902495086,0.9960494351849594
0.030798734,-0.531779051,-0.841921568,0.9916208857460391
0.031025196,-0.628808737,-0.769856095,0.988078834736184
0.031251656,-0.716256261,-0.68746978,0.9856377298349485
0.031478118,-0.793290794,-0.595893443,0.9843992792555447
0.031704578,-0.859129667,-0.496262759,0.984380510689823
0.03193104,-0.913047612,-0.389773548,0.9855793604994108
0.032157502,-0.954443455,-0.277702928,0.9880812250121103
0.032383962,-0.982939839,-0.161293864,0.9921864376573964
0.032610424,-0.998199165,-0.0414316617,0.9981181555979205
0.032836886,-0.999147773,0.0811255127,1.0048776211016974
0.033063346,-0.984237254,0.204421401,1.0105110813482632
0.033289808,-0.952988923,0.325524449,1.0141540542574536
0.03351627,-0.905969322,0.441732228,1.0159077736589839
0.033742732,-0.844202518,0.550750613,1.0160041291174162
0.033969192,-0.769011557,0.650579095,1.0146319336505831
0.034195652,-0.681990981,0.739504337,1.011978362607152
0.034422116,-0.584960818,0.81614995,1.0082798994802316
0.034648576,-0.479886502,0.879514217,1.003836312706919
0.034875036,-0.368781924,0.928981245,0.9990062610308919
0.0351015,-0.253621608,0.964310527,0.9942187125275234
0.03532796,-0.136250734,0.985609829,0.9899909975369481
0.03555442,-0.0182693824,0.993300378,0.9869794112682204
0.03578088,0.0991565064,0.987988234,0.9859527632838921
0.036007344,0.215401664,0.970003963,0.9873055650896743
0.036233804,0.329726338,0.938890696,0.9902351970062546
0.036460264,0.440424919,0.894123435,0.9934308262923558
0.036686728,0.545429647,0.836012363,0.9964101709153883
0.036913188,0.642986655,0.765372515,0.9992269252255143
0.037139648,0.731576264,0.68315351,1.0019025482735178
0.037366112,0.809755683,0.590430677,1.0043126504934747
0.037592572,0.876149595,0.488485903,1.0062565902483893
0.037819032,0.929513574,0.378854275,1.0075260459360291
0.038045496,0.968824208,0.263322711,1.0079591961352168
0.038271956,0.993371069,0.143884435,1.0074888113614722
0.038498416,1.00283444,0.022652939,1.0061900696954513
0.03872488,0.997335672,-0.0982731655,1.004336057701082
0.03895134,0.977421463,-0.217002869,1.0024429614872916
0.0391778,0.943866551,-0.332076997,1.0011591980331738
0.039404264,0.897204757,-0.442412108,1.0007048492884327
0.039630724,0.837603927,-0.546630621,1.000385374340667
0.039857184,0.765665472,-0.642806768,0.9994441559995887
0.040083648,0.682748199,-0.72922945,0.997920693985046
0.040310108,0.59044528,-0.804757655,0.9962605119553773
0.040536568,0.49026686,-0.868616998,0.9948570832287916
0.040763032,0.383621931,-0.920200527,0.9939347958352465
0.040989492,0.271883249,-0.958986163,0.9935749619122585
0.041215952,0.156444773,-0.984519958,0.9937545146993434
0.041442412,0.038767349,-0.996436656,0.99438891676895
0.041668876,-0.0796029046,-0.994504154,0.9953751347440125
0.041895336,-0.197048858,-0.978684068,0.9966507573961327
0.042121796,-0.31194967,-0.949183881,0.9982626365633309
0.04234826,-0.422810495,-0.90644145,1.0004048169602475
0.04257472,-0.528361619,-0.850937665,1.0032609101479535
0.04280118,-0.627318859,-0.782916665,1.006487455191784
0.043027644,-0.717862964,-0.702656746,1.009053737782174
0.043254104,-0.79784888,-0.611204922,1.0101342919942804
0.043480564,-0.865560889,-0.510362267,1.0096652961438497
0.043707028,-0.919916511,-0.402165741,1.0079836704444922
0.043933488,-0.960297704,-0.288624763,1.0054759341244779
0.044159948,-0.986411393,-0.17166777,1.0024772594969733
0.044386412,-0.998226464,-0.0531303473,0.999278907234162
0.044612872,-0.995933771,0.0652592257,0.996142842757244
0.044839332,-0.979911864,0.18189463,0.9933129176307913
0.045065796,-0.95069772,0.295303077,0.9910300620988663
0.045292256,-0.908960581,0.40416348,0.989557456377568
0.045518716,-0.855463982,0.507342398,0.9892149333076867
0.04574518,-0.790958703,0.603934705,0.9903527977548793
0.04597164,-0.715972781,0.693181813,0.993118049006841
0.0461981,-0.630730331,0.774075508,0.9970136425288276
0.046424564,-0.535646617,0.845021009,1.0009778039549229
0.046651024,-0.431878328,0.904255986,1.0041977784129077
0.046877484,-0.321141303,0.950428009,1.006445136784242
0.047103944,-0.205322668,0.98265183,1.0077620169969872
0.047330408,-0.086346209,1.00037956,1.0082149318744653
0.047556868,0.0338377766,1.0033462,1.0078485921796716
0.047783328,0.153268099,0.991575241,1.006712568735282
0.048009792,0.270020157,0.965391338,1.004891320671735
0.048236252,0.38226977,0.925421476,1.0025350852978716
0.048462712,0.488367289,0.872569382,0.9998799353690714
0.048689176,0.586914957,0.807964206,0.9972753249275221
0.048915636,0.676837981,0.732855082,0.9951862237373832
0.049142096,0.757401884,0.64842993,0.9941189880065544
0.04936856,0.828031063,0.555594444,0.994320627496579
0.04959502,0.887901545,0.455033928,0.9954250292444962
0.04982148,0.935829699,0.347723305,0.9966887223705536
0.050047944,0.970754564,0.235189274,0.9976784181314772
0.050274404,0.992065489,0.119196363,0.998401707417237
0.050500864,0.99950403,0.00146453572,0.9990104508511161
0.050727328,0.993004143,-0.116363898,0.9995977847729188
0.050953788,0.972639859,-0.232670769,1.0001639820625914
0.051180248,0.938644409,-0.345828205,1.0006504739204813
0.051406712,0.891447783,-0.454204202,1.000980606930072
0.051633172,0.831711292,-0.5562011,1.0011033368815194
0.051859632,0.76034373,-0.650320351,1.001039146675076
0.052086096,0.67847687,-0.735247314,1.0009194758692115
0.052312556,0.587378681,-0.809932113,1.0010037425619447
0.052539016,0.488282323,-0.873584151,1.0015688958326672
0.052765476,0.38225919,-0.925470352,1.00261746077046
0.05299194,0.270416141,-0.964631796,1.0036393911675177
0.0532184,0.154321134,-0.990031123,1.003976636907687
0.05344486,0.0359908938,-1.00104547,1.0033873774440438
0.053671324,-0.0825139955,-0.997624636,1.0020634738075065
0.053897784,-0.199333191,-0.980104089,1.0003377463087624
0.054124244,-0.312823385,-0.949025214,0.998507327010604
0.054350708,-0.421508312,-0.905053616,0.9967913049197648
0.054577168,-0.524039686,-0.848952711,0.9953382980172282
0.054803628,-0.619177163,-0.781581402,0.9942498471330143
0.055030092,-0.70578742,-0.703899562,0.9936104756140484
0.055256552,-0.782860577,-0.61696589,0.9935175924442651
0.055483012,-0.84954226,-0.52191335,0.9941155964341302
0.055709476,-0.905147195,-0.419876665,0.9955878584278901
0.055935936,-0.94908005,-0.311886996,0.9980264395819065
0.056162396,-0.980610609,-0.198890463,1.0011545827557051
0.05638886,-0.998745143,-0.0820769966,1.0042284940369668
0.05661532,-1.00255704,0.0367980935,1.0064747181387963
0.05684178,-0.991636574,0.155586883,1.0075503730561133
0.057068244,-0.966148734,0.272141129,1.0075041703031975
0.057294704,-0.926657319,0.384503275,1.0065365553419934
0.057521164,-0.873988211,0.490927726,1.0048654251225115
0.057747624,-0.809164524,0.589872062,1.0026962764282785
0.057974088,-0.733370245,0.67999965,1.0002314402514825
0.058200548,-0.647913814,0.760192037,0.997684243490236
0.058427008,-0.554188848,0.829562128,0.9952986034594553
0.058653472,-0.453618646,0.887463391,0.9933611463640922
0.058879932,-0.347583503,0.93348521,0.992208928846495
0.059106392,-0.237322092,0.967399359,0.9921832951448672
0.059332856,-0.123862371,0.988993824,0.9934506708598846
0.059559316,-0.00815347489,0.997839272,0.9957496918982719
0.059785776,0.108566947,0.993281722,0.998395361240186
0.06001224,0.224583939,0.974828601,1.0007287469843729
0.0602387,0.337955594,0.942465961,1.0024560711595463
0.06046516,0.446812809,0.896615684,1.0035613710812583
0.060691624,0.549452245,0.837982178,1.0041119001811638
0.060918084,0.644321322,0.767469168,1.0041588898144398
0.061144544,0.730006993,0.686165273,1.0037329917000666
0.061371008,0.805259526,0.595340848,1.0028736295111038
0.061597468,0.869027495,0.496430218,1.0016517484095027
0.061823928,0.92050606,0.390993834,1.0002075847227432
0.062050392,0.959167838,0.280649096,0.9987668565392115
0.062276852,0.984767556,0.166970745,0.9976463690360681
0.062503312,0.99726671,0.0513763838,0.9971804236865891
0.062729776,0.996647179,-0.0649115369,0.9975191070313781
0.062956236,0.982735932,-0.180681482,0.9984157099816249
0.063182696,0.955318749,-0.294432431,0.9993243686154948
0.063409156,0.914502919,-0.404363126,0.9998251265280125
0.06363562,0.86086762,-0.508681595,0.9998500242562083
0.06386208,0.795314848,-0.605824828,0.9995494296704928
0.06408854,0.718898833,-0.694469154,0.9991029379462377
0.064315004,0.632755935,-0.773470104,0.9986360750594951
0.064541464,0.538100541,-0.841821432,0.9982155155990233
0.064767924,0.436235607,-0.898648262,0.9978702036102791
0.064994388,0.328558713,-0.943224669,0.997623604098376
0.065220848,0.216547027,-0.975007296,0.9975318421557704
0.065447308,0.101711705,-0.993661284,0.9977080182545357
0.065673772,-0.0144763654,-0.999057412,0.998325277627332
0.065900232,-0.130659088,-0.991191566,0.9995325177865241
0.066126692,-0.245558217,-0.970033407,1.0012636486322466
0.066353156,-0.357754111,-0.935465395,1.0030835091799064
0.066579616,-0.46549049,-0.887524486,1.0043811095300044
0.066806076,-0.566827118,-0.826727152,1.004770765554217
0.06703254,-0.659983754,-0.754094958,1.0042377612249542
0.067259,-0.743514776,-0.670951962,1.0029907574419796
0.067485464,-0.816298127,-0.57874763,1.001291451374325
0.06771192,-0.877472997,-0.478976429,0.9993772800017541
0.067938384,-0.92639482,-0.373148471,0.9974471439324701
0.068164848,-0.962613523,-0.262776613,0.9956763430022234
0.068391304,-0.985861301,-0.149360985,0.9942312086495829
0.068617768,-0.996046603,-0.034365017,0.9932897897412499
0.068844232,-0.993239045,0.0808226168,0.9930560958989118
0.069070688,-0.977619112,0.194934115,0.9937384373385016
0.069297152,-0.949367523,0.306828201,0.9954422386560521
0.069523616,-0.908544838,0.415369064,0.9979851819846823
0.069750072,-0.855142415,0.519175947,1.000812213875379
0.069976536,-0.789396584,0.616521299,1.0032454789515164
0.070203,-0.712053597,0.705572546,1.0048529426695605
0.070429456,-0.624319136,0.784702122,1.0055318038470893
0.07065592,-0.527665734,0.852608263,1.005371976973636
0.070882384,-0.423695683,0.90829587,1.0045194192518934
0.07110884,-0.314079851,0.951041162,1.0031254446224924
0.071335304,-0.200526193,0.980373085,1.0013421398714903
0.07156176,-0.0847447962,0.996071041,0.9993391992018031
0.071788224,0.0315946005,0.99816072,0.997323041731673
0.072014688,0.146918505,0.986894846,0.9955464841727988
0.072241144,0.259806633,0.962710083,0.9943101904606637
0.072467608,0.369037986,0.926136792,0.9939183926069874
0.072694072,0.473558038,0.877656877,0.9945388090998025
0.072920528,0.572305858,0.8176139,0.9960264845743262
0.073146992,0.663986325,0.74633646,0.9978959513123371
0.073373456,0.74707067,0.66444248,0.9995983952027994
0.073599912,0.820064068,0.572991729,1.0008245971271181
0.073826376,0.881733358,0.47336483,1.0015279768908851
0.07405284,0.931144297,0.367090106,1.0017848477587155
0.074279296,0.967611492,0.25575608,1.0016831719074324
0.07450576,0.990661561,0.140990376,1.0012886145675781
0.074732224,1.00002646,0.0244521927,1.0006508304279693
0.07495868,0.995657802,-0.0921864063,0.9998327921899798
0.075185144,0.977738619,-0.207280159,0.9989378713990925
0.075411608,0.946677387,-0.319267184,0.9981296098364377
0.075638064,0.90306741,-0.426734358,0.9976329593017803
0.075864528,0.847592831,-0.528452873,0.9976760461445487
0.076090992,0.780905664,-0.623324573,0.9983471793729133
0.076317448,0.703596175,-0.710206032,0.9994401853638157
0.076543912,0.616374671,-0.787765384,1.0004920352790256
0.076770376,0.520320356,-0.854601026,1.0010761865082194
0.076996832,0.416903108,-0.909522533,1.0010394394947957
0.077223296,0.307792455,-0.951704085,1.0004768607606143
0.07744976,0.194682047,-0.980651796,0.9995790444221357
0.077676216,0.0792224556,-0.996120691,0.9985326285096114
0.07790268,-0.0369879268,-0.998054862,0.9974816142908013
0.078129144,-0.152397752,-0.986565173,0.9965359153911735
0.0783556,-0.265503645,-0.961923838,0.9957896556209364
0.078582064,-0.374869674,-0.924564779,0.9953473030521851
0.078808528,-0.479158789,-0.875070095,0.9953408162392555
0.079034984,-0.577166557,-0.814128578,0.9959265760355365
0.079261448,-0.667816401,-0.742454052,0.9972167647758114
0.079487912,-0.750064373,-0.660713613,0.9991390420473969
0.079714368,-0.822733819,-0.5695889,1.0013224519295347
0.079940832,-0.884472191,-0.47001037,1.0032008045598773
0.080167296,-0.933966041,-0.363350451,1.004316115983117
