Frequency (GHz),Re( S21 ),Im( S21 ),S2
0,0.056765799,4.12E-05,3.22E-03
0.000226445,0.052021071,-0.021950958,3.19E-03
0.00045289,0.038565368,-0.040000539,3.09E-03
0.000679334,0.018796654,-0.050844632,2.94E-03
0.000905779,-0.003746057,-0.052486245,2.77E-03
0.001132224,-0.024997106,-0.044560481,2.61E-03
0.001358669,-0.041080624,-0.028419932,2.50E-03
0.001585113,-0.049009439,-0.00691592,2.45E-03
0.001811558,-0.047235183,0.016095204,2.49E-03
0.002038003,-0.035948526,0.036436155,2.62E-03
0.002264448,-0.017066635,0.050362542,2.83E-03
0.002490893,0.006094571,0.055244099,3.09E-03
0.002717337,0.029399894,0.050048642,3.37E-03
0.002943782,0.048848599,0.035544448,3.65E-03
0.003170227,0.060425635,0.014150141,3.85E-03
0.003396672,0.06217137,-0.010273353,3.97E-03
0.003623116,0.053492554,-0.033450861,3.98E-03
0.003849561,0.035817944,-0.051123422,3.90E-03
0.004076006,0.012072616,-0.059888616,3.73E-03
0.004302451,-0.013546767,-0.05784091,3.53E-03
0.004528896,-0.036345273,-0.044960752,3.34E-03
0.00475534,-0.051945657,-0.023196844,3.24E-03
0.004981785,-0.057089649,0.003797043,3.27E-03
0.00520823,-0.050280433,0.031245526,3.50E-03
0.005434675,-0.032137804,0.054068856,3.96E-03
0.00566112,-0.00538176,0.067795865,4.63E-03
0.005887564,0.025568262,0.069403261,5.47E-03
0.006114009,0.055580121,0.057990078,6.45E-03
0.006340454,0.078660689,0.034754664,7.40E-03
0.006566899,0.090582386,0.003421691,8.22E-03
0.006793343,0.088527843,-0.030596925,8.77E-03
0.007019788,0.072083749,-0.061299674,8.95E-03
0.007246233,0.043586645,-0.082766928,8.75E-03
0.007472678,0.007531644,-0.09006121,8.17E-03
0.007699122,-0.029608399,-0.080422036,7.34E-03
0.007925567,-0.060407326,-0.053868718,6.55E-03
0.008152012,-0.077634096,-0.013505866,6.21E-03
0.008378457,-0.07549651,0.034637209,6.90E-03
0.008604901,-0.050788447,0.082270615,9.35E-03
0.008831346,-0.003731744,0.119955674,1.44E-02
0.009057791,0.062201038,0.138732761,2.31E-02
0.009284236,0.138484791,0.130654842,3.62E-02
0.00951068,0.215330258,0.091630623,5.48E-02
0.009737125,0.281112194,0.02147634,7.95E-02
0.00996357,0.32416752,-0.075403899,1.11E-01
0.010190015,0.335624158,-0.1920048,1.50E-01
0.010416459,0.308406264,-0.317026764,1.96E-01
0.010642904,0.239830121,-0.437652618,2.49E-01
0.010869349,0.13149555,-0.540606916,3.10E-01
0.011095794,-0.010873602,-0.613532364,3.77E-01
0.011322239,-0.177883729,-0.646176755,4.49E-01
0.011548683,-0.357233852,-0.631453574,5.26E-01
0.011775128,-0.534813702,-0.566235244,6.07E-01
0.012001573,-0.695998371,-0.45177868,6.89E-01
0.012228018,-0.827026188,-0.293800324,7.70E-01
0.012454462,-0.916167617,-0.102354899,8.50E-01
0.012680907,-0.953594565,0.109813169,9.21E-01
0.012907352,-0.93586272,0.329916567,9.85E-01
0.013133797,-0.864209652,0.5416767,1.04E+00
0.013360241,-0.743074954,0.730540216,1.09E+00
0.013586686,-0.580988526,0.884610295,1.12E+00
0.013813131,-0.389366984,0.995399594,1.14E+00
0.014039576,-0.181109831,1.05839872,1.15E+00
0.014266021,0.030827789,1.07313502,1.15E+00
0.014492465,0.23471196,1.04272652,1.14E+00
0.01471891,0.420997351,0.973043501,1.12E+00
0.014945355,0.582905948,0.87155515,1.10E+00
0.0151718,0.718055308,0.74674511,1.07E+00
0.015398244,0.823075116,0.607917726,1.05E+00
0.015624689,0.8999089,0.46035555,1.02E+00
0.015851134,0.933596849,0.318551511,9.73E-01
0.016077579,0.967381835,0.17370823,9.66E-01
0.016304023,0.973765314,0.028120661,9.49E-01
0.016530468,0.961535394,-0.111132316,9.37E-01
0.016756913,0.933341742,-0.244455278,9.31E-01
0.016983358,0.890271723,-0.371906638,9.31E-01
0.017209802,0.832571507,-0.49318409,9.36E-01
0.017436248,0.760001481,-0.607379317,9.47E-01
0.017662692,0.672237992,-0.712832868,9.60E-01
0.017889136,0.569289684,-0.807152927,9.76E-01
0.018115582,0.45187071,-0.887385607,9.92E-01
0.018342026,0.321726561,-0.950325847,1.01E+00
0.018568472,0.181838229,-0.993091881,1.02E+00
0.018794916,0.036121789,-1.01374412,1.03E+00
0.01902136,-0.110824324,-1.01168358,1.04E+00
0.019247806,-0.255477101,-0.989071727,1.04E+00
0.01947425,-0.398203671,-0.944373727,1.05E+00
0.019700696,-0.531198323,-0.875665069,1.05E+00
0.01992714,-0.649499059,-0.787737846,1.04E+00
0.020153584,-0.750924587,-0.68464154,1.03E+00
0.02038003,-0.834158838,-0.570137799,1.02E+00
0.020606474,-0.898720562,-0.447802782,1.01E+00
0.020832918,-0.944860995,-0.32083714,9.96E-01
0.021059364,-0.97334975,-0.191909835,9.84E-01
0.021285808,-0.985208988,-0.063111953,9.75E-01
0.021512254,-0.981480658,0.063968301,9.67E-01
0.021738698,-0.963084698,0.188083768,9.63E-01
0.021965142,-0.930801332,0.308167845,9.61E-01
0.022191588,-0.885352433,0.423231095,9.63E-01
0.022418032,-0.82762295,0.53254205,9.69E-01
0.022644478,-0.757831037,0.636527359,9.79E-01
0.022870922,-0.673455417,0.733992219,9.92E-01
0.023097366,-0.574557602,0.820448399,1.00E+00
0.023323812,-0.463443398,0.893156707,1.01E+00
0.023550256,-0.34228301,0.950223446,1.02E+00
0.0237767,-0.213499159,0.989970088,1.03E+00
0.024003146,-0.079931006,1.01112974,1.03E+00
0.02422959,0.055273634,1.01304638,1.03E+00
0.024456036,0.188861251,0.995778143,1.03E+00
0.02468248,0.317694098,0.960106492,1.02E+00
0.024908924,0.438954413,0.907467127,1.02E+00
0.02513537,0.550318241,0.839832187,1.01E+00
0.025361814,0.65009582,0.759548247,1.00E+00
0.02558826,0.737382114,0.669146419,9.91E-01
0.025814704,0.812316179,0.570911527,9.86E-01
0.026041148,0.875624776,0.465649664,9.84E-01
0.026267594,0.92622894,0.353318244,9.83E-01
0.026494038,0.962566257,0.235775292,9.82E-01
0.026720482,0.984450638,0.115125835,9.82E-01
0.026946928,0.99196136,-0.007145829,9.84E-01
0.027173372,0.98499763,-0.129728213,9.87E-01
0.027399818,0.963350296,-0.251196325,9.91E-01
0.027626262,0.926845253,-0.369900912,9.96E-01
0.027852706,0.875497162,-0.483949363,1.00E+00
0.028079152,0.809650302,-0.591253519,1.01E+00
0.028305596,0.730096579,-0.689642608,1.01E+00
0.028532042,0.638144016,-0.777033865,1.01E+00
0.028758486,0.53560853,-0.851656914,1.01E+00
0.02898493,0.42465362,-0.912335813,1.01E+00
0.029211376,0.307239741,-0.958640516,1.01E+00
0.02943782,0.184539601,-0.990024507,1.01E+00
0.029664264,0.058332618,-1.00495791,1.01E+00
0.02989071,-0.068231322,-1.00278306,1.01E+00
0.030117154,-0.192298517,-0.984232843,1.01E+00
0.0303436,-0.311757326,-0.950487435,1.00E+00
0.030570044,-0.424980938,-0.902801275,9.96E-01
0.030796488,-0.530665457,-0.842423856,9.91E-01
0.031022934,-0.62773931,-0.770563662,9.88E-01
0.031249378,-0.715281546,-0.688374877,9.85E-01
0.031475824,-0.792457342,-0.596972048,9.84E-01
0.031702268,-0.858473957,-0.4974778,9.84E-01
0.031928712,-0.912590921,-0.39107886,9.86E-01
0.032155158,-0.954190493,-0.279050767,9.88E-01
0.032381602,-0.982877851,-0.162642956,9.93E-01
0.032608046,-0.998307705,-0.042755716,9.98E-01
0.032834492,-0.999410748,0.079842284,1.01E+00
0.033060936,-0.984638453,0.203195363,1.01E+00
0.033287382,-0.953506052,0.324363381,1.01E+00
0.033513826,-0.906585455,0.440631866,1.02E+00
0.033740272,-0.844912112,0.549702466,1.02E+00
0.033966716,-0.769818068,0.649575949,1.01E+00
0.03419316,-0.682907104,0.738546073,1.01E+00
0.034419604,-0.586002946,0.815246761,1.01E+00
0.034646048,-0.481067926,0.878686786,1.00E+00
0.034872496,-0.370110065,0.928260744,9.99E-01
0.03509894,-0.255092889,0.963733494,9.94E-01
0.035325384,-0.137848184,0.98521322,9.90E-01
0.035551828,-0.019964829,0.993116736,9.87E-01
0.035778272,0.097398698,0.988041818,9.86E-01
0.03600472,0.213620603,0.970313549,9.87E-01
0.036231164,0.327972144,0.939469397,9.90E-01
0.036457608,0.438755929,0.894965887,9.93E-01
0.036684052,0.543896675,0.837091804,9.97E-01
0.036910496,0.641626298,0.766651452,9.99E-01
0.037136944,0.730410159,0.68459034,1.00E+00
0.037363388,0.808793724,0.591985285,1.00E+00
0.037589832,0.875390351,0.490122467,1.01E+00
0.037816276,0.928949177,0.380545348,1.01E+00
0.03804272,0.968443573,0.265048742,1.01E+00
0.038269168,0.99316442,0.145634368,1.01E+00
0.038495612,1.00279593,0.024421122,1.01E+00
0.038722056,0.997465134,-0.096489042,1.00E+00
0.0389485,0.977725089,-0.215204313,1.00E+00
0.039174944,0.944358349,-0.330266446,1.00E+00
0.039401392,0.897910118,-0.440600663,1.00E+00
0.039627836,0.838550568,-0.544848561,1.00E+00
0.03985428,0.766868353,-0.641100109,9.99E-01
0.040080724,0.684205651,-0.727647841,9.98E-01
0.040307168,0.592143834,-0.803351521,9.96E-01
0.040533612,0.49218002,-0.867432833,9.95E-01
0.04076006,0.385711581,-0.919279337,9.94E-01
0.040986504,0.274101406,-0.958357751,9.94E-01
0.041212948,0.158737257,-0.98420155,9.94E-01
0.041439392,0.041079175,-0.996431768,9.95E-01
0.041665836,-0.077323787,-0.994802415,9.96E-01
0.041892284,-0.194846302,-0.979263425,9.97E-01
0.042118728,-0.309856296,-0.95001483,9.99E-01
0.042345172,-0.420845777,-0.907493293,1.00E+00
0.042571616,-0.526532948,-0.852184832,1.00E+00
0.04279806,-0.625630319,-0.784346044,1.01E+00
0.043024508,-0.716325581,-0.704260468,1.01E+00
0.043250952,-0.796475828,-0.612972677,1.01E+00
0.043477396,-0.864364922,-0.512283981,1.01E+00
0.04370384,-0.918913484,-0.404234052,1.01E+00
0.043930284,-0.959507227,-0.290831208,1.01E+00
0.044156732,-0.985859692,-0.173999578,1.00E+00
0.044383176,-0.997942626,-0.055566207,9.99E-01
0.04460962,-0.995946288,0.062750705,9.96E-01
0.044836064,-0.980243802,0.179354995,9.93E-01
0.045062508,-0.951363027,0.292782277,9.91E-01
0.045288956,-0.909960508,0.401715666,9.89E-01
0.0455154,-0.856787026,0.505020797,9.89E-01
0.045741844,-0.792582035,0.601787031,9.90E-01
0.045968288,-0.717869043,0.691248715,9.93E-01
0.046194732,-0.632867634,0.772395015,9.97E-01
0.046421176,-0.537983358,0.843627274,1.00E+00
0.046647624,-0.4343642,0.903171182,1.00E+00
0.046874068,-0.323725969,0.949658811,1.01E+00
0.047100512,-0.207963035,0.982193649,1.01E+00
0.047326956,-0.089007393,1.00022328,1.01E+00
0.0475534,0.031182865,1.00348163,1.01E+00
0.047779848,0.150641814,0.991993546,1.01E+00
0.048006292,0.26744166,0.966087282,1.00E+00
0.048232736,0.379758984,0.926393449,1.00E+00
0.04845918,0.485946655,0.873817861,1.00E+00
0.048685624,0.584610641,0.809488833,9.97E-01
0.048912072,0.674680471,0.734654963,9.95E-01
0.049138516,0.755425155,0.65050143,9.94E-01
0.04936496,0.826275289,0.557931542,9.94E-01
0.049591404,0.886415899,0.457621217,9.95E-01
0.049817848,0.934666514,0.350526571,9.96E-01
0.050044296,0.969954848,0.238156915,9.98E-01
0.05027074,0.991656542,0.122268312,9.98E-01
0.050497184,0.999496937,0.004577151,9.99E-01
0.050723628,0.993397355,-0.113273077,1.00E+00
0.050950072,0.97341907,-0.229659632,1.00E+00
0.05117652,0.939785123,-0.342948049,1.00E+00
0.051402964,0.892918527,-0.451497436,1.00E+00
0.051629408,0.833477318,-0.553700209,1.00E+00
0.051855852,0.762368798,-0.648047805,1.00E+00
0.052082296,0.680728257,-0.733217597,1.00E+00
0.052308744,0.589829385,-0.808153272,1.00E+00
0.052535188,0.490914166,-0.872062922,1.00E+00
0.052761632,0.385060787,-0.924219429,1.00E+00
0.052988076,0.273374587,-0.963675141,1.00E+00
0.05321452,0.1574132,-0.989398539,1.00E+00
0.053440964,0.039183512,-1.00076365,1.00E+00
0.053667412,-0.079260752,-0.997716129,1.00E+00
0.053893856,-0.196064293,-0.980586708,1.00E+00
0.0541203,-0.309590638,-0.949911356,9.98E-01
0.054346744,-0.418368578,-0.906345606,9.96E-01
0.054573188,-0.52105242,-0.850642741,9.95E-01
0.054799636,-0.616401672,-0.783649147,9.94E-01
0.05502608,-0.703278303,-0.706312358,9.93E-01
0.055252524,-0.780663848,-0.619680405,9.93E-01
0.055478968,-0.847693086,-0.52488035,9.94E-01
0.055705412,-0.903668106,-0.423044801,9.96E-01
0.05593186,-0.947984815,-0.315208524,9.98E-01
0.056158304,-0.97990948,-0.202322185,1.00E+00
0.056384748,-0.99844873,-0.08557339,1.00E+00
0.056611192,-1.00266886,0.033285916,1.01E+00
0.056837636,-0.992150128,0.15210554,1.01E+00
0.057064084,-0.967053413,0.26873219,1.01E+00
0.057290528,-0.927942097,0.381203443,1.01E+00
0.057516972,-0.875642419,0.487771899,1.00E+00
0.057743416,-0.811177731,0.586896598,1.00E+00
0.05796986,-0.735729218,0.677243531,1.00E+00
0.058196308,-0.6506024,0.757697284,9.97E-01
0.058422752,-0.557183206,0.827372193,9.95E-01
0.058649196,-0.456887007,0.885621011,9.93E-01
0.05887564,-0.351086378,0.932030201,9.92E-01
0.059102084,-0.241013572,0.966365457,9.92E-01
0.059328528,-0.127692044,0.988411188,9.93E-01
0.059554976,-0.012063395,0.997734606,9.96E-01
0.05978142,0.104646176,0.993673742,9.98E-01
0.060007864,0.220729202,0.975718915,1.00E+00
0.060234308,0.334241182,0.943836153,1.00E+00
0.060460752,0.443304002,0.898433864,1.00E+00
0.0606872,0.546203136,0.840206504,1.00E+00
0.060913644,0.641373932,0.770053923,1.00E+00
0.061140088,0.727394044,0.689063251,1.00E+00
0.061366532,0.803004205,0.598505497,1.00E+00
0.061592976,0.867147565,0.499817222,1.00E+00
0.061819424,0.919012129,0.394561499,1.00E+00
0.062045868,0.958069682,0.284360409,9.99E-01
0.062272312,0.984072983,0.170791373,9.98E-01
0.062498756,0.99698478,0.055275179,9.97E-01
0.0627252,0.996793151,-0.060965952,9.97E-01
0.062951648,0.983330607,-0.176728606,9.98E-01
0.063178092,0.956380069,-0.290525526,9.99E-01
0.063404536,0.916037261,-0.400566161,1.00E+00
0.06363098,0.86286664,-0.505060911,1.00E+00
0.063857424,0.797757924,-0.602445662,9.99E-01
0.064083872,0.721753776,-0.691392362,9.99E-01
0.064310316,0.635980427,-0.770751476,9.99E-01
0.06453676,0.541642964,-0.839508414,9.98E-01
0.064763204,0.440038264,-0.896778226,9.98E-01
0.064989648,0.332559466,-0.941824675,9.98E-01
0.065216092,0.220681652,-0.974091411,9.98E-01
0.06544254,0.105919763,-0.993233621,9.98E-01
0.065668984,-0.010250271,-0.999113619,9.98E-01
0.065895428,-0.12646313,-0.991723418,1.00E+00
0.066121872,-0.241436079,-0.971034467,1.00E+00
0.066348316,-0.353752017,-0.936932087,1.00E+00
0.066574764,-0.461660892,-0.889448106,1.00E+00
0.066801208,-0.563224077,-0.829089642,1.00E+00
0.067027652,-0.656658232,-0.756870627,1.00E+00
0.067254096,-0.740513861,-0.674109638,1.00E+00
0.067480544,-0.813666046,-0.582251728,1.00E+00
0.067706984,-0.875251412,-0.482785791,9.99E-01
0.067933432,-0.924622774,-0.377215862,9.97E-01
0.068159872,-0.961324275,-0.267048359,9.95E-01
0.06838632,-0.985080123,-0.153777182,9.94E-01
0.068612768,-0.995790362,-0.038861599,9.93E-01
0.068839208,-0.993513942,0.076310828,9.93E-01
0.069065656,-0.978421986,0.190469742,9.94E-01
0.069292096,-0.95069015,0.302470863,9.95E-01
0.069518544,-0.910375416,0.411177456,9.98E-01
0.069744992,-0.8574633,0.515211284,1.00E+00
0.069971432,-0.792179644,0.612846315,1.00E+00
0.07019788,-0.715257108,0.702244043,1.00E+00
0.07042432,-0.627894938,0.781766951,1.01E+00
0.070650768,-0.531562328,0.850103259,1.01E+00
0.070877216,-0.427861124,0.90625149,1.00E+00
0.071103656,-0.318462044,0.949481308,1.00E+00
0.071330104,-0.20507212,0.979318976,1.00E+00
0.071556544,-0.089399636,0.995539188,9.99E-01
0.071782992,0.026887972,0.998162985,9.97E-01
0.07200944,0.142218649,0.987437427,9.95E-01
0.07223588,0.255173534,0.963793755,9.94E-01
0.072462328,0.364531666,0.927755833,9.94E-01
0.072688768,0.469238728,0.879802644,9.94E-01
0.072915216,0.568238258,0.820272803,9.96E-01
0.073141664,0.660240591,0.749483466,9.98E-01
0.073368104,0.743716776,0.668036044,9.99E-01
0.073594552,0.817162216,0.576974392,1.00E+00
0.073820992,0.879329324,0.477668881,1.00E+00
0.07404744,0.929269612,0.371645302,1.00E+00
0.074273888,0.966284573,0.260491163,1.00E+00
0.074500328,0.98988992,0.145837247,1.00E+00
0.074726776,0.999808848,0.029347129,1.00E+00
0.074953216,0.995986938,-0.087302215,1.00E+00
0.075179664,0.978602886,-0.20246008,9.99E-01
0.075406112,0.948063314,-0.314559609,9.98E-01
0.075632552,0.904961228,-0.422183156,9.97E-01
0.075859,0.849983156,-0.524100542,9.97E-01
0.07608544,0.783785701,-0.619217038,9.98E-01
0.076311888,0.706958711,-0.706397891,9.99E-01
0.076538336,0.620202839,-0.784323096,1.00E+00
0.076764776,0.524581134,-0.851595461,1.00E+00
0.076991224,0.42154628,-0.907020926,1.00E+00
0.077217664,0.312753648,-0.949765027,1.00E+00
0.077444112,0.199886546,-0.979323089,9.99E-01
0.07767056,0.084586792,-0.995438039,9.98E-01
0.077897,-0.031553872,-0.998039782,9.97E-01
0.078123448,-0.146986872,-0.987222731,9.96E-01
0.078349888,-0.260208398,-0.96324265,9.96E-01
0.078576336,-0.369776577,-0.926517785,9.95E-01
0.078802784,-0.474345177,-0.877617061,9.95E-01
0.079029224,-0.572698176,-0.817220807,9.96E-01
0.079255672,-0.663746595,-0.746039093,9.97E-01
0.079482112,-0.746438563,-0.664740682,9.99E-01
0.07970856,-0.819595337,-0.574006081,1.00E+00
0.079935008,-0.881861925,-0.47476083,1.00E+00
0.080161448,-0.931917489,-0.368370205,1.00E+00
0.080387896,-0.968759537,-0.256571829,1.00E+00
0.080614336,-0.99180913,-0.141253382,1.00E+00
0.080840784,-1.00085938,-0.024286125,1.00E+00
0.081067224,-0.995988667,0.092546202,1.00E+00
0.081293672,-0.977501512,0.207568616,9.99E-01
0.08152012,-0.945891142,0.319223702,9.97E-01
0.08174656,-0.901812077,0.426086813,9.95E-01
0.081973008,-0.846051872,0.526883006,9.93E-01
0.082199448,-0.779487073,0.620506525,9.93E-01
0.082425896,-0.703015506,0.70602107,9.93E-01
0.082652344,-0.617474258,0.782607675,9.94E-01
0.082878784,-0.523610234,0.84942323,9.96E-01
0.083105232,-0.422206461,0.905450344,9.98E-01
0.083331672,-0.314334542,0.94952327,1.00E+00
0.08355812,-0.201484665,0.980580211,1.00E+00
0.083784568,-0.085444115,0.997900546,1.00E+00
0.084011008,0.031906389,1.00115681,1.00E+00
0.084237456,0.14871873,0.990353346,1.00E+00
0.084463896,0.263222069,0.965761721,1.00E+00
0.084690344,0.373745739,0.927884102,1.00E+00
0.084916792,0.478739381,0.87743175,9.99E-01
0.085143232,0.576806426,0.815300822,9.97E-01
0.08536968,0.666738451,0.742536426,9.96E-01
0.08559612,0.747542381,0.660269022,9.95E-01
0.085822568,0.818432212,0.569628477,9.94E-01
0.086049016,0.878748894,0.471657693,9.95E-01
0.086275456,0.927812576,0.367316514,9.96E-01
0.086501904,0.964808047,0.257640243,9.97E-01
0.086728344,0.988883555,0.143953592,9.99E-01
0.086954792,0.99939692,0.027904606,1.00E+00
0.08718124,0.996071339,-0.088703953,1.00E+00
0.08740768,0.978975236,-0.204090953,1.00E+00
0.087634128,0.948433518,-0.316571593,1.00E+00
0.087860568,0.904967725,-0.424568236,9.99E-01
0.088087016,0.849268317,-0.526605904,9.99E-01
0.088313464,0.782188833,-0.621321797,9.98E-01
0.088539904,0.704734385,-0.707488298,9.97E-01
0.088766352,0.618035078,-0.784046471,9.97E-01
0.088992792,0.523293972,-0.850127101,9.97E-01
0.08921924,0.421710283,-0.9050349,9.97E-01
0.089445688,0.314426094,-0.948162973,9.98E-01
0.089672128,0.202576846,-0.97886914,9.99E-01
0.089898576,0.087465458,-0.996444106,1.00E+00
0.090125016,-0.029290712,-1.00028312,1.00E+00
0.090351464,-0.145830229,-0.990121067,1.00E+00
0.090577912,-0.260261238,-0.966112852,1.00E+00
0.090804352,-0.370824188,-0.928755939,1.00E+00
0.0910308,-0.475945294,-0.878777742,9.99E-01
0.09125724,-0.574230313,-0.817059577,9.97E-01
0.091483688,-0.664448917,-0.744598925,9.96E-01
0.091710136,-0.745527387,-0.66248858,9.95E-01
0.091936576,-0.816551208,-0.571895778,9.94E-01
0.092163024,-0.876772225,-0.47403428,9.93E-01
0.092389464,-0.925599158,-0.370115697,9.94E-01
0.092615912,-0.962549925,-0.261300981,9.95E-01
0.092842352,-0.9871521,-0.148697108,9.97E-01
0.0930688,-0.998846829,-0.033467628,9.99E-01
0.093295248,-0.997042179,0.082977042,1.00E+00
0.093521688,-0.981336772,0.198897138,1.00E+00
0.093748136,-0.951730728,0.312360555,1.00E+00
0.093974576,-0.908658326,0.421466649,1.00E+00
0.094201024,-0.85289067,0.524487436,1.00E+00
0.094427472,-0.785427392,0.61991024,1.00E+00
0.094653912,-0.70742768,0.706438661,1.00E+00
0.09488036,-0.620164871,0.782986581,9.98E-01
0.0951068,-0.524990559,0.848679185,9.96E-01
0.095333248,-0.423295408,0.902853608,9.94E-01
0.095559696,-0.316457331,0.945050299,9.93E-01
0.095786136,-0.205785334,0.974978685,9.93E-01
0.096012584,-0.092480406,0.992434561,9.93E-01
0.096239024,0.022330133,0.997185171,9.95E-01
0.096465472,0.137443572,0.988902509,9.97E-01
0.09669192,0.251406431,0.967270434,9.99E-01
0.09691836,0.36249584,0.932215512,1.00E+00
0.097144808,0.468891412,0.88405937,1.00E+00
0.097371248,0.568867683,0.823498905,1.00E+00
0.097597696,0.660891175,0.751502514,1.00E+00
0.097824144,0.743633866,0.669222474,1.00E+00
0.098050584,0.815969884,0.577946961,1.00E+00
0.098277032,0.876977086,0.479070842,9.99E-01
0.098503472,0.925945222,0.374063551,9.97E-01
0.09872992,0.962387264,0.264427662,9.96E-01
0.098956368,0.986030579,0.151641011,9.95E-01
