Frequency (GHz),Re( S21 ),Im( S21 ),S2
0.0,0.0567730665,4.8584694e-05,0.003223183440285913
0.000226432094,0.0520288981,-0.0219473001,0.0031886902191796433
0.000452864188,0.0385742225,-0.0400011763,0.0030880647468631882
0.000679296313,0.0188056286,-0.0508504808,0.0029394230646323065
0.000905728375,-0.00373871857,-0.0524977334,0.0027699900286831387
0.0011321605,-0.0249937121,-0.0445774347,0.0026118333289704507
0.00135859263,-0.0410838947,-0.0284409951,0.002496776605998912
0.00158502475,-0.0490215532,-0.00693835504,0.0024512534488015233
0.00181145675,-0.0472569205,0.0160751715,0.0024916276738977325
0.00203788888,-0.0359794386,0.0364226289,0.002621127897958285
0.002264321,-0.0171041563,0.0503592938,0.0028286106347695486
0.002490753,0.00605407497,0.0552537628,0.0030896301273010446
0.00271718525,0.0293599665,0.050071381,0.003369150828128283
0.00294361725,0.048845958,0.0355857946,0.0036522763902511533
0.0031700495,0.0604300685,0.0141935572,0.0038532502449043645
0.0033964815,0.0621897578,-0.0102369729,0.003972361589377996
0.0036229135,0.0535132103,-0.0334202945,0.003980579761078757
0.00384934575,0.0358543694,-0.0511060357,0.0038973626900413315
0.00407577775,0.0121164182,-0.0598904081,0.0037336685723818367
0.00430221,-0.0135045964,-0.0578651391,0.0035307484469892414
0.004528642,-0.0363150164,-0.0450064354,0.003344359643546642
0.004755074,-0.0519367829,-0.0232584905,0.003238386798340323
0.004981506,-0.0571087264,0.0037289781,0.0032753119087003363
0.0052079385,-0.050329797,0.031183349,0.00350548972091701
0.0054343705,-0.0322142877,0.05402527,0.003956490130591271
0.0056608025,-0.00547685195,0.0677812919,0.004624299438915224
0.0058872345,0.0257381778,0.0695530698,0.0055000833150680856
0.0061136665,0.0555080511,0.0580653176,0.00645272484490908
0.006340099,0.0786142573,0.034852542,0.007394901134692367
0.006566531,0.0905752257,0.00352795492,0.008216317976523493
0.006792963,0.0885650665,-0.0304994974,0.008773990345802028
0.007019395,0.0721479952,-0.0612149425,0.008952602396657528
0.007245827,0.0436863266,-0.0827257112,0.008752038425347672
0.0074722595,0.00764634786,-0.0900750831,0.008171987231068031
0.0076986915,-0.0295039602,-0.0804983601,0.007350469646272456
0.0079251235,-0.0603418909,-0.0540039949,0.006557575262546729
0.0081515555,-0.0776351914,-0.0136848353,0.00621449766090276
0.0083779875,-0.0755854845,0.0344420001,0.006899416837988139
0.00860442,-0.0509756468,0.0820955485,0.009338195650194205
0.008830852,-0.0040125628,0.119840994,0.01437796450313198
0.009057284,0.0618617497,0.138736382,0.02307465976639537
0.009283716,0.138107464,0.130805045,0.03618363140996333
0.009510148,0.214967668,0.0919014215,0.05465696955907888
0.00973658,0.280821741,0.0218799021,0.07933958033417668
0.009963012,0.323977679,-0.074886024,0.11056945308075562
0.010189445,0.335585058,-0.19140774,0.14925425408477094
0.010415877,0.308545828,-0.316400677,0.19530991638226394
0.010642309,0.240156561,-0.437052041,0.2486896603336124
0.010868741,0.131999433,-0.540087998,0.3091188958959694
0.011095173,-0.0102183083,-0.61314714,0.37605382911469354
0.011321605,-0.177117869,-0.645969033,0.44864673111405623
0.011548037,-0.35641104,-0.631453753,0.5257626716116666
0.011774469,-0.533995986,-0.566456378,0.6060245412409911
0.012000901,-0.695250213,-0.452214837,0.6878711174794819
0.012227333,-0.826408148,-0.294423968,0.7696359000136548
0.012453766,-0.915730894,-0.103116117,0.8491960038111969
0.012680198,-0.953384459,0.108971447,0.9208167029239964
0.01290663,-0.935883701,0.329058528,0.9841578166469841
0.013133062,-0.86445111,0.540876448,1.0398230535813289
0.013359494,-0.743504524,0.729860425,1.0854952171896473
0.013585926,-0.581554711,0.884097993,1.1198351431129216
0.013812358,-0.390007049,0.995080292,1.1422902857964936
0.01403879,-0.181758538,1.0582751,1.1529823534159074
0.014265222,0.0302298833,1.07318783,1.1526459643044404
0.014491654,0.234211311,1.04291916,1.1425353124954445
0.014718087,0.420623213,0.973328769,1.1242927798774986
0.014944519,0.582668483,0.871884525,1.0996851860159969
0.015170951,0.717937708,0.747061491,1.0735354239034365
0.015397383,0.823064387,0.608189642,1.0473296257837739
0.015623815,0.899967849,0.460560262,1.0220578841671957
0.015850247,0.933696091,0.318604767,0.9732973879038045
0.016076679,0.967484891,0.173754811,0.9662177486589276
0.016303111,0.973851204,0.0280857068,0.9491749744587052
0.016529543,0.961574554,-0.111219138,0.9369953195577619
0.016755975,0.93332386,-0.244566932,0.9309064118731922
0.016982408,0.890197456,-0.37201789,0.9308488211489241
0.01720884,0.832450211,-0.493274331,0.9362929194174422
0.017435272,0.759848118,-0.607435226,0.9463467162138129
0.017661704,0.672070086,-0.712849319,0.9598323520948111
0.017888136,0.569123507,-0.807132721,0.9753647955288429
0.018114568,0.451717675,-0.887337625,0.9914169186480464
0.018341,0.321591645,-0.950263083,1.0064211130464709
0.018567432,0.181718573,-0.993025959,1.019122195021026
0.018793864,0.0360087566,-1.0136826,1.0288490440946383
0.019020296,-0.110943757,-1.01162529,1.0356942445848591
0.019246728,-0.25559631,-0.989003003,1.0434564136286342
0.01947316,-0.398329407,-0.944322348,1.0504110134132048
0.019699592,-0.531359494,-0.875610054,1.049035878529819
0.019926024,-0.64969486,-0.787656426,1.042506056529513
0.020152456,-0.751147211,-0.684515595,1.0327837323912827
0.02037889,-0.834394872,-0.569952667,1.0210608450403091
0.020605322,-0.898950756,-0.447549433,1.008412956691593
0.020831754,-0.945064425,-0.320513338,0.9958755672364829
0.021058186,-0.973503828,-0.191520929,0.9843899693756767
0.021284618,-0.985294998,-0.0626705289,0.9747338282764257
0.02151105,-0.981483936,0.0644440576,0.9674637531860041
0.021737482,-0.962998033,0.188572824,0.962924921513204
0.021963914,-0.930623353,0.308648318,0.9613236093531917
0.022190346,-0.885087371,0.423683077,0.9628870040398796
0.022416778,-0.827277839,0.532944679,0.9684186537749229
0.02264321,-0.75742805,0.636857748,0.979285042114434
0.022869642,-0.673024952,0.734256506,0.9920952026179304
0.023096074,-0.574105561,0.820655644,1.0030728812001795
0.023322506,-0.462976277,0.89331001,1.0123498070309809
0.023548938,-0.341805816,0.95032686,1.0199523566888855
0.02377537,-0.21301344,0.990028977,1.0255321009203002
0.024001802,-0.0794354752,1.01114607,1.0287263695966946
0.024228234,0.0557822734,1.01301932,1.0293198047189347
0.024454666,0.189385384,0.995702267,1.0272898281817668
0.024681098,0.318233788,0.959973037,1.0228209755918323
0.024907532,0.439505696,0.907265782,1.0162964560045158
0.025133964,0.550872147,0.839551091,1.0083061567396798
0.025360396,0.650638223,0.759177923,0.9996812159991915
0.025586828,0.737892866,0.668679714,0.9916184416088158
0.02581326,0.812768281,0.570350051,0.9858914592753976
0.026039692,0.875996411,0.465011656,0.9836055523007434
0.026266124,0.926513493,0.352619588,0.9827678265523507
0.026492556,0.962752879,0.235026091,0.9821303694735288
0.026718988,0.984528124,0.114343517,0.9823700668268887
0.02694542,0.991924942,-0.00794027839,0.9839781385826142
0.027171852,0.984848678,-0.130513966,0.9869608138793968
0.027398284,0.963095188,-0.251955211,0.99103376949881
0.027624716,0.926493526,-0.37061882,0.9957485634581051
0.027851148,0.875059724,-0.484616071,1.0005822568384333
0.02807758,0.809137821,-0.591862619,1.005005373142167
0.028304012,0.729517519,-0.690190613,1.008558892801231
0.028530444,0.637504101,-0.777518272,1.0109461420856842
0.028756876,0.534911335,-0.852074325,1.0121607916356878
0.028983308,0.42390117,-0.912678599,1.012674426999972
0.029209742,0.306439608,-0.958898008,1.0133906230975618
0.029436174,0.18370463,-0.990193486,1.014230530800269
0.029662606,0.0574657321,-1.00503814,1.0134039732204485
0.029889038,-0.0691278949,-1.00276458,1.010315468755882
0.03011547,-0.193214223,-0.984102786,1.0057900293824555
0.030341902,-0.312676042,-0.950235486,1.000713786094442
0.030568334,-0.425882488,-0.902422011,0.9957413795223542
0.030794766,-0.531528115,-0.841916263,0.9913451309393384
0.031021198,-0.628540576,-0.769932389,0.9878591393096592
0.03124763,-0.716000557,-0.68762958,0.9854912369152866
0.031474062,-0.793076098,-0.596127212,0.9843373501057986
0.031700494,-0.858977795,-0.49655053,0.9844052811463431
0.031926926,-0.912969828,-0.390087932,0.9856825015303863
0.032153358,-0.954437673,-0.278015494,0.988243886545719
0.03237979,-0.982988656,-0.161583722,0.9923759970400595
0.032606222,-0.998283148,-0.0416960493,0.9983078041080178
0.032832654,-0.999262452,0.0808831379,1.0050675299736027
0.033059086,-0.98437798,0.204210624,1.0107019864633497
0.033285518,-0.953137279,0.325348854,1.0143225494186372
0.03351195,-0.906109154,0.441580623,1.016027245571664
0.033738384,-0.844328523,0.550605655,1.0160572420693406
0.033964816,-0.769128025,0.650422931,1.0146079080110315
0.034191248,-0.682112098,0.739325166,1.011878615318889
0.03441768,-0.585105062,0.815943539,1.0081117924138685
0.034644112,-0.480072767,0.879285634,1.0036130877738183
0.034870544,-0.369026273,0.928744674,0.9987470596476369
0.035096976,-0.253933311,0.964085519,0.993943014380922
0.035323408,-0.136630148,0.985418558,0.9897175317933012
0.03554984,-0.0187096763,0.99316138,0.9867195787107552
0.035776272,0.0986632258,0.987916708,0.985713854070819
0.036002704,0.214863524,0.970019639,0.9871044339913889
0.036229136,0.329167962,0.939018667,0.9901076041816903
0.036455568,0.439888239,0.894370675,0.9934005671104768
0.036682,0.544950068,0.836361825,0.9964716789305352
0.036908432,0.642585814,0.765798867,0.9993644330525264
0.037134864,0.731263101,0.683629036,1.0020943817464256
0.037361296,0.809530914,0.590930104,1.0045386885351262
0.037587728,0.87600559,0.488987416,1.0064944867176053
0.03781416,0.929436266,0.379342198,1.0077522757394939
0.038040592,0.968797922,0.263788998,1.0081540491373622
0.038267024,0.993380189,0.144328624,1.007634951603409
0.038493456,1.00286579,0.0230801646,1.0062724867502872
0.038719888,0.99737978,-0.0978521407,1.004341466992421
0.03894632,0.977475345,-0.21657218,1.0023615592328214
0.039172752,0.943937719,-0.331616104,1.0009876577830619
0.039399184,0.897319436,-0.441905826,1.0004629292761003
0.039625616,0.837796628,-0.546087742,1.0001150118508289
0.039852048,0.765956998,-0.642254829,0.9991813881589912
0.04007848,0.683143556,-0.72869575,0.9976826141723876
0.040304912,0.590943098,-0.804267764,0.9960603812833974
0.040531348,0.490859985,-0.868196905,0.9947093907257792
0.04075778,0.384295166,-0.91987294,0.9938490003552111
0.040984212,0.272614479,-0.958769798,0.9935581797174022
0.041210644,0.157206774,-0.984425902,0.9938083263200007
0.041437076,0.0395306535,-0.996466458,0.9945080744852028
0.041663508,-0.0788663849,-0.994650126,0.9955487798190109
0.04188994,-0.196361631,-0.978929579,0.9968610107700974
0.042116372,-0.311324686,-0.949505091,0.9984829779479168
0.042342804,-0.422248572,-0.906815052,1.000607395089802
0.042569236,-0.527850568,-0.851347685,1.003419102892782
0.042795668,-0.626847744,-0.783365011,1.0065988346169195
0.0430221,-0.717434525,-0.703148007,1.0091294174100478
0.043248532,-0.797468424,-0.611735344,1.010176018375842
0.043474964,-0.865227222,-0.510926485,1.0096640187642927
0.043701396,-0.91962868,-0.402764589,1.0079362232308813
0.043927828,-0.960056782,-0.289262444,1.0053817861730485
0.04415426,-0.986225605,-0.172348753,1.0023450366182711
0.044380692,-0.998108268,-0.0538552925,0.9991205071802203
0.044607124,-0.995898724,0.0644956231,0.9959739538638854
0.044833556,-0.979974747,0.181104466,0.9931493323628592
0.045059988,-0.950868607,0.294503957,0.9908836884667782
0.04528642,-0.909243524,0.403376818,0.9894366432357437
0.045512852,-0.855855227,0.506588042,0.9891196138806153
0.045739284,-0.791450799,0.603227496,0.9902777791681685
0.045965716,-0.716561794,0.692532897,0.9930626180477109
0.046192148,-0.631414533,0.773502827,0.9969909358605998
0.04641858,-0.536412895,0.844549537,1.0010027143691955
0.046645012,-0.432699323,0.903901577,1.0042667650277453
0.046871444,-0.321988344,0.950191975,1.0065412830262628
0.047097876,-0.206173971,0.982524514,1.007862126928845
0.047324308,-0.0871885419,1.00034928,1.0083005238351666
0.04755074,0.0330111757,1.00340176,1.007904829692194
0.047777172,0.152459353,0.991707206,1.006727036749505
0.048003604,0.269228846,0.965595067,1.004858004933226
0.048230036,0.381494969,0.925695777,1.0024510829279447
0.048456468,0.487608761,0.872916341,0.9997452421887835
0.0486829,0.586174786,0.808387458,0.9970911619938476
0.048909332,0.676119447,0.733360469,0.9949550841034858
0.049135764,0.756709874,0.64902705,0.9938459450407984
0.049362196,0.827379405,0.556298673,0.9940248933997149
0.049588632,0.887319803,0.455856621,0.9951416917054965
0.049815064,0.935357273,0.34865579,0.9964540880545207
0.050041496,0.970420957,0.236204505,0.9975094019670908
0.050267928,0.99188602,0.120261379,0.9983006759504222
0.05049436,0.999483585,0.00254587643,0.998973918171249
0.050720792,0.993138671,-0.115297481,0.9996179289605915
0.050947224,0.972918749,-0.231646687,1.000231079753801
0.051173656,0.939050257,-0.344868749,1.000749839208591
0.051400088,0.89195919,-0.45332551,1.001095214642216
0.05162652,0.832305491,-0.555410981,1.0012137881641334
0.051852952,0.760998189,-0.649618268,1.0011221377805997
0.052079384,0.679174125,-0.73462534,1.0009518822396313
0.052305816,0.588109255,-0.809375644,1.0009614289170696
0.052532248,0.48905018,-0.873078346,1.001435876812128
0.05275868,0.383081019,-0.925010324,1.0023951666246633
0.052985112,0.271306992,-0.964231253,1.0033493931700381
0.053211544,0.155283123,-0.989712536,1.0036437522041843
0.053437976,0.0370161533,-1.00082719,1.0030252598484253
0.053664408,-0.0814361423,-0.997520864,1.0016797193880123
0.05389084,-0.198215738,-0.980129659,0.999943627242341
0.054117272,-0.311683118,-0.949194312,0.9981162079793553
0.054343704,-0.420368254,-0.905376852,0.9964167131084383
0.054570136,-0.522927344,-0.849436224,0.9949949057462724
0.054796568,-0.61812216,-0.782222986,0.9939478045098217
0.055023,-0.704818845,-0.704688609,0.9933556399214889
0.055249432,-0.782002985,-0.617883921,0.9933092083792444
0.055475864,-0.848812282,-0.522937596,0.9939460193843068
0.055702296,-0.9045524,-0.42098403,0.995442597860801
0.055928728,-0.948623955,-0.313061297,0.9978947836791641
0.05615516,-0.980300665,-0.200119704,1.0010372897284898
0.056381592,-0.998595238,-0.0833423883,1.0041384030438247
0.056608024,-1.00257289,0.0355249345,1.0064144207341812
0.056834456,-0.991812408,0.154334396,1.0075109584514432
0.057060888,-0.966470718,0.270929873,1.0074686448352315
0.05728732,-0.92711246,0.383345932,1.0064916170682001
0.057513752,-0.87456584,0.48983252,1.004801306144456
0.057740184,-0.809857547,0.588846684,1.0026096636906532
0.057966616,-0.734172642,0.679052472,1.000121727990571
0.058193048,-0.64882046,0.759332955,0.9975545258636437
0.058419484,-0.555193007,0.828802407,0.9951527048706956
0.058645916,-0.454711646,0.886814177,0.9932020655362166
0.058872348,-0.34875527,0.932956874,0.9920387670966249
0.05909878,-0.238563478,0.967000425,0.9920023549856373
0.059325212,-0.12516652,0.988737047,0.9932676058391906
0.059551644,-0.00950860418,0.997745454,0.9955864045311181
0.059778076,0.107188329,0.993373096,0.9982794457304375
0.060004508,0.223221987,0.975113273,1.0006739506610005
0.06023094,0.336648911,0.942935467,1.002459784203994
0.060457372,0.445592463,0.897250891,1.0036118044827003
0.060683804,0.548339725,0.838758826,1.0041928222059737
0.060910236,0.64332974,0.768362284,1.004253753842164
0.061136668,0.729143739,0.687151134,1.003827273080386
0.0613631,0.804525077,0.596397758,1.0029508852692823
0.061589532,0.868419528,0.497539759,1.001698288397521
0.061815964,0.920018196,0.39214167,1.0002085703214834
0.062042396,0.958792925,0.281826437,0.9987100136221706
0.062268828,0.984498262,0.168174669,0.9975195471742803
0.06249526,0.997099698,0.0526116006,0.996975788269385
0.062721692,0.996592283,-0.0636371523,0.9972458656880056
0.062948124,0.982815802,-0.179368019,0.9980997869008875
0.063174556,0.955558538,-0.293098092,0.9989986110787379
0.063400988,0.914916635,-0.403038651,0.9995126031996231
0.06362742,0.861456454,-0.507399857,0.9995618370218746
0.063853852,0.796072125,-0.604614794,0.999289877325678
0.064080284,0.719812453,-0.693357706,0.9988748759634596
0.064306716,0.633809566,-0.772481203,0.9984417749414356
0.064533148,0.539272308,-0.840974987,0.998053550935297
0.06475958,0.437500536,-0.897958338,0.9977358957840096
0.064986012,0.329890192,-0.94269979,0.9975104328438411
0.065212444,0.217918083,-0.97464776,0.9974265469714124
0.065438876,0.103099778,-0.993460536,0.9975934008130565
0.065665308,-0.0130863702,-0.999005139,0.9981825208334207
0.06589174,-0.129273191,-0.991279125,0.9993458615720882
0.066118172,-0.244177759,-0.970261872,1.0010308782472066
0.066344604,-0.356387943,-0.935845733,1.0028196018900783
0.066571036,-0.464159667,-0.888064742,1.0041031824530773
0.066797468,-0.565556169,-0.827425241,1.0044863097378647
0.0670239,-0.658793926,-0.754942119,1.0039470399747037
0.067250336,-0.742422938,-0.671937704,1.0026920969253434
0.067476768,-0.8153193,-0.579861224,1.000984600051268
0.0677032,-0.876623094,-0.480206549,0.9990663786366223
0.067929632,-0.925690353,-0.374481469,0.9971390002616626
0.068156064,-0.962069511,-0.264194816,0.995376644797053
0.068382496,-0.985489249,-0.150842726,0.9939425878816951
0.068608928,-0.99585408,-0.0358861312,0.99301316306515
0.06883536,-0.993227303,0.0792859867,0.9927867431116463
0.069061792,-0.977785528,0.193401143,0.9934685408799452
0.069288224,-0.949710786,0.305314839,0.9951677279583337
0.069514656,-0.909069419,0.413892359,0.9977140933995825
0.069741088,-0.855851948,0.517761767,1.000559804262357
0.06996752,-0.790285051,0.615203857,1.003026247501749
0.070193952,-0.713100135,0.704381347,1.0046648845385526
0.070420384,-0.625496805,0.783656001,1.00536298096852
0.070646816,-0.528948843,0.851716876,1.005208515374238
0.070873248,-0.425061494,0.907562912,1.0043477129194318
0.07109968,-0.315510362,0.950468004,1.002936215157115
0.071326112,-0.202005208,0.979960799,1.0011292716358418
0.071552544,-0.0862581506,0.995821297,0.9991005241036945
0.071778976,0.0300615001,0.998074353,0.997056107904631
0.072005408,0.145378962,0.986972392,0.995249545162399
0.07223184,0.258273602,0.962953329,0.9939843673222366
0.072458272,0.367522478,0.92654717,0.9935624300702693
0.072684704,0.472073108,0.878242671,0.9941632084619939
0.072911136,0.570873141,0.818387389,0.9956540615894431
0.073137568,0.662641883,0.747303724,0.9975571210100539
0.073364,0.745857477,0.665592313,0.9993165031214954
0.073590432,0.819017768,0.5742957,1.000605655338192
0.073816864,0.88087672,0.47478652,1.0013660354116687
0.074043296,0.930487216,0.36859107,1.0016658360231754
0.074269728,0.967154384,0.257300794,1.0015913010834498
0.07449616,0.990395665,0.142547235,1.0012032874569374
0.074722592,0.999938428,0.0259957165,1.0005526370674596
0.074949024,0.995731056,-0.0906744078,0.9997021841127558
0.075175456,0.977954268,-0.205810353,0.9987524517014004
0.075401888,0.9470191,-0.317842811,0.9978692282691918
0.07562832,0.903523386,-0.42535007,0.9972771910979099
0.075854752,0.848162055,-0.527099609,0.9972128693497759
0.076081184,0.781600893,-0.621995628,0.9977785171895119
0.076307616,0.704440475,-0.708908796,0.9987880638643952
0.076534048,0.617387056,-0.786526442,0.9997906208815265
0.07676048,0.521506011,-0.853456199,1.0003560031206598
0.076986912,0.418253809,-0.908507705,1.0003224987873756
0.077213344,0.309290409,-0.950850248,0.9997767512210487
0.077439776,0.196304768,-0.979986846,0.9989097802725614
0.077666208,0.0809406862,-0.995667756,0.9979056750206025
0.07789264,-0.035208974,-0.997831643,0.9969076596222122
0.078119072,-0.150597215,-0.986581087,0.9960217623918578
0.078345504,-0.263722688,-0.962178349,0.9953368314503112
0.078571936,-0.373146713,-0.925046504,0.9949495039853263
0.078798368,-0.47752583,-0.875759482,0.9949855886300972
0.0790248,-0.575645685,-0.815000653,0.9955940190495456
0.079251232,-0.666420043,-0.743487298,0.9968890359994627
0.079477664,-0.748801827,-0.661892891,0.9988063752748757
0.079704096,-0.821619272,-0.570902348,1.000987719073723
0.079930528,-0.883523643,-0.471440256,1.002869942717337
0.08015696,-0.933197916,-0.364870965,1.0039891715267744
