Frequency (GHz),Re( S21 ),Im( S21 ),S2
0.0,0.0567716919,5.06841134e-05,0.0032230275700678764
0.000226467016,0.0520256646,-0.0219489634,0.0031884267714062326
0.000452934031,0.0385662131,-0.0400043018,0.0030876969553800954
0.000679401063,0.018791683,-0.0508507118,0.0029389222405391477
0.000905868063,-0.00375707843,-0.0524903797,0.0027693555993793433
0.00113233513,-0.025012048,-0.0445590355,0.002611110189844564
0.00135880213,-0.041096095,-0.0284105763,0.0024960498699471466
0.00158526913,-0.0490205511,-0.00689870073,0.0024506065019098138
0.00181173613,-0.0472374782,0.0161174815,0.0024911525565983177
0.00203820313,-0.0359397307,0.0364586487,0.002620897307818534
0.00226467025,-0.0170471407,0.0503789224,0.002828640828230818
0.00249113725,0.00612039724,0.0552484691,0.0030898526002690547
0.00271760425,0.0294229314,0.0500365645,0.0033693666791317664
0.00294407125,0.0489038043,0.03552543,0.0036536382516975984
0.00317053825,0.0604573376,0.0141103091,0.0038541904925779168
0.00339700525,0.0621781349,-0.0103305364,0.003972840441954323
0.00362347225,0.0534537546,-0.0335015208,0.003979655776749854
0.00384993925,0.03576193,-0.0511593819,0.0038961979937149477
0.00407640625,0.0120031387,-0.0599002354,0.003732113539626851
0.004302873,-0.0136189088,-0.0578226857,0.003528937658463702
0.0045293405,-0.0364070609,-0.044912409,0.00334259856555959
0.0047558075,-0.0519840196,-0.0231239703,0.003237056296208466
0.0049822745,-0.0570942909,0.0038832915,0.003274838006247795
0.0052087415,-0.0502465852,0.0313294679,0.0035062548831579893
0.0054352085,-0.0320676528,0.0541330501,0.003958721469230458
0.0056616755,-0.0052856165,0.0678237602,0.004628000189452176
0.0058881425,0.0259504728,0.0695192814,0.005506357524915925
0.0061146095,0.0556990877,0.0579444729,0.0064599503102711255
0.0063410765,0.0787457675,0.0346543491,0.007401819810708726
0.0065675435,0.0906167403,0.00328091928,0.00822215805391952
0.0067940105,0.0884968191,-0.0307533648,0.008777456437340004
0.0070204775,0.0719664618,-0.0614173785,0.008951266005823123
0.0072469445,0.0434209816,-0.0828381702,0.008747544085191707
0.0074734115,0.00733997021,-0.0900581256,0.008164341149269063
0.0076998785,-0.0297930595,-0.0803329498,0.0073410092179398605
0.0079263455,-0.0605467185,-0.0536966957,0.00654924025021664
0.0081528125,-0.0776911005,-0.013270542,0.006212014381874864
0.0083792795,-0.0754420161,0.0349002108,0.006909522507117095
0.008605746,-0.0506080799,0.0825130492,0.009369581039446403
0.008832213,-0.00343128038,0.120122224,0.014441122383752348
0.009058681,0.0626157001,0.138796464,0.02318518431791644
0.009285148,0.138938159,0.130567774,0.03635175563362436
0.009511615,0.215766773,0.0913150981,0.05489374747184615
0.009738082,0.281460553,0.0209535547,0.0796590943496317
0.009964549,0.324322432,-0.0760957375,0.11097560116406352
0.010191016,0.33553499,-0.19280839,0.1497588047686922
0.010417483,0.308031201,-0.317862064,0.19591951251984246
0.01064395,0.239151686,-0.438421518,0.24940695636206692
0.010870417,0.130528018,-0.541206896,0.3099424677609632
0.011096884,-0.0120828189,-0.613866866,0.3769785236852321
0.011323351,-0.179256156,-0.646165371,0.449662456143464
0.011549818,-0.358666331,-0.63104105,0.5268543437781041
0.011776285,-0.536187112,-0.565399051,0.6071727059466012
0.012002752,-0.697188318,-0.450533867,0.6890523160696428
0.012229219,-0.827914953,-0.292200267,0.7708241654358634
0.012455686,-0.916651309,-0.100491077,0.8503480788480334
0.012682153,-0.953592718,0.11183957,0.9218471612404124
0.01290862,-0.935355008,0.33197102,0.9850937491105206
0.013135087,-0.863197148,0.543616056,1.0406277326563291
0.013361554,-0.741599679,0.732233644,1.086136193298422
0.013588021,-0.579128802,0.88594681,1.1202919194551313
0.013814488,-0.387227833,0.996297419,1.1425539417559376
0.014040955,-0.178811744,1.05881095,1.1530542676322242
0.014267422,0.0331616364,1.07305074,1.1525375847432735
0.014493889,0.236966878,1.04216802,1.1422674831797874
0.014720356,0.423076302,0.972060084,1.1238943642200823
0.014946823,0.584735632,0.870210469,1.0991820196876394
0.01517329,0.719592869,0.745134473,1.0730392799686388
0.015399757,0.824290633,0.606098235,1.046810118121656
0.015626224,0.900807738,0.458391428,1.021577282104556
0.015852691,0.934169114,0.316667676,0.9729503505747861
0.016079158,0.967677534,0.171629176,0.9658563838627602
0.016305625,0.973755717,0.0260633547,0.9488794948484021
0.016532092,0.961256444,-0.113157839,0.936818647658675
0.016758559,0.932805479,-0.246434659,0.9308561028088658
0.016985026,0.889481366,-0.373823434,0.9309210602687784
0.017211492,0.831524789,-0.495016932,0.9364752376881873
0.01743796,0.75869447,-0.609099329,0.9466192913968311
0.017664426,0.670670033,-0.714402378,0.960169050856276
0.017890894,0.56746757,-0.808526933,0.9757352443880914
0.018117362,0.449812949,-0.888513446,0.9917878328108716
0.018343828,0.319467634,-0.951157331,1.0067598374886015
0.018570296,0.179428637,-0.993583858,1.019403518653842
0.018796762,0.0336236581,-1.01386821,1.02905929763263
0.01902323,-0.113339782,-1.01143503,1.0358467260949082
0.019249696,-0.25798437,-0.988473833,1.043636453690009
0.019476164,-0.400646836,-0.943354726,1.050436026263346
0.01970263,-0.533460617,-0.874263823,1.0489174620965962
0.019929098,-0.651525259,-0.786009371,1.0422958944148328
0.020155564,-0.752672851,-0.682637334,1.0325101504030958
0.020382032,-0.835599363,-0.567911744,1.0207500444191273
0.020608498,-0.899835289,-0.445408463,1.0080922462417359
0.020834966,-0.945642889,-0.318325013,0.9955712874177166
0.021061432,-0.973797798,-0.189324811,0.9841260354498345
0.0212879,-0.985327423,-0.0604934022,0.9745295822255519
0.021514366,-0.981274664,0.0665857494,0.9673336282314725
0.021740834,-0.962560177,0.190668061,0.962876403831771
0.0219673,-0.9299649,0.310687989,0.9613617417408741
0.022193768,-0.884212613,0.425657332,0.963016109273646
0.022420234,-0.826192975,0.534852922,0.9686624801112887
0.022646702,-0.756095409,0.638715088,0.979637231149725
0.022873168,-0.671387494,0.735987067,0.9924381298908626
0.023099636,-0.572190821,0.822178483,1.0033797935448352
0.023326102,-0.460818321,0.894575655,1.0126191274879381
0.02355257,-0.339443266,0.951288402,1.0201713546124602
0.023779036,-0.21049735,0.990644693,1.0256860421260867
0.024005504,-0.0768280774,1.01138651,1.0288052260869602
0.02423197,0.0584111921,1.01287019,1.0293178891531791
0.024458438,0.19196479,0.995167911,1.027209651683848
0.024684904,0.320696682,0.959074259,1.0226697961222082
0.024911372,0.441794842,0.906038821,1.016089027576875
0.025137838,0.552943587,0.838043272,1.0080631361488925
0.025364306,0.652464867,0.757442534,0.9994295949816687
0.025590772,0.739468634,0.66677171,0.99139837392615
0.02581724,0.814112782,0.568306088,0.9857514314736433
0.026043706,0.877117634,0.462823033,0.983540503749077
0.026270174,0.927371025,0.350297958,0.9827256773885205
0.02649664,0.963332355,0.232615486,0.9821191905168623
0.026723108,0.984831572,0.111872271,0.9824086302266887
0.026949574,0.991947889,-0.0104526328,0.9840698720240079
0.027176042,0.98458004,-0.133046418,0.9870992045090322
0.027402508,0.962520301,-0.254479975,0.9912053875131313
0.027628976,0.925599158,-0.373099208,0.9959368203005363
0.027855442,0.873838007,-0.487006634,1.000768324037742
0.02808191,0.807590961,-0.594111383,1.0051714956990763
0.028308376,0.727660954,-0.692242384,1.0086899821821935
0.028534844,0.635368288,-0.779320061,1.0110326188730945
0.02876131,0.53254056,-0.853583872,1.012204874583626
0.028987778,0.421346337,-0.913871706,1.012694230730668
0.029214244,0.303737819,-0.959764719,1.013404978528026
0.029440712,0.180881515,-0.990702569,1.014209702691895
0.029667178,0.0545877181,-1.00515223,1.013310824441338
0.029893646,-0.0719817281,-1.00248897,1.010165504151923
0.030120112,-0.195985824,-0.983464599,1.0056130606951899
0.03034658,-0.315323502,-0.949266374,1.0005355597206518
0.030573046,-0.428375393,-0.90115267,0.9955816119760333
0.030799514,-0.533843577,-0.840375125,0.9912193154229205
0.03102598,-0.630660236,-0.768144429,0.9877781970753117
0.031252448,-0.717908561,-0.685616136,0.9854621879006613
0.031478914,-0.794755161,-0.593906581,0.9843607928912455
0.031705382,-0.860409796,-0.49414131,0.9844806513012777
0.031931848,-0.91413492,-0.387510538,0.9858070690244558
0.032158316,-0.955317616,-0.27529344,0.9884182255469569
0.032384782,-0.983569264,-0.158737242,0.9926060090832682
0.03261125,-0.998540223,-0.0387354493,0.9985830119813626
0.032837716,-0.999143481,0.0839313194,1.0053321620010223
0.033064184,-0.983840764,0.20727472,1.0109054584591821
0.03329065,-0.952177465,0.328347921,1.0144542820788485
0.033517118,-0.904743314,0.444444269,1.0160911724746469
0.033743584,-0.842584729,0.553271711,1.016058611736871
0.033970052,-0.767043173,0.6528368,1.014551116680148
0.03419652,-0.679732263,0.741441548,1.0117715184637375
0.034422984,-0.582483053,0.817728817,1.0079669251844203
0.034649452,-0.477263153,0.880717933,1.003444194719294
0.03487592,-0.366083175,0.929813325,0.9985697103656364
0.035102388,-0.250907362,0.964791536,0.9937772122430384
0.035328852,-0.133565322,0.98577112,0.989584396267018
0.03555532,-0.015639551,0.993177176,0.9866454984828166
0.035781788,0.10172233,0.987611175,0.9857232654055094
0.036008256,0.217906833,0.969387591,0.9871956894528733
0.036234724,0.332168758,0.938031614,0.9902393926547076
0.036461188,0.442791075,0.893014669,0.9935391351488352
0.036687656,0.54770112,0.834647119,0.9966123301042547
0.036914124,0.645138621,0.763741672,0.9995051818551371
0.037140592,0.733572721,0.68124938,1.0022296547457283
0.037367056,0.811550975,0.588253915,1.0046576535362777
0.037593524,0.877690911,0.486050069,1.0065860048269146
0.037819992,0.930746973,0.37618947,1.0078084450875435
0.03804646,0.969700933,0.260475755,1.0081675184038905
0.038272924,0.993854761,0.140916839,1.0076048414761192
0.038499392,1.00290549,0.0196349602,1.0062049535341957
0.03872586,0.996993482,-0.101268582,1.004251328850775
0.038952328,0.97668469,-0.219908461,1.0022727148997845
0.039178792,0.942765117,-0.334837586,1.000922274830331
0.03940526,0.895772457,-0.444983214,1.0004183554615866
0.039631728,0.835879564,-0.548971355,1.0000641941233661
0.039858196,0.763698399,-0.644887269,0.9991148343534417
0.04008466,0.680588007,-0.731037438,0.9976157710298359
0.040311128,0.588133931,-0.80629468,0.9960126317898153
0.040537596,0.487833738,-0.869890273,0.9946908429910671
0.040764064,0.381086111,-0.92121619,0.9938658927152204
0.040990528,0.269255757,-0.959744692,0.993608536499818
0.041216996,0.153734505,-0.985013902,0.9938866851608607
0.041443464,0.0359853618,-0.996650994,0.994608150105065
0.041669932,-0.0824387521,-0.99441725,0.9956618149453678
0.041896396,-0.199911043,-0.97827208,0.9969806876208742
0.042122864,-0.314799875,-0.948425472,0.9986098372384384
0.042349332,-0.425602973,-0.905321658,1.0007451950703077
0.0425758,-0.531042814,-0.84944731,1.0035672027672746
0.042802264,-0.629825056,-0.78105551,1.0067273108667631
0.043028732,-0.720121205,-0.70044452,1.0091970754886823
0.0432552,-0.799792171,-0.608687341,1.0101677958865436
0.043481668,-0.867139935,-0.507602036,1.0095914938231494
0.043708132,-0.921102524,-0.399232835,1.0078167162613079
0.0439346,-0.961079121,-0.285589606,1.005234499877368
0.044161068,-0.986793935,-0.168596238,1.002186961620537
0.044387536,-0.99822861,-0.0500794351,0.9989683076424671
0.044614,-0.995582402,0.0682443306,0.9958416078311318
0.044840468,-0.97923696,0.184780627,0.9930489039445548
0.045066936,-0.949728191,0.298068404,0.9908284102432399
0.045293404,-0.907720327,0.406795204,0.9894385300463887
0.045519868,-0.853968382,0.509832501,0.989191176531613
0.045746336,-0.789214253,0.606275976,0.9904296962131007
0.045972804,-0.713975191,0.695361137,0.9932876842134193
0.046199272,-0.628470659,0.776063621,0.9972501130635258
0.046425736,-0.533126891,0.846773446,1.0012495507580408
0.046652204,-0.429116756,0.905723274,1.0044758393452424
0.046878672,-0.318169892,0.95156306,1.0067043373318554
0.04710514,-0.202185512,0.983412981,1.0079800724620085
0.047331604,-0.0830987468,1.00073314,1.00837221921399
0.047558072,0.0371307321,1.00326979,1.007928962792926
0.04778454,0.156536058,0.991061926,1.0067072786210087
0.048011008,0.273192316,0.964451075,1.0047999175900997
0.048237472,0.385280341,0.924080133,1.002365033366374
0.04846394,0.491160363,0.870866477,0.9996469229446832
0.048690408,0.589448988,0.805947661,0.9970017417255952
0.048916876,0.679086924,0.730575979,0.9949003114395903
0.04914334,0.759353936,0.645933926,0.9938490368764656
0.049369808,0.829680741,0.552917361,0.9940877400815133
0.049596276,0.889241457,0.452204943,0.9952396793211161
0.049822744,0.936851859,0.344772786,0.9965596796779577
0.050049208,0.971453726,0.232146785,0.9976144715451194
0.050275676,0.992438138,0.116087884,0.9984098545685045
0.050502144,0.999543488,-0.00168689585,0.999090030020815
0.050728612,0.992698908,-0.119533382,0.9997393513567505
0.050955076,0.971975863,-0.235827118,1.0003515078387808
0.051181544,0.937608063,-0.348932326,1.0008626479303824
0.051408012,0.890030324,-0.457207888,1.0011930304889656
0.05163448,0.829913974,-0.559048831,1.0012927996829393
0.051860944,0.758179784,-0.652953029,1.0011842429465614
0.052087412,0.675973594,-0.737607598,1.0010052684126065
0.05231388,0.584575176,-0.811968446,1.0010208936950857
0.052540348,0.485226303,-0.875253558,1.0015133559147074
0.052766812,0.379003584,-0.926735759,1.0024828836941513
0.05299328,0.267023653,-0.965463936,1.0034222429780766
0.053219748,0.150864318,-0.990415633,1.0036831685363958
0.053446216,0.0325418338,-1.00098908,1.0030381092263134
0.05367268,-0.0858929828,-0.997149765,1.0016852583338363
0.053899148,-0.202593073,-0.979242861,0.9999605340470488
0.054125616,-0.315928251,-0.947812259,0.9981587380906021
0.054352084,-0.424432695,-0.903521657,0.9964944972529887
0.054578552,-0.526766062,-0.847129941,0.9951116210136515
0.054805016,-0.621691525,-0.779490113,0.9941051885215785
0.055031484,-0.708075166,-0.701556623,0.9935521359810916
0.055257952,-0.784904897,-0.614384174,0.9935436105962429
0.05548442,-0.851321459,-0.519104481,0.994217688748168
0.055710884,-0.906634152,-0.416852683,0.9957516448970576
0.055937352,-0.950240731,-0.308662862,0.9982302092294453
0.05616382,-0.981401861,-0.19549112,1.0013663907731178
0.056390288,-0.99912113,-0.0785452053,1.004412381688096
0.056616752,-1.00248075,0.0403992608,1.0065997543937488
0.05684322,-0.99108988,0.159183085,1.0075984047885316
0.057069688,-0.965131938,0.275655359,1.0074655346930546
0.057296156,-0.92518878,0.387861162,1.0064105596258788
0.05752262,-0.872101068,0.494061559,1.004657096888251
0.057749088,-0.80690521,0.592724681,1.002418565391696
0.057975556,-0.730792582,0.682527542,0.9999016434947884
0.058202024,-0.645076632,0.762366056,0.9973258644934584
0.058428488,-0.551149368,0.831366956,0.9949366413755054
0.058654956,-0.450429231,0.888896823,0.9930240540787446
0.058881424,-0.344287664,0.934553444,0.991924135274838
0.059107892,-0.233951047,0.9681108,0.9919716134690363
0.059334356,-0.120438211,0.98935324,0.9933251961673781
0.059560824,-0.00469540525,0.997840822,0.9957083528800974
0.059787292,0.112032562,0.992912292,0.9984261145529771
0.06001376,0.228022203,0.974077165,1.0008204484354104
0.060240224,0.341325104,0.941323996,1.002593692066019
0.060466692,0.450069338,0.895080745,1.0037319490775132
0.06069316,0.552545905,0.836055994,1.004296602235597
0.060919628,0.647197902,0.76516223,1.0043383625717746
0.061146092,0.732609987,0.683498681,1.00388783998088
0.06137256,0.807533145,0.59234798,1.0029859096836713
0.061599028,0.870922923,0.493157327,1.0017108869806488
0.061825496,0.921983421,0.387497842,1.0002080061535201
0.06205196,0.960200906,0.276993334,0.9987110869636563
0.062278428,0.985344112,0.163220093,0.9975438178119973
0.062504896,0.997385144,0.0475917049,0.9970420958471895
0.062731364,0.996314526,-0.0686746314,0.9973588397165306
0.062957828,0.981961727,-0.184369653,0.9982410022401628
0.063184296,0.954119921,-0.297992021,0.9991440682287107
0.063410764,0.912906587,-0.407745421,0.9996547649344558
0.063637232,0.858906984,-0.511847734,0.999709309964911
0.063863696,0.79302305,-0.608745396,0.9994565149824992
0.064090164,0.716305137,-0.697120845,0.9990705218261028
0.064316632,0.62988621,-0.775830925,0.9986702617345196
0.0645431,0.534978271,-0.843868673,0.9983160877129305
0.064769564,0.432885259,-0.900355637,0.9980299205371728
0.064996032,0.325008184,-0.944564223,0.9978318910385716
0.0652225,0.212829649,-0.975949466,0.9977738196791484
0.065448968,0.0978677571,-0.994177997,0.9979679875987165
0.065675432,-0.018400142,-0.999124348,0.9985880279920454
0.0659019,-0.134610042,-0.990788221,0.9997811622795866
0.066128368,-0.249476835,-0.969143033,1.0014769096140563
0.066354836,-0.361569941,-0.934080422,1.0032390569984415
0.0665813,-0.469124645,-0.885654509,1.004461841858407
0.066807768,-0.570203602,-0.824403226,1.0047728267729814
0.067034236,-0.663038075,-0.751365364,1.004169399118558
0.067260704,-0.746197462,-0.667874634,1.0028671790358756
0.067487168,-0.818574667,-0.575384855,1.001132216817532
0.06771364,-0.87932241,-0.47538957,0.9992031439929929
0.067940104,-0.927807808,-0.369396091,0.9972808006318451
0.068166568,-0.963589191,-0.258911282,0.9955391809589179
0.06839304,-0.986403584,-0.145428166,0.9941413819941687
0.068619504,-0.99616158,-0.0304039214,0.9932622919045938
0.068845968,-0.99293232,0.0847786888,0.9931020181752297
0.06907244,-0.976892412,0.198854953,0.99386207695581
0.069298904,-0.948217094,0.310684681,0.9956406283618766
0.069525376,-0.906958759,0.419123977,0.9982390986231167
0.06975184,-0.853110313,0.522777975,1.0010940172920586
0.069978304,-0.786919951,0.619906843,1.003527503280069
0.070204776,-0.709149599,0.70867306,1.0051106597316242
0.07043124,-0.621021688,0.787451923,1.0057484680027673
0.070657704,-0.524021089,0.854946792,1.0055321188678372
0.070884176,-0.419761807,0.910171866,1.0046128002738273
0.07111064,-0.309925228,0.952413321,1.003144780969101
0.071337112,-0.196225658,0.981214762,1.0012869180242496
0.071563576,-0.0803765506,0.996370137,0.999213839791753
0.07179004,0.035954155,0.997920573,0.9971381712784124
0.072016512,0.151198179,0.986132801,0.9953187905410217
0.072242976,0.263945103,0.961453974,0.9940607615180733
0.072469448,0.372985691,0.924418449,0.9936677945423131
0.072695912,0.477274209,0.875508428,0.9943056780756068
0.072922376,0.575752795,0.815063238,0.9958193628893567
0.073148848,0.667124689,0.743411958,0.9977166899707406
0.073375312,0.749862254,0.661179066,0.9994511572905928
0.073601776,0.822474539,0.56942898,1.000713730567103
0.073828248,0.883734226,0.469543874,1.001457631814747
0.074054712,0.932710707,0.363053292,1.0017569557844772
0.074281184,0.968719244,0.251546562,1.0016926465499514
0.074507648,0.991287768,0.136654869,1.0013259922078288
0.074734112,1.00015175,0.0200429074,1.0007052411651074
0.074960584,0.995267808,-0.0966118127,0.9998918519943049
0.075187048,0.976826966,-0.211659223,0.9989905481857287
0.075413512,0.945246875,-0.323535204,0.9981666829245873
0.075639984,0.901130795,-0.430826813,0.997648452497069
0.075866448,0.84517014,-0.532308459,0.9976648610705743
0.07609292,0.778023601,-0.626883507,0.9983036550616262
0.076319384,0.700288713,-0.713407695,0.9993548208404093
0.076545848,0.612687528,-0.790550768,1.0003565237521408
0.07677232,0.516314328,-0.856919289,1.000891153158357
0.076998784,0.412647098,-0.911337256,1.0008132216614312
0.077225248,0.303357005,-0.952994525,1.0002240371625457
0.07745172,0.190135062,-0.981408894,0.999314759024047
0.077678184,0.0746272951,-0.996343732,0.9982700654696305
0.077904656,-0.041572433,-0.997749209,0.9972317512456652
0.07813112,-0.15691635,-0.985739827,0.9963057474313124
0.078357584,-0.26990369,-0.960591376,0.9955837935211895
0.078584056,-0.379100055,-0.922740281,0.995166477880962
0.07881052,-0.483170033,-0.872772396,0.995184936008802
0.079036984,-0.580910742,-0.8113783,0.9957920358818806
0.079263456,-0.671244502,-0.739274025,0.9970952655049286
0.07948992,-0.753124356,-0.657130361,0.9990166069484052
0.079716392,-0.825368345,-0.565636575,1.0011776399057695
0.079942856,-0.886623025,-0.465739697,1.0030138538218025
0.08016932,-0.935584009,-0.358829141,1.00407579032731
