Frequency (GHz),Re( S21 ),Im( S21 ),S2
0.0,0.0566287041,4.18118289e-05,0.0032068118762743933
0.000226486219,0.0518885665,-0.0219073966,0.0031723573592146136
0.000452972438,0.0384473726,-0.0399142094,0.0030713445718702787
0.000679458625,0.0187049564,-0.0507171452,0.002922104211163784
0.000905944875,-0.00379780936,-0.0523225442,0.0027520719874958573
0.00113243113,-0.0249942038,-0.0443709157,0.0025934883836524407
0.00135891725,-0.0410103798,-0.0282219332,0.0024783287648855105
0.0015854035,-0.0488648824,-0.00673410064,0.0024331248433954776
0.00181188975,-0.0470190793,0.016231209,0.0024742459638213694
0.002038376,-0.0356767997,0.0364959985,0.002604791943345922
0.00226486225,-0.0167689621,0.0503215455,0.0028134560314198066
0.0024913485,0.00637654448,0.0550902002,0.0030755904775814987
0.0027178345,0.0296182279,0.0497875921,0.003356043751052321
0.00294432075,0.0489617847,0.0352036916,0.0036365562632770646
0.003170807,0.0603960119,0.0137744769,0.003837414467293575
0.00339729325,0.0619865656,-0.0106227398,0.003955176915741608
0.0036237795,0.0531639121,-0.0337062441,0.003962512441105312
0.00385026575,0.035390079,-0.0512257032,0.003876530359960731
0.004076752,0.0116121732,-0.0597971752,0.003710544728326293
0.004303238,-0.013956191,-0.0575443096,0.0035061228345691334
0.0045297245,-0.0366164483,-0.0444840193,0.003319592259189345
0.0047562105,-0.0520035066,-0.0226020142,0.003215215744593245
0.004982697,-0.0568874031,0.00441657333,0.0032556827514411565
0.005209183,-0.0498128049,0.0317779742,0.00349115517626133
0.005435669,-0.0314481109,0.054402899,0.0039486590987829
0.0056621555,-0.00456065172,0.0678417236,0.004623299005129936
0.0058886415,0.0263935421,0.0691127256,0.005473187904445367
0.006115128,0.0562675633,0.0573729798,0.006457697490850714
0.006341614,0.0790709928,0.0338791795,0.007400020705970872
0.0065681005,0.0906123221,0.00241679279,0.008216433803743945
0.0067945865,0.088130638,-0.0315602534,0.008763058948959256
0.0070210725,0.0712873563,-0.0620308928,0.008929718829808241
0.007247559,0.0424997956,-0.083095178,0.008711041232893464
0.007474045,0.00633586617,-0.0898584276,0.008114680210868593
0.0077005315,-0.0306769479,-0.0796373039,0.00728317530492027
0.0079270175,-0.0610895604,-0.0525502115,0.0064934591185599804
0.008153504,-0.0776884854,-0.0118112443,0.006175006255660297
0.00837999,-0.0747441947,0.0364486165,0.00691519628611558
0.008606476,-0.0491551347,0.0838627666,0.00944919088918122
0.008832962,-0.0012783251,0.120959438,0.014632819756337135
0.009059449,0.0652735382,0.138799697,0.023525990676438666
0.009285935,0.141816154,0.129516736,0.03688640643944541
0.009512421,0.218487203,0.089155376,0.055685338944464584
0.009738907,0.2835958,0.0176981613,0.08073980269104082
0.009965394,0.325507104,-0.0802687407,0.11239794548803064
0.01019188,0.33542183,-0.197586402,0.15154819029585448
0.010418366,0.306400299,-0.322819799,0.19809376585368982
0.010644852,0.235932067,-0.443073988,0.2519784990811166
0.010871338,0.125805885,-0.54505533,0.3129124334620421
0.011097825,-0.0180675201,-0.616445601,0.38033161427481516
0.011324311,-0.186121762,-0.647087991,0.45336417838640075
0.011550797,-0.365917057,-0.630045414,0.5308525163059726
0.011777283,-0.543254375,-0.562379241,0.6113957266643767
0.01200377,-0.703482211,-0.445560157,0.6934110746993132
0.012230256,-0.83288306,-0.285524309,0.7752183226648911
0.012456742,-0.919838846,-0.0925403982,0.8546672279096263
0.012683228,-0.954652667,0.120499216,0.9258817756668274
0.012909714,-0.934147179,0.340737939,0.9887332951076258
0.013136201,-0.859789371,0.551847577,1.0437735107253465
0.013362687,-0.736248016,0.739342332,1.0886882249511345
0.013589173,-0.572252095,0.891461968,1.122176900622322
0.013815659,-0.379355937,0.999910355,1.143731644973374
0.014042145,-0.17052263,1.06039786,1.1535215888346964
0.014268632,0.0413076282,1.07266998,1.1523272061407095
0.014495118,0.244484246,1.04003572,1.1414468454181073
0.014721604,0.429595917,0.968506515,1.122557521500516
0.01494809,0.590024829,0.865627825,1.09744083025071
0.015174577,0.723588765,0.739924788,1.0710693927310704
0.015401063,0.827014923,0.60063374,1.0447145724910836
0.015627549,0.902397096,0.452960193,1.0194934553118304
0.015854035,0.934921026,0.311647117,0.9712012503913043
0.016080521,0.96765393,0.166852087,0.9641937471807004
0.016307008,0.973200023,0.0216887053,0.9475886847047907
0.016533494,0.960329354,-0.117185339,0.9359648718306022
0.01675998,0.9315961,-0.250198811,0.9304707385610238
0.016986466,0.888012409,-0.377412289,0.9310060744262028
0.017212952,0.829760432,-0.498494595,0.9369992357570407
0.017439438,0.756561577,-0.612484515,0.9475227009075122
0.017665924,0.668083429,-0.717657626,0.9613679362603539
0.017892412,0.564356923,-0.811558306,0.9771256205756176
0.018118898,0.446148098,-0.891183257,0.9932557229061457
0.018345384,0.315276563,-0.953306019,1.0081916770387214
0.01857187,0.174801573,-0.995057702,1.0206954202327951
0.018798356,0.0287058391,-1.01454222,1.0301199413609636
0.019024842,-0.118364163,-1.01124167,1.0366197902270795
0.019251328,-0.262946695,-0.987395644,1.0440911222015978
0.019477814,-0.405324161,-0.941374779,1.0504741500276529
0.0197043,-0.537632704,-0.871505976,1.0485715906140642
0.019930788,-0.655049622,-0.782639742,1.0416149730401696
0.020157274,-0.75546664,-0.678844631,1.0315598771904158
0.02038376,-0.83764261,-0.563888013,1.0196148332927002
0.020610246,-0.901165247,-0.441326648,1.0068680126354868
0.020836732,-0.94634068,-0.314321041,0.9943583994381862
0.021063218,-0.973969579,-0.185486734,0.9830220693074241
0.021289704,-0.985081911,-0.0568594038,0.9736193631799033
0.02151619,-0.980704606,0.0700201988,0.9666843524696067
0.021742676,-0.961727977,0.193937168,0.9625323268763728
0.021969164,-0.928895235,0.313837975,0.9613406321578059
0.02219565,-0.882894933,0.428729773,0.963312680973706
0.022422136,-0.824586451,0.537874043,0.9692513013059412
0.022648622,-0.754123032,0.6416803,0.9804551548009629
0.022875108,-0.668974638,0.738816679,0.9933771514558202
0.023101594,-0.569314778,0.824768066,1.0043616791425696
0.02332808,-0.457485974,0.896809995,1.0135615835386287
0.023554566,-0.335700899,0.95304662,1.0209929534828324
0.023781052,-0.206434205,0.991816282,1.0263146182342855
0.02400754,-0.0725705028,1.01188982,1.0291874856962773
0.024234026,0.0627129748,1.01266479,1.0294228941140098
0.024460512,0.196153253,0.994260132,1.0270293087471394
0.024686998,0.324625313,0.95751816,1.0222226205701337
0.024913484,0.445343494,0.903926849,1.0154145759911968
0.02513997,0.55603081,0.835494459,1.0072212526889586
0.025366456,0.655053496,0.754585505,0.9984943669779269
0.025592942,0.741565287,0.663726091,0.9904513987575327
0.025819428,0.815760791,0.565163732,0.9848757121011135
0.026045916,0.878365755,0.459633738,0.9827895726645728
0.026272402,0.92825824,0.347097963,0.982140356046647
0.026498888,0.9639045,0.229424119,0.9817473114991763
0.026725374,0.985122859,0.108680725,0.9822785473108594
0.02695186,0.991966665,-0.0136656445,0.9841846143108226
0.027178346,0.984307408,-0.136299178,0.9874385393671542
0.027404832,0.961915374,-0.257775038,0.9917291569534614
0.027631318,0.924609244,-0.376413822,0.9965896194828993
0.027857804,0.872411311,-0.490289181,1.0014849765663896
0.02808429,0.805689573,-0.597282648,1.0058822496428141
0.028310778,0.725272357,-0.695203006,1.0093272113797713
0.028537264,0.632513165,-0.781962693,1.0115385571421294
0.02876375,0.529273629,-0.855806291,1.0125349820700065
0.028990236,0.417751342,-0.915591836,1.0128245938926521
0.029216722,0.299912244,-0.960925102,1.0133244057548259
0.029443208,0.176934734,-0.991262436,1.013907117120305
0.029669694,0.050649792,-1.00510275,1.0127969394872058
0.02989618,-0.0757880062,-1.00186932,1.0094859562410337
0.030122666,-0.199566662,-0.982345343,1.00482922549561
0.030349154,-0.318618089,-0.947731435,0.9997123595251711
0.03057564,-0.431354523,-0.899287879,0.9947854138288761
0.030802126,-0.536505938,-0.838256359,0.9905123449131966
0.031028612,-0.633023143,-0.765828907,0.987212214370413
0.031255098,-0.719998598,-0.683137953,0.9850754439509958
0.031481584,-0.796596527,-0.591278255,0.9841760016643069
0.03170807,-0.862014711,-0.491357327,0.9845013847769986
0.031934556,-0.915497601,-0.38455683,0.9860198129364042
0.032161042,-0.95641315,-0.27215597,0.9887949854995635
0.03238753,-0.984354973,-0.155409291,0.9931067605989534
0.032614016,-0.998954654,-0.035223987,0.999151130008436
0.032840502,-0.999110401,0.0875873268,1.0058931332023509
0.033066988,-0.983295918,0.210995749,1.0113900684515338
0.033293474,-0.951087892,0.332032114,1.0148135030363126
0.03351996,-0.903105676,0.447981775,1.0162875327555678
0.033746448,-0.840426743,0.556553125,1.0160684912968536
0.033972932,-0.764423609,0.655763686,1.0143694658728915
0.03419942,-0.676733077,0.743935347,1.0114074580218984
0.034425904,-0.579202533,0.819738567,1.0074468924608297
0.034652392,-0.473804235,0.882223368,1.0028085241491986
0.034878876,-0.362543195,0.930824459,0.9978717417134506
0.035105364,-0.247366503,0.965340376,0.9930722283422704
0.035331848,-0.130081803,0.985905468,0.9889308673040299
0.035558336,-0.0122456606,0.992949307,0.9860982824753106
0.035784824,0.105019853,0.987065732,0.9853279288128375
0.036011308,0.221116617,0.968545496,0.9869729361354106
0.036237796,0.335294664,0.936891377,0.990187964003829
0.03646428,0.445824176,0.891566217,0.9936495152017701
0.036690768,0.550624192,0.832874715,0.9968672917019841
0.036917252,0.647921026,0.761624992,0.9998742843718929
0.03714374,0.736166,0.678770483,1.0026697481480533
0.037370224,0.813890338,0.58540684,1.0051186506085399
0.037596712,0.879699528,0.482849181,1.0070145911557935
0.0378232,0.932345569,0.372673482,1.0081537842199382
0.038049684,0.970818043,0.256709307,1.00838734091477
0.038276172,0.994435966,0.136986583,1.0076682143963689
0.038502656,1.00292158,0.0156423859,1.006096379866341
0.038729144,0.996444106,-0.105217986,1.0039716809600354
0.038955628,0.975596964,-0.223716483,1.0018385009319064
0.039182116,0.941186488,-0.338423073,1.0003621815325376
0.0394086,0.89375931,-0.448281288,0.999761817382615
0.039635088,0.833497107,-0.551929057,0.9993431113382787
0.039861576,0.761023283,-0.647471607,0.9983759191392605
0.04008806,0.677694201,-0.733241796,0.9969129614703338
0.040314548,0.585080266,-0.808132112,0.9953964281082113
0.040541032,0.484659791,-0.87138164,0.9942010755412533
0.04076752,0.377813309,-0.922380447,0.9935285854654493
0.040994004,0.265892953,-0.960591614,0.9934353113421852
0.041220492,0.150284499,-0.985539734,0.9938739979324717
0.041446976,0.0324526615,-0.996836901,0.9947369824337174
0.041673464,-0.0860396847,-0.99423337,0.9959028213648323
0.041899952,-0.203550577,-0.977682412,0.9972957361311706
0.042126436,-0.318432212,-0.947394788,0.9989559579687779
0.042352924,-0.429166168,-0.903822362,1.0010784618070634
0.042579408,-0.534462571,-0.847462237,1.0038424829409742
0.042805896,-0.633011878,-0.778583884,1.0068969021136125
0.04303238,-0.722975075,-0.697514355,1.0092192345023219
0.043258868,-0.802222252,-0.605361521,1.010023112711385
0.043485352,-0.869079351,-0.503967106,1.0092817622645964
0.04371184,-0.922511756,-0.395386845,1.0073586971572577
0.043938328,-0.961946666,-0.281632006,1.0046579750320996
0.044164812,-0.98713243,-0.164619207,1.0015299176710137
0.0443913,-0.998070121,-0.0461613536,0.9982748369991389
0.044617784,-0.994971752,0.0720433816,0.9951590361103126
0.044844272,-0.978223026,0.188421011,0.9924227659828587
0.045070756,-0.94835633,0.301528215,0.9902989930921551
0.045297244,-0.906025767,0.410066009,0.9890368222051265
0.045523728,-0.851972938,0.512913227,0.9889378655159052
0.045750216,-0.786923468,0.609166026,0.9903317917217798
0.045976704,-0.711378992,0.698049068,0.9933325715946046
0.046203188,-0.625553012,0.778516233,0.9974040958667825
0.046429676,-0.529882789,0.848935127,1.0014666199329245
0.04665616,-0.425561994,0.907529771,1.0047132959885685
0.046882648,-0.314339578,0.952948689,1.0069205741640368
0.047109132,-0.19813405,0.984315634,1.0081343691062246
0.04733562,-0.078899093,1.00110114,1.0084285593855224
0.047562104,0.0413890593,1.00306857,1.0078596103515838
0.047788592,0.160754457,0.9902789,1.0064942952305749
0.04801508,0.27726984,0.963099539,1.0044392861956382
0.048241564,0.389123291,0.922198415,1.001866852227183
0.048468052,0.494690835,0.868513525,0.9990347653409228
0.048694536,0.592609584,0.803195477,0.9963090933219105
0.048921024,0.681845367,0.727500677,0.9941703395348229
0.049147508,0.761698425,0.642605782,0.9931266817073121
0.049373996,0.831612766,0.549391985,0.993411345756411
0.04960048,0.890763998,0.448526502,0.9946365231293
0.049826968,0.937968016,0.340980232,0.9960515176537501
0.050053456,0.972169936,0.228272527,0.9972227310452099
0.05027994,0.992758095,0.112155363,0.9981474606376908
0.050506428,0.99946183,-0.00565913878,0.9989559754786802
0.050732912,0.992200255,-0.123524234,0.9997195824073518
0.0509594,0.971036792,-0.239806026,1.000419381523564
0.051185884,0.936202407,-0.35285446,1.0009812168144852
0.051412372,0.888138115,-0.46101293,1.001322232942938
0.051638856,0.827526271,-0.562662423,1.0013887314513963
0.051865344,0.755307436,-0.656292975,1.0012097919112448
0.052091832,0.672647715,-0.74058938,1.0009275782635054
0.052318316,0.580847085,-0.814514935,1.0008179154910515
0.052544804,0.481163591,-0.877298594,1.0011712243383921
0.052771288,0.374686182,-0.928225279,1.001991903556365
0.052997776,0.262545675,-0.966358662,1.0027792950836358
0.05322426,0.146331117,-0.990702033,1.002903313992801
0.053450748,0.0280563105,-1.00068367,1.0021549639635412
0.053677232,-0.0902442336,-0.996292412,1.000742591906829
0.05390372,-0.206744164,-0.977887034,0.9990062006133761
0.054130208,-0.319834292,-0.946015418,0.997239145432856
0.054356692,-0.428067565,-0.901337445,0.9956510299641572
0.05458318,-0.530115783,-0.844602644,0.9943763696374937
0.054809664,-0.624748826,-0.776652217,0.9934997617593935
0.055036152,-0.710832953,-0.698428988,0.9930865383494043
0.055262636,-0.787350476,-0.610979378,0.9932165723986934
0.055489124,-0.853432655,-0.515429854,0.9940152310148103
0.055715608,-0.908377886,-0.412916154,0.9956501340079806
0.055942096,-0.951570272,-0.304477572,0.9981925744051692
0.05616858,-0.982257903,-0.191085398,1.0013442173347757
0.056395068,-0.99943912,-0.0739729851,1.0043505571109792
0.056621556,-1.00220895,0.0450563207,1.0064528514951236
0.05684804,-0.990199864,0.163826078,1.0073347544984805
0.057074528,-0.963621557,0.280178875,1.00706670711137
0.057301012,-0.923081338,0.39216122,1.0058695790357588
0.0575275,-0.869443655,0.498042971,1.0039790701822657
0.057753984,-0.803764224,0.596308112,1.001620292219327
0.057980472,-0.727248132,0.685653806,0.9990109871797752
0.058206956,-0.641214311,0.76499927,0.9963796757317376
0.058433444,-0.547052205,0.833492756,0.9939762892998374
0.058659932,-0.446170956,0.890519679,0.9920938206642169
0.058886416,-0.33992672,0.935689628,0.9910652549167368
0.059112904,-0.229528651,0.96878171,0.991221403260404
0.059339388,-0.115979321,0.98957175,0.9927034512976836
0.059565876,-0.000219132184,0.997605741,0.9952172624950731
0.05979236,0.11650005,0.99221158,0.9980560811360988
0.060018848,0.232444465,0.972893238,1.0005516818552609
0.060245332,0.345656902,0.939642012,1.0024058046156457
0.06047182,0.454254955,0.892887056,1.003594858914399
0.060698308,0.556518853,0.833343923,1.0041753277454657
0.060924792,0.650880516,0.761936903,1.0041932902616577
0.06115128,0.735918581,0.679783463,1.003681714429326
0.061377764,0.810383439,0.5881868,1.0026850298997068
0.061604252,0.87323755,0.48861593,1.0012893457797674
0.061830736,0.923700571,0.382660091,0.9996514901098544
0.062057224,0.961279392,0.271955609,0.9980179227504505
0.062283708,0.985765755,0.15808329,0.9967244503079441
0.062510196,0.997152925,0.0424522571,0.99611614996894
0.062736684,0.995445013,-0.0737280995,0.996346606562452
0.062963168,0.980483294,-0.189256251,0.9971654183556655
0.063189656,0.952072561,-0.302636832,0.9980312134920951
0.06341614,0.91034162,-0.412086576,0.998537211223628
0.063642628,0.855880737,-0.515840411,0.998623165588312
0.063869112,0.789587259,-0.612359643,0.9984323719502206
0.0640956,0.712503612,-0.700334549,0.9981298776360801
0.064322084,0.625753045,-0.778623521,0.9978214607812094
0.064548572,0.530542374,-0.846214354,0.9975539435251932
0.06477506,0.428175569,-0.902222097,0.9973390302035512
0.065001544,0.320059061,-0.945911527,0.9971864194396735
0.065228032,0.207685873,-0.976733387,0.9971415311242638
0.065454516,0.0925875381,-0.994354308,0.9973129420495779
0.065681004,-0.023744883,-0.998653114,0.9978718615705807
0.065907488,-0.139934346,-0.989639103,0.9989671753770923
0.066133976,-0.254680693,-0.967297077,1.0005258905597043
0.06636046,-0.366540343,-0.93153882,1.00211639621355
0.066586948,-0.473741233,-0.882448494,1.0031461004072284
0.066813436,-0.574353993,-0.820597053,1.0032620326673287
0.06703992,-0.66663152,-0.747050285,1.0024817117760918
0.067266408,-0.74917084,-0.663156688,1.001033740345435
0.067492896,-0.820892811,-0.570374787,0.9991924047967771
0.067719376,-0.880976737,-0.470194906,0.997203260763516
0.067945864,-0.928810716,-0.364112705,0.9952674080988497
0.068172352,-0.963968277,-0.253619909,0.993557897303517
0.06839884,-0.986193597,-0.140192196,0.9922316625831008
0.06862532,-0.995398879,-0.0252697412,0.9914574881347716
0.068851808,-0.99164623,0.0897782892,0.9914223866848917
0.069078296,-0.975102365,0.203695431,0.9923164508388691
0.069304784,-0.945926964,0.315341055,0.9942178021907703
0.069531272,-0.90416199,0.423560798,0.9969126537631569
0.069757752,-0.849796832,0.526939631,0.9998200303956524
0.06998424,-0.78309238,0.623719335,1.0022594844669066
0.070210728,-0.704831123,0.712052107,1.0038051150325804
0.070437216,-0.616257131,0.790312529,1.0043667450027272
0.070663696,-0.518877625,0.857209802,1.0040426343705198
0.070890184,-0.414327174,0.911769748,1.00299108048281
0.071116672,-0.304303139,0.953297019,1.0013756068395396
0.07134316,-0.190531701,0.981359482,0.9993687619972618
0.071569648,-0.0747293532,0.995778501,0.9971592992834973
0.071796128,0.0414421298,0.996621788,0.994972438438677
0.072022616,0.156428754,0.984178782,0.993077830016996
0.072249104,0.268841684,0.958913505,0.991790961127341
0.072475592,0.377495557,0.921365678,0.99141760815114
0.072702072,0.481366277,0.872012496,0.9921192858129908
0.07292856,0.57940805,0.811183274,0.9937319924221615
0.073155048,0.670329869,0.739197433,0.9957549782273466
0.073381536,0.7526052,0.656672716,0.9976336430058566
0.073608024,0.82474649,0.564666986,0.9990555778456442
0.073834504,0.88552314,0.464555025,0.9999626027282102
0.074060992,0.933995605,0.357860476,1.0004119104422626
0.07428748,0.969468772,0.246175304,1.0004719801826805
0.074513968,0.991459727,0.131140783,1.0001902952287676
0.074740448,0.99969846,0.0144368615,0.9996054338963417
0.074966936,0.994144201,-0.102238871,0.998775479125283
0.075193424,0.97499752,-0.217217118,0.9978034403583763
0.075419912,0.94269526,-0.328918308,0.9968616065640505
0.0756464,0.897862434,-0.435920089,0.9961832743821722
0.07587288,0.841216087,-0.536994815,0.9960079363644757
0.076099368,0.773438394,-0.631049216,0.996430062327514
0.076325856,0.695151448,-0.716946721,0.9972481364091486
0.076552344,0.60710448,-0.793371379,0.998013994652432
0.076778824,0.510414362,-0.858957529,0.998330857561653
0.077005312,0.406569332,-0.912565589,0.9980745759498431
0.0772318,0.297234923,-0.953419507,0.997357355778939
0.077458288,0.184087053,-0.981065214,0.9963769972030907
0.077684776,0.0687501132,-0.995284975,0.9953187595257635
0.077911256,-0.0472050421,-0.996037304,0.9943186269592512
0.078137744,-0.162251279,-0.983438253,0.9934762750008278
0.078364232,-0.274905443,-0.957756817,0.9928711231009979
0.07859072,-0.38374427,-0.919420004,0.992592808513193
0.0788172,-0.487436563,-0.869001329,0.9927577127530193
0.079043688,-0.584777415,-0.807181001,0.9935057934694442
0.079270176,-0.674681485,-0.734665811,0.9949289600540929
0.079496664,-0.756086111,-0.652123749,0.9969315912569194
0.079723152,-0.827792346,-0.560254037,0.9991247540709809
0.079949632,-0.888435245,-0.46002537,1.0009405256018469
0.08017612,-0.936712623,-0.352853358,1.0019360303394163
