Frequency (GHz),Re( S21 ),Im( S21 ),S2
0,0.05667707,4.57E-05,3.21E-03
0.000226384,0.051938709,-0.021913216,3.18E-03
0.000452768,0.038501523,-0.039933845,3.08E-03
0.000679153,0.018760892,-0.050757069,2.93E-03
0.000905537,-0.003747733,-0.052388847,2.76E-03
0.001131921,-0.024962481,-0.044465873,2.60E-03
0.001358305,-0.041012462,-0.028341085,2.49E-03
0.00158469,-0.048914935,-0.006864373,2.44E-03
0.001811074,-0.047125448,0.016110828,2.48E-03
0.002037458,-0.035837654,0.036411595,2.61E-03
0.002263842,-0.01697007,0.050298557,2.82E-03
0.002490226,0.006161922,0.055147775,3.08E-03
0.002716611,0.029425126,0.049931686,3.36E-03
0.002942995,0.048845969,0.035427898,3.64E-03
0.003169379,0.060371663,0.014043939,3.84E-03
0.003395763,0.062076647,-0.010353333,3.96E-03
0.003622147,0.053359915,-0.033483196,3.97E-03
0.003848532,0.035680767,-0.051099829,3.88E-03
0.004074916,0.011951384,-0.059808012,3.72E-03
0.0043013,-0.013630004,-0.057711106,3.52E-03
0.004527684,-0.036372207,-0.044798497,3.33E-03
0.004754069,-0.051904783,-0.023025565,3.22E-03
0.004980453,-0.056979038,0.003949825,3.26E-03
0.005206837,-0.050109688,0.031352107,3.49E-03
0.005433221,-0.031927496,0.054106116,3.95E-03
0.005659605,-0.005161561,0.067749478,4.62E-03
0.00588599,0.02602974,0.069395058,5.49E-03
0.006112374,0.055728983,0.057798147,6.45E-03
0.006338758,0.078722917,0.034511667,7.39E-03
0.006565142,0.090541475,0.003164551,8.21E-03
0.006791527,0.088384658,-0.030824751,8.76E-03
0.007017911,0.071841285,-0.061439712,8.94E-03
0.007244295,0.043295607,-0.082794547,8.73E-03
0.007470679,0.007239862,-0.089952417,8.14E-03
0.007697063,-0.029843008,-0.080175556,7.32E-03
0.007923448,-0.060526151,-0.053506553,6.53E-03
0.008149832,-0.077586517,-0.013073952,6.19E-03
0.008376216,-0.075249657,0.035072889,6.89E-03
0.0086026,-0.050334722,0.082629986,9.36E-03
0.008828984,-0.003094636,0.120155044,1.44E-02
0.009055368,0.062977679,0.138709009,2.32E-02
0.009281753,0.139301419,0.13035056,3.64E-02
0.009508137,0.216092706,0.090993986,5.50E-02
0.009734521,0.281707495,0.020530554,7.98E-02
0.009960905,0.324472457,-0.076602496,1.11E-01
0.010187289,0.335558742,-0.193367034,1.50E-01
0.010413674,0.307913333,-0.318433732,1.96E-01
0.010640058,0.23889035,-0.438966662,2.50E-01
0.010866442,0.130134329,-0.541687071,3.10E-01
0.011092826,-0.012586861,-0.614247799,3.77E-01
0.01131921,-0.179839313,-0.646420419,4.50E-01
0.011545595,-0.359290332,-0.631153822,5.27E-01
0.011771979,-0.536810398,-0.565364897,6.08E-01
0.011998363,-0.697769642,-0.450359792,6.90E-01
0.012224747,-0.828418076,-0.291901797,7.71E-01
0.012451132,-0.917064369,-0.100083783,8.51E-01
0.012677516,-0.953928471,0.112269156,9.23E-01
0.0129039,-0.935554862,0.332389563,9.86E-01
0.013130284,-0.863282681,0.544007421,1.04E+00
0.013356668,-0.741600037,0.732568741,1.09E+00
0.013583053,-0.579078078,0.886206329,1.12E+00
0.013809437,-0.387162477,0.996474326,1.14E+00
0.014035821,-0.178767532,1.05891109,1.15E+00
0.014262205,0.03315321,1.07309306,1.15E+00
0.014488589,0.236882463,1.04218137,1.14E+00
0.014714974,0.422902852,0.972081184,1.12E+00
0.014941358,0.584469199,0.870288253,1.10E+00
0.015167742,0.719227254,0.745240808,1.07E+00
0.015394126,0.823875129,0.606326342,1.05E+00
0.01562051,0.900343001,0.458776176,1.02E+00
0.015846895,0.933828175,0.316816956,9.72E-01
0.016073279,0.967324138,0.172358528,9.65E-01
0.016299663,0.973577976,0.026851647,9.49E-01
0.016526047,0.961230934,-0.112297446,9.37E-01
0.016752431,0.932951808,-0.245528594,9.31E-01
0.016978816,0.889811754,-0.372910649,9.31E-01
0.0172052,0.832040071,-0.494140029,9.36E-01
0.017431584,0.759384036,-0.608299375,9.47E-01
0.017657968,0.6715132,-0.713715553,9.60E-01
0.017884352,0.568436742,-0.807981253,9.76E-01
0.018110736,0.450875551,-0.888130546,9.92E-01
0.01833712,0.320585489,-0.950950384,1.01E+00
0.018563506,0.180559009,-0.99355197,1.02E+00
0.01878989,0.034728751,-1.0139935,1.03E+00
0.019016274,-0.1122979,-1.01167059,1.04E+00
0.019242658,-0.256908655,-0.98872453,1.04E+00
0.019469042,-0.399500042,-0.943830788,1.05E+00
0.019695426,-0.532389879,-0.874925673,1.05E+00
0.01992181,-0.650533438,-0.786813974,1.04E+00
0.020148194,-0.751763701,-0.683578432,1.03E+00
0.020374578,-0.834786236,-0.568988919,1.02E+00
0.020600964,-0.89913857,-0.446620405,1.01E+00
0.020827348,-0.945087492,-0.319664985,9.95E-01
0.021053732,-0.973412275,-0.190779358,9.84E-01
0.021280116,-0.985139072,-0.062040102,9.74E-01
0.0215065,-0.981307924,0.064978987,9.67E-01
0.021732884,-0.962830544,0.189042658,9.63E-01
0.021959268,-0.930473566,0.309090674,9.61E-01
0.022185652,-0.884940505,0.42413193,9.63E-01
0.022412036,-0.827096701,0.533411324,9.69E-01
0.02263842,-0.757202506,0.637310266,9.80E-01
0.022864806,-0.672772408,0.734718323,9.92E-01
0.02309119,-0.573778927,0.821136177,1.00E+00
0.023317574,-0.462545872,0.893773198,1.01E+00
0.023543958,-0.341268271,0.950729549,1.02E+00
0.023770342,-0.212384373,0.990331352,1.03E+00
0.023996726,-0.078744941,1.01131701,1.03E+00
0.02422311,0.056493208,1.01304126,1.03E+00
0.024449494,0.190072149,0.995573997,1.03E+00
0.024675878,0.318854183,0.959708989,1.02E+00
0.024902264,0.440026969,0.906894743,1.02E+00
0.025128648,0.551273882,0.839108884,1.01E+00
0.025355032,0.650914848,0.758701444,9.99E-01
0.025581416,0.738046825,0.668201029,9.91E-01
0.0258078,0.812799573,0.569901466,9.85E-01
0.026034184,0.87592423,0.464649498,9.83E-01
0.026260568,0.926409662,0.352366626,9.82E-01
0.026486952,0.962664723,0.234854117,9.82E-01
0.026713336,0.984475374,0.114222437,9.82E-01
0.02693972,0.991916955,-0.00803879,9.84E-01
0.027166106,0.984883845,-0.130618125,9.87E-01
0.02739249,0.963160574,-0.252089292,9.91E-01
0.027618874,0.926567256,-0.370799184,9.96E-01
0.027845258,0.875115514,-0.484847993,1.00E+00
0.028071642,0.80914861,-0.592139661,1.01E+00
0.028298026,0.729460418,-0.690494895,1.01E+00
0.02852441,0.637363911,-0.777822793,1.01E+00
0.028750794,0.534683168,-0.852345526,1.01E+00
0.028977178,0.42359513,-0.912876844,1.01E+00
0.029203562,0.306093663,-0.958984256,1.01E+00
0.029429948,0.183380499,-0.990169048,1.01E+00
0.029656332,0.057192456,-1.00493741,1.01E+00
0.029882716,-0.069341645,-1.00260794,1.01E+00
0.0301091,-0.193356201,-0.983907878,1.01E+00
0.030335484,-0.312737137,-0.950028419,1.00E+00
0.030561868,-0.425865203,-0.902231872,9.95E-01
0.030788252,-0.531446636,-0.841769755,9.91E-01
0.031014636,-0.628418505,-0.76984787,9.88E-01
0.03124102,-0.715866566,-0.687614322,9.85E-01
0.031467406,-0.792958081,-0.596175611,9.84E-01
0.03169379,-0.858899593,-0.496646136,9.84E-01
0.031920174,-0.912943542,-0.390205026,9.86E-01
0.032146558,-0.954460025,-0.278126538,9.88E-01
0.032372942,-0.983040452,-0.161670119,9.93E-01
0.032599326,-0.998343408,-0.041762829,9.98E-01
0.03282571,-0.999335229,0.080826812,1.01E+00
0.033052094,-0.98446542,0.204178542,1.01E+00
0.033278478,-0.953219354,0.325350374,1.01E+00
0.033504862,-0.906165481,0.441605359,1.02E+00
0.033731248,-0.844350278,0.550633729,1.02E+00
0.033957632,-0.769118309,0.65043354,1.01E+00
0.034184016,-0.682082951,0.739302218,1.01E+00
0.0344104,-0.585075974,0.815878689,1.01E+00
0.034636784,-0.480063885,0.879179657,1.00E+00
0.034863168,-0.36905548,0.928607106,9.99E-01
0.035089552,-0.254012406,0.963932455,9.94E-01
0.035315936,-0.136762753,0.985267222,9.89E-01
0.03554232,-0.018894324,0.993026435,9.86E-01
0.035768704,0.098426141,0.987809122,9.85E-01
0.035995088,0.214570194,0.969961941,9.87E-01
0.036221472,0.328837007,0.939045727,9.90E-01
0.036447856,0.439564437,0.894494593,9.93E-01
0.03667424,0.544670522,0.836565793,9.97E-01
0.036900628,0.642369807,0.76605618,9.99E-01
0.037127012,0.731117368,0.683912396,1.00E+00
0.037353396,0.809452176,0.591215134,1.00E+00
0.03757978,0.875982583,0.489254206,1.01E+00
0.037806164,0.929452837,0.379577637,1.01E+00
0.038032548,0.968834579,0.263987631,1.01E+00
0.038258932,0.993417501,0.14449288,1.01E+00
0.038485316,1.00288773,0.023220059,1.01E+00
0.0387117,0.997374237,-0.097720929,1.00E+00
0.038938084,0.977435291,-0.216426104,1.00E+00
0.039164468,0.943870246,-0.331423163,1.00E+00
0.039390852,0.897258699,-0.44163996,1.00E+00
0.039617236,0.837789237,-0.545755446,1.00E+00
0.03984362,0.766028047,-0.641885698,9.99E-01
0.040070004,0.683300018,-0.728318095,9.97E-01
0.040296388,0.591185153,-0.803906024,9.96E-01
0.040522772,0.491182268,-0.867873311,9.94E-01
0.040749156,0.384686321,-0.919609964,9.94E-01
0.04097554,0.273055434,-0.95858413,9.93E-01
0.041201928,0.157673866,-0.984327674,9.94E-01
0.041428312,0.039997526,-0.996456027,9.95E-01
0.041654696,-0.078424111,-0.994718075,9.96E-01
0.04188108,-0.195962057,-0.979056895,9.97E-01
0.042107464,-0.310975105,-0.94966644,9.99E-01
0.042333848,-0.421939433,-0.906984866,1.00E+00
0.042560232,-0.527558506,-0.851515234,1.00E+00
0.042786616,-0.626552582,-0.783542335,1.01E+00
0.043013,-0.717138171,-0.703352273,1.01E+00
0.043239384,-0.797178864,-0.611968756,1.01E+00
0.043465768,-0.864944279,-0.511188447,1.01E+00
0.043692152,-0.919349134,-0.403061271,1.01E+00
0.043918536,-0.959783792,-0.289605111,1.01E+00
0.04414492,-0.985970378,-0.172748551,1.00E+00
0.044371304,-0.997888625,-0.054317862,9.99E-01
0.044597688,-0.995736003,0.063971818,9.96E-01
0.044824072,-0.979888976,0.180530608,9.93E-01
0.045050456,-0.950875163,0.293899119,9.91E-01
0.04527684,-0.909348667,0.402763903,9.89E-01
0.045503228,-0.856056392,0.505988657,9.89E-01
0.045729612,-0.791740835,0.602655649,9.90E-01
0.045955996,-0.716939032,0.691997588,9.93E-01
0.04618238,-0.631882489,0.773023486,9.97E-01
0.046408764,-0.536959112,0.844157577,1.00E+00
0.046635148,-0.433290392,0.903615892,1.00E+00
0.046861532,-0.32258907,0.950009227,1.01E+00
0.047087916,-0.20675981,0.982428789,1.01E+00
0.0473143,-0.087746963,1.00031984,1.01E+00
0.047540684,0.032482129,1.00341821,1.01E+00
0.047767068,0.151953638,0.991754413,1.01E+00
0.047993452,0.268735319,0.965663493,1.00E+00
0.048219836,0.381000876,0.925783336,1.00E+00
0.04844622,0.487102449,0.873027623,9.99E-01
0.048672604,0.585645914,0.808531523,9.97E-01
0.048898988,0.675560176,0.733552516,9.94E-01
0.049125372,0.756115973,0.649290502,9.93E-01
0.049351756,0.826759815,0.556668341,9.93E-01
0.04957814,0.886711955,0.456363469,9.95E-01
0.049804528,0.934814572,0.349303573,9.96E-01
0.050030912,0.969986856,0.236969873,9.97E-01
0.050257296,0.99158895,0.121110514,9.98E-01
0.05048368,0.999337494,0.003442894,9.99E-01
0.050710064,0.993147969,-0.114389025,9.99E-01
0.050936448,0.973077595,-0.230761826,1.00E+00
0.051162832,0.939344108,-0.344038874,1.00E+00
0.051389216,0.892365038,-0.452574611,1.00E+00
0.0516156,0.832795143,-0.554754198,1.00E+00
0.051841984,0.761542201,-0.649059713,1.00E+00
0.052068368,0.679744363,-0.734156489,1.00E+00
0.052294752,0.588687718,-0.808976889,1.00E+00
0.052521136,0.48963654,-0.872725368,1.00E+00
0.05274752,0.383692682,-0.924690425,1.00E+00
0.052973904,0.271962434,-0.963954747,1.00E+00
0.053200288,0.155982882,-0.989498794,1.00E+00
0.053426672,0.037749764,-1.00068748,1.00E+00
0.053653056,-0.080677681,-0.997460604,1.00E+00
0.05387944,-0.197439,-0.980153918,1.00E+00
0.054105824,-0.310896516,-0.949310184,9.98E-01
0.054332212,-0.419584334,-0.905592263,9.96E-01
0.054558596,-0.522162974,-0.849755108,9.95E-01
0.05478498,-0.617397249,-0.78264451,9.94E-01
0.055011364,-0.704152584,-0.705204427,9.93E-01
0.055237748,-0.781410217,-0.618479311,9.93E-01
0.055464132,-0.84830004,-0.523594439,9.94E-01
0.055690516,-0.904118776,-0.42168805,9.95E-01
0.0559169,-0.948263943,-0.313808531,9.98E-01
0.056143284,-0.980020225,-0.200913846,1.00E+00
0.056369668,-0.998411655,-0.084177062,1.00E+00
0.056596052,-1.00249863,0.034671929,1.01E+00
0.056822436,-0.991842866,0.153486878,1.01E+00
0.05704882,-0.966593623,0.270101637,1.01E+00
0.057275204,-0.927316308,0.382541299,1.01E+00
0.057501588,-0.87484479,0.489051551,1.00E+00
0.057727972,-0.810211122,0.588089049,1.00E+00
0.057954356,-0.734603703,0.678319991,1.00E+00
0.05818074,-0.649333835,0.758632064,9.97E-01
0.058407124,-0.555791616,0.828142703,9.95E-01
0.058633512,-0.455396116,0.8862077,9.93E-01
0.058859896,-0.349524915,0.932414651,9.92E-01
0.05908628,-0.239418834,0.966534138,9.92E-01
0.059312664,-0.126111239,0.98836571,9.93E-01
0.059539048,-0.010538665,0.997501075,9.95E-01
0.059765432,0.106100328,0.993292034,9.98E-01
0.059991816,0.222123131,0.975214124,1.00E+00
0.0602182,0.335587591,0.943211615,1.00E+00
0.060444584,0.444605708,0.897680461,1.00E+00
0.060670968,0.547452271,0.839312732,1.00E+00
0.060897352,0.642554939,0.769009888,1.00E+00
0.061123736,0.72848475,0.687862217,1.00E+00
0.06135012,0.803976834,0.597145498,1.00E+00
0.061576504,0.867969751,0.498303026,1.00E+00
0.061802888,0.919650257,0.392906934,1.00E+00
0.062029272,0.958486795,0.282588542,9.99E-01
0.062255656,0.984234035,0.168940768,9.97E-01
0.06248204,0.996866226,0.053401314,9.97E-01
0.062708424,0.996395588,-0.062795252,9.97E-01
0.062934812,0.982685804,-0.178456381,9.98E-01
0.063161196,0.955532908,-0.292122573,9.98E-01
0.06338758,0.91502142,-0.402024835,9.99E-01
0.063613964,0.861702979,-0.506375909,9.99E-01
0.063840348,0.796463609,-0.603608191,9.99E-01
0.064066732,0.720347166,-0.692394197,9.98E-01
0.064293116,0.634481013,-0.771586776,9.98E-01
0.0645195,0.540067613,-0.840174437,9.98E-01
0.064745884,0.438400209,-0.897272587,9.97E-01
0.064972268,0.330869794,-0.942143142,9.97E-01
0.065198652,0.218951374,-0.974225819,9.97E-01
0.065425036,0.104162909,-0.993169725,9.97E-01
0.06565142,-0.012009046,-0.99883461,9.98E-01
0.065877804,-0.128185064,-0.991220891,9.99E-01
0.066104188,-0.243076727,-0.970318735,1.00E+00
0.066330572,-0.355281651,-0.936033309,1.00E+00
0.066556956,-0.463072091,-0.888395011,1.00E+00
0.06678334,-0.564516366,-0.827893794,1.00E+00
0.067009724,-0.65782249,-0.755535126,1.00E+00
0.067236112,-0.741531909,-0.672639728,1.00E+00
0.067462496,-0.814517021,-0.580661118,1.00E+00
0.06768888,-0.875917673,-0.481094509,9.99E-01
0.067915264,-0.925090909,-0.375447571,9.97E-01
0.068141648,-0.961586118,-0.26522702,9.95E-01
0.068368032,-0.985129893,-0.151926681,9.94E-01
0.068594416,-0.99562335,-0.037004679,9.93E-01
0.0688208,-0.993125439,0.078148015,9.92E-01
0.069047184,-0.977810144,0.192254931,9.93E-01
0.069273568,-0.949864507,0.304166347,9.95E-01
0.069499952,-0.909363449,0.412750274,9.97E-01
0.069726336,-0.856301248,0.516651392,1.00E+00
0.06995272,-0.790888071,0.614163041,1.00E+00
0.070179104,-0.713835716,0.703444362,1.00E+00
0.070405488,-0.626333714,0.782841742,1.01E+00
0.070631872,-0.529856026,0.851029217,1.00E+00
0.070858256,-0.42601499,0.906997859,1.00E+00
0.07108464,-0.316492289,0.950016797,1.00E+00
0.071311024,-0.203004673,0.979613662,1.00E+00
0.071537408,-0.087268837,0.995568812,9.99E-01
0.071763792,0.029041668,0.997908592,9.97E-01
0.071990176,0.144347891,0.986888349,9.95E-01
0.07221656,0.257225215,0.962949097,9.93E-01
0.072442944,0.366446942,0.926629722,9.93E-01
0.072669328,0.470962256,0.878432453,9.93E-01
0.072895712,0.569733858,0.818717003,9.95E-01
0.073122096,0.66150707,0.747804701,9.97E-01
0.07334848,0.744774699,0.666273952,9.99E-01
0.073574864,0.818033278,0.575144768,1.00E+00
0.073801256,0.880024731,0.475776285,1.00E+00
0.07402764,0.92979002,0.369689137,1.00E+00
0.074254024,0.96662426,0.258473873,1.00E+00
0.074480408,0.990036845,0.143761933,1.00E+00
0.074706792,0.999747396,0.027220229,1.00E+00
0.074933176,0.995695174,-0.089468375,9.99E-01
0.07515956,0.978055477,-0.20464465,9.98E-01
0.075385944,0.947234511,-0.316729039,9.98E-01
0.075612328,0.903831959,-0.424288809,9.97E-01
0.075838712,0.8485502,-0.526079893,9.97E-01
0.076065096,0.782072246,-0.621004999,9.97E-01
0.07629148,0.705011785,-0.707947075,9.98E-01
0.076517864,0.618072331,-0.785612524,9.99E-01
0.076744248,0.522304058,-0.852617145,1.00E+00
0.076970632,0.419150263,-0.907763362,1.00E+00
0.077197016,0.31026867,-0.950212657,9.99E-01
0.0774234,0.1973501,-0.979462385,9.98E-01
0.077649784,0.082040258,-0.995262444,9.97E-01
0.077876168,-0.034069069,-0.997551024,9.96E-01
0.078102552,-0.149431661,-0.986428857,9.95E-01
0.078328936,-0.262547493,-0.962155759,9.95E-01
0.07855532,-0.371977448,-0.925150692,9.94E-01
0.078781704,-0.476373911,-0.875984073,9.94E-01
0.079008088,-0.574516952,-0.815340281,9.95E-01
0.079234472,-0.665315807,-0.743941724,9.96E-01
0.079460856,-0.747727334,-0.662473261,9.98E-01
0.07968724,-0.820595205,-0.57162255,1.00E+00
0.079913624,-0.882584214,-0.472300678,1.00E+00
0.080140008,-0.932374716,-0.365852863,1.00E+00
0.080366392,-0.968949199,-0.254007131,1.00E+00
0.080592776,-0.991717994,-0.138658181,1.00E+00
0.08081916,-1.00047183,-0.021687314,1.00E+00
0.081045544,-0.995293975,0.095113024,1.00E+00
0.081271928,-0.976496339,0.210061982,9.98E-01
0.081498312,-0.944580197,0.321600646,9.96E-01
0.081724696,-0.900208652,0.428304672,9.94E-01
0.08195108,-0.844175398,0.528900325,9.92E-01
0.082177464,-0.777364373,0.622283041,9.92E-01
0.082403856,-0.700683236,0.70751822,9.92E-01
0.08263024,-0.614983976,0.783794582,9.93E-01
0.082856624,-0.521024048,0.850289643,9.94E-01
0.083083008,-0.419580549,0.906013906,9.97E-01
0.083309392,-0.311698884,0.9498173,9.99E-01
0.083535776,-0.198842555,0.980629563,1.00E+00
0.08376216,-0.082788877,0.997709453,1.00E+00
0.083988544,0.034576468,1.00071228,1.00E+00
0.084214928,0.151393875,0.989632905,1.00E+00
0.084441312,0.265881151,0.964740515,1.00E+00
0.084667696,0.376354367,0.926536322,1.00E+00
0.08489408,0.481252193,0.875737429,9.99E-01
0.085120464,0.579165637,0.813248217,9.97E-01
0.085346848,0.668876469,0.740126431,9.95E-01
0.085573232,0.749383092,0.657521069,9.94E-01
0.085799616,0.819898248,0.566586971,9.93E-01
0.086026,0.87977612,0.468396813,9.93E-01
0.086252384,0.928365707,0.363930553,9.94E-01
0.086478768,0.964889109,0.254221886,9.96E-01
0.086705152,0.98851651,0.140575528,9.97E-01
0.086931536,0.998609841,0.024619617,9.98E-01
0.08715792,0.994888961,-0.091850929,9.98E-01
0.087384304,0.977423191,-0.207056567,9.98E-01
0.087610688,0.946543097,-0.319316328,9.98E-01
0.087837072,0.902773499,-0.427058309,9.97E-01
0.088063456,0.846807659,-0.528815329,9.97E-01
0.08828984,0.779496193,-0.623229921,9.96E-01
0.088516224,0.701841712,-0.709078372,9.95E-01
0.088742608,0.61497277,-0.785299838,9.95E-01
0.088968992,0.520094514,-0.851021886,9.95E-01
0.089195376,0.418416142,-0.905547142,9.95E-01
0.08942176,0.31109342,-0.948279679,9.96E-01
0.089648144,0.199264482,-0.978596807,9.97E-01
0.089874528,0.084218338,-0.995808542,9.99E-01
0.090100912,-0.032448996,-0.999309361,1.00E+00
0.090327296,-0.148885444,-0.988819301,1.00E+00
0.09055368,-0.263192624,-0.964480937,9.99E-01
0.090780064,-0.37359938,-0.926790595,9.99E-01
0.091006456,-0.478522897,-0.876482069,9.97E-01
0.09123284,-0.576565266,-0.814445972,9.96E-01
0.091459224,-0.666496277,-0.741689086,9.94E-01
0.091685608,-0.747243941,-0.659311116,9.93E-01
0.091911992,-0.817896903,-0.568487108,9.92E-01
0.092138376,-0.877708554,-0.470436931,9.92E-01
0.09236476,-0.926091373,-0.366383046,9.92E-01
0.092591144,-0.962572217,-0.257498652,9.93E-01
0.092817528,-0.986697435,-0.14490062,9.95E-01
0.093043912,-0.997934878,-0.029746555,9.97E-01
0.093270296,-0.995705366,0.086574711,9.99E-01
0.09349668,-0.979600728,0.202345073,1.00E+00
0.093723064,-0.94960314,0.315636605,1.00E+00
0.093949448,-0.906136572,0.424538076,1.00E+00
0.094175832,-0.849971771,0.527305543,1.00E+00
0.094402216,-0.782119155,0.622414529,9.99E-01
0.0946286,-0.7037521,0.708561301,9.97E-01
0.094854984,-0.616160631,0.784658015,9.95E-01
0.095081368,-0.520713329,0.849832237,9.93E-01
0.095307752,-0.418818533,0.903427362,9.92E-01
0.095534136,-0.311872154,0.944995224,9.90E-01
0.09576052,-0.201202035,0.974262893,9.90E-01
0.095986904,-0.088024184,0.991054535,9.90E-01
0.096213288,0.02653157,0.995176554,9.91E-01
0.096439672,0.141282693,0.986342132,9.93E-01
0.096666056,0.254813671,0.964255452,9.95E-01
0.09689244,0.365438402,0.928838849,9.96E-01
0.097118824,0.47135663,0.880400181,9.97E-01
0.097345208,0.570851564,0.819623828,9.98E-01
0.097571592,0.662393749,0.747469544,9.97E-01
0.097797976,0.744660199,0.66508311,9.97E-01
0.09802436,0.816526949,0.573746204,9.96E-01
0.098250744,0.877071202,0.474846363,9.95E-01
0.098477128,0.925578177,0.369848788,9.93E-01
0.098703512,0.961554229,0.260256439,9.92E-01
0.098929896,0.984720469,0.147555247,9.91E-01
