Frequency (GHz),Re( S21 ),Im( S21 ),S2
0.0,0.0566980019,4.14034002e-05,0.0032146651336939
0.0002264465,0.0519552268,-0.0219287146,0.0031802141158476
0.000452893,0.0385062322,-0.0399556458,0.0030791835495353
0.0006793395,0.0187502652,-0.0507772714,0.0029299037358995
0.000905786,-0.00377199263,-0.0523980297,0.0027597814448428
0.0011322325,-0.0249937698,-0.0444562957,0.0026010507561812
0.001358679,-0.0410402194,-0.0283090882,0.0024857040831155
0.0015851255,-0.0489268526,-0.00681206817,0.0024402411780948
0.001811572,-0.0471110605,0.016174987,0.0024810822258848
0.0020380185,-0.0357912555,0.0364741571,0.0026113781064217
0.002264465,-0.0168926474,0.0503439568,0.0028198755224609
0.0024909115,0.00626187399,0.0551611297,0.0030819612956468
0.002717358,0.0295330826,0.0499038957,0.0033626017738949
0.0029438045,0.0489229374,0.0353526175,0.0036432613679456
0.003170251,0.0604197606,0.013936216,0.0038447655873599
0.0033966975,0.062077038,-0.0104744155,0.00396327202692
0.003623144,0.0533152856,-0.0336003974,0.0039715063840474
0.0038495905,0.0355821438,-0.0511871204,0.0038862102522479
0.004076037,0.0118157864,-0.0598418899,0.0037206645950541
0.0043024835,-0.013776565,-0.057675954,0.0035163094130093
0.00452893,-0.0364975296,-0.0446909145,0.0033293475057491
0.0047553765,-0.0519762598,-0.0228569731,0.0032239728020912
0.004981823,-0.0569704287,0.00415351568,0.0032628814387657
0.0052082695,-0.0500075482,0.0315540209,0.0034964111119329
0.005434716,-0.0317351371,0.0542647354,0.0039517804347878
0.0056611625,-0.0049010911,0.067826733,0.0046244864034237
0.005887609,0.0260538831,0.0692405403,0.0054730572456243
0.0061140555,0.055988133,0.0576383062,0.0064568453784306
0.006340502,0.07891123,0.0342532843,0.0074002697054495
0.0065669485,0.0906153172,0.00284458464,0.0082192273730307
0.006793395,0.0883165672,-0.0311518312,0.0087702526291054
0.0070198415,0.0716439039,-0.0617223345,0.0089424955421623
0.007246288,0.0429794006,-0.0829590783,0.0087294375483208
0.0074727345,0.00686146319,-0.0899486318,0.0081378360397996
0.007699181,-0.0302057154,-0.0799744204,0.0073082931611417
0.0079256275,-0.0607821345,-0.0531128608,0.0065154438567362
0.008152074,-0.0776463449,-0.01253183,0.0061860016394786
0.0083785205,-0.0750419348,0.0356804281,0.0069043849279267
0.008604967,-0.0498226844,0.0831895694,0.0094028043377794
0.008831414,-0.00228854269,0.120537207,0.0145344556990048
0.00905786,0.0640070736,0.138774782,0.0233553455899833
0.009284307,0.1404479,0.130002037,0.0366261422385593
0.009510753,0.217202052,0.0902073309,0.0553140939411128
0.0097372,0.282607734,0.0193002317,0.0802396302602884
0.009963646,0.325020134,-0.0782101825,0.1117549201520612
0.010190093,0.335606813,-0.195233256,0.1507479571803785
0.010416539,0.307370156,-0.320393026,0.197128103908901
0.010642986,0.237724289,-0.440829962,0.250843892977477
0.010869432,0.128374711,-0.543258905,0.3116103042861325
0.011095879,-0.0148511231,-0.615345001,0.3788700261130213
0.011322325,-0.182463497,-0.646889329,0.4517587317115392
0.011548772,-0.362084746,-0.630888522,0.529125690477229
0.011775218,-0.539555252,-0.564320087,0.609577030552471
0.012001665,-0.700236619,-0.448560089,0.691537476032239
0.012228111,-0.830391943,-0.289445162,0.7733292808045213
0.012454558,-0.918360353,-0.0971474946,0.8528233736693416
0.012681004,-0.954386592,0.115488619,0.9241913881079016
0.012907451,-0.935156465,0.33566153,0.9871862767532372
0.013133897,-0.862056434,0.547066629,1.04242319196622
0.013360344,-0.73965013,0.735186338,1.0875812663908673
0.01358679,-0.576574802,0.888204813,1.1213462921377042
0.013813237,-0.384319961,0.997744083,1.1431950875845522
0.014039683,-0.175814524,1.05942011,1.1532817163217588
0.01426613,0.0360012464,1.07288229,1.1523724979379977
0.014492576,0.239446566,1.04135334,1.141751436698348
0.014719023,0.425057262,0.970778346,1.1230842730414323
0.014945469,0.586147964,0.868665397,1.098149007646513
0.015171916,0.720450521,0.743493199,1.071831090168425
0.015398362,0.824653745,0.604556561,1.0455424345906716
0.015624809,0.900772035,0.45707193,1.0203050082319662
0.015851255,0.93396759,0.31553939,0.97186056581198
0.016077702,0.967288315,0.170938537,0.9648666677672396
0.016304148,0.973394811,0.0256305095,0.9481543810989554
0.016530595,0.96098876,-0.113390267,0.9363567494966688
0.016757041,0.932676733,-0.246548593,0.9306720969898328
0.016983488,0.889498591,-0.373904884,0.9310126056700386
0.017209934,0.831660926,-0.495139062,0.9368225865534172
0.01743638,0.75889796,-0.609310627,0.9471855538672947
0.017662828,0.670877993,-0.714720905,0.9609032535357268
0.017889274,0.567620814,-0.808939219,0.9765760485223524
0.01811572,0.449867189,-0.888982773,0.9926708584295312
0.018342166,0.319401503,-0.951631784,1.0076203724376818
0.018568614,0.179244965,-0.994007826,1.0201803156270977
0.01879506,0.0333499573,-1.01419008,1.0296937380223183
0.019021506,-0.113660432,-1.01161456,1.0362827118064202
0.019247952,-0.25826025,-0.988470852,1.0437729819836683
0.0194744,-0.400789112,-0.943258703,1.0503688930829909
0.019700846,-0.53346771,-0.874117672,1.0486695021153438
0.019927292,-0.651370704,-0.785864711,1.041867138024569
0.020153738,-0.752356946,-0.682563841,1.0319343712351203
0.020380186,-0.835152149,-0.567976773,1.0200767266468118
0.020606632,-0.899311781,-0.445663869,1.0073779635774411
0.020833078,-0.945116043,-0.31879878,0.9948769968654662
0.021059524,-0.973346293,-0.190016031,0.9835090981338348
0.021285972,-0.985024571,-0.0613722615,0.9740399599553584
0.021512418,-0.981178224,0.0655730292,0.9670105294102582
0.021738864,-0.962703347,0.189592123,0.9627429074286497
0.02196531,-0.930352271,0.309624612,0.961422748511008
0.022191758,-0.884819627,0.424675822,0.9632553261157948
0.022418204,-0.82696867,0.533997953,0.969030994969759
0.02264465,-0.757001877,0.637989223,0.9800820904456669
0.022871098,-0.672407091,0.735421538,0.9929761345813676
0.023097544,-0.573262751,0.821789384,1.0039679733391875
0.02332399,-0.461895972,0.894338787,1.0131897548824562
0.023550436,-0.340505421,0.951170743,1.0206697240695592
0.023776884,-0.211542279,0.990615785,1.0260697692956802
0.02400333,-0.0778692365,1.01142442,1.029042975365429
0.024229776,0.0573515184,1.01296866,1.0293947028049812
0.024456222,0.190863475,0.995337009,1.0271246275741417
0.02468267,0.319537729,0.959339797,1.0224372063624787
0.024909116,0.440575778,0.906436324,1.015733825626938
0.025135562,0.551679373,0.83861202,1.0076202506821537
0.025362008,0.651187539,0.7582165,0.9989374718211266
0.025588456,0.738221347,0.667771876,0.9908900355430535
0.025814902,0.812937915,0.569544137,0.985248577635622
0.026041348,0.876069665,0.464317977,0.9830892416985848
0.026267794,0.926539302,0.352035165,0.9824038355472244
0.026494242,0.962781549,0.234533295,0.9819541775583964
0.026720688,0.984594107,0.113901019,0.982398997668366
0.026947134,0.992037237,-0.00838289689,0.9842081525548626
0.02717358,0.984990716,-0.131002679,0.9873684125113698
0.027400028,0.963229656,-0.252521962,0.9915787114902076
0.027626474,0.926572204,-0.371273786,0.9963802733961912
0.02785292,0.875033379,-0.485345095,1.0012432756047167
0.028079366,0.808966398,-0.592630148,1.0056371254115963
0.028305814,0.72917974,-0.69094491,1.0091079618813756
0.02853226,0.637001216,-0.778200924,1.0113672272999326
0.028758706,0.534268498,-0.852631629,1.0124235227263696
0.028985152,0.423162937,-0.913072169,1.0127676570528306
0.0292116,0.305656821,-0.959107339,1.013312979947487
0.029438046,0.182931766,-0.990209639,1.0139791601803891
0.029664492,0.056768585,-1.00487316,1.012992739931288
0.029890938,-0.0696942583,-1.00246263,1.009788614186504
0.030117386,-0.193620846,-0.983724535,1.005202992766722
0.030343832,-0.312920421,-0.949845016,1.0001247442988577
0.030570278,-0.425986201,-0.902075231,0.9952039658261156
0.030796724,-0.531531513,-0.841656029,0.990910620464118
0.031023172,-0.628494203,-0.769779325,0.9875651724020608
0.031249618,-0.715957642,-0.687582016,0.9853643738648244
0.031476064,-0.793080926,-0.596162677,0.984387292632824
0.03170251,-0.859060645,-0.496631384,0.9846279233615716
0.031928958,-0.913141429,-0.390169084,0.986059183465561
0.032155404,-0.954689026,-0.278052837,0.9887445165285772
0.03238185,-0.983294606,-0.161540195,0.9929635167893331
0.032608296,-0.998601854,-0.0415453389,0.9989316779965532
0.032834744,-0.99953866,0.0811432973,1.0056617675313118
0.03306119,-0.984563589,0.204551131,1.01120662597794
0.033287636,-0.95320642,0.325725615,1.0146996553963448
0.033514082,-0.906054914,0.441944778,1.0162506939850169
0.033740528,-0.84416455,0.55090934,1.016114888375938
0.033966976,-0.76888597,0.650627553,1.014501847585609
0.034193424,-0.68183583,0.739406884,1.0116226391783782
0.034419868,-0.584846079,0.815898657,1.0077355546160778
0.034646316,-0.479879707,0.879131019,1.003155881758384
0.03487276,-0.368937284,0.928514659,0.9982541915031828
0.035099208,-0.253969789,0.96382767,0.9934644311823334
0.035325656,-0.136793092,0.985184014,0.9892998914600728
0.0355521,-0.0189797599,0.992999375,0.9864079900362522
0.035778548,0.0983254984,0.987862885,0.9855409831961316
0.036004996,0.214508414,0.970087469,0.9870835571876212
0.03623144,0.328840435,0.93919754,0.9902280508330408
0.036457888,0.43962124,0.894638598,0.9936450556905432
0.036684332,0.544766963,0.836689115,0.9968197191357266
0.03691078,0.64249748,0.766148388,0.9997863642413488
0.037137228,0.731263936,0.683963418,1.002552901256455
0.037363672,0.809599698,0.591218352,1.004990810743287
0.03759012,0.876110196,0.489212066,1.0068975210551467
0.037816568,0.929541707,0.379502177,1.0080696874002133
0.038043012,0.968871593,0.263899237,1.0083549710115398
0.03826946,0.993400812,0.14441739,1.007701555816671
0.038495904,1.00282729,0.023183113,1.0062000302971146
0.038722352,0.99729377,-0.0976998359,1.0041401216156998
0.0389488,0.977368116,-0.216343835,1.0020530891158963
0.039175244,0.943844199,-0.331299961,1.0006015361445533
0.039401692,0.897274852,-0.441504151,1.000028075381853
0.03962814,0.837834239,-0.545611739,0.9996583817753132
0.039854584,0.766109526,-0.641727388,0.9987378463372472
0.040081032,0.683434069,-0.728156507,0.9972940253563378
0.040307476,0.591377199,-0.803764284,0.9957640157311184
0.040533924,0.491423219,-0.867774844,0.9945299600515464
0.040760372,0.38495785,-0.919569373,0.9938003780362356
0.040986816,0.273336202,-0.958607435,0.993640893761064
0.041213264,0.157943174,-0.984410286,0.9940096573957962
0.041439712,0.0402405076,-0.996587694,0.9948063302841432
0.041666156,-0.0782150626,-0.994884908,0.9959135761836904
0.041892604,-0.195787966,-0.979246914,0.9972574462089404
0.042119048,-0.31083405,-0.949872553,0.99887567358214
0.042345496,-0.42183423,-0.907203615,1.0009625166687612
0.042571944,-0.527497292,-0.851734996,1.003705896478453
0.042798388,-0.62653023,-0.78373611,1.006782419221785
0.043024836,-0.717120707,-0.703505039,1.0091814483065713
0.043251284,-0.797133267,-0.612099528,1.010087277535916
0.043477728,-0.864863515,-0.511330903,1.0094481919409506
0.043704176,-0.919244409,-0.403241813,1.0076142432292865
0.04393062,-0.95967716,-0.289839715,1.0049873118169468
0.044157068,-0.985885918,-0.173041433,1.0019143808453963
0.044383516,-0.997850955,-0.0546641685,0.9986946997122084
0.04460996,-0.995765805,0.0635859519,0.9955927116863272
0.044836408,-0.980000615,0.180125222,0.9928463010009276
0.045062856,-0.951076925,0.29349798,0.990688381531536
0.0452893,-0.909641981,0.402393758,0.989369270074967
0.045515748,-0.856433928,0.50567776,0.9891890699881268
0.045742196,-0.792184114,0.602434993,0.9904835912648752
0.04596864,-0.717407465,0.691890776,0.9933863167516084
0.046195088,-0.632323205,0.773022711,0.9973967473032616
0.046421532,-0.537340343,0.844221652,1.0014448419209667
0.04664798,-0.433614522,0.903705776,1.0047056832650507
0.046874428,-0.32287243,0.950101674,1.006939796991707
0.047100872,-0.207020372,0.982513547,1.0081903044615397
0.04732732,-0.0880021006,1.00039351,1.0085315445601328
0.047553768,0.0322151594,1.00348485,1.0080196606746898
0.047780212,0.151660755,0.991825283,1.0067183766052
0.04800666,0.268407613,0.965756893,1.0047290230933712
0.048233104,0.380637676,0.925921202,1.002215112703806
0.048459552,0.486713439,0.873233855,0.9994273372213678
0.048686,0.585252762,0.808827162,0.9967221734176028
0.048912444,0.67519778,0.733949661,0.9945741469989432
0.049138892,0.755827308,0.649780571,0.9934897099676128
0.04936534,0.826579273,0.557215273,0.9937221550176732
0.049591784,0.886640787,0.456920385,0.9949081234005276
0.049818232,0.934832036,0.349842936,0.9963010154010054
0.050044676,0.970076203,0.237483561,0.997446281372138
0.050271124,0.991740525,0.121592283,0.9983339522124276
0.050497572,0.999540985,0.00388477719,0.999097272188586
0.050724016,0.993390083,-0.113992296,0.9998181005500985
0.050950464,0.973342538,-0.230409041,1.0004840224548213
0.051176912,0.939619124,-0.343721539,1.001028594559056
0.051403356,0.892644405,-0.452279001,1.001370328523362
0.051629804,0.833081663,-0.554465592,1.001457149938756
0.051856248,0.761848867,-0.648767114,1.0013124643570728
0.052082696,0.680090249,-0.733859897,1.0010730952097326
0.052309144,0.589090645,-0.80869025,1.0010077084715787
0.052535588,0.490100473,-0.872472763,1.001407195811678
0.052762036,0.384203851,-0.924488485,1.0022915580208254
0.052988484,0.272509426,-0.963802159,1.0031759889519107
0.053214928,0.156572074,-0.989392996,1.0034133148905175
0.053441376,0.0383915715,-1.0006454,1.0027651293033997
0.05366782,-0.0799880996,-0.997510374,1.001425042315239
0.053894268,-0.196723178,-0.980319083,0.9997255132563806
0.054120716,-0.310186476,-0.949604154,0.9979636991873544
0.05434716,-0.418913901,-0.906014323,0.996350809932186
0.054573608,-0.521563828,-0.850293577,0.9950279937654684
0.054800056,-0.616894007,-0.783278346,0.9940831831850117
0.0550265,-0.703761458,-0.705908835,0.9935874730973432
0.055252948,-0.78113997,-0.619227827,0.9936227544627428
0.055479392,-0.848154128,-0.524360895,0.9943197730486416
0.05570584,-0.904097319,-0.42244488,0.9958516388612022
0.055932288,-0.948357105,-0.314521164,0.998304761207896
0.056158732,-0.980196834,-0.201550931,1.0014086111705902
0.05638518,-0.998622417,-0.084733434,1.0044264865723542
0.056611628,-1.00270677,0.0341683775,1.0065883446248156
0.056838072,-0.992040634,0.152998,1.007553007511122
0.05706452,-0.966794968,0.269598395,1.007375804736697
0.057290964,-0.92754519,0.382009149,1.0062710694118402
0.057517412,-0.875127733,0.488488078,1.0044691514138533
0.05774386,-0.810573816,0.587503374,1.0021901256461856
0.057970304,-0.735067785,0.677732468,0.9996459467261772
0.058196752,-0.649913073,0.75807023,0.9970574760685562
0.0584232,-0.556490183,0.827640295,0.9946697816830604
0.058649644,-0.456207067,0.885801613,0.9927693855741444
0.058876092,-0.350426018,0.932141244,0.9916856928572038
0.059102536,-0.240370959,0.966423273,0.9917521405266122
0.059328984,-0.127058804,0.988425434,0.9931287782519987
0.059555432,-0.011429471,0.997707069,0.9955500283399104
0.059781876,0.105289832,0.993598521,0.9983239696559756
0.060008324,0.221387252,0.975583732,1.0007759334911597
0.060234772,0.334910721,0.94362551,1.0025942941635
0.060461216,0.443974137,0.898131311,1.0037528861234737
0.060687664,0.546853721,0.839799523,1.0043122310025734
0.060914108,0.641978621,0.769537151,1.0043239765902583
0.061140556,0.72792387,0.688441396,1.0038247162422058
0.061367004,0.803431153,0.5977934,1.0028585666944694
0.061593448,0.867448211,0.49903965,1.001506971039223
0.061819896,0.919174194,0.393751055,0.9999210922291626
0.062046344,0.958089948,0.283551157,0.9983376070946814
0.062272788,0.983960211,0.170017198,0.9970835444469356
0.062499236,0.996757567,0.0545636453,0.9965028387601836
0.06272568,0.996477306,-0.061594557,0.9967609108250438
0.062952128,0.982954979,-0.177265108,0.997623409255142
0.063178576,0.955974281,-0.290970415,0.9985506083387392
0.06340502,0.915626645,-0.400931001,0.999117820596818
0.063631468,0.862467408,-0.505364597,0.9992434057632108
0.063857916,0.797376573,-0.602709949,0.9990686817928068
0.06408436,0.721385598,-0.691637695,0.9987598821467308
0.064310808,0.635613322,-0.770992339,0.9984334819005664
0.064537252,0.541258574,-0.839750469,0.9981416941142336
0.0647637,0.439617604,-0.8970173,0.9979036742459908
0.064990148,0.3320871,-0.942047298,0.9977349536555108
0.065216592,0.220149294,-0.974276781,0.9976809576444204
0.06544304,0.105328016,-0.993357241,0.9978525992016284
0.065669488,-0.0108902324,-0.999150813,0.9984209442802868
0.065895932,-0.12713024,-0.991655052,0.9995418400795804
0.06612238,-0.242101997,-0.970848262,1.0011597247798083
0.066348824,-0.354384691,-0.936627328,1.0028592607715852
0.066575272,-0.462228507,-0.889035404,1.0040391422488923
0.06680172,-0.563701272,-0.828590572,1.0043214600617052
0.067028164,-0.657028615,-0.756314099,1.003697617275
0.067254608,-0.740772188,-0.673526764,1.002381736338619
0.067481056,-0.813818455,-0.58167249,1.0006433633213871
0.067707504,-0.875313282,-0.482234478,0.998723433417544
0.067933952,-0.924615741,-0.376708448,0.9968235232995476
0.0681604,-0.961271822,-0.266590357,0.9951139342165872
0.068386848,-0.985004663,-0.153363898,0.993754671341498
0.068613288,-0.995707333,-0.0384812579,0.9929139001995392
0.068839736,-0.99343133,0.0766752809,0.9927849061266628
0.069066184,-0.97833842,0.190835416,0.9935642200479896
0.069292632,-0.950594962,0.302852094,0.9953501726199664
0.06951908,-0.910251737,0.411580503,0.99795673516125
0.06974552,-0.85729295,0.515634418,1.0008300551459013
0.069971968,-0.791945815,0.613278925,1.00328921374517
0.070198416,-0.714947641,0.702667534,1.004891792709106
0.070424864,-0.62750566,0.782158554,1.0055353569274064
0.070651312,-0.531098783,0.850439012,1.0053124304356174
0.07087776,-0.427336693,0.906508923,1.004375076662796
0.0711042,-0.317898601,0.949645162,1.0028854542277634
0.071330648,-0.204495817,0.979381919,1.00100748243462
0.071557096,-0.0888373926,0.995504141,0.9989205770721143
0.071783544,0.0274128262,0.998041272,0.9968378436556494
0.072009992,0.142688423,0.987247646,0.9950179005907684
0.072236432,0.25557971,0.963558495,0.9937659614503492
0.07246288,0.364874154,0.927497745,0.9933852152373008
0.072689328,0.469525725,0.879540622,0.9940461121849226
0.072915776,0.568483472,0.820020378,0.995606878272438
0.073142224,0.660460949,0.749246895,0.9975795748211216
0.073368664,0.743929744,0.667813897,0.9994068650342324
0.073595112,0.817381799,0.576756716,1.0007613147875811
0.07382156,0.879564166,0.477441579,1.0015835834692888
0.074048008,0.929519653,0.371390015,1.0019373285549404
0.074274456,0.966542542,0.260192305,1.0019045210770348
0.074500904,0.990140676,0.145481944,1.0015435542997562
0.074727344,1.00003397,0.0289297923,1.000904874036482
0.074953792,0.996165812,-0.0877799392,1.000051642723575
0.07518024,0.978716016,-0.202989176,0.9990896455480712
0.075406688,0.948095322,-0.31512484,0.9981884043833094
0.075633136,0.904903114,-0.422765464,0.9975802832780324
0.075859576,0.849831522,-0.524678946,0.9975016121605074
0.076086024,0.783543766,-0.619771004,0.9980569306366308
0.076312472,0.706635296,-0.706910312,0.999055630764945
0.07653892,0.619810522,-0.784780622,1.0000457078486191
0.076765368,0.524134576,-0.851990819,1.0006054094189905
0.076991808,0.421058565,-0.907351255,1.0005766151099342
0.077218256,0.312235087,-0.950030744,1.000049164099091
0.077444704,0.199344873,-0.97952652,0.9992105817746963
0.077671152,0.0840260908,-0.995580733,0.9982413798559472
0.0778976,-0.0321309008,-0.998121321,0.9972785662210044
0.078124048,-0.147578344,-0.98723948,0.9964211584884526
0.078350488,-0.260810137,-0.963189363,0.9957556765583048
0.078576936,-0.370382041,-0.92638731,0.9953763044243618
0.078803384,-0.474943131,-0.877402186,0.9954055736816616
0.079029832,-0.57327342,-0.816916704,0.99599531535272
0.07925628,-0.664280355,-0.745645404,0.9972554585452492
0.07948272,-0.746910751,-0.664262354,0.9991201449010054
0.079709168,-0.819985926,-0.57345587,1.0012285536755343
0.079935616,-0.882154763,-0.474157989,1.00302282441611
0.080162064,-0.932103455,-0.367738724,1.0040486199520853
0.080388512,-0.968837738,-0.255937785,1.0041507123636628
0.080614952,-0.991786897,-0.140641868,1.003421384095418
0.0808414,-1.0007515,-0.0237175487,1.002066086868587
