Frequency (GHz),Re( S21 ),Im( S21 ),S2
0.0,0.0566833019,4.46417289e-05,0.0032129987071705
0.000226509547,0.0519401543,-0.0219252333,0.0031784954839672
0.000453019094,0.0384902209,-0.0399512053,0.0030775959098535
0.000679528625,0.0187335163,-0.0507701188,0.0029285495959284
0.000906038188,-0.00378848938,-0.0523866639,0.0027587152063539
0.00113254775,-0.025007762,-0.0444398001,0.0026002839931766
0.00135905725,-0.0410486422,-0.0282877237,0.0024851863385911
0.00158556688,-0.0489268377,-0.00678799022,0.0024399122585489
0.00181207638,-0.0471007116,0.0161977839,0.0024808452364974
0.002038586,-0.0357705355,0.0364906751,0.0026111005792105
0.0022650955,-0.0168643817,0.0503489971,0.0028194288790991
0.002491605,0.00629212568,0.0551509485,0.0030812179660225
0.0027181145,0.029557243,0.0498766564,0.0033613114674047
0.00294462425,0.0489478186,0.0353139974,0.0036429673580657
0.00317113375,0.0604225732,0.0138856824,0.003843699527823
0.00339764325,0.0620552003,-0.0105300117,0.0039617290306752
0.00362415275,0.0532636307,-0.0336455852,0.0039690397587964
0.00385066225,0.035513401,-0.0512127876,0.0038839512643495
0.004077172,0.0117375292,-0.0598408096,0.0037186920853043
0.0043036815,-0.0138527285,-0.057644438,0.0035147793192305
0.004530191,-0.036558684,-0.0446306244,0.0033284300101457
0.0047567005,-0.0520101674,-0.0227751974,0.0032237671295849
0.00498321,-0.0569685735,0.00424446957,0.0032634338885555
0.0052097195,-0.0499664396,0.0316381343,0.0034976166282852
0.005436229,-0.0316588506,0.0543247797,0.0039534645107666
0.0056627385,-0.00480119325,0.0678472593,0.0046263020511452
0.0058892485,0.0264236983,0.0693319738,0.0055051344228533
0.006115758,0.0560864359,0.0575667098,0.0064596143691622
0.0063422675,0.0789715201,0.0341349244,0.0074016940506984
0.006568777,0.0906210616,0.0026968522,0.0082194498172996
0.0067952865,0.0882545039,-0.0313035212,0.0087687678981539
0.007021796,0.0715090558,-0.0618409477,0.0089378478738416
0.0072483055,0.0427960046,-0.0830232874,0.0087243642604262
0.007474815,0.00665345555,-0.0899352953,0.008132625811454
0.0077013245,-0.0304038767,-0.0798736587,0.0073041970725128
0.007927834,-0.0609319396,-0.0529296063,0.006514244486491
0.008154344,-0.0777112097,-0.0122874277,0.0061900129925201
0.0083808535,-0.0749939904,0.0359491259,0.0069164382490893
0.008607363,-0.0496493541,0.0834329873,0.0094261217323491
0.008833872,-0.00199743873,0.120700285,0.0145725485605613
0.009060382,0.0643935427,0.138813272,0.0234156528248027
0.009286892,0.140867472,0.129871875,0.0367103485836864
0.009513401,0.217592344,0.0898700655,0.0554230568403886
0.009739911,0.282890379,0.0187664218,0.0803791451179391
0.00996642,0.325107247,-0.0789035261,0.1119204884829323
0.01019293,0.335437924,-0.196025357,0.1509445414444072
0.010419439,0.306902468,-0.321198493,0.197357596769962
0.010645949,0.236942798,-0.441546708,0.251105384869706
0.010872458,0.127297655,-0.543780625,0.3119020610938897
0.011098968,-0.0161713045,-0.615571201,0.3791894145898141
0.011325477,-0.183942512,-0.646736145,0.4521024889703312
0.011551987,-0.363612473,-0.630298436,0.5294901489452218
0.011778497,-0.541004181,-0.563269258,0.6099577808673513
0.012005006,-0.701473296,-0.447064221,0.6919312026994404
0.012231516,-0.831287742,-0.287562698,0.7737316152804977
0.012458025,-0.918792069,-0.0949829444,0.8532006257841942
0.012684535,-0.954249501,0.117850728,0.9244809042488792
0.012911044,-0.934448779,0.338068515,0.987484841408896
0.013137554,-0.860765219,0.54934895,1.0427010311062204
0.013364063,-0.737811625,0.737194061,1.0878210775588122
0.013590573,-0.574267685,0.889805555,1.1215372997441173
0.013817083,-0.381656468,0.998835266,1.143333548171526
0.014043592,-0.172927469,1.05993462,1.1533653082092905
0.014270102,0.038970951,1.07279229,1.1524020325052884
0.014496611,0.242362618,1.04066849,1.1417305446826942
0.014723121,0.427798152,0.969538808,1.123016759072676
0.01494963,0.58861649,0.866927922,1.0980333942431582
0.01517614,0.72258693,0.741388559,1.0717888668229212
0.015402649,0.826393127,0.602121234,1.0454755807865208
0.015629159,0.902113855,0.454377502,1.020268321706721
0.015855668,0.934830666,0.31304276,0.9719041436824212
0.016082178,0.96777904,0.167960301,0.9648069329753324
0.016308688,0.97340858,0.022666743,0.9480380448558444
0.016535197,0.960587204,-0.116323501,0.9362589333734346
0.016761707,0.931874812,-0.24941878,0.9306003930567238
0.016988216,0.888305128,-0.376675099,0.9309701306377562
0.017214726,0.830081284,-0.49776876,0.9368086764790264
0.017441236,0.756938219,-0.611753404,0.9471976946884793
0.017667744,0.668549061,-0.716923714,0.9609374586595354
0.017894254,0.564941287,-0.810842633,0.9766244332475892
0.018120764,0.44686985,-0.89052242,0.992722843361679
0.018347274,0.31613788,-0.952743769,1.0076638485392198
0.018573784,0.175787747,-0.994640887,1.0202118260874826
0.018800292,0.0297846626,-1.01431298,1.029717947522676
0.019026802,-0.117235489,-1.01123607,1.036342549150114
0.019253312,-0.261858642,-0.987651825,1.0440260758159148
0.019479822,-0.404354006,-0.941813469,1.050514772558062
0.01970633,-0.536789954,-0.872104108,1.0487090299057975
0.01993284,-0.654372871,-0.78336221,1.0418602063568667
0.02015935,-0.75497669,-0.679637611,1.031897084729143
0.02038586,-0.837337613,-0.564695418,1.0200151932547326
0.02061237,-0.901024461,-0.442100018,1.007297505235941
0.020838878,-0.946330547,-0.315025747,0.9947827254582272
0.021065388,-0.974048913,-0.186104491,0.9834061664868504
0.021291898,-0.985209823,-0.0573897921,0.9739319835729726
0.021518408,-0.980848014,0.0695623159,0.9669017423611156
0.021744916,-0.961866081,0.193525925,0.9626386414254042
0.021971426,-0.929024756,0.31344372,0.961333962868298
0.022197936,-0.883029401,0.428326368,0.9632044005544904
0.022424446,-0.824756265,0.537454486,0.9690802211782744
0.022650954,-0.754340053,0.641268313,0.9802539648179088
0.022877464,-0.66923213,0.738401592,0.9931085548924714
0.023103974,-0.569645047,0.824351609,1.0040510548325212
0.023330484,-0.45790711,0.896424174,1.0132552211201342
0.023556994,-0.336210281,0.952726901,1.0207259009391627
0.023783502,-0.207014158,0.991594493,1.026114500160376
0.024010012,-0.0731916204,1.01178849,1.029072961793258
0.024236522,0.0620870031,1.01269436,1.029404662729749
0.024463032,0.195560783,0.994417608,1.0271103989480148
0.02468954,0.324099988,0.957786262,1.022395325897533
0.02491605,0.444910526,0.9042781,1.015664258285207
0.02514256,0.555702984,0.835896432,1.007528651456835
0.02536907,0.65483135,0.755006194,0.9988384499211882
0.02559558,0.741441727,0.664140046,0.9908178352376248
0.025822088,0.815729618,0.565547109,0.985258342180684
0.026048598,0.878407121,0.459949195,0.9831523322046566
0.026275108,0.928319752,0.347334474,0.9824187987821984
0.026501618,0.963952899,0.229605377,0.9819238206378164
0.026728126,0.985145032,0.108832076,0.9823551548407508
0.026954636,0.99195987,-0.0135207688,0.98416719487936
0.027181146,0.984277725,-0.136139482,0.987336598490404
0.027407656,0.961877704,-0.257584125,0.9915582989043272
0.027634166,0.92458421,-0.376183957,0.996370330885502
0.027860674,0.872421145,-0.490022451,1.0012406567271586
0.028087184,0.805754483,-0.596990466,1.0056379033694944
0.028313694,0.725406945,-0.694906056,1.009109662519708
0.028540204,0.632723331,-0.781686127,1.0113720147359957
0.028766712,0.529556155,-0.855577946,1.012443342979963
0.028993222,0.418091297,-0.915441573,1.0128336062038563
0.029219732,0.300274938,-0.960878313,1.01345217078463
0.029446242,0.177271709,-0.99131465,1.014129994116403
0.029672752,0.0509359501,-1.00522554,1.0130728572808814
0.02989926,-0.0755620748,-1.00204241,1.009798618586689
0.03012577,-0.199409932,-0.982548535,1.0051659446108907
0.03035228,-0.31853351,-0.947940528,1.0000548416178388
0.03057879,-0.431335717,-0.899478555,0.995112171664792
0.030805298,-0.536536992,-0.838408887,0.990801405584987
0.031031808,-0.63308239,-0.765931666,0.9874446295096476
0.031258318,-0.720062196,-0.68318975,0.9852378006134048
0.031484828,-0.79664278,-0.591287374,0.9842604775779442
0.031711336,-0.862028003,-0.491341084,0.9845083387824632
0.031937846,-0.915472925,-0.384537578,0.9859598253021616
0.032164356,-0.956358135,-0.272155493,0.9886894947507512
0.032390866,-0.984288633,-0.155441061,0.9929860364978144
0.032617376,-0.998897672,-0.0352826938,0.999041427608804
0.032843884,-0.99906528,0.0875119567,1.005789776266941
0.033070394,-0.983265579,0.210900396,1.011290175879162
0.033296904,-0.95108664,0.331918925,1.0147359695596452
0.033523414,-0.903145552,0.447865754,1.0162556217033734
0.033749924,-0.840508461,0.556453764,1.0160952644823562
0.033976432,-0.764538348,0.655698895,1.01445992646679
0.03420294,-0.676864743,0.743917406,1.011558987266225
0.034429452,-0.579331398,0.819771409,1.0076500317224797
0.03465596,-0.473911226,0.882302642,1.003049802209003
0.034882472,-0.362612247,0.930937171,0.9981316580238722
0.03510898,-0.247389719,0.965470254,0.9933344844257234
0.035335488,-0.130058408,0.986035347,0.9891808950249048
0.035562,-0.0121807912,0.99306649,0.986329425235178
0.035788508,0.10512159,0.987160385,0.9855361743974764
0.03601502,0.221252978,0.968604624,0.98714779790805
0.036241528,0.335448265,0.936895251,0.9902982498378632
0.036468036,0.445963919,0.89151305,0.9936793353701412
0.036694548,0.550726414,0.832782209,0.9968257907042192
0.036921056,0.647977829,0.761516452,0.9997825735422214
0.037147568,0.73617959,0.678667426,1.0025498638460335
0.037374076,0.813870907,0.585326433,1.004992886429506
0.037600584,0.879663348,0.482802004,1.0069053808809851
0.037827096,0.932310581,0.372662574,1.0080804135048629
0.038053604,0.970802009,0.256729841,1.0083667519383217
0.038280112,0.994452953,0.1370271,1.0077131018648302
0.038506624,1.00298071,0.0156863835,1.006216367259413
0.038733132,0.996548593,-0.105189845,1.0041740017014036
0.038959644,0.975743353,-0.223726228,1.0021285160187907
0.039186152,0.941360116,-0.338495076,1.0007377844717793
0.03941266,0.893927157,-0.448432416,1.0001973937416997
0.039639172,0.83362025,-0.552150071,0.9997924221153676
0.03986568,0.761079311,-0.647736371,0.9988041239484844
0.040092192,0.677675366,-0.733524263,0.997301746092927
0.0403187,0.584986687,-0.80840832,0.9957334358124584
0.040545208,0.484497726,-0.87162894,0.9944750555446948
0.04077172,0.377596408,-0.922580183,0.993733241398816
0.040998228,0.26564005,-0.960730672,0.993568060285574
0.04122474,0.150017962,-0.985613167,0.9939387038864034
0.041451248,0.0321946703,-0.996847868,0.9947421687318712
0.041677756,-0.0862702057,-0.99419409,0.9958644369824484
0.041904268,-0.203741536,-0.977611601,0.9972350559014224
0.042130776,-0.31858182,-0.947315037,0.9989001553608235
0.042357284,-0.429285467,-0.903754711,1.0010585898321016
0.042583796,-0.534573615,-0.84741497,1.0038810812342691
0.042810304,-0.633133471,-0.778547883,1.0069947982242895
0.043036816,-0.723110199,-0.697475791,1.0093608389288953
0.043263324,-0.802369833,-0.605314851,1.0102034177496
0.043489832,-0.869241655,-0.503907621,1.0095039452890184
0.043716344,-0.922690332,-0.395305037,1.0076235210438416
0.043942852,-0.962136745,-0.281516105,1.0049584334535662
0.044169364,-0.987323165,-0.164459854,1.0018540757233183
0.044395872,-0.99824661,-0.0459540971,0.9986080734167684
0.04462238,-0.995117188,0.0722957626,0.995484895142943
0.044848892,-0.978322804,0.188708842,0.9927265358754036
0.0450754,-0.948401093,0.301836282,0.990569774335178
0.045301908,-0.906013846,0.410377234,0.9892705633292024
0.04552842,-0.851910293,0.513213575,0.9891393208836264
0.045754928,-0.786818743,0.609448493,0.9905111999560712
0.04598144,-0.711236238,0.698311687,0.9934961984451788
0.046207948,-0.625371993,0.778751612,0.9975442028213906
0.046434456,-0.529672027,0.8491292,1.0015728544789289
0.046660968,-0.425340533,0.907678187,1.004794260168331
0.046887476,-0.314124465,0.953059852,1.006997261005798
0.047113988,-0.197932348,0.984404325,1.0082290894634989
0.047340496,-0.0787096471,1.00118136,1.008559324158056
0.047567004,0.0415747724,1.00315046,1.0080393070983236
0.047793516,0.160947815,0.990366638,1.0067302768166972
0.048020024,0.277482808,0.963190317,1.0047322954981257
0.048246536,0.389365494,0.922284007,1.00221327748584
0.048473044,0.49496755,0.868582368,0.99942820555349
0.048699552,0.592921615,0.803234577,0.9967418272225772
0.048926064,0.682189822,0.72749728,0.9946352456477902
0.049152572,0.762070477,0.64254415,0.99361439661423
0.04937908,0.831997693,0.549253285,0.9938993322406136
0.049605592,0.891131878,0.448298812,0.9950878488284184
0.0498321,0.938283861,0.340671837,0.996433904338022
0.050058612,0.972409368,0.227908999,0.9975224907993414
0.05028512,0.992913306,0.111766599,0.9983686058838764
0.050511628,0.999536514,-0.00604597572,0.999109796641679
0.05073814,0.992206275,-0.12388707,0.9998212982625604
0.050964648,0.970992148,-0.240129769,1.0004880574376471
0.05119116,0.936128736,-0.353132159,1.001039332084959
0.051417668,0.888056695,-0.461246282,1.0013928261931464
0.051644176,0.827456594,-0.562862337,1.0014984253671826
0.051870688,0.755261779,-0.656476557,1.001381824708819
0.052097196,0.672630847,-0.740779877,1.0011870825040723
0.052323704,0.580851614,-0.814737499,1.00118578976318
0.052550216,0.481167108,-0.877575159,1.001659945514959
0.052776724,0.374653786,-0.928561509,1.0025919353604908
0.053003236,0.262445241,-0.966738105,1.0034600681825392
0.053229744,0.146146387,-0.991097033,1.0036320952545568
0.053456252,0.0277835801,-1.00106752,1.0029081069221235
0.053682764,-0.0906025618,-0.996641517,1.0015031376127843
0.053909272,-0.20717977,-0.978178084,0.9997558211151638
0.054135784,-0.320331663,-0.946227789,0.997959402996174
0.054362292,-0.428604424,-0.901455581,0.9963239167884193
0.0545888,-0.530665576,-0.844619632,0.9949882763112272
0.054815312,-0.625284433,-0.776571393,0.994043750578092
0.05504182,-0.711330593,-0.698263109,0.9935625819280776
0.055268332,-0.787794054,-0.610748053,0.9936326557610458
0.05549484,-0.853817284,-0.515156269,0.9943899359471372
0.055721348,-0.908709466,-0.412618786,0.996007156158119
0.05594786,-0.951860249,-0.304165244,0.9985544292839216
0.056174368,-0.98251158,-0.190757304,1.001717353863445
0.056400876,-0.999655843,-0.0736315921,1.0047334157992214
0.056627388,-1.00239086,0.0454037823,1.0068489396586855
0.056853896,-0.990355611,0.164175376,1.0077577903239248
0.057080408,-0.963760018,0.280534536,1.0075329981840957
0.057306916,-0.923205972,0.392532945,1.0063913796468378
0.057533424,-0.86954987,0.498441935,1.004561338983561
0.057759936,-0.803840399,0.59674108,1.0022593036240457
0.057986444,-0.727279663,0.686121285,0.999698125943445
0.058212956,-0.641186178,0.765494764,0.9971019485696636
0.058439464,-0.546952665,0.83400476,0.9947211574532596
0.058665972,-0.445993215,0.891032457,0.992848787253493
0.058892484,-0.339668214,0.936187506,0.99182154199245
0.059118992,-0.229189381,0.96924901,0.9919714157491432
0.059345504,-0.115559272,0.989990413,0.9934349631770806
0.059572012,0.000273274985,0.997951746,0.995907762023666
0.05979852,0.117042407,0.992462039,0.9986798238923912
0.060025032,0.23300302,0.973040819,1.001098842769311
0.06025154,0.34620145,0.939696133,1.002884266357256
0.060478048,0.454766184,0.892867208,1.004024133231637
0.06070456,0.556988478,0.833271086,1.004576867388376
0.060931068,0.651309311,0.761830807,1.004589997089566
0.06115758,0.736313879,0.67965889,1.0040943351640588
0.061384088,0.810756147,0.588052392,1.0031311456352072
0.061610596,0.873601079,0.488474131,1.0017858218861693
0.061837108,0.924066424,0.382506371,1.0002098798197374
0.062063616,0.961656868,0.271780729,0.9986486964273408
0.062290128,0.986158907,0.157871366,0.9974327580581404
0.062516636,0.997557878,0.0421833247,0.9969011528426084
0.062743144,0.995844126,-0.0740742609,0.9971925194165852
0.062969656,0.98084414,-0.189687029,0.9980363959431864
0.063196164,0.952361822,-0.30313924,0.9988864388309372
0.063422672,0.910540581,-0.412633359,0.9993504386074404
0.063649184,0.855984211,-0.516402125,0.9993801241858082
0.063875692,0.789601564,-0.61291045,0.9991298495904486
0.064102204,0.712441146,-0.700853825,0.998768470530924
0.064328712,0.625632882,-0.77909708,0.9984087631041524
0.06455522,0.530386686,-0.846636355,0.9981031542937486
0.064781732,0.428006411,-0.902594805,0.9978668698700888
0.06500824,0.319895446,-0.946247756,0.9977179121065743
0.065234752,0.207540125,-0.977053285,0.9977060252143068
0.06546126,0.0924604982,-0.994683564,0.9979443362191344
0.065687768,-0.02386632,-0.999016702,0.9986039721052992
0.06591428,-0.140077695,-0.990053833,0.999828352874505
0.066140788,-0.254880399,-0.967760742,1.0015248715507896
0.0663673,-0.366823882,-0.93203187,1.0032431671012467
0.066593808,-0.474122137,-0.882944465,1.004382729067583
0.066820316,-0.574837267,-0.821071386,1.0045961044399905
0.067046828,-0.667217135,-0.747478008,1.0039020776812562
0.067273336,-0.74985379,-0.663511276,1.0025279197565122
0.067499848,-0.821659684,-0.570629895,1.0007431133786908
0.067726352,-0.881804705,-0.470327854,0.9987878280083824
0.067952864,-0.929670453,-0.364110023,0.9968632600302856
0.068179376,-0.964826941,-0.25347805,0.99514214791122
0.06840588,-0.987021267,-0.139918968,0.9937882991164704
0.068632392,-0.996171594,-0.0248810165,0.992976909674574
0.068858904,-0.992350101,0.0902626961,0.9929060772619512
0.069085416,-0.975730479,0.204258025,0.99377130842647
0.06931192,-0.946476579,0.315969348,0.9956545434710884
0.069538432,-0.904627442,0.424243361,0.9983332381720396
0.069764944,-0.850174069,0.527660251,1.0012212880854
0.069991448,-0.783386946,0.624459326,1.0036445569915813
0.07021796,-0.705057263,0.71280247,1.005193105347152
0.070444472,-0.616427958,0.791075945,1.0057845781616928
0.070670976,-0.518997967,0.857998371,1.0055200943887868
0.070897488,-0.414390147,0.912596405,1.0045513923496057
0.071124,-0.304292619,0.954170465,1.0030352742561954
0.071350512,-0.190424711,0.982279301,1.0011341957324822
0.071577016,-0.0745008886,0.996734083,0.9990292146160406
0.071803528,0.0418138318,0.997592032,0.9969382588396878
0.07203004,0.156960383,0.985134363,0.9951262749949225
0.072256544,0.269541591,0.95981878,0.9939047597194997
0.072483056,0.378363222,0.922179818,0.9935743444887344
0.072709568,0.482388765,0.87269032,0.9942873152199276
0.072936072,0.58055371,0.81167829,0.9958642566520882
0.073162584,0.671544969,0.739477694,0.9977999053127686
0.073389096,0.753826141,0.656731844,0.999550565778592
0.0736156,0.825915813,0.56452477,1.000825146107004
0.073842112,0.886599422,0.464247346,1.0015841333587776
0.074068624,0.934955716,0.357430905,1.0018990427301917
0.074295136,0.970306396,0.245668322,1.0018474265528046
0.07452164,0.992184579,0.130595848,1.0014855143202464
0.074748152,1.00033224,0.0138841961,1.0008573612847609
0.074974664,0.994717777,-0.102782406,1.0000276788629705
0.075201168,0.975544631,-0.21775116,0.9991028947542716
0.07542768,0.943244994,-0.329458386,0.9982539468117848
0.075654192,0.898434699,-0.436497211,0.997714723577999
0.075880696,0.841810524,-0.537649393,0.997711828110423
0.076107208,0.774031818,-0.631820261,0.9983220974864933
0.07633372,0.695700884,-0.717857301,0.999318824597386
0.076560224,0.607561409,-0.794422328,1.0002377009310048
0.076786736,0.510736167,-0.860131264,1.0006772235920895
0.077013248,0.406722009,-0.913834989,1.0005171797256265
0.07723976,0.29719165,-0.954749942,0.9998703285787258
0.077466264,0.183830276,-0.982414067,0.9989309694137166
0.077692776,0.0682742298,-0.996604979,0.9978828546223736
0.077919288,-0.0478905998,-0.997280478,0.996861861349112
0.078145792,-0.163123667,-0.984561741,0.995971152576478
0.078372304,-0.275930554,-0.958728492,0.995297992003341
0.078598816,-0.38488245,-0.92022121,0.9949415756518666
0.07882532,-0.488649666,-0.869627595,0.9950306500673956
0.079051832,-0.586033762,-0.807637393,0.9957137287757092
0.079278344,-0.675958574,-0.73496145,0.997088326750216
0.079504848,-0.757366955,-0.652265906,0.9990555166559728
0.07973136,-0.829057038,-0.560249031,1.0012145489937725
0.079957872,-0.889665246,-0.459887028,1.0030003284629132
0.080184384,-0.937898457,-0.352601737,1.003981500578398
0.080410888,-0.972806394,-0.240164742,1.00403138350721
0.0806374,-0.99386394,-0.124472514,1.0032589379738035
0.080863912,-1.00090814,-0.00739020156,1.001871719797357
