Frequency (GHz),Re( S21 ),Im( S21 ),S2
0.0,0.0566909872,5.03802585e-05,0.00321387056788101
0.000226509422,0.0519467108,-0.0219244678,0.0031791430512520735
0.000453018844,0.0384935737,-0.0399538204,0.0030780629807527875
0.000679528313,0.0187322441,-0.05077314,0.002928808714481585
0.000906037688,-0.0037937318,-0.052386675,0.0027587561185259566
0.00113254713,-0.0250147432,-0.0444340892,0.0026001256603955026
0.00135905663,-0.0410537533,-0.0282753129,0.0024849039796101674
0.001585566,-0.0489261933,-0.00676999101,0.0024396051691044454
0.00181207538,-0.0470912009,0.016218476,0.0024806201659667367
0.00203858487,-0.035751,0.03650916,0.0026110527649056
0.00226509425,-0.0168360788,0.0503602065,0.0028196039480824515
0.00249160375,0.00632492872,0.0551503636,0.0030815673285252863
0.00271811325,0.0295871571,0.0498613827,0.0033615573500159397
0.0029446225,0.0489946529,0.0352904238,0.0036458900247750845
0.003171132,0.0604501516,0.0138466386,0.003845950228981993
0.0033976415,0.0620611608,-0.0105803115,0.003963530671280489
0.00362415075,0.0532349311,-0.0336888209,0.0039688945428540245
0.00385066025,0.0354689062,-0.0512420945,0.003883795555771329
0.00407716975,0.011682244,-0.0598470047,0.003718138796437358
0.004303679,-0.0139085967,-0.0576231927,0.003513881399104584
0.0045301885,-0.0366026536,-0.0445820838,0.0033273164465118152
0.004756698,-0.0520304218,-0.0227054935,0.0032227042277644573
0.0049832075,-0.0569562465,0.00432405574,0.0032627114734113897
0.005209717,-0.0499182083,0.0317129306,0.0034975374871226055
0.0054362265,-0.0315781124,0.0543787852,0.003954229462574773
0.0056627355,-0.00469838176,0.067866601,0.004627950322455902
0.005889245,0.0265462846,0.0693228915,0.00551036851198497
0.0061157545,0.0561989509,0.0575133003,0.006466101793658591
0.006342264,0.0790522844,0.0340372473,0.007407797872619841
0.0065687735,0.0906554908,0.00256896997,0.008225017618895648
0.006795283,0.0882321596,-0.0314396396,0.00877336492585776
0.007021792,0.0714188814,-0.0619435199,0.008937656278028961
0.0072483015,0.0426639132,-0.0830804929,0.008722577790044084
0.007474811,0.00650172448,-0.0899240747,0.008128611631865009
0.0077013205,-0.0305442885,-0.0797841027,0.007298456603615379
0.00792783,-0.0610254407,-0.0527652651,0.006508277613702495
0.0081543395,-0.0777233243,-0.0120674884,0.006186539416527104
0.008380849,-0.0748979524,0.0361903384,0.006919443867219179
0.008607358,-0.0494329371,0.0836500004,0.009440937837252555
0.008833868,-0.00166739651,0.120841898,0.014605544523363965
0.009060377,0.0648246631,0.138847455,0.02348085270600553
0.009286887,0.141335294,0.129757315,0.036812626126075665
0.009513396,0.218046382,0.0895555317,0.055564417961359636
0.009739905,0.283266455,0.0182669442,0.08057356577867292
0.009966415,0.325325578,-0.0795548782,0.11216571034645091
0.010192924,0.335453808,-0.196780607,0.15125186459298934
0.010419434,0.306682646,-0.321992785,0.19773359894961756
0.010645943,0.236474425,-0.442303032,0.25155212579547365
0.010872453,0.126591936,-0.544420242,0.3124189181595667
0.011098962,-0.0170784853,-0.616020501,0.37977293231243336
0.011325471,-0.184992298,-0.646933973,0.4527457157408855
0.011551981,-0.364728063,-0.630203128,0.5301825424807164
0.01177849,-0.54209733,-0.562864423,0.6106858738722518
0.012005,-0.702452064,-0.446361303,0.692677315033718
0.012231509,-0.832068205,-0.286602318,0.7744783864548951
0.012458018,-0.919305623,-0.0938320905,0.8539272896870183
0.012684528,-0.954446554,0.119102374,0.9251535999349109
0.012911037,-0.934310675,0.339328825,0.9880804888948361
0.013137547,-0.860308051,0.550521493,1.0432038568703677
0.013364056,-0.73707962,0.738192439,1.0882144432161132
0.013590566,-0.573329568,0.890564144,1.1218112881215192
0.013817075,-0.380595148,0.999313891,1.1434809194267017
0.014043584,-0.171831489,1.06012404,1.1533890407978789
0.014270094,0.0400190838,1.07271087,1.1523101376843485
0.014496603,0.24329482,1.04035759,1.1415362845094403
0.014723113,0.428567111,0.969056368,1.1227400129922376
0.014949622,0.589197576,0.866338313,1.0976958561359618
0.015176132,0.722983956,0.740753412,1.0714214180230517
0.015402641,0.826620758,0.601495981,1.045099292715647
0.01562915,0.902204275,0.453801125,1.0199080148795412
0.01585566,0.934837699,0.31254831,0.9716079695554708
0.016082169,0.967719734,0.167538747,0.9645507153193608
0.016308679,0.973325253,0.0223153476,0.9478600228660228
0.016535188,0.960501909,-0.116623975,0.9361650687374449
0.016761698,0.931797862,-0.24969092,0.9305928111582175
0.016988208,0.888234675,-0.376940727,0.9310451495436441
0.017214716,0.830005825,-0.498043239,0.9369567374475418
0.017441226,0.756840587,-0.612043321,0.9474047009112136
0.017667736,0.66841054,-0.717225075,0.9611844581918472
0.017894244,0.564747274,-0.811142027,0.9768908714560999
0.018120754,0.446612954,-0.89079994,0.9929876637846096
0.018347264,0.315820247,-0.952976346,1.0079063444506526
0.018573774,0.175421491,-0.99480778,1.0204152186531914
0.018800282,0.0293893479,-1.01439834,1.029867725964743
0.019026792,-0.117634825,-1.01123285,1.0364298289719034
0.019253302,-0.262237132,-0.987560928,1.0440448999118064
0.01947981,-0.404684663,-0.941644549,1.0504641331288371
0.01970632,-0.537052453,-0.871878207,1.048596945114852
0.01993283,-0.654557049,-0.783105016,1.0416983964799487
0.02015934,-0.755081713,-0.679376185,1.0317003940521685
0.020385848,-0.837372541,-0.56445384,1.0198009099115422
0.020612358,-0.901006281,-0.441897273,1.0070855182862875
0.020838868,-0.946279347,-0.314871281,0.9945885261573274
0.021065376,-0.973987341,-0.185999826,0.9832472757002805
0.021291886,-0.985157251,-0.057327982,0.9738213067180692
0.021518396,-0.980818033,0.0695949271,0.9668474677360435
0.021744906,-0.961864948,0.193545878,0.9626441850818336
0.021971414,-0.929050744,0.31346789,0.9613974029880056
0.022197924,-0.883074582,0.42836839,0.9633201949256668
0.022424434,-0.824807942,0.537522197,0.9692382534539821
0.022650942,-0.754382551,0.641362786,0.9804392565189493
0.022877452,-0.669252455,0.738516271,0.9933051310552723
0.023103962,-0.569634199,0.824475884,1.0042436039679532
0.02333047,-0.457861692,0.896543622,1.0134277951499817
0.02355698,-0.336133689,0.952826977,1.0208651049797073
0.02378349,-0.206915796,0.991662979,1.0262096105534682
0.02401,-0.0730855688,1.01181865,1.0291184808546419
0.024236508,0.0621848665,1.01268566,1.0293992035912585
0.024463018,0.1956352,0.994375885,1.0270565321485732
0.024689528,0.324139774,0.957723439,1.0223007786987577
0.024916036,0.444909751,0.904209852,1.015540142988744
0.025142546,0.555662453,0.835838974,1.0073875521313498
0.025369056,0.654758155,0.754974902,0.9986953441889135
0.025595566,0.741348505,0.66414541,0.9906867314898034
0.025822074,0.815631509,0.565594256,0.9851516208938107
0.026048584,0.878319919,0.460036904,0.9830798331540718
0.026275094,0.928257525,0.347456485,0.9823880416876809
0.026501602,0.963925898,0.229750365,0.9819383670527395
0.026728112,0.985158205,0.108985528,0.9824145341922608
0.026954622,0.992011547,-0.0133731132,0.9842657495379933
0.027181132,0.984361947,-0.13600938,0.9874669941496153
0.02740764,0.96198374,-0.25747937,0.9917083419999845
0.02763415,0.924700201,-0.376107037,0.9965269650103599
0.02786066,0.8725366,-0.489970565,1.0013912729059793
0.028087168,0.805861354,-0.596957386,1.0057706425706665
0.028313678,0.725501418,-0.694881618,1.0092127705543086
0.028540188,0.632806599,-0.781660557,1.0114374181074972
0.028766698,0.529634237,-0.85554409,1.0124681149365002
0.028993206,0.418173075,-0.915394843,1.0128164392459502
0.029219716,0.300370753,-0.960819185,1.013396095521851
0.029446226,0.177391872,-0.991248012,1.0140404975456165
0.029672734,0.0510881841,-1.00516176,1.012960166320933
0.029899244,-0.0753751025,-1.00199461,1.0096746045459375
0.030125754,-0.199190915,-0.982529998,1.005042217588417
0.030352264,-0.318290502,-0.947964549,0.9999456298241854
0.030578772,-0.431081057,-0.899553895,0.9950280877139084
0.030805282,-0.536285877,-0.838539481,0.9907510030654085
0.031031792,-0.632850826,-0.766116142,0.9874341110018465
0.0312583,-0.71986413,-0.683421254,0.9852689760795894
0.03148481,-0.796489239,-0.591555059,0.9843324956712927
0.03171132,-0.861925483,-0.491631508,0.9846170779031375
0.03193783,-0.91542238,-0.384836346,0.9860971470074961
0.032164338,-0.956355512,-0.272450238,0.9888449975190388
0.032390848,-0.984327316,-0.155722246,0.9931496829230484
0.032617358,-0.998967767,-0.0355451256,0.999200055458886
0.032843866,-0.999158323,0.0872694626,1.0059333135226651
0.033070376,-0.983374476,0.210674703,1.011409190532413
0.033296886,-0.951206982,0.3317056,1.0148233276769083
0.033523396,-0.903277099,0.447658837,1.0163079519220484
0.033749904,-0.840654433,0.556248724,1.0161125186741797
0.033976416,-0.764704823,0.655493557,1.0144452695879735
0.034202924,-0.677059114,0.743713081,1.0115181907009776
0.034429432,-0.579560697,0.81957382,1.0075918479365182
0.034655944,-0.474180132,0.88212055,1.0029834623158398
0.034882452,-0.362922221,0.930782616,0.9980688167433763
0.03510896,-0.247737393,0.965355158,0.9932843969676415
0.035335472,-0.130436122,0.985970974,0.9891523434929076
0.03556198,-0.0125775104,0.993060946,0.9863282362382771
0.035788488,0.104719736,0.987218142,0.9855658830018419
0.036015,0.220859662,0.968726218,0.9872094757393378
0.036241508,0.335077047,0.937076151,0.990388340199215
0.036468016,0.445625812,0.891745627,0.9937926275942826
0.036694528,0.550429225,0.833056331,0.9969551823532822
0.036921036,0.647724628,0.761820912,0.9999182956782502
0.037147548,0.73597002,0.678991914,1.0026818896161838
0.037374056,0.813701391,0.585663199,1.0051113363782487
0.037600564,0.879528701,0.483146399,1.0070011787494146
0.037827076,0.932205975,0.373013794,1.0081472703399752
0.038053584,0.970724702,0.257089287,1.0084013485631573
0.038280092,0.994402587,0.137398422,1.0077148314003825
0.038506604,1.00295961,0.0160725527,1.0061863062416463
0.038733112,0.996563077,-0.104786664,1.004118211391957
0.03895962,0.975801289,-0.223306715,1.0020540445781527
0.039186132,0.941469729,-0.338063508,1.0006521860645996
0.03941264,0.894097388,-0.447996497,1.0001110005526936
0.039639148,0.833857358,-0.551721752,0.9997149851206897
0.03986566,0.761385143,-0.647330046,0.9987435244354926
0.040092168,0.678048253,-0.733155608,0.9972665789382018
0.04031868,0.585419059,-0.808091462,0.995727285597743
0.040545188,0.484979004,-0.871375978,0.9945007293562884
0.040771696,0.378112525,-0.922399282,0.993789516995991
0.040998208,0.266176105,-0.960625052,0.9936502094029738
0.041224716,0.150559515,-0.985582471,0.994040974699501
0.041451224,0.0327294432,-0.996888161,0.994857221994144
0.041677736,-0.0857517868,-0.994298398,0.995982673204759
0.041904244,-0.203245625,-0.977772772,0.9973483777462047
0.042130752,-0.31811139,-0.94752574,0.9989998844102796
0.042357264,-0.428841233,-0.904009819,1.001138555969373
0.042583772,-0.534154952,-0.847711563,1.0039364067900252
0.04281028,-0.632739961,-0.77888602,1.0070232903977219
0.043036792,-0.72274375,-0.69785732,1.0093633672416449
0.0432633,-0.802034795,-0.605742514,1.0101838056577321
0.043489812,-0.868945539,-0.504383445,1.0094690093380687
0.04371632,-0.922442198,-0.395828485,1.0075797981884664
0.043942828,-0.961947799,-0.282084286,1.0049151124090743
0.04416934,-0.987204969,-0.16506587,1.0018203922571478
0.044395848,-0.998209536,-0.0465874635,0.998592669516699
0.044622356,-0.995168507,0.0716495365,0.995494013405274
0.044848868,-0.978466332,0.188065946,0.9927651629024092
0.045075376,-0.948635936,0.301214039,0.9906400363612895
0.045301884,-0.9063344,0.409791827,0.9893713860993579
0.045528396,-0.852307558,0.512679279,0.9892682165398832
0.045754904,-0.787280798,0.60897547,0.9906621779612376
0.045981412,-0.711749852,0.697906673,0.9936615760399508
0.046207924,-0.625924051,0.778417051,0.9977140229077872
0.046434432,-0.530251384,0.848865807,1.0017396885276768
0.04666094,-0.425937474,0.907482922,1.0049479854791588
0.046887452,-0.314732313,0.952929199,1.0071304871531115
0.04711396,-0.198547229,0.984334826,1.0083360518200286
0.047340472,-0.079329215,1.00117099,1.0086364755700965
0.04756698,0.0409514122,1.00320017,1.008087599249203
0.047793488,0.160322294,0.990478158,1.0067502194284954
0.04802,0.276858628,0.963368654,1.0047298634078141
0.048246508,0.388748556,0.922534347,1.0021950611868016
0.048473016,0.494366854,0.86890918,0.9994017494221297
0.048699528,0.592348933,0.80364126,0.9967165332006261
0.048926036,0.681659043,0.727983296,0.9946187301586995
0.049152544,0.761595964,0.643105805,0.9936134888057873
0.049379056,0.83159399,0.549883425,0.9939203452938508
0.049605564,0.890811682,0.448985815,0.9951337148588835
0.049832072,0.938056588,0.341400921,0.9965047511498502
0.050058584,0.972280622,0.228663698,0.997616694699742
0.050285092,0.992883861,0.112530053,0.9984813742624502
0.050511604,0.99960357,-0.0052895667,0.9992352766726187
0.050738112,0.992363155,-0.123150542,0.9999506873964479
0.05096462,0.971230924,-0.239422679,1.0006127269534308
0.051191132,0.93644166,-0.35246107,1.0011517884491004
0.05141764,0.888436556,-0.460615098,1.0014857825426908
0.051644148,0.827898204,-0.562273026,1.0015663919536224
0.05187066,0.755762041,-0.655931056,1.001421812841761
0.052097168,0.673188686,-0.740281045,1.0011990325446987
0.052323676,0.58146733,-0.81428951,1.001171661953369
0.052550188,0.481841028,-0.877185404,1.00162500925474
0.052776696,0.375384778,-0.928239584,1.0025424568586023
0.053003204,0.263229549,-0.96649611,1.0034045261118756
0.053229716,0.146976039,-0.990947545,1.0035789929816568
0.053456224,0.0286460035,-1.00102305,1.0028677401478243
0.053682736,-0.0897231847,-0.996711075,1.001483216900366
0.053909244,-0.206302643,-0.97836715,0.9997630607079079
0.054135752,-0.319477379,-0.946537137,0.9979983474128664
0.054362264,-0.427793413,-0.901880801,0.9963961834185902
0.054588772,-0.529916704,-0.845151544,0.9950928455038076
0.05481528,-0.624613285,-0.777197242,0.9941773087708978
0.055041792,-0.710748613,-0.698967278,0.9937188465961531
0.0552683,-0.787308693,-0.611514211,0.9938046083283207
0.055494808,-0.853431523,-0.515968561,0.9945689203905103
0.05572132,-0.908423841,-0.413463712,0.9961861160380121
0.055947828,-0.951672792,-0.305030882,0.9987249420067732
0.056174336,-0.982419968,-0.19163458,1.0018728057768973
0.056400848,-0.999658167,-0.0745127425,1.0048685996446711
0.056627356,-1.00248682,0.044525072,1.0069623063103175
0.056853868,-0.990545094,0.163305908,1.0078484028351733
0.057080376,-0.964045227,0.279681653,1.007605026726294
0.057306884,-0.923587441,0.391705722,1.0064471338204697
0.057533396,-0.870028973,0.497651041,1.0046069724678186
0.057759904,-0.804416835,0.596000016,1.0023024635034175
0.057986412,-0.727949739,0.685444295,0.9997447040582152
0.058212924,-0.641943276,0.764896512,0.9971578436713783
0.058439432,-0.547786534,0.833499074,0.9947907931905906
0.05866594,-0.446890444,0.890630901,0.9929344707545888
0.058892452,-0.340613037,0.9358989,0.9919239919955734
0.05911896,-0.2301649,0.969078243,0.9920885222479771
0.059345468,-0.116549015,0.989939272,0.9935634351453602
0.05957198,-0.000714599621,0.998018563,0.9960415627452033
0.059798488,0.116070352,0.992642403,0.9988112668470183
0.060025,0.232059076,0.973329604,1.0012219327767706
0.060251508,0.345294923,0.940086484,1.0029911812490582
0.060478016,0.453904241,0.893353701,1.0041098950881835
0.060704528,0.556177616,0.833849251,1.0046381139327045
0.060931036,0.650555789,0.762497902,1.004625885155814
0.061157544,0.735625267,0.680413365,1.0041068807194446
0.061384056,0.810142696,0.588892758,1.003125868306995
0.061610564,0.873075008,0.489397317,1.0017697034809987
0.061837072,0.923642159,0.383507341,1.0001927184830717
0.062063584,0.961349964,0.272849768,0.998640749180455
0.062290092,0.985985279,0.158994913,0.9974463527645854
0.0625166,0.997531295,0.043342609,0.996947266259304
0.062743112,0.995974243,-0.0729024559,0.9972794607956745
0.06296962,0.98113656,-0.188529328,0.9981722568847653
0.063196132,0.952814996,-0.302024275,0.9990750792917555
0.06342264,0.911145151,-0.411589116,0.9995910866004744
0.063649148,0.856725097,-0.515453994,0.9996707117602115
0.06387566,0.790456891,-0.612078309,0.9994619528776855
0.064102168,0.713386893,-0.700150669,0.999131818405341
0.064328676,0.626643836,-0.778529108,0.9987900692000704
0.064555188,0.531439364,-0.846203268,0.9984877683826043
0.064781696,0.429080963,-0.902291954,0.9982412430621455
0.065008204,0.320976734,-0.94606626,0.9980674320796945
0.065234716,0.20861809,-0.976984322,0.9980198729090477
0.065461224,0.0935292691,-0.994718909,0.9982134321005306
0.065687732,-0.0228089038,-0.999151587,0.9988241398971761
0.065914244,-0.139032558,-0.99028641,0.9999972260147114
0.066140752,-0.253850132,-0.968094528,1.00164690465996
0.066367264,-0.365813106,-0.932472646,1.0033244640596086
0.066593772,-0.473140568,-0.883499146,1.004432738070092
0.06682028,-0.57389915,-0.821746528,1.0046275906507773
0.067046792,-0.666341662,-0.748276353,1.0039287109759027
0.067273296,-0.749062955,-0.664431155,1.0025640702879661
0.067499808,-0.820976436,-0.571662843,1.000800714534105
0.06772632,-0.881251335,-0.471459746,0.9988782075376668
0.067952832,-0.92926532,-0.365319878,0.9969926482166371
0.068179336,-0.964584053,-0.254740983,0.9953153637217133
0.068405848,-0.986947417,-0.141207024,0.9940046275499085
0.06863236,-0.996266544,-0.0261657089,0.9932316710159436
0.068858864,-0.992607176,0.0890071616,0.9931912806627836
0.069085376,-0.976139069,0.203054234,0.9940785039735136
0.069311888,-0.947021306,0.314834595,0.9959701762267597
0.069538392,-0.90529269,0.423190296,0.9986448811960038
0.069764904,-0.850944638,0.526696682,1.0015161717707601
0.069991416,-0.784249365,0.623590291,1.0039119175323679
0.07021792,-0.706000328,0.712030113,1.0054233449549004
0.070444432,-0.617444158,0.790402651,1.0059736389561567
0.070670944,-0.520081758,0.857426405,1.0056650749955947
0.070897448,-0.415537417,0.912131131,1.004654545066371
0.07112396,-0.305499226,0.953820229,1.0031028063362115
0.071350472,-0.191684306,0.982054532,1.0011739769884407
0.071576976,-0.0758039728,0.996647239,0.9990519612985862
0.071803488,0.0404818244,0.997655749,0.9969557716195033
0.07203,0.155617788,0.985359728,0.995150689506247
0.072256504,0.268211305,0.960213125,0.9939465495520686
0.072483016,0.377070904,0.922746718,0.9936439722231487
0.072709528,0.481160909,0.873426199,0.9943891454492938
0.072936032,0.579417348,0.812575459,0.996003339732414
0.073162544,0.670525074,0.74052161,0.9979761297396976
0.073389056,0.752943695,0.657903194,0.9997608205156547
0.07361556,0.825187087,0.565800786,1.0010642579897633
0.073842072,0.886034608,0.46560359,1.0018440295946018
0.074068584,0.934560061,0.358844042,1.0021715540952214
0.074295096,0.970081449,0.247116029,1.0021243494826686
0.0745216,0.992128372,0.132058963,1.0017582762360058
0.074748112,1.00044274,0.0153460559,1.0011211774503936
0.074974624,0.994992018,-0.10133709,1.0002783216933806
0.075201128,0.975980818,-0.216336086,0.9993398592097485
0.07542764,0.943842292,-0.328088492,0.9984803307506473
0.075654152,0.899192393,-0.435188264,0.9979357847524001
0.075880656,0.842727661,-0.536419809,0.9979361221021272
0.076107168,0.775104642,-0.630691469,0.998558935119326
0.07633368,0.696922004,-0.716852665,0.9995780229769784
0.076560184,0.608918071,-0.793566585,1.0005291420189233
0.076786696,0.512209654,-0.859448731,1.00101085086831
0.077013208,0.408286542,-0.913346052,1.0008989110823043
0.077239712,0.298816651,-0.954469502,1.0003034211629838
0.077466224,0.185481846,-0.982350945,0.9994168943379607
0.077692736,0.069918178,-0.996758938,0.9984169320977276
0.07791924,-0.0462879762,-0.997645319,0.9974387592633035
0.078145752,-0.161592051,-0.985124052,0.9965813887752852
0.078372264,-0.274494857,-0.959470093,0.9959302858808791
0.078598768,-0.383561671,-0.92112118,0.9955837837049046
0.07882528,-0.487456858,-0.870664001,0.9956699910485601
0.079051792,-0.58497721,-0.808789849,0.9963393560648268
0.079278296,-0.675042272,-0.736211777,0.9976898495804196
0.079504808,-0.756593108,-0.653599143,0.9996249708034342
0.07973132,-0.828428805,-0.561653793,1.0017492681450149
0.079957824,-0.889186502,-0.46135208,1.0034983770593224
0.080184336,-0.937574267,-0.354117304,1.0044445711328158
