Frequency (GHz),Re( S21 ),Im( S21 ),S2
0,0.056764033,4.65E-05,3.22E-03
0.0002265,0.052016672,-0.021954009,3.19E-03
0.000453,0.03855405,-0.040008679,3.09E-03
0.000679501,0.018776026,-0.050852221,2.94E-03
0.000906001,-0.003774821,-0.052486755,2.77E-03
0.001132501,-0.0250294,-0.044548716,2.61E-03
0.001359001,-0.041109175,-0.028393822,2.50E-03
0.001585501,-0.049026251,-0.006877219,2.45E-03
0.001812001,-0.047233399,0.016140195,2.49E-03
0.002038501,-0.035925161,0.036477845,2.62E-03
0.002265002,-0.017023396,0.050389931,2.83E-03
0.002491502,0.006149943,0.055247389,3.09E-03
0.002718002,0.029454051,0.050021295,3.37E-03
0.002944502,0.048909694,0.035491403,3.65E-03
0.003171002,0.060454018,0.01406903,3.85E-03
0.003397503,0.062158603,-0.010371634,3.97E-03
0.003624003,0.053426974,-0.033541266,3.98E-03
0.003850503,0.035715014,-0.051187165,3.90E-03
0.004077003,0.011943684,-0.059908737,3.73E-03
0.004303503,-0.013681701,-0.057806905,3.53E-03
0.004530003,-0.036461908,-0.044871494,3.34E-03
0.004756504,-0.052019723,-0.023062168,3.24E-03
0.004983004,-0.057101946,0.003956694,3.28E-03
0.005209504,-0.050221641,0.031401523,3.51E-03
0.005436004,-0.032011636,0.054189447,3.96E-03
0.005662504,-0.005206292,0.067851387,4.63E-03
0.005889004,0.026029417,0.069497034,5.51E-03
0.006115505,0.055768073,0.057880789,6.46E-03
0.006342005,0.078788929,0.03455881,7.40E-03
0.006568505,0.090618387,0.003167175,8.22E-03
0.006795005,0.088447407,-0.030866571,8.78E-03
0.007021505,0.071876131,-0.06152219,8.95E-03
0.007248005,0.043285783,-0.082899399,8.75E-03
0.007474506,0.007178761,-0.090060271,8.16E-03
0.007701006,-0.029952906,-0.080265559,7.34E-03
0.007927506,-0.060673799,-0.053561077,6.55E-03
0.008154006,-0.077754416,-0.013081602,6.22E-03
0.008380506,-0.075417087,0.035114449,6.92E-03
0.008607006,-0.050481886,0.082713559,9.39E-03
0.008833506,-0.003206863,0.120264672,1.45E-02
0.009060006,0.062907226,0.13882339,2.32E-02
0.009286507,0.13926594,0.130447105,3.64E-02
0.009513007,0.216075569,0.09105067,5.50E-02
0.009739507,0.281683207,0.020537034,7.98E-02
0.009966007,0.324410021,-0.076646119,1.11E-01
0.010192507,0.335422575,-0.193445325,1.50E-01
0.010419007,0.30767712,-0.318516761,1.96E-01
0.010645507,0.238538936,-0.439012378,2.50E-01
0.010872008,0.12966831,-0.541645348,3.10E-01
0.011098508,-0.013148326,-0.614067614,3.77E-01
0.011325008,-0.180458397,-0.646056175,4.50E-01
0.011551508,-0.359913766,-0.630572319,5.27E-01
0.011778008,-0.537372768,-0.564549446,6.07E-01
0.012004508,-0.698199928,-0.449315757,6.89E-01
0.012231009,-0.828644931,-0.290660709,7.71E-01
0.012457509,-0.917002261,-0.09871079,8.51E-01
0.012684009,-0.953492522,0.113773823,9.22E-01
0.012910509,-0.934782386,0.333933473,9.85E-01
0.013137009,-0.862145305,0.545475662,1.04E+00
0.013363509,-0.740100563,0.733869314,1.09E+00
0.01359001,-0.577247143,0.887251616,1.12E+00
0.01381651,-0.385054588,0.997187555,1.14E+00
0.01404301,-0.17645447,1.0592314,1.15E+00
0.01426951,0.035588242,1.07297766,1.15E+00
0.01449601,0.2393509,1.04160833,1.14E+00
0.01472251,0.425317526,0.971046567,1.12E+00
0.014949011,0.586752355,0.868793905,1.10E+00
0.015175511,0.721326232,0.74339962,1.07E+00
0.015402011,0.825696468,0.60409683,1.05E+00
0.015628511,0.901874065,0.456188619,1.02E+00
0.015855011,0.934861541,0.314499259,9.73E-01
0.016081511,0.968055487,0.169221193,9.66E-01
0.016308011,0.973763943,0.023646161,9.49E-01
0.016534512,0.960927665,-0.115556732,9.37E-01
0.016761012,0.932150602,-0.248785749,9.31E-01
0.016987512,0.888505936,-0.376096755,9.31E-01
0.017214012,0.830232501,-0.49717918,9.36E-01
0.017440512,0.757088661,-0.611112773,9.47E-01
0.017667012,0.668757558,-0.716223001,9.60E-01
0.017893512,0.565262973,-0.81010443,9.76E-01
0.018120012,0.447341383,-0.889795005,9.92E-01
0.018346512,0.316769511,-0.952088952,1.01E+00
0.018573014,0.176560268,-0.994121253,1.02E+00
0.018799514,0.030652221,-1.01397967,1.03E+00
0.019026014,-0.116337284,-1.01111269,1.04E+00
0.019252514,-0.260976493,-0.987740874,1.04E+00
0.019479014,-0.403575361,-0.942133248,1.05E+00
0.019705514,-0.536197007,-0.872585833,1.05E+00
0.019932014,-0.654001117,-0.783928037,1.04E+00
0.020158514,-0.754833639,-0.680204928,1.03E+00
0.020385014,-0.837401271,-0.56518501,1.02E+00
0.020611514,-0.901245952,-0.442447543,1.01E+00
0.020838014,-0.946640968,-0.315190047,9.95E-01
0.021064514,-0.974372268,-0.186073765,9.84E-01
0.021291014,-0.985473394,-0.057181142,9.74E-01
0.021517516,-0.980992734,0.069907218,9.67E-01
0.021744016,-0.961855412,0.193948925,9.63E-01
0.021970516,-0.928846538,0.313880324,9.61E-01
0.022197016,-0.882696152,0.428715765,9.63E-01
0.022423516,-0.824300051,0.537743688,9.69E-01
0.022650016,-0.75382036,0.64142096,9.80E-01
0.022876516,-0.668710172,0.738429725,9.92E-01
0.023103016,-0.569154799,0.824277878,1.00E+00
0.023329516,-0.457475126,0.896278083,1.01E+00
0.023556016,-0.335847348,0.952546835,1.02E+00
0.023782516,-0.206711307,0.991418481,1.03E+00
0.024009016,-0.072923258,1.01164472,1.03E+00
0.024235518,0.062357392,1.01259506,1.03E+00
0.024462018,0.195871875,0.994355381,1.03E+00
0.024688518,0.324485123,0.957735896,1.02E+00
0.024915018,0.44538933,0.904200077,1.02E+00
0.025141518,0.556276739,0.835742831,1.01E+00
0.025368018,0.655481458,0.754729867,9.99E-01
0.025594518,0.742128551,0.663701117,9.91E-01
0.025821018,0.816397667,0.564926267,9.86E-01
0.026047518,0.87900269,0.459153622,9.83E-01
0.026274018,0.928799868,0.346378177,9.83E-01
0.026500518,0.964270234,0.228513807,9.82E-01
0.026727018,0.985263526,0.107650198,9.82E-01
0.026953518,0.991861939,-0.014738768,9.84E-01
0.02718002,0.983965933,-0.137338877,9.87E-01
0.02740652,0.961370528,-0.258717984,9.91E-01
0.02763302,0.923912346,-0.377216935,9.96E-01
0.02785952,0.871621013,-0.490933865,1.00E+00
0.02808602,0.804861546,-0.597775459,1.01E+00
0.02831252,0.724449933,-0.69557035,1.01E+00
0.02853902,0.631720185,-0.782243371,1.01E+00
0.02876552,0.528513432,-0.8560431,1.01E+00
0.02899202,0.417005181,-0.915822923,1.01E+00
0.02921852,0.299140245,-0.961177468,1.01E+00
0.02944502,0.176080868,-0.991531849,1.01E+00
0.02967152,0.049671251,-1.00535107,1.01E+00
0.029898022,-0.076912366,-1.00204659,1.01E+00
0.030124522,-0.200840116,-0.982392788,1.01E+00
0.030351022,-0.320021689,-0.947588146,1.00E+00
0.030577522,-0.432845563,-0.898898363,9.95E-01
0.030804022,-0.538020551,-0.837580383,9.91E-01
0.031030522,-0.634484887,-0.764849901,9.88E-01
0.031257022,-0.721327066,-0.681866348,9.85E-01
0.031483522,-0.797718763,-0.58975029,9.84E-01
0.031710022,-0.862873554,-0.489630967,9.84E-01
0.031936522,-0.916060627,-0.382704049,9.86E-01
0.032163022,-0.956673741,-0.270251155,9.88E-01
0.032389522,-0.984332383,-0.153518364,9.92E-01
0.032616022,-0.998684883,-0.033391148,9.98E-01
0.032842524,-0.998626649,0.089337245,1.01E+00
0.033069024,-0.982630849,0.212644175,1.01E+00
0.033295524,-0.950276852,0.333575308,1.01E+00
0.033522024,-0.902174354,0.449432075,1.02E+00
0.033748524,-0.839383841,0.557929516,1.02E+00
0.033975024,-0.763259172,0.657081842,1.01E+00
0.034201524,-0.675424993,0.745199502,1.01E+00
0.034428024,-0.577722311,0.820935965,1.01E+00
0.034654524,-0.472126037,0.883323073,1.00E+00
0.034881024,-0.360651582,0.931779206,9.98E-01
0.035107524,-0.245263875,0.966092527,9.93E-01
0.035334024,-0.127791688,0.986395895,9.89E-01
0.035560524,-0.009811026,0.993125558,9.86E-01
0.035787024,0.107541949,0.986887753,9.86E-01
0.036013524,0.223661706,0.967986941,9.87E-01
0.036240024,0.337786108,0.935937226,9.90E-01
0.036466524,0.448176205,0.890228391,9.93E-01
0.036693024,0.552761674,0.831194639,9.96E-01
0.036919524,0.649790168,0.759660959,9.99E-01
0.037146028,0.737734616,0.676586568,1.00E+00
0.037372528,0.815146446,0.583066046,1.00E+00
0.037599028,0.880648255,0.480406135,1.01E+00
0.037825528,0.933001995,0.370170772,1.01E+00
0.038052028,0.971201777,0.254175544,1.01E+00
0.038278528,0.99456507,0.13443765,1.01E+00
0.038505028,1.00280631,0.013084525,1.01E+00
0.038731528,0.996086001,-0.107782833,1.00E+00
0.038958028,0.974987268,-0.226286769,1.00E+00
0.039184528,0.940304816,-0.340993255,1.00E+00
0.039411028,0.892571688,-0.450834483,1.00E+00
0.039637528,0.831966758,-0.554422736,1.00E+00
0.039864028,0.759128809,-0.649841726,9.99E-01
0.040090528,0.675436258,-0.735416114,9.97E-01
0.040317028,0.582479239,-0.810036957,9.95E-01
0.040543528,0.481755227,-0.872947395,9.94E-01
0.040770028,0.374663353,-0.923547149,9.93E-01
0.040996528,0.262569964,-0.961315095,9.93E-01
0.041223028,0.146870032,-0.98579514,9.93E-01
0.041449528,0.029030206,-0.996620417,9.94E-01
0.041676028,-0.089391887,-0.993561506,9.95E-01
0.041902528,-0.206765354,-0.976588905,9.96E-01
0.042129028,-0.321458578,-0.94592464,9.98E-01
0.042355528,-0.431972295,-0.902023852,1.00E+00
0.042582028,-0.53703326,-0.845377088,1.00E+00
0.042808532,-0.635337889,-0.776238978,1.01E+00
0.043035032,-0.725043058,-0.6949296,1.01E+00
0.043261532,-0.8040151,-0.602556944,1.01E+00
0.043488032,-0.870580792,-0.500961661,1.01E+00
0.043714532,-0.923701525,-0.392196834,1.01E+00
0.043941032,-0.962798238,-0.278274983,1.00E+00
0.044167532,-0.987612903,-0.161119923,1.00E+00
0.044394032,-0.998143733,-0.042555198,9.98E-01
0.044620532,-0.994604766,0.075707674,9.95E-01
0.044847032,-0.977390707,0.192081466,9.92E-01
0.045073532,-0.94704634,0.305113107,9.90E-01
0.045300032,-0.904244304,0.413499355,9.89E-01
0.045526532,-0.849743545,0.516121149,9.88E-01
0.045753032,-0.784284294,0.612083495,9.90E-01
0.045979532,-0.70837611,0.700622559,9.93E-01
0.046206032,-0.622237682,0.780698836,9.97E-01
0.046432532,-0.526315749,0.850686967,1.00E+00
0.046659032,-0.421812475,0.908825934,1.00E+00
0.046885532,-0.31047523,0.95378387,1.01E+00
0.047112032,-0.19421275,0.984696925,1.01E+00
0.047338532,-0.074968606,1.00104058,1.01E+00
0.047565032,0.045290571,1.00257909,1.01E+00
0.047791532,0.164594129,0.989370525,1.01E+00
0.048018032,0.28101635,0.961777568,1.00E+00
0.048244532,0.392743737,0.920464933,1.00E+00
0.048471036,0.498146683,0.866369486,9.99E-01
0.048697536,0.595856488,0.8006441,9.96E-01
0.048924036,0.684834301,0.724550962,9.94E-01
0.049150536,0.764376581,0.639271617,9.93E-01
0.049377036,0.833921671,0.545694828,9.93E-01
0.049603536,0.89263773,0.444500417,9.94E-01
0.049830036,0.939341903,0.336681664,9.96E-01
0.050056536,0.972993433,0.223778889,9.97E-01
0.050283036,0.993001997,0.10755349,9.98E-01
0.050509536,0.999117076,-0.010280335,9.98E-01
0.050736036,0.99127537,-0.128079399,9.99E-01
0.050962536,0.969554186,-0.244217172,1.00E+00
0.051189036,0.934197009,-0.357052863,1.00E+00
0.051415536,0.885650814,-0.464941859,1.00E+00
0.051642036,0.824602425,-0.566276431,1.00E+00
0.051868536,0.751990497,-0.659555197,1.00E+00
0.052095036,0.668979466,-0.743471801,1.00E+00
0.052321536,0.576863945,-0.816993177,1.00E+00
0.052548036,0.476894706,-0.879348516,1.00E+00
0.052774536,0.370157599,-0.929814458,1.00E+00
0.053001036,0.257790506,-0.967442572,1.00E+00
0.053227536,0.141399503,-0.991231978,1.00E+00
0.053454036,0.023014711,-1.00061762,1.00E+00
0.053680536,-0.095317222,-0.99560076,1.00E+00
0.053907036,-0.211761937,-0.976552367,9.98E-01
0.05413354,-0.324703991,-0.944036067,9.97E-01
0.05436004,-0.432693362,-0.898728967,9.95E-01
0.05458654,-0.534404218,-0.841399908,9.94E-01
0.05481304,-0.62861377,-0.772908568,9.93E-01
0.05503954,-0.714200616,-0.694212973,9.92E-01
0.05526604,-0.790163875,-0.606370926,9.92E-01
0.05549254,-0.855654061,-0.510514438,9.93E-01
0.05571904,-0.90998733,-0.407776594,9.94E-01
0.05594554,-0.952560246,-0.299188942,9.97E-01
0.05617204,-0.982624173,-0.185714126,1.00E+00
0.05639854,-0.999177992,-0.068585612,1.00E+00
0.05662504,-1.00132298,0.05039084,1.01E+00
0.05685154,-0.988699317,0.169040158,1.01E+00
0.05707804,-0.961522222,0.285208762,1.01E+00
0.05730454,-0.920401216,0.396944851,1.00E+00
0.05753104,-0.866203964,0.502517819,1.00E+00
0.05775754,-0.799991131,0.60040772,1.00E+00
0.05798404,-0.722976625,0.689309061,9.98E-01
0.05821054,-0.63649255,0.768140256,9.95E-01
0.05843704,-0.541942537,0.836053848,9.93E-01
0.05866354,-0.440750301,0.892444134,9.91E-01
0.05889004,-0.334282637,0.936934769,9.90E-01
0.05911654,-0.223755017,0.969320357,9.90E-01
0.05934304,-0.1101714,0.989392579,9.91E-01
0.05956954,0.005526687,0.996709228,9.93E-01
0.059796044,0.122085042,0.990613043,9.96E-01
0.060022544,0.23777245,0.970629513,9.99E-01
0.060249044,0.350645423,0.936769307,1.00E+00
0.060475544,0.45884046,0.889471412,1.00E+00
0.060702044,0.560656905,0.829452813,1.00E+00
0.060928544,0.654540181,0.757633924,1.00E+00
0.061155044,0.739078224,0.675124884,1.00E+00
0.061381544,0.813024819,0.583221436,1.00E+00
0.061608044,0.875343144,0.483387202,1.00E+00
0.061834544,0.925248623,0.377208561,9.98E-01
0.062061044,0.962244332,0.266323298,9.97E-01
0.062287544,0.986118615,0.152316421,9.96E-01
0.062514044,0.996861517,0.036604412,9.95E-01
0.062740544,0.994475067,-0.079592884,9.95E-01
0.062967044,0.978801966,-0.195054993,9.96E-01
0.063193544,0.949661434,-0.308266103,9.97E-01
0.063420044,0.907210052,-0.417429566,9.97E-01
0.063646544,0.852067888,-0.520781457,9.97E-01
0.063873044,0.785158813,-0.616793871,9.97E-01
0.064099544,0.707545221,-0.704174697,9.96E-01
0.064326044,0.620365322,-0.781804204,9.96E-01
0.064552544,0.524833679,-0.848694444,9.96E-01
0.064779044,0.422253281,-0.903984129,9.95E-01
0.065005544,0.314023554,-0.946960986,9.95E-01
0.065232044,0.201624751,-0.977091551,9.95E-01
0.065458544,0.086571515,-0.994054198,9.96E-01
0.065685048,-0.029663777,-0.997730017,9.96E-01
0.065911548,-0.145719618,-0.98812139,9.98E-01
0.066138048,-0.260304034,-0.965199292,9.99E-01
0.066364548,-0.371967703,-0.928860247,1.00E+00
0.066591048,-0.478924751,-0.879182935,1.00E+00
0.066817548,-0.579232335,-0.816742599,1.00E+00
0.067044048,-0.671132922,-0.742612779,1.00E+00
0.067270544,-0.753214359,-0.658153117,1.00E+00
0.067497048,-0.824389994,-0.564838052,9.99E-01
0.067723544,-0.883836091,-0.464178026,9.97E-01
0.067950048,-0.9309448,-0.357692719,9.95E-01
0.068176544,-0.965301275,-0.246896207,9.93E-01
0.068403048,-0.986670911,-0.133284152,9.91E-01
0.068629552,-0.994991839,-0.018308733,9.90E-01
0.068856048,-0.990355372,0.09665753,9.90E-01
0.069082552,-0.972955525,0.210365474,9.91E-01
0.069309048,-0.942973793,0.321688533,9.93E-01
0.069535552,-0.900465071,0.429487109,9.95E-01
0.069762048,-0.845430017,0.532359719,9.98E-01
0.069988552,-0.77813977,0.628563225,1.00E+00
0.070215048,-0.699383855,0.716271639,1.00E+00
0.070441552,-0.610402167,0.793880165,1.00E+00
0.070668048,-0.512690783,0.860112906,1.00E+00
0.070894552,-0.407869905,0.914001048,1.00E+00
0.071121048,-0.297626942,0.954847753,1.00E+00
0.071347552,-0.183682054,0.982212901,9.98E-01
0.071574048,-0.067753114,0.995909572,9.96E-01
0.071800552,0.04849045,0.995996773,9.94E-01
0.072027048,0.163481697,0.982761979,9.93E-01
0.072253552,0.275816023,0.956670344,9.91E-01
0.072480048,0.384292215,0.918269217,9.91E-01
0.072706552,0.487868994,0.868047774,9.92E-01
0.072933048,0.585483968,0.806353688,9.93E-01
0.073159552,0.675831556,0.733537376,9.95E-01
0.073386048,0.757385015,0.650256693,9.96E-01
0.073612552,0.828672886,0.557608187,9.98E-01
0.073839048,0.888494492,0.456995189,9.98E-01
0.074065552,0.935945034,0.349958986,9.98E-01
0.074292056,0.970365047,0.238097996,9.98E-01
0.074518552,0.991306424,0.123049892,9.98E-01
0.074745056,0.998529375,0.006483893,9.97E-01
0.074971552,0.992016852,-0.109921366,9.96E-01
0.075198056,0.971987128,-0.224518403,9.95E-01
0.075424552,0.93888557,-0.335751474,9.94E-01
0.075651056,0.893338203,-0.442220658,9.94E-01
0.075877552,0.836054087,-0.542715847,9.94E-01
0.076104056,0.767704308,-0.63615346,9.94E-01
0.076330552,0.688901663,-0.721394062,9.95E-01
0.076557056,0.60039556,-0.797115803,9.96E-01
0.076783552,0.50331074,-0.861949384,9.96E-01
0.077010056,0.399145722,-0.914758742,9.96E-01
0.077236552,0.289573878,-0.954773366,9.95E-01
0.077463056,0.176279038,-0.981546938,9.95E-01
0.077689552,0.060893577,-0.994870186,9.93E-01
0.077916056,-0.055004861,-0.994714379,9.92E-01
0.078142552,-0.169884011,-0.981210113,9.92E-01
0.078369056,-0.282259554,-0.954644382,9.91E-01
0.078595552,-0.390711695,-0.915461004,9.91E-01
0.078822056,-0.493918687,-0.864250243,9.91E-01
0.079048552,-0.590687931,-0.801703215,9.92E-01
0.079275056,-0.679945707,-0.728532195,9.93E-01
0.079501552,-0.760639012,-0.645407557,9.95E-01
0.079728056,-0.831572235,-0.553031087,9.97E-01
0.07995456,-0.89138341,-0.452380151,9.99E-01
0.080181056,-0.938780904,-0.344880104,1.00E+00
0.08040756,-0.972815752,-0.232311293,1.00E+00
0.080634056,-0.992966652,-0.116580889,1.00E+00
0.08086056,-0.999081433,0.000433927,9.98E-01
0.081087056,-0.991288483,0.116951615,9.96E-01
0.08131356,-0.969940186,0.231304303,9.94E-01
0.081540056,-0.935576081,0.341950357,9.92E-01
0.08176656,-0.88889271,0.447486728,9.90E-01
0.081993056,-0.830713809,0.546668649,9.89E-01
0.08221956,-0.761941791,0.638425469,9.88E-01
0.082446056,-0.683487713,0.721855104,9.88E-01
0.08267256,-0.596190631,0.796163023,9.89E-01
0.082899056,-0.500800431,0.860511601,9.91E-01
0.08312556,-0.398124784,0.913879573,9.94E-01
0.083352056,-0.289283663,0.955114543,9.96E-01
0.08357856,-0.175811574,0.983198166,9.98E-01
0.083805056,-0.05951843,0.997467935,9.98E-01
0.08403156,0.057710584,0.997651279,9.99E-01
0.084258056,0.174030691,0.983798802,9.98E-01
0.08448456,0.287677437,0.956226945,9.97E-01
0.084711056,0.396988243,0.915479481,9.96E-01
0.08493756,0.50042671,0.862312615,9.94E-01
0.085164056,0.596616387,0.797666252,9.92E-01
0.08539056,0.684378386,0.722625434,9.91E-01
0.085617064,0.762755394,0.638353586,9.89E-01
0.08584356,0.830998302,0.546001077,9.89E-01
0.086070064,0.888478577,0.446624637,9.89E-01
0.08629656,0.934532821,0.341203123,9.90E-01
0.086523064,0.968368828,0.230809718,9.91E-01
0.08674956,0.989185035,0.116816044,9.92E-01
0.086976064,0.996415257,0.0008953,9.93E-01
0.08720256,0.989863753,-0.115156904,9.93E-01
0.087429064,0.96966368,-0.229587421,9.93E-01
0.08765556,0.936190248,-0.340748757,9.93E-01
0.087882064,0.890001416,-0.447102427,9.92E-01
0.08810856,0.831815898,-0.547211409,9.91E-01
0.088335064,0.762508988,-0.639751136,9.91E-01
0.08856156,0.683100522,-0.723531008,9.90E-01
0.088788064,0.5947299,-0.797527313,9.90E-01
0.08901456,0.498601377,-0.860902846,9.90E-01
0.089241064,0.395909637,-0.912984371,9.90E-01
0.08946756,0.287796557,-0.953173757,9.91E-01
0.089694064,0.175414383,-0.980825722,9.93E-01
0.08992056,0.060109776,-0.99524349,9.94E-01
0.090147064,-0.056452394,-0.995868206,9.95E-01
0.09037356,-0.172386423,-0.982505381,9.95E-01
0.090600064,-0.285804689,-0.955382586,9.94E-01
0.09082656,-0.394970447,-0.915059686,9.93E-01
0.091053064,-0.498340279,-0.86231488,9.92E-01
0.091279568,-0.594556451,-0.798073351,9.90E-01
0.091506064,-0.682427943,-0.723367155,9.89E-01
0.091732568,-0.760926247,-0.639317453,9.88E-01
0.091959064,-0.829184413,-0.547110558,9.87E-01
0.092185568,-0.886500955,-0.447966278,9.87E-01
0.092412064,-0.932326794,-0.343091756,9.87E-01
0.092638568,-0.966208279,-0.233635083,9.88E-01
0.092865064,-0.98768276,-0.12069533,9.90E-01
0.093091568,-0.996195495,-0.005448715,9.92E-01
0.093318064,-0.991174281,0.110659808,9.95E-01
0.093544568,-0.972267091,0.225860476,9.96E-01
0.093771064,-0.93953836,0.3382155,9.97E-01
0.093997568,-0.893479943,0.445839763,9.97E-01
0.094224064,-0.834908724,0.547029436,9.96E-01
0.094450568,-0.764863193,0.640297115,9.95E-01
0.094677064,-0.684537649,0.724372864,9.93E-01
0.094903568,-0.595240653,0.798200548,9.91E-01
0.095130064,-0.498355806,0.860940576,9.90E-01
0.095356568,-0.395300001,0.911970139,9.88E-01
0.095583064,-0.287469983,0.950875282,9.87E-01
0.095809568,-0.176183358,0.977407694,9.86E-01
0.096036064,-0.062644087,0.991397619,9.87E-01
0.096262568,0.052010421,0.992637336,9.88E-01
0.096489064,0.166550994,0.980829597,9.90E-01
0.096715568,0.279491842,0.95571512,9.92E-01
0.096942072,0.389099419,0.917301893,9.93E-01
0.097168568,0.493576288,0.865996838,9.94E-01
0.097395072,0.591245115,0.802564383,9.94E-01
0.097621568,0.680626869,0.728019416,9.93E-01
0.097848072,0.760448992,0.643546939,9.92E-01
0.098074568,0.829638839,0.550457299,9.91E-01
0.098301072,0.887325704,0.450160712,9.90E-01
0.098527568,0.932849765,0.344134808,9.89E-01
0.098754072,0.965772212,0.233883217,9.87E-01
0.098980568,0.985865116,0.120878033,9.87E-01
