Frequency (GHz),Re( S21 ),Im( S21 ),S2
0.0,0.0566837639,4.53649554e-05,0.0032130511478501
0.000226452578,0.0519411154,-0.0219227243,0.0031784853097299
0.000452905156,0.0384925902,-0.0399471931,0.0030774577368738
0.00067935775,0.0187375266,-0.0507653058,0.0029282111760532
0.000905810313,-0.00378247863,-0.0523817278,0.0027581525518996
0.00113226288,-0.0249999873,-0.0444355085,0.0025995137806537
0.0013587155,-0.0410393253,-0.0282846354,0.0024842468207901
0.00158516813,-0.0489166081,-0.00678649638,0.0024388910811247
0.00181162063,-0.04709002,0.0161975026,0.0024798290740774
0.00203807325,-0.0357601233,0.0364884846,0.0026101959268356
0.00226452575,-0.0168548506,0.0503448285,0.0028186877454427
0.0024909785,0.00629979791,0.0551453531,0.0030806974222305
0.002717431,0.0295623969,0.0498702899,0.0033609811251831
0.0029438835,0.0489541478,0.0353089869,0.0036432331427286
0.00317033625,0.060425926,0.0138811208,0.0038439780476216
0.00339678875,0.0620574281,-0.0105332211,0.0039620731291281
0.00362324125,0.0532618053,-0.0336452089,0.0039688199857397
0.003849694,0.0355132148,-0.0512092561,0.0038835763357463
0.0040761465,0.0117397029,-0.0598343387,0.0037179687118465
0.004302599,-0.0138471453,-0.0576362647,0.0035136824415277
0.0045290515,-0.036549177,-0.0446221121,0.0033269752276422
0.0047555045,-0.0519968718,-0.022767799,0.00322204734829
0.004981957,-0.056951981,0.00424944563,0.0032615859279866
0.0052084095,-0.0499477051,0.0316397212,0.0034958452023702
0.005434862,-0.031639304,0.0543224104,0.0039519698292704
0.0056613145,-0.00478245784,0.0678408667,0.0046252550975985
0.005887767,0.0264424495,0.0693247542,0.0055051246804504
0.00611422,0.0561020635,0.0575573072,0.0064602851410732
0.0063406725,0.0789831877,0.0341240391,0.0074027939837517
0.006567125,0.0906281322,0.00268603466,0.0082206731282553
0.0067935775,0.0882597715,-0.0313124582,0.0087702573037589
0.00702003,0.0715098083,-0.0618413538,0.0089380057229195
0.0072464825,0.042798277,-0.0830183625,0.0087237410263501
0.0074729355,0.00666006003,-0.089924179,0.0081307143684272
0.007699388,-0.0303903483,-0.0798574165,0.0073007802398497
0.0079258405,-0.0609091297,-0.052910272,0.0065094189639254
0.008152293,-0.077677466,-0.0122676799,0.00618428469431
0.0083787455,-0.074948594,0.0359659232,0.0069108393742051
0.008605198,-0.0495926328,0.0834437832,0.0094222941827642
0.008831651,-0.00193050504,0.120701931,0.0145726829968382
0.009058103,0.0644711927,0.138806313,0.0234237272168145
0.009284556,0.140950948,0.129852906,0.0367289469387435
0.009511009,0.21768105,0.0898329839,0.0554550045254801
0.009737461,0.282982141,0.0187119991,0.0804290310352622
0.009963914,0.325196594,-0.0789743736,0.1119897764347132
0.010190366,0.3355259,-0.196113452,0.1510381156261663
0.010416819,0.306987911,-0.321304321,0.1974780441934149
0.010643272,0.237024263,-0.441671133,0.2512538909761968
0.010869724,0.127373278,-0.543925047,0.3120784087024175
0.011096177,-0.0161035489,-0.615737617,0.3793921372760133
0.011322629,-0.183885768,-0.646927178,0.4523287493079935
0.011549082,-0.36357066,-0.630516231,0.5297343423672809
0.011775534,-0.540983438,-0.563516378,0.6102137884645388
0.012001987,-0.701480448,-0.447340667,0.6921884912782856
0.01222844,-0.83133316,-0.287865222,0.773981208952695
0.012454892,-0.918896914,-0.0952981263,0.853453271435014
0.012681345,-0.954443753,0.117496207,0.9247682363001116
0.012907797,-0.934707165,0.337691754,0.9877132050219336
0.01313425,-0.86110574,0.548978627,1.0428806283637526
0.013360703,-0.738245249,0.736850619,1.087954882391755
0.013587155,-0.574797869,0.889512002,1.121624191908989
0.013813608,-0.382279128,0.998616219,1.1433716845542965
0.01404006,-0.173632234,1.05981541,1.1533568559572986
0.014266513,0.0382013954,1.07279575,1.1523500678285696
0.014492965,0.241551384,1.0408138,1.1416404373827556
0.014719418,0.426972717,0.969841301,1.1228978501877347
0.014945871,0.587805808,0.867402494,1.097902754515953
0.015172323,0.72181201,0.741992593,1.0715655858471036
0.015398776,0.825700462,0.602888107,1.0452553225090568
0.015625228,0.901512742,0.455302775,1.0200258409110592
0.015851681,0.934419155,0.313819945,0.9716221151107168
0.016078134,0.967489302,0.169134125,0.9646419017239628
0.016304586,0.973342836,0.02386331,0.947965733956679
0.016531039,0.96071744,-0.115110904,0.9362285197398508
0.016757491,0.93220073,-0.248216301,0.9306095330946555
0.016983944,0.888823211,-0.375513047,0.9310167488795746
0.017210396,0.830783725,-0.496676803,0.9368894443631764
0.01743685,0.757812142,-0.61075902,0.9473058230739886
0.017663302,0.669578314,-0.716052175,0.9610658359013132
0.017889754,0.566107452,-0.810116231,0.9767659549395776
0.018116206,0.448151112,-0.889961958,0.9928717058740304
0.01834266,0.317507148,-0.952367246,1.0078141602847184
0.018569112,0.177212268,-0.994458735,1.0203523635475042
0.018795564,0.0312308613,-1.01432633,1.029833270428809
0.019022018,-0.115805194,-1.01142383,1.0363890068492465
0.01924847,-0.260391295,-0.987961411,1.043871376136888
0.019474922,-0.402850628,-0.942395389,1.0503976976884557
0.019701374,-0.535371304,-0.872930229,1.0486296178486527
0.019927828,-0.653065324,-0.784398854,1.041775879567738
0.02015428,-0.753804564,-0.680868566,1.0318033248741263
0.020380732,-0.836328626,-0.56610322,1.0199184263614165
0.020607186,-0.900205255,-0.443662852,1.0072062273743891
0.020833638,-0.945725083,-0.316716164,0.994705061154232
0.02106009,-0.973677456,-0.187891454,0.983350986808866
0.021286544,-0.985087991,-0.0592375994,0.9739074431950908
0.021512996,-0.980984271,0.0676922873,0.9669123857093072
0.021739448,-0.96226126,0.191674888,0.9626859951866
0.0219659,-0.929668784,0.311652005,0.9614110201645586
0.022192354,-0.883900166,0.426628977,0.963291787470894
0.022418806,-0.825817764,0.535861313,0.9691223261080436
0.022645258,-0.755608618,0.639751017,0.9802257473484044
0.022871712,-0.670754433,0.737033904,0.9931304850346327
0.023098164,-0.571368873,0.823199391,1.004119626376061
0.023324616,-0.45978725,0.895504951,1.013333432528075
0.023551068,-0.338214815,0.952054262,1.0207965788778488
0.023777522,-0.209112167,0.991181731,1.0261691222555922
0.024003974,-0.0753508583,1.01164758,1.029108577966403
0.024230426,0.0599011704,1.01283431,1.029421489728466
0.02445688,0.193385139,0.994843006,1.0271104185731654
0.024683332,0.321973383,0.958497167,1.0223836785074905
0.024909784,0.442872941,0.905267775,1.01564618632344
0.025136236,0.553793371,0.837150276,1.00750768237042
0.02536269,0.653084457,0.756499827,0.9988112962260148
0.025589142,0.739879787,0.665841162,0.9907665522246756
0.025815594,0.814350069,0.56743449,0.9851479353218648
0.026042048,0.877227008,0.462047845,0.983015434633776
0.0262685,0.927417517,0.3496297,0.9823441779605352
0.026494952,0.963366747,0.232029691,0.9819132667309176
0.026721406,0.984881818,0.111331202,0.9823868319657498
0.026947858,0.992021143,-0.0109907696,0.9842267451754269
0.02717431,0.984663904,-0.13361989,0.9874172788441334
0.027400762,0.962584317,-0.255115896,0.9916526877262394
0.027627216,0.925602674,-0.373807162,0.9964721044784444
0.027853668,0.873738408,-0.487775922,1.0013441556973246
0.02808012,0.807351589,-0.594912052,1.0057369378756758
0.028306574,0.727259755,-0.69302994,1.0091972489790637
0.028533026,0.634801626,-0.780042171,1.011438892910637
0.028759478,0.531824946,-0.854187608,1.0124742428486646
0.02898593,0.420517594,-0.914310873,1.012799419349571
0.029212384,0.302850485,-0.96000576,1.013329475497913
0.029438836,0.180004597,-0.990741193,1.0139697664481957
0.029665288,0.0537782796,-1.00501359,1.0129444194414237
0.029891742,-0.0726830959,-1.00220919,1.0097060929500647
0.030118194,-0.196552023,-0.983090281,1.0050991983420514
0.030344646,-0.31574598,-0.948849142,1.0000102181602966
0.0305711,-0.428665608,-0.900742173,0.9950906657027716
0.030797552,-0.53403008,-0.840010226,0.9908053061293772
0.031024004,-0.630782664,-0.767847598,0.9874767029573066
0.031250456,-0.718009651,-0.685390413,0.9852978771614525
0.03147691,-0.794872761,-0.593736947,0.984346268412644
0.031703362,-0.860569298,-0.49399811,0.9846136493437848
0.031929814,-0.914344668,-0.38735643,0.9860711757623752
0.032156268,-0.9555673,-0.275091261,0.98878406670786
0.03238272,-0.983829319,-0.158460021,0.9930297071793244
0.032609172,-0.998772621,-0.0383757986,0.9990194503773971
0.032835624,-0.999315977,0.0843638107,1.00574967444329
0.033062078,-0.983925462,0.20776394,1.011275169536237
0.03328853,-0.952148676,0.328865558,1.0147396564472042
0.033514982,-0.904589355,0.444949299,1.0162617798599074
0.033741436,-0.842311978,0.553719997,1.0160953033599525
0.033967888,-0.766676843,0.653190076,1.0144506569773326
0.03419434,-0.679310381,0.741674125,1.0115431014288807
0.034420792,-0.582050323,0.817831635,1.0076311617111775
0.034647244,-0.47686404,0.88070035,1.003032419135244
0.0348737,-0.365754098,0.929701269,0.998120509784004
0.035100152,-0.250670701,0.96462065,0.9933287987462538
0.035326604,-0.133427113,0.985582232,0.9891751305176164
0.035553056,-0.0155896721,0.993006349,0.9863046470304953
0.035779508,0.101704016,0.987486005,0.985472316941388
0.03600596,0.217845842,0.969326794,0.9870512444430074
0.036232412,0.33209908,0.938046813,0.9902216223163036
0.036458868,0.442752451,0.893098593,0.9936548296850872
0.03668532,0.547722638,0.834772766,0.99684565903297
0.036911772,0.645231724,0.7638731,0.999826090559622
0.037138224,0.733732045,0.681351364,1.0026023950845424
0.037364676,0.811757147,0.588297606,1.0050437389309108
0.037591128,0.877913892,0.48601833,1.0069466188625766
0.03781758,0.930952132,0.376078993,1.0081072810512397
0.038044036,0.969856024,0.260298342,1.0083759341370375
0.038270488,0.993934095,0.14069663,1.0077005268968258
0.03849694,1.00289536,0.0194046963,1.0061756453480246
0.038723392,0.99689424,-0.101472892,1.0040948735560211
0.038949844,0.976508796,-0.220052525,1.001992542424245
0.039176296,0.942539632,-0.334891319,1.0005331534322552
0.039402748,0.895538926,-0.444929421,0.9999521576526288
0.039629204,0.835684478,-0.548815668,0.9995671842124187
0.039855656,0.763577461,-0.644654632,0.9986301335062618
0.040082108,0.680562615,-0.730762541,0.997179364264415
0.04030856,0.58821094,-0.806015134,0.9956525061727216
0.040535012,0.488006562,-0.869642675,0.9944287867362156
0.040761464,0.381334692,-0.921031296,0.9937147955341744
0.040987916,0.2695508,-0.959643424,0.9935731350070838
0.041214372,0.154041648,-0.985003412,0.9939605509701976
0.041440824,0.0362710506,-0.996723711,0.9947737451812392
0.041667276,-0.0822015256,-0.994554162,0.9958950719624896
0.041893728,-0.199737817,-0.978444874,0.9972495669968016
0.04212018,-0.314692527,-0.948601663,0.9988765015960114
0.042346632,-0.425547361,-0.905472457,1.0009709268396811
0.042573088,-0.531012416,-0.849554718,1.0037174048222166
0.04279954,-0.629790068,-0.781120181,1.0067842669169176
0.043025992,-0.720059991,-0.700478852,1.009157012738158
0.043252444,-0.79968977,-0.608708441,1.0100296943873033
0.043478896,-0.866987526,-0.507632375,1.0093579983877412
0.043705348,-0.920900643,-0.399299085,1.0074977535596503
0.0439318,-0.960841238,-0.285717994,1.0048506567367566
0.044158256,-0.986544371,-0.168805957,1.0017652470704717
0.044384708,-0.997999012,-0.0503786653,0.9985400378703856
0.04461116,-0.995406508,0.067860797,0.9954392039382292
0.044837612,-0.979144931,0.184331894,0.992703043048622
0.045064064,-0.94974041,0.297583371,0.9905627090826916
0.045290516,-0.90784353,0.406309247,0.9892670791605678
0.045516968,-0.85419625,0.509379029,0.9891182286990452
0.045743424,-0.78952837,0.60588187,0.990447887429554
0.045969876,-0.714352906,0.695043087,0.9933849670971344
0.046196328,-0.628888488,0.77583158,0.9974153708642224
0.04642278,-0.5335567,0.846631229,1.0014671900329404
0.046649232,-0.429529309,0.905662358,1.0047197339881375
0.046875684,-0.318543941,0.951562345,1.0069411387697105
0.047102136,-0.202512652,0.983444512,1.0081744824029917
0.047328592,-0.0833844468,1.00077057,1.008494699746267
0.047555044,0.0368696898,1.00329471,1.0079596491399323
0.047781496,0.15627721,0.991064847,1.0066320973245175
0.048007948,0.272911429,0.964435577,1.004616630262145
0.0482344,0.384957224,0.924060643,1.0020801362513596
0.048460852,0.490783155,0.870865941,0.9992755924255696
0.048687304,0.589015424,0.805992246,0.9965626703220244
0.04891376,0.678606212,0.730692148,0.994417406113843
0.049140212,0.75884366,0.646145701,0.993347967242977
0.049366664,0.829168677,0.553243935,0.9935995465322144
0.049593116,0.888766289,0.452654898,0.994801973146222
0.049819568,0.93645519,0.345335126,0.996204672127372
0.05004602,0.971168756,0.23279351,0.9973615709287076
0.050272472,0.992283285,0.116782412,0.9982642494429288
0.050498928,0.999522269,-0.000982954167,0.9990457324258027
0.05072538,0.992801964,-0.118855484,0.9997823657991316
0.050951832,0.972183406,-0.235203341,1.000461186519323
0.051178284,0.937893331,-0.348380446,1.0010128354894343
0.051404736,0.890363812,-0.456733793,1.0013534753873383
0.051631188,0.830268741,-0.558647275,1.0014329601466507
0.051857644,0.758535504,-0.652609169,1.0012748382914043
0.052084096,0.676319361,-0.7372998,1.0010188731434884
0.052310548,0.584911942,-0.811673105,1.0009352092745525
0.052537,0.485568464,-0.874950588,1.0013152646728651
0.052763452,0.379376441,-0.926416934,1.0021748195877869
0.052989904,0.267453581,-0.96513778,1.003022352373052
0.053216356,0.151368752,-0.990103543,1.0032175249431905
0.053442812,0.0331283621,-1.00071669,1.0025313820199846
0.053669264,-0.0852265432,-0.996944308,1.0011615169194203
0.053895716,-0.201858103,-0.979131401,0.9994449941709814
0.054122168,-0.31514585,-0.94781822,0.997676284936191
0.05434862,-0.423632354,-0.903660476,0.996066627240128
0.054575072,-0.525981605,-0.847406387,0.9947542335267698
0.054801524,-0.620957017,-0.779897332,0.9938274654222564
0.05502798,-0.707420111,-0.702076256,0.99335428268623
0.055254432,-0.784349561,-0.6149894,0.9934161959532528
0.055480884,-0.850874305,-0.519765019,0.9941427578853036
0.055707336,-0.906290948,-0.417540044,0.9957029707702608
0.055933788,-0.949989378,-0.30935812,0.9981822647227614
0.05616024,-0.98122853,-0.196184188,1.0012976637071802
0.056386692,-0.999015212,-0.0792314857,1.0043090221336342
0.056613148,-1.00243187,0.0397225879,1.0064475379811697
0.0568396,-0.991087735,0.158512875,1.007381230008196
0.057066052,-0.965171278,0.274983019,1.0071712566145077
0.057292504,-0.925272107,0.387175322,1.0060332019580231
0.057518956,-0.872240126,0.493353814,1.0042008231928423
0.057745408,-0.807116747,0.59199363,1.001893901248439
0.05797186,-0.731096804,0.681781352,0.9993283487539624
0.058198316,-0.64549011,0.761621892,0.9967253884814716
0.058424768,-0.551682472,0.830649674,0.9943324308283372
0.05865122,-0.451083601,0.888235211,0.9924382051513418
0.058877672,-0.345054269,0.933975697,0.9913730511417604
0.059104124,-0.234814271,0.967642367,0.991469492278624
0.059330576,-0.12137647,0.98901403,0.9928809990065018
0.059557028,-0.00568172848,0.997647166,0.995332149866352
0.059783484,0.111032389,0.992873669,0.9981263140005688
0.060009936,0.227045566,0.974187553,1.0005910774603883
0.060236388,0.340403378,0.941564143,1.0024174951371354
0.06046284,0.449220359,0.895422935,1.0035811634641032
0.060689292,0.551775932,0.836471617,1.0041414451810633
0.060915744,0.646501184,0.765626729,1.0041480690726412
0.0611422,0.731974244,0.683995783,1.0036365250411543
0.061368652,0.806941569,0.592870474,1.0026500947211665
0.061595104,0.870359421,0.493707776,1.0012728898063217
0.061821556,0.921436489,0.388086975,0.9996567034252976
0.062048008,0.959666789,0.277637988,0.9980431982902588
0.06227446,0.984827459,0.163940772,0.9967617007243528
0.062500912,0.996902466,0.0484080277,0.996157863862685
0.062727368,0.995893002,-0.0677467883,0.996392498757537
0.06295382,0.98164022,-0.183328092,0.9972267108380088
0.063180272,0.953939199,-0.296852678,0.9981215078245332
0.063406724,0.912898004,-0.406540185,0.998657687727018
0.063633176,0.859088778,-0.51061672,0.9987629632290916
0.063859628,0.793399811,-0.607531428,0.998577696102555
0.06408608,0.71687001,-0.695965171,0.9982701304824592
0.064312536,0.630620599,-0.774770617,0.9979518488496796
0.064538988,0.535855353,-0.842931926,0.997675191208824
0.06476544,0.433872849,-0.899561167,0.9974559422737788
0.064991892,0.32607314,-0.943919539,0.9973077887354322
0.065218344,0.213941664,-0.975450933,0.9972755582856592
0.065444796,0.0990043208,-0.993814766,0.997469644656704
0.065671248,-0.0172522087,-0.998881221,0.9980613323714792
0.065897704,-0.133452669,-0.99065268,0.9992023472544058
0.066124156,-0.248305112,-0.969110727,1.000831029831801
0.066350608,-0.360380322,-0.934158683,1.0025264215091183
0.06657706,-0.467921346,-0.885855138,1.0036897115634509
0.066803512,-0.568996131,-0.824738026,1.0039494086233458
0.067029964,-0.661840737,-0.751845956,1.0033055027062572
0.067256416,-0.745029211,-0.668511212,1.0019757658129913
0.067482872,-0.817461193,-0.576184928,1.0002318733153484
0.06770932,-0.878294349,-0.476354182,0.9983142701942228
0.067935776,-0.926899552,-0.370517373,0.9964259031926216
0.068162232,-0.962833285,-0.26017046,0.9947366029605028
0.06838868,-0.985827446,-0.146796942,0.9934050954674344
0.068615136,-0.995784521,-0.0318462178,0.9926009938513646
0.068841584,-0.992761314,0.0833013281,0.9925141378382304
0.06906804,-0.976924062,0.197379634,0.993339342832554
0.069294488,-0.948439956,0.309241742,0.9951688051324764
0.069520944,-0.907360137,0.417739421,0.997808642074074
0.0697474,-0.853673458,0.521474898,1.0006944421377884
0.069973848,-0.787622988,0.61870414,1.0031447840791876
0.070200304,-0.709966779,0.707581341,1.0047241814149932
0.070426752,-0.621929407,0.78647089,1.0053326481087637
0.070653208,-0.525003612,0.8540712,1.0050664072824866
0.070879656,-0.420811594,0.909393251,1.00407848260917
0.071106112,-0.311041981,0.951727748,1.002532820257556
0.071332568,-0.197413385,0.980623543,1.0005945776630312
0.071559016,-0.0816398263,0.995883286,0.998448580572452
0.071785472,0.0346140303,0.997553051,0.996310220653018
0.07201192,0.149786085,0.985904276,0.9944431126947112
0.072238376,0.26247251,0.961386442,0.9931557093671196
0.072464824,0.371471226,0.924533248,0.9927525984033726
0.07269128,0.475744486,0.875825226,0.9934026424573552
0.072917736,0.574244261,0.815597892,0.9949563927262798
0.073144184,0.665683687,0.744168758,0.9969219115211766
0.07337064,0.748537421,0.662144721,0.9987439021854992
0.073597088,0.821307361,0.570573211,1.0000995703436348
0.073823544,0.882752955,0.470826864,1.0009307154253064
0.074049992,0.931928158,0.364430517,1.0012996933941605
0.074276448,0.968135417,0.252976388,1.0012832385352906
0.074502904,0.990891397,0.13810131,1.0009377324723276
0.074729352,0.999923527,0.0214792322,1.0003084172640213
0.074955808,0.995185018,-0.0952019915,0.9994566392372264
0.075182256,0.97686708,-0.210281506,0.9984876037533544
0.075408712,0.945392132,-0.322185665,0.9975698859789978
0.07563516,0.901371956,-0.429494441,0.9969368779131684
0.075861616,0.845510006,-0.530978799,0.9968256552336026
0.076088072,0.778477371,-0.625546873,0.99733590747915
0.07631452,0.700882018,-0.712066591,0.9982744331741138
0.076540976,0.613446176,-0.789223552,0.9991900258805196
0.076767424,0.517255604,-0.855636418,0.9996670396772755
0.07699388,0.413777947,-0.910136759,0.9995611095065589
0.077220328,0.304672539,-0.95191592,0.998969274770153
0.077446784,0.191619962,-0.980491519,0.9980818286678088
0.07767324,0.0762553886,-0.99562335,0.9970807393557596
0.077899688,-0.0398382805,-0.997254789,0.9961042027766313
0.078126144,-0.1551193,-0.985489547,0.9952516444787552
0.078352592,-0.268090338,-0.960590124,0.9946058156552896
0.078579048,-0.377314985,-0.922980249,0.994259137949652
0.078805496,-0.481451303,-0.873234391,0.9943336587855388
0.079031952,-0.579285085,-0.81203711,0.9949754777206092
0.079258408,-0.669728577,-0.740103424,0.9962894450669686
0.079484856,-0.751726151,-0.658107758,0.9981980272370612
0.079711312,-0.824094057,-0.56674546,1.000331431213331
0.07993776,-0.88547802,-0.466964185,1.0021268739758349
0.080164216,-0.934571266,-0.360153973,1.0031343355005276
0.080390664,-0.970394135,-0.248070046,1.0032035249648403
0.08061712,-0.992393792,-0.132608041,1.002430330937997
0.080843576,-1.00038934,-0.0156409312,1.0010234703144385
