Frequency (GHz),Re( S21 ),Im( S21 ),S2
0.0,0.056802839,5.28682067e-05,0.0032265653135072
0.00022651625,0.0520543382,-0.0219625309,0.0031920068889734
0.0004530325,0.0385874361,-0.0400321111,0.0030915601438943
0.00067954875,0.0188011508,-0.0508896597,0.0029432407357861
0.000906065,-0.00376268546,-0.0525359437,0.0027741831823204
0.00113258125,-0.0250345096,-0.0446058065,0.0026164046444279
0.0013590975,-0.0411353484,-0.0284527279,0.0025016746129408
0.00158561375,-0.0490746312,-0.00693038804,0.0024563497058009
0.00181213,-0.0473027565,0.0161014572,0.0024968076964617
0.00203864625,-0.0360100232,0.0364619642,0.0026261966041866
0.0022651625,-0.0171153154,0.0504032858,0.0028334252406779
0.00249167875,0.00606209552,0.0552927405,0.0030940361540939
0.002718195,0.029381806,0.0500959158,0.0033728913036623
0.00294471125,0.0488936268,0.0355940647,0.0036575241835254
0.0031712275,0.060471084,0.014175849,0.0038577066950058
0.00339774375,0.0622145869,-0.0102798659,0.0039763304660596
0.00362426,0.0535075068,-0.0334741846,0.0039835743185869
0.00385077625,0.0358242728,-0.0511618815,0.0039009166402688
0.0040772925,0.0120615102,-0.0599359646,0.0037377998808371
0.0043038085,-0.0135783451,-0.0578897111,0.0035355901068961
0.004530325,-0.0363970548,-0.0450029932,0.0033500149950734
0.004756841,-0.0520138256,-0.0232253689,0.0032448558140883
0.0049833575,-0.0571676232,0.00378745096,0.0032824819271115
0.0052098735,-0.0503603444,0.031256903,0.003513158273238
0.00543639,-0.032211069,0.0540993996,0.0039642980032032
0.005662906,-0.00544185145,0.0678396598,0.0046318331889836
0.0058894225,0.0258060135,0.0695920512,0.0055090039229856
0.0061159385,0.0555853955,0.0580649786,0.0064612779327098
0.006342455,0.0786803067,0.0348051824,0.0074019913843033
0.006568971,0.0906123444,0.00343938638,0.0082224263363351
0.0067954875,0.0885535032,-0.0306138247,0.0087789291917547
0.0070220035,0.0720744878,-0.0613246188,0.0089554406625976
0.00724852,0.0435615294,-0.0828140229,0.0087557692325487
0.007475036,0.00748256361,-0.0901178271,0.0081772115194031
0.0077015525,-0.0296853222,-0.0804795474,0.0073581759038266
0.0079280685,-0.0605124719,-0.0539185181,0.0065689658495483
0.008154585,-0.0777650028,-0.0135402409,0.006230733784114
0.008381101,-0.0756484047,0.0346246026,0.0069215442388629
0.008607617,-0.0509549491,0.082283318,0.0093669512588727
0.008834134,-0.00390621973,0.11999356,0.0144137129940526
0.00906065,0.0620493665,0.138823599,0.0231221155223641
0.009287166,0.138330057,0.130790427,0.0362413404644655
0.009513682,0.215179801,0.0917328373,0.0547172601975078
0.009740199,0.280966252,0.0215644073,0.0794070584251278
0.009966715,0.323977083,-0.0753255635,0.1106350908257814
0.010193231,0.335386217,-0.191925079,0.1493191505027273
0.010419747,0.308107764,-0.316927195,0.1953732411676477
0.010646264,0.239460349,-0.437500566,0.2487480039935221
0.01087278,0.13105607,-0.540363371,0.3091682662023285
0.011099296,-0.0113648418,-0.613157153,0.3760908539042044
0.011325812,-0.178392842,-0.645635426,0.4486691093830384
0.011552329,-0.357714593,-0.630721629,0.5257695033335693
0.011778845,-0.535210252,-0.565302312,0.606016717798449
0.012005361,-0.696250796,-0.450652122,0.6878525059937364
0.012231877,-0.82707423,-0.292506516,0.7696118438325512
0.012458394,-0.915940762,-0.100940295,0.8491364226478275
0.01268491,-0.953036726,0.111341096,0.9206758407632804
0.012911426,-0.934982061,0.331473202,0.9840659380359408
0.013137942,-0.86297071,0.543173194,1.0397555649980657
0.013364459,-0.741467893,0.731894314,1.08544392321539
0.013590975,-0.579025328,0.885735989,1.1197985726753157
0.013817491,-0.38708216,0.996211946,1.1422708399433723
0.014044007,-0.178558961,1.0588181,1.1529790714410098
0.014270523,0.0335693508,1.07309413,1.1526579131535906
0.01449704,0.237552896,1.04217494,1.1425599839619904
0.014723556,0.423836529,0.97195226,1.1243285990338756
0.014950072,0.58564055,0.869909763,1.0997178495670188
0.015176588,0.720584214,0.744615674,1.0736941114324718
0.015403105,0.825292826,0.605288923,1.047482928953566
0.015629621,0.90175426,0.457274944,1.0222611198383509
0.015856137,0.934891701,0.315476716,0.973548050936818
0.016082653,0.968236208,0.169961438,0.9663682448892472
0.01630917,0.973977566,0.0242358986,0.9492196778522338
0.016535686,0.961131513,-0.115087353,0.9370188841022158
0.016762202,0.932316363,-0.248391643,0.9309122090297872
0.016988718,0.888629258,-0.375730544,0.9308353998681664
0.017215234,0.830330074,-0.49680239,0.9362606464985576
0.01744175,0.757191122,-0.610701382,0.9462945732123288
0.017668268,0.668902278,-0.715773582,0.9597620782027
0.017894784,0.56548363,-0.809632421,0.9752763929322982
0.0181213,0.447661072,-0.889330566,0.9913092910060696
0.018347816,0.317195594,-0.951671362,1.006291426103948
0.018574332,0.177082852,-0.993791103,1.0189790928744105
0.018800848,0.0312450845,-1.01377237,1.0287106734808291
0.019027364,-0.115711011,-1.01105523,1.035621716176995
0.01925388,-0.26037991,-0.987855077,1.043655350686284
0.019480398,-0.403069258,-0.942371964,1.050529745277888
0.019706914,-0.535799265,-0.872920573,1.0490711791411886
0.01993343,-0.653737664,-0.784320593,1.0425317259360485
0.020159946,-0.75471276,-0.680605829,1.032815644575595
0.020386462,-0.837410867,-0.565545976,1.0210992111394843
0.020612978,-0.901357651,-0.442728907,1.0084545001096523
0.020839494,-0.946814597,-0.315366894,0.9959141589234796
0.02106601,-0.974562407,-0.18613866,0.9844194858842292
0.021292528,-0.985637784,-0.0571443364,0.9747473164310272
0.021519044,-0.981097639,0.0700208992,0.9674555035761508
0.02174556,-0.961880863,0.19410491,0.9628915106917328
0.021972076,-0.928789794,0.31404084,0.961272130626468
0.022198592,-0.882570982,0.428847373,0.9628416075974452
0.022425108,-0.82413435,0.537826598,0.9684548763661762
0.022651624,-0.753636301,0.641459465,0.9794379194230488
0.02287814,-0.668518186,0.738415956,0.9921746890881245
0.023104658,-0.568984807,0.824214697,1.0030735773476291
0.023331174,-0.457345635,0.896188557,1.0123189595512954
0.02355769,-0.335760981,0.952457726,1.0199111561791734
0.023784206,-0.206657961,0.991353095,1.0254884718107566
0.024010722,-0.0728827342,1.01161861,1.0286841050427995
0.024237238,0.0624107942,1.01261234,1.0292788583529504
0.024463754,0.195963919,0.994409025,1.0272511665512891
0.02469027,0.324636221,0.957805872,1.0227807644228413
0.024916788,0.445610583,0.904259503,1.016254040447407
0.025143304,0.556567013,0.835761368,1.0082639042009736
0.02536982,0.655827165,0.754679739,0.9996507788090454
0.025596336,0.742508233,0.663562536,0.9916337152555336
0.025822852,0.816787481,0.564686,0.9860120677143254
0.026049368,0.879371881,0.458797485,0.9837900373358032
0.026275884,0.929101288,0.345911562,0.9828840120885388
0.0265024,0.964470804,0.227966905,0.9821728415436852
0.026728918,0.985346675,0.107057802,0.9823694429026268
0.026955434,0.991823673,-0.0153415138,0.9839495603688864
0.02718195,0.983813643,-0.137919694,0.9869111261459852
0.027408466,0.9611215,-0.259249926,0.9909650618932554
0.027634982,0.923590064,-0.377683222,0.9956632224998254
0.027861498,0.871251345,-0.491328061,1.0004821696903288
0.028088014,0.804467857,-0.598100722,1.0048930066030937
0.02831453,0.724050403,-0.69583863,1.0084403850847394
0.028541046,0.631324947,-0.782471299,1.0108325224633
0.028767564,0.5281232,-0.856248736,1.0120760122798376
0.02899408,0.416611761,-0.916023612,1.0126646171450475
0.029220596,0.298722863,-0.961385071,1.013496603620592
0.029447112,0.175610393,-0.991738558,1.014384377553534
0.029673628,0.049132783,-1.00553226,1.0135091562660328
0.029900144,-0.0775209814,-1.00217807,1.010370386546144
0.03012666,-0.201515943,-0.982450843,1.00581833419459
0.030353176,-0.320753664,-0.947547376,1.0007289427339103
0.030579694,-0.433612198,-0.898736,0.9957459359503912
0.03080621,-0.538792312,-0.837281883,0.9913381070703308
0.031032726,-0.63522768,-0.764410317,0.9878373381742228
0.031259242,-0.722005963,-0.681292415,0.9854519653440896
0.031485758,-0.79830277,-0.58905977,0.984278725222126
0.031712274,-0.863339782,-0.488850802,0.9843306857998506
0.03193879,-0.916396081,-0.381865829,0.985603288630016
0.032165306,-0.956878841,-0.269387245,0.9881866041221932
0.032391824,-0.984418869,-0.152654499,0.99238390570818
0.03261834,-0.998667657,-0.0325398631,0.9983959318284366
0.032844856,-0.998513997,0.0901692286,1.005160691991235
0.033071372,-0.982430935,0.213446572,1.0107299811435253
0.033297888,-0.950002968,0.334343314,1.0142910908253115
0.033524404,-0.901836753,0.450169206,1.0159618430922537
0.03375092,-0.838983774,0.558642507,1.015975223662528
0.033977436,-0.76279211,0.657775044,1.014519811587454
0.034203952,-0.674880147,0.745871544,1.0117875729636856
0.034430468,-0.57708776,0.821577847,1.008020441422973
0.034656984,-0.471392453,0.883918762,1.0035232225609698
0.0348835,-0.359814644,0.932305694,0.9986604851016684
0.03511002,-0.24432835,0.966524601,0.9938661469519318
0.035336536,-0.126770779,0.98670876,0.9896650074690044
0.035563052,-0.00872554444,0.993298829,0.9867186988185456
0.035789568,0.108668081,0.986908913,0.9857979543870644
0.036016084,0.224803999,0.967844486,0.987259787046996
0.0362426,0.338911444,0.935622513,0.9902504537066004
0.036469116,0.44924593,0.889747679,0.993472837907452
0.036695632,0.553743482,0.830569088,0.996476853798636
0.036922148,0.650664032,0.758917868,0.9993200129081624
0.037148664,0.738491654,0.675753951,1.002013325319766
0.03737518,0.815786242,0.582169175,1.004428140956663
0.037601696,0.881176412,0.479464412,1.0063579914396994
0.037828212,0.93342793,0.369197547,1.0075945292149022
0.038054728,0.971534789,0.253176898,1.007978387918177
0.038281244,0.994811237,0.133413985,1.0074486886550502
0.03850776,1.00296831,0.0120328143,1.0060902194842345
0.03873428,0.996160388,-0.10886696,1.004187533599952
0.038960796,0.974964917,-0.227407619,1.002270814560066
0.039187312,0.94016999,-0.342153788,1.000988824739349
0.039413828,0.892299116,-0.452029377,1.0005282700853897
0.039640344,0.831528664,-0.555629373,1.000163919193998
0.03986686,0.758510649,-0.651024342,0.9991710985229342
0.040093376,0.674636543,-0.736536086,0.99761987113119
0.040319892,0.581506431,-0.811057508,0.9959640105775278
0.040546408,0.480627686,-0.873834133,0.9945890645455764
0.040772924,0.373407423,-0.924271345,0.99371062273961
0.04099944,0.261218846,-0.961855173,0.9934006593324316
0.041225956,0.14546068,-0.986140668,0.9936322265095486
0.041452472,0.0275996476,-0.996771455,0.9943150740504612
0.041678988,-0.0908103734,-0.993527234,0.995342888616738
0.041905504,-0.208145574,-0.976386189,0.9966545700457332
0.04213202,-0.322783411,-0.945574343,0.9982999685566764
0.04235854,-0.433235735,-0.901547134,1.000480436904604
0.042585056,-0.538238466,-0.844787002,1.0033657250301813
0.042811572,-0.636487722,-0.775536478,1.0065734489653937
0.043038088,-0.726132333,-0.694112003,1.0090596377366947
0.043264604,-0.805034697,-0.601622939,1.010031024104879
0.04349112,-0.871520996,-0.499910474,1.0094593284837368
0.043717636,-0.924550116,-0.39102599,1.0076942418510937
0.043944152,-0.963536322,-0.276982993,1.0051218222245255
0.044170668,-0.98821646,-0.159709975,1.002079047929432
0.044397184,-0.998586059,-0.0410384275,0.998858269760824
0.0446237,-0.994859338,0.0773112401,0.9957221302515982
0.044850216,-0.977434695,0.193743095,0.992914969849922
0.045076732,-0.946865141,0.306796551,0.9906777189464454
0.045303248,-0.903833032,0.415165126,0.9892762315809088
0.045529764,-0.849107981,0.517730772,0.9890295156736122
0.04575628,-0.783438146,0.613603234,0.990284257383176
0.045982796,-0.707336187,0.702024579,0.9931629909598264
0.046209316,-0.621022284,0.781955838,0.997123609806859
0.046435832,-0.524951458,0.851772964,1.001091215457671
0.046662348,-0.420333236,0.909725785,1.004281033180098
0.046888864,-0.308913767,0.954493642,1.0064858280605544
0.04711538,-0.192595273,0.985219657,1.0077507117211422
0.047341896,-0.0733143017,1.00138283,1.0081425590525677
0.047568412,0.0469685607,1.00274622,1.007706027418518
0.047794928,0.166285679,0.989364386,1.006492815325648
0.048021444,0.282713115,0.961596668,1.0045948573017054
0.04824796,0.39443478,0.920103371,1.002169008999212
0.048474476,0.49981758,0.865819573,0.9994611462669588
0.048700992,0.597488403,0.799898565,0.9968301060085496
0.048927508,0.686403811,0.723603845,0.9947527162541075
0.049154024,0.765856922,0.638119042,0.993732736738312
0.04938054,0.835279524,0.544335246,0.9939927432515472
0.049607056,0.893830776,0.442941219,0.9951303796139682
0.049833576,0.940326273,0.334947735,0.9964034848757009
0.050060092,0.973734915,0.221909866,0.9974036733181952
0.050286608,0.993480027,0.105596535,0.9981531922519272
0.050513124,0.999324679,-0.0122769466,0.9988005374762724
0.05073964,0.991216362,-0.130069241,0.999427883750831
0.050966156,0.969243705,-0.246158704,1.0000274672370866
0.051192672,0.933656931,-0.358912438,1.000533402955443
0.051419188,0.884907901,-0.466694415,1.000865670244418
0.051645704,0.823684275,-0.567905903,1.000972899544521
0.05187222,0.750923753,-0.661055565,1.0008809428370742
0.052098736,0.66778475,-0.744843125,1.0007277531923282
0.052325252,0.575554132,-0.818240702,1.0007804052717262
0.052551768,0.475472331,-0.880476177,1.001312235811109
0.052778284,0.368616819,-0.930817902,1.0023003259333605
0.0530048,0.256126046,-0.968304753,1.003214646121985
0.053231316,0.139615551,-0.991928041,1.0034137406031314
0.053457836,0.0211244244,-1.00112295,1.002693402322934
0.053684352,-0.0972947031,-0.995890915,1.0012649738308543
0.053910868,-0.213800773,-0.976605535,0.9994691415280338
0.054137384,-0.326770693,-0.94383359,0.9976009314159884
0.0543639,-0.434747875,-0.898259342,0.9958755603072886
0.054590416,-0.536402166,-0.840661287,0.9944386831499878
0.054816932,-0.630509794,-0.771910369,0.9933882180996384
0.055043448,-0.715952933,-0.692976594,0.9928051621031432
0.055269964,-0.79173851,-0.604926705,0.9927861866391772
0.05549648,-0.857026696,-0.508898914,0.993472862327056
0.055722996,-0.911146104,-0.406026602,0.9950448243660452
0.055949512,-0.95350194,-0.297336936,0.9975752030936316
0.056176028,-0.983348548,-0.183786392,1.000751804738086
0.056402544,-0.999685407,-0.0666070953,1.003807418113059
0.05662906,-1.00161839,0.0523950383,1.0059846392246503
0.056855576,-0.988793314,0.171050772,1.0069705844128989
0.057082092,-0.961425424,0.287214696,1.006831127511952
0.057308612,-0.920119524,0.398941457,1.0057742245592691
0.057535128,-0.86573565,0.504501581,1.004020060912422
0.057761644,-0.799328148,0.602373421,1.001779226512353
0.05798816,-0.722106278,0.691244841,0.9992569069361288
0.058214676,-0.635399997,0.770026624,0.9966741578564374
0.058441192,-0.540616155,0.837863743,0.9942814788809542
0.058667708,-0.439182669,0.89414227,0.9923718157507164
0.058894224,-0.332474619,0.938481688,0.9912872509905244
0.05912074,-0.221714541,0.97067374,0.991364847216428
0.059347256,-0.107915096,0.990506709,0.9927492085187
0.059573772,0.00796918385,0.997536004,0.9951415871675232
0.059800288,0.12466681,0.991108775,0.9978384173975768
0.060026804,0.240432411,0.970766068,1.0001945030394537
0.06025332,0.353317946,0.936536849,1.0019348405005075
0.060479836,0.461463034,0.888876438,1.003049453780053
0.060706352,0.563172519,0.828514934,1.0036002820178296
0.060932872,0.656901121,0.756381512,1.0036320744664629
0.061159388,0.741246164,0.673592985,1.0031733850859252
0.061385904,0.814971447,0.581448197,1.0022604652198248
0.06161242,0.877049088,0.48141107,1.0009717210801767
0.061838936,0.926702857,0.375065714,0.9994524749902922
0.062065452,0.963442266,0.264046043,0.9979413127391727
0.062291968,0.987058699,0.149930343,0.9967639830236702
0.062518484,0.997541547,0.0341286398,0.9962539020457511
0.062745,0.994887352,-0.0821426287,0.996548254619318
0.062971516,0.978931069,-0.197659045,0.9973751359237948
0.063198032,0.949490547,-0.310894996,0.9981879973801993
0.063424548,0.906728685,-0.420045882,0.9985954511869872
0.063651064,0.851272702,-0.523344755,0.9985549457563908
0.06387758,0.784053504,-0.619263291,0.9982269207148288
0.064104096,0.706139386,-0.706508934,0.9977877062822734
0.064330612,0.618675888,-0.783961773,0.997355915917892
0.064557132,0.522883952,-0.850636065,0.9969893423378224
0.064783648,0.420075178,-0.905675173,0.9967106741603116
0.065010164,0.311654776,-0.948372304,0.9965387263978788
0.06523668,0.199106917,-0.978203177,0.9965250198901384
0.065463196,0.0839471444,-0.99485445,0.9967824997377168
0.065689712,-0.0323541202,-0.998215437,0.9974808477590172
0.065916228,-0.148440346,-0.988292813,0.9987572205480528
0.066142744,-0.263022542,-0.965057433,1.0005167065886913
0.06636926,-0.374648988,-0.928406179,1.002299897414804
0.066595776,-0.481530935,-0.87842387,1.0035005367477512
0.066822292,-0.581726968,-0.815693736,1.0037625362481106
0.067048808,-0.673485696,-0.741294444,1.0031004354218735
0.067275328,-0.755401134,-0.656587422,1.001737915977092
0.06750184,-0.826390684,-0.5630458,0.9999421354996278
0.06772836,-0.885632157,-0.462179482,0.9979541910942608
0.067954872,-0.932518721,-0.355508208,0.9959772509708472
0.068181392,-0.966635764,-0.244546667,0.9941877725846724
0.068407904,-0.987749398,-0.13079156,0.992755305416596
0.068634424,-0.995798826,-0.0156973861,0.9918617097933508
0.068860936,-0.990878105,0.099362269,0.9917122794692192
0.069087456,-0.973180652,0.213137597,0.9925082166820796
0.069313968,-0.942888379,0.324500769,0.994339244334839
0.069540488,-0.900052607,0.432306796,0.996983861235282
0.069767,-0.844678104,0.535144866,0.9998611269831928
0.06999352,-0.777046144,0.631263077,1.0022937822887767
0.07022004,-0.697959363,0.718835354,1.0038715385596713
0.070446552,-0.60866797,0.796261311,1.0045087730993596
0.070673072,-0.510675073,0.862270594,1.004299607460668
0.070899584,-0.405606329,0.915900409,1.0033900533312234
0.071126104,-0.295153201,0.956460059,1.0019312565228298
0.071352616,-0.181039408,0.983515739,1.0000784761097066
0.071579136,-0.064984858,0.996887445,0.9980076097679084
0.071805648,0.0513398796,0.996642709,0.9959324726402012
0.072032168,0.166370258,0.983076453,0.9941183751900478
0.07225868,0.27870509,0.956659377,0.9928736907939364
0.0724852,0.387148559,0.91794318,0.9925036884442888
0.072711712,0.490664303,0.867416382,0.993162638000446
0.072938232,0.588189781,0.805425823,0.9946779748280552
0.073164744,0.678416729,0.732324243,0.9965480550725826
0.073391264,0.759818614,0.648776412,0.9982351589484748
0.073617776,0.830931067,0.555884838,0.9994543912240448
0.073844296,0.890560031,0.455053449,1.0001708102615166
0.074070816,0.937806129,0.347820014,1.000459097728925
0.074297328,0.972011864,0.235779479,1.0003990264742657
0.074523848,0.992728472,0.120566472,1.0000460932899815
0.07475036,0.999714613,0.0038475194,0.9994441108512732
0.07497688,0.992950439,-0.112697981,0.9986514092317692
0.075203392,0.972650647,-0.227422327,0.9977701959276136
0.075429912,0.939257979,-0.338767171,0.9969687472625076
0.075656424,0.893395245,-0.445328295,0.996472354116217
0.075882944,0.835768461,-0.54589045,0.996505303803511
0.076109456,0.767045498,-0.63936013,0.9971401718356848
0.076335976,0.6878407,-0.724583983,0.9981467769966345
0.076562488,0.598914564,-0.800225139,0.9990589280588796
0.076789008,0.501410186,-0.864907444,0.9994770613111676
0.07701552,0.396843016,-0.917494535,0.9992806011028424
0.07724204,0.286901414,-0.957222939,0.9985881763029972
0.07746856,0.173280612,-0.98365289,0.9975991785004468
0.077695072,0.0576226451,-0.996584833,0.9965016985939584
0.077921592,-0.0584871992,-0.996001303,0.9954393480479584
0.078148104,-0.173512459,-0.982045054,0.9945190615140896
0.078374624,-0.28596732,-0.95501554,0.993831989749474
0.078601136,-0.394434482,-0.915369689,0.993480228130565
0.078827656,-0.497596979,-0.863706708,0.9935920309541236
0.079054168,-0.594269037,-0.800724626,0.9943156150197472
0.079280688,-0.683384538,-0.727138221,0.9957444192165182
0.0795072,-0.763892412,-0.643617153,0.9977746567470032
0.07973372,-0.834594786,-0.550865769,1.0000015522743473
0.079960232,-0.894129694,-0.449868828,1.001849872098627
0.080186752,-0.941209614,-0.342061967,1.0028819267539382
0.080413264,-0.974893093,-0.229230165,1.0029630113250338
0.080639784,-0.994668424,-0.113283113,1.0021983373936143
0.080866296,-1.0003885,0.00390150119,1.0007923726437855
