Frequency (GHz),Re( S21 ),Im( S21 ),S2
0,0.056730218,4.55E-05,3.22E-03
0.000226422,0.051987607,-0.021935923,3.18E-03
0.000452845,0.038538411,-0.039976075,3.08E-03
0.000679267,0.018779352,-0.050813429,2.93E-03
0.000905689,-0.003751827,-0.052451849,2.77E-03
0.001132112,-0.024990553,-0.044526845,2.61E-03
0.001358534,-0.041062549,-0.02839125,2.49E-03
0.001584956,-0.048981931,-0.006896068,2.45E-03
0.001811379,-0.047201477,0.016103054,2.49E-03
0.002037801,-0.035913255,0.036429871,2.62E-03
0.002264223,-0.017035289,0.050341461,2.82E-03
0.002490646,0.006115885,0.055209901,3.09E-03
0.002717068,0.029404718,0.050004922,3.37E-03
0.00294349,0.048853379,0.035501577,3.65E-03
0.003169912,0.060407009,0.014107176,3.85E-03
0.003396335,0.062134165,-0.010310819,3.97E-03
0.003622757,0.053431328,-0.033468984,3.98E-03
0.003849179,0.035754237,-0.051118877,3.89E-03
0.004075602,0.012013613,-0.05986023,3.73E-03
0.004302024,-0.013591958,-0.057791494,3.52E-03
0.004528446,-0.036369003,-0.04489667,3.34E-03
0.004754869,-0.051942859,-0.023127278,3.23E-03
0.004981291,-0.057058912,0.003861243,3.27E-03
0.005207713,-0.050224695,0.031293232,3.50E-03
0.005434136,-0.032064471,0.054090157,3.95E-03
0.005660558,-0.005302106,0.067783706,4.62E-03
0.00588698,0.02590565,0.069478534,5.50E-03
0.006113403,0.05564199,0.05792157,6.45E-03
0.006339825,0.078687586,0.034658354,7.39E-03
0.006566247,0.090566106,0.003311707,8.21E-03
0.00679267,0.088465437,-0.030701824,8.77E-03
0.007019092,0.071967237,-0.06136566,8.95E-03
0.007245514,0.043445978,-0.082788326,8.74E-03
0.007471936,0.0073858,-0.090024456,8.16E-03
0.007698359,-0.029734843,-0.080325224,7.34E-03
0.007924781,-0.060489267,-0.05372018,6.54E-03
0.008151203,-0.077649407,-0.01332438,6.21E-03
0.008377626,-0.075430818,0.034824126,6.90E-03
0.008604048,-0.050637823,0.082429498,9.36E-03
0.00883047,-0.003505237,0.120050639,1.44E-02
0.009056892,0.06249132,0.138743982,2.32E-02
0.009283315,0.138790637,0.130554229,3.63E-02
0.009509737,0.215613723,0.09137851,5.48E-02
0.009736159,0.28132236,0.021085512,7.96E-02
0.009962582,0.324234962,-0.075908102,1.11E-01
0.010189004,0.335512638,-0.192581266,1.50E-01
0.010415426,0.308085531,-0.317616791,1.96E-01
0.010641849,0.239286855,-0.438184053,2.49E-01
0.010868271,0.130741045,-0.541003346,3.10E-01
0.011094693,-0.011801998,-0.613721371,3.77E-01
0.011321115,-0.178925097,-0.646098912,4.49E-01
0.011547538,-0.358309001,-0.631069303,5.27E-01
0.01177396,-0.535831392,-0.565529525,6.07E-01
0.012000382,-0.696864665,-0.450764686,6.89E-01
0.012226805,-0.82765305,-0.292518228,7.71E-01
0.012453227,-0.916482568,-0.100865379,8.50E-01
0.012679649,-0.953555703,0.111418128,9.22E-01
0.012906072,-0.935430646,0.331534505,9.85E-01
0.013132494,-0.863384008,0.54321152,1.04E+00
0.013358916,-0.741883993,0.731895208,1.09E+00
0.013585339,-0.57948482,0.885699928,1.12E+00
0.013811761,-0.387623191,0.99615562,1.14E+00
0.014038183,-0.179212466,1.05877554,1.15E+00
0.014264605,0.032785814,1.07311189,1.15E+00
0.014491028,0.236638606,1.04230738,1.14E+00
0.01471745,0.422808945,0.972255409,1.12E+00
0.014943872,0.584531426,0.87044394,1.10E+00
0.015170295,0.719432354,0.745354116,1.07E+00
0.015396717,0.824180126,0.606317639,1.05E+00
0.015623139,0.900717497,0.458610505,1.02E+00
0.015849562,0.934133053,0.316676646,9.73E-01
0.016075984,0.967636585,0.171849161,9.66E-01
0.016302406,0.973751009,0.026243201,9.49E-01
0.016528829,0.961260557,-0.112987682,9.37E-01
0.016755251,0.932819188,-0.246262416,9.31E-01
0.016981674,0.889511168,-0.373643965,9.31E-01
0.017208096,0.831578672,-0.49483031,9.36E-01
0.017434518,0.758780479,-0.608910561,9.47E-01
0.01766094,0.670793653,-0.714220822,9.60E-01
0.017887362,0.567630291,-0.808364451,9.76E-01
0.018113784,0.450011075,-0.888384044,9.92E-01
0.018340208,0.319690019,-0.95107317,1.01E+00
0.01856663,0.179657549,-0.993551075,1.02E+00
0.018793052,0.033839773,-1.01388323,1.03E+00
0.019019474,-0.113158211,-1.01147604,1.04E+00
0.019245896,-0.25779134,-0.988495231,1.04E+00
0.019472318,-0.400434732,-0.943454504,1.05E+00
0.01969874,-0.533300281,-0.874408245,1.05E+00
0.019925164,-0.651411891,-0.786165774,1.04E+00
0.020151586,-0.75259763,-0.682791829,1.03E+00
0.020378008,-0.835553467,-0.568055987,1.02E+00
0.02060443,-0.899809062,-0.44553861,1.01E+00
0.020830852,-0.945627034,-0.318441063,9.96E-01
0.021057274,-0.973785698,-0.189430311,9.84E-01
0.021283698,-0.985315323,-0.060593724,9.75E-01
0.02151012,-0.981262326,0.066485159,9.67E-01
0.021736542,-0.962549448,0.190563664,9.63E-01
0.021962964,-0.92995739,0.310578644,9.61E-01
0.022189386,-0.88420701,0.425542891,9.63E-01
0.022415808,-0.826180398,0.534721196,9.69E-01
0.02264223,-0.756106436,0.638531387,9.79E-01
0.022868654,-0.671471417,0.735794842,9.92E-01
0.023095076,-0.572324514,0.822016895,1.00E+00
0.023321498,-0.460983127,0.894450665,1.01E+00
0.02354792,-0.339628071,0.951204002,1.02E+00
0.023774342,-0.210690498,0.990602911,1.03E+00
0.024000764,-0.077017494,1.01138699,1.03E+00
0.024227188,0.058236938,1.01290846,1.03E+00
0.02445361,0.191815004,0.995236218,1.03E+00
0.024680032,0.320577413,0.959162116,1.02E+00
0.024906454,0.441708177,0.906134248,1.02E+00
0.025132876,0.552887678,0.838133633,1.01E+00
0.025359298,0.652432561,0.75751549,9.99E-01
0.02558572,0.739444673,0.6668154,9.91E-01
0.025812144,0.814066231,0.568323612,9.86E-01
0.026038566,0.877034426,0.462855756,9.83E-01
0.026264988,0.927287579,0.350364059,9.83E-01
0.02649141,0.963261187,0.2326985,9.82E-01
0.026717832,0.984770477,0.111967094,9.82E-01
0.026944254,0.991898119,-0.010344989,9.84E-01
0.027170678,0.984546602,-0.1329263,9.87E-01
0.0273971,0.962508917,-0.254350692,9.91E-01
0.027623522,0.92561394,-0.372967631,9.96E-01
0.027849944,0.873880327,-0.486881763,1.00E+00
0.028076366,0.807657719,-0.594002604,1.01E+00
0.028302788,0.727744818,-0.692157745,1.01E+00
0.02852921,0.635457218,-0.77926445,1.01E+00
0.028755634,0.532620251,-0.853553653,1.01E+00
0.028982056,0.421405613,-0.913851917,1.01E+00
0.029208478,0.303786069,-0.959733605,1.01E+00
0.0294349,0.180945188,-0.990667462,1.01E+00
0.029661322,0.054658752,-1.00513685,1.01E+00
0.029887744,-0.071922697,-1.00248969,1.01E+00
0.030114168,-0.195942417,-0.983467638,1.01E+00
0.03034059,-0.3152906,-0.9492625,1.00E+00
0.030567012,-0.428344846,-0.901138783,9.96E-01
0.030793434,-0.533808947,-0.840352416,9.91E-01
0.031019856,-0.630616426,-0.768116653,9.88E-01
0.031246278,-0.717853248,-0.685588121,9.85E-01
0.0314727,-0.794689655,-0.593883455,9.84E-01
0.031699124,-0.860336185,-0.494125843,9.84E-01
0.031925546,-0.914056003,-0.387502998,9.86E-01
0.032151968,-0.955231309,-0.275292009,9.88E-01
0.03237839,-0.983468294,-0.15874657,9.92E-01
0.032604812,-0.998425305,-0.038775206,9.98E-01
0.032831234,-0.999043345,0.083849512,1.01E+00
0.033057658,-0.983778119,0.207173258,1.01E+00
0.03328408,-0.952148438,0.328251183,1.01E+00
0.033510502,-0.90473485,0.444362432,1.02E+00
0.033736924,-0.842585623,0.553207219,1.02E+00
0.033963348,-0.767044902,0.652788401,1.01E+00
0.034189768,-0.679727852,0.74140507,1.01E+00
0.034416192,-0.582467675,0.817698061,1.01E+00
0.034642612,-0.477234691,0.880686104,1.00E+00
0.034869036,-0.366042167,0.929773927,9.98E-01
0.035095456,-0.250856131,0.964737058,9.94E-01
0.03532188,-0.133508369,0.985694349,9.89E-01
0.035548304,-0.015585949,0.993069232,9.86E-01
0.035774724,0.10175281,0.987466991,9.85E-01
0.036001148,0.217887491,0.969221771,9.87E-01
0.036227568,0.332095116,0.937879443,9.90E-01
0.036453992,0.44268617,0.892897666,9.93E-01
0.036680416,0.547584236,0.834564269,9.96E-01
0.036906836,0.645020783,0.763688385,9.99E-01
0.03713326,0.733460903,0.681220889,1.00E+00
0.03735968,0.811450779,0.588244259,1.00E+00
0.037586104,0.877606928,0.486052364,1.01E+00
0.037812524,0.930680215,0.376194865,1.01E+00
0.038038948,0.969649255,0.260475039,1.01E+00
0.038265372,0.993811309,0.140902087,1.01E+00
0.038491792,1.00285983,0.019601164,1.01E+00
0.038718216,0.996931016,-0.101320885,1.00E+00
0.038944636,0.97658968,-0.2199689,1.00E+00
0.03917106,0.942631006,-0.3348822,1.00E+00
0.03939748,0.895615876,-0.444987714,1.00E+00
0.039623904,0.835727453,-0.548936903,1.00E+00
0.039850328,0.763559639,-0.644828796,9.99E-01
0.040076748,0.680460513,-0.730961978,9.97E-01
0.040303172,0.588017225,-0.806202292,9.96E-01
0.040529592,0.487731457,-0.869782031,9.94E-01
0.040756016,0.381002039,-0.921095788,9.94E-01
0.040982436,0.26919198,-0.959618092,9.93E-01
0.04120886,0.153689638,-0.9848876,9.94E-01
0.041435284,0.035954539,-0.996529937,9.94E-01
0.041661704,-0.082462952,-0.994302928,9.95E-01
0.041888128,-0.199935332,-0.978161454,9.97E-01
0.042114548,-0.314828008,-0.948308945,9.98E-01
0.042340972,-0.425628334,-0.90518868,1.00E+00
0.042567396,-0.531050026,-0.849297047,1.00E+00
0.042793816,-0.629805624,-0.780903876,1.01E+00
0.04302024,-0.720087945,-0.700303793,1.01E+00
0.04324666,-0.799757898,-0.608549714,1.01E+00
0.043473084,-0.867102802,-0.507454634,1.01E+00
0.043699504,-0.921051383,-0.399069697,1.01E+00
0.043925928,-0.961002231,-0.285413116,1.00E+00
0.044152352,-0.986682773,-0.168414384,1.00E+00
0.044378772,-0.998078704,-0.049903087,9.99E-01
0.044605196,-0.995394289,0.068403758,9.95E-01
0.044831616,-0.979014933,0.184913322,9.93E-01
0.04505804,-0.949478507,0.298166752,9.90E-01
0.04528446,-0.907449305,0.406853735,9.89E-01
0.045510884,-0.853682637,0.509844899,9.89E-01
0.045737308,-0.788923621,0.606233716,9.90E-01
0.045963728,-0.713700712,0.6952582,9.93E-01
0.046190152,-0.628240585,0.775913417,9.97E-01
0.046416572,-0.532950282,0.846607447,1.00E+00
0.046642996,-0.428979576,0.905567169,1.00E+00
0.046869416,-0.31805113,0.951424897,1.01E+00
0.04709584,-0.202067837,0.983289182,1.01E+00
0.047322264,-0.082970373,1.0006144,1.01E+00
0.047548684,0.037275594,1.00314379,1.01E+00
0.047775108,0.156698063,0.990913987,1.01E+00
0.048001528,0.273365825,0.96426779,1.00E+00
0.048227952,0.385454237,0.923849165,1.00E+00
0.048454376,0.491318613,0.87057966,9.99E-01
0.048680796,0.589569807,0.805602014,9.97E-01
0.04890722,0.679145098,0.730176747,9.94E-01
0.04913364,0.759322226,0.645501018,9.93E-01
0.049360064,0.8295452,0.552489579,9.93E-01
0.049586484,0.889014482,0.451823801,9.94E-01
0.049812908,0.936564326,0.344459534,9.96E-01
0.050039332,0.971133173,0.231903821,9.97E-01
0.050265752,0.992103338,0.115911499,9.98E-01
0.050492176,0.999210119,-0.001802365,9.98E-01
0.050718596,0.992380798,-0.119596824,9.99E-01
0.05094502,0.971683025,-0.23585178,1.00E+00
0.05117144,0.937345088,-0.348934263,1.00E+00
0.051397864,0.889794469,-0.457203835,1.00E+00
0.051624288,0.829693913,-0.559052765,1.00E+00
0.051850708,0.757958949,-0.652971506,1.00E+00
0.052077132,0.675732613,-0.737637281,1.00E+00
0.052303552,0.58429867,-0.811993361,1.00E+00
0.052529976,0.484912962,-0.875251055,1.00E+00
0.052756396,0.378667474,-0.926690102,1.00E+00
0.05298282,0.266678631,-0.965376079,1.00E+00
0.053209244,0.15051046,-0.990288854,1.00E+00
0.053435664,0.032176372,-1.00081563,1.00E+00
0.053662088,-0.086263709,-0.996915996,1.00E+00
0.053888508,-0.202953771,-0.978938162,1.00E+00
0.054114932,-0.316258729,-0.947434664,9.98E-01
0.054341356,-0.424713641,-0.903076589,9.96E-01
0.054567776,-0.526981354,-0.846628904,9.94E-01
0.0547942,-0.621830642,-0.778948367,9.93E-01
0.05502062,-0.708132803,-0.700989664,9.93E-01
0.055247044,-0.784878135,-0.613805592,9.93E-01
0.055473464,-0.851208687,-0.518527687,9.93E-01
0.055699888,-0.906433105,-0.416293323,9.95E-01
0.055926312,-0.949953794,-0.308143169,9.97E-01
0.056152732,-0.981046975,-0.195034221,1.00E+00
0.056379156,-0.998728156,-0.078157648,1.00E+00
0.056605576,-1.00207257,0.040732268,1.01E+00
0.056832,-0.990669906,0.159480438,1.01E+00
0.05705842,-0.964691937,0.27592805,1.01E+00
0.057284844,-0.924717724,0.38811028,1.01E+00
0.057511268,-0.871589422,0.494280696,1.00E+00
0.057737688,-0.806347311,0.592903197,1.00E+00
0.057964112,-0.73018682,0.682650566,9.99E-01
0.058190532,-0.644427299,0.762418568,9.97E-01
0.058416956,-0.550464809,0.831333518,9.94E-01
0.058643376,-0.449723303,0.888762236,9.92E-01
0.0588698,-0.343580514,0.934304476,9.91E-01
0.059096224,-0.233272254,0.967739522,9.91E-01
0.059322644,-0.119824529,0.988865435,9.92E-01
0.059549068,-0.004178638,0.997264087,9.95E-01
0.059775488,0.112443328,0.992286682,9.97E-01
0.060001912,0.228339106,0.973430991,1.00E+00
0.060228336,0.341565847,0.940670788,1.00E+00
0.060454756,0.450246543,0.894423068,1.00E+00
0.06068118,0.552668035,0.835392416,1.00E+00
0.0609076,0.647268772,0.764488399,1.00E+00
0.061134024,0.732630491,0.682809651,1.00E+00
0.061360444,0.807498574,0.591637313,1.00E+00
0.061586868,0.870823324,0.492420644,1.00E+00
0.061813292,0.921803117,0.386734068,9.99E-01
0.062039712,0.959919989,0.276208669,9.98E-01
0.062266136,0.984940708,0.16243206,9.96E-01
0.062492556,0.996843457,0.046832029,9.96E-01
0.06271898,0.995635986,-0.069363624,9.96E-01
0.0629454,0.981170475,-0.184952572,9.97E-01
0.063171824,0.953248441,-0.298453718,9.98E-01
0.063398248,0.911979795,-0.408084393,9.98E-01
0.063624668,0.857941449,-0.512063384,9.98E-01
0.063851092,0.792034209,-0.608835459,9.98E-01
0.064077512,0.715310216,-0.697084248,9.98E-01
0.064303936,0.628902495,-0.77567035,9.97E-01
0.064530356,0.534020841,-0.843590677,9.97E-01
0.06475678,0.431965351,-0.899968624,9.97E-01
0.064983204,0.324132621,-0.944075465,9.96E-01
0.065209624,0.21200265,-0.975362718,9.96E-01
0.065436048,0.097095199,-0.99349165,9.96E-01
0.065662468,-0.01910609,-0.998333514,9.97E-01
0.065888892,-0.135227561,-0.989892006,9.98E-01
0.066115316,-0.249979302,-0.968154192,1.00E+00
0.066341736,-0.361941576,-0.933024824,1.00E+00
0.06656816,-0.469365358,-0.884555101,1.00E+00
0.06679458,-0.570315719,-0.823271036,1.00E+00
0.067021004,-0.66301626,-0.750206649,1.00E+00
0.067247424,-0.746029615,-0.666700602,1.00E+00
0.067473848,-0.818248332,-0.574214995,9.99E-01
0.067700272,-0.878831029,-0.474251121,9.97E-01
0.067926696,-0.92715168,-0.368319154,9.95E-01
0.068153112,-0.962777793,-0.257926583,9.93E-01
0.068379536,-0.985453069,-0.14456287,9.92E-01
0.06860596,-0.995093822,-0.029680636,9.91E-01
0.068832384,-0.991772056,0.085341334,9.91E-01
0.069058808,-0.975667596,0.199241295,9.92E-01
0.069285224,-0.946962655,0.310881555,9.93E-01
0.069511648,-0.905721664,0.419131339,9.96E-01
0.069738072,-0.851935029,0.522619009,9.99E-01
0.069964496,-0.785831392,0.619622767,1.00E+00
0.070190912,-0.708147585,0.708303988,1.00E+00
0.070417336,-0.620090485,0.787023425,1.00E+00
0.07064376,-0.523141623,0.854470313,1.00E+00
0.070870184,-0.418917596,0.909646153,1.00E+00
0.071096608,-0.309104711,0.951829553,1.00E+00
0.071323024,-0.195424914,0.980557859,1.00E+00
0.071549448,-0.079600103,0.995623469,9.98E-01
0.071775872,0.036693025,0.997066617,9.95E-01
0.072002296,0.151876137,0.985157132,9.94E-01
0.07222872,0.264530003,0.960350335,9.92E-01
0.072455136,0.3734366,0.923193514,9.92E-01
0.07268156,0.477550983,0.874189317,9.92E-01
0.072907984,0.5758304,0.813696861,9.94E-01
0.073134408,0.667005002,0.742049634,9.96E-01
0.073360832,0.749565184,0.659856975,9.97E-01
0.073587248,0.822023869,0.568166614,9.99E-01
0.073813672,0.883148134,0.468351394,9.99E-01
0.074040096,0.932003379,0.361936748,1.00E+00
0.07426652,0.967902362,0.250510037,1.00E+00
0.074492936,0.99036938,0.135700643,9.99E-01
0.07471936,0.999135077,0.019172348,9.99E-01
0.074945784,0.994152129,-0.097395279,9.98E-01
0.075172208,0.97560674,-0.212347388,9.97E-01
0.075398632,0.943915308,-0.324111223,9.96E-01
0.075625048,0.899684787,-0.431262851,9.95E-01
0.075851472,0.843620181,-0.532566309,9.95E-01
0.076077896,0.776400149,-0.626925111,9.96E-01
0.07630432,0.69863987,-0.713210464,9.97E-01
0.076530744,0.611064255,-0.790114403,9.98E-01
0.07675716,0.51475662,-0.856256306,9.98E-01
0.076983584,0.411187619,-0.910462916,9.98E-01
0.077210008,0.302026361,-0.951924741,9.97E-01
0.077436432,0.188964516,-0.980166376,9.96E-01
0.077662848,0.073643364,-0.994959056,9.95E-01
0.077889272,-0.042351931,-0.996259987,9.94E-01
0.078115696,-0.157484755,-0.984186053,9.93E-01
0.07834212,-0.270265788,-0.959009945,9.93E-01
0.078568544,-0.379269451,-0.921161592,9.92E-01
0.07879496,-0.483163327,-0.871216893,9.92E-01
0.079021384,-0.580742061,-0.809859514,9.93E-01
0.079247808,-0.670924723,-0.737803578,9.94E-01
0.079474232,-0.752665341,-0.655722737,9.96E-01
0.079700656,-0.824791133,-0.564303458,9.99E-01
0.079927072,-0.885951877,-0.464477718,1.00E+00
0.080153496,-0.934831321,-0.357618928,1.00E+00
0.08037992,-0.970432878,-0.245476931,1.00E+00
0.080606344,-0.992187262,-0.1299548,1.00E+00
0.080832768,-0.999904394,-0.012937996,1.00E+00
0.081059184,-0.993682921,0.103778802,9.98E-01
0.081285608,-0.97385323,0.218513727,9.96E-01
0.081512032,-0.940935373,0.329708785,9.94E-01
0.081738456,-0.89561069,0.435944259,9.92E-01
0.081964872,-0.838692427,0.535956919,9.91E-01
0.082191296,-0.771078527,0.628656864,9.90E-01
0.08241772,-0.693684101,0.713126779,9.90E-01
0.082644144,-0.60736084,0.788568676,9.91E-01
0.082870568,-0.512863219,0.854162574,9.93E-01
0.083096984,-0.410978049,0.908914447,9.95E-01
0.083323408,-0.302774101,0.951678813,9.97E-01
0.083549832,-0.189736038,0.981408715,9.99E-01
0.083776256,-0.07364744,0.997393847,1.00E+00
0.08400268,0.043613482,0.999316573,1.00E+00
0.084229096,0.160198018,0.987189591,1.00E+00
0.08445552,0.274335206,0.961294174,9.99E-01
0.084681944,0.384351403,0.92214334,9.98E-01
0.084908368,0.488692582,0.870460927,9.97E-01
0.085134792,0.585961103,0.807160914,9.95E-01
0.085361208,0.674948156,0.733308196,9.93E-01
0.085587632,0.754665017,0.650055826,9.92E-01
0.085814056,0.824334264,0.558557451,9.92E-01
0.08604048,0.883314073,0.459881157,9.92E-01
0.086266896,0.930946827,0.355007946,9.93E-01
0.08649332,0.966446996,0.244987473,9.94E-01
0.086719744,0.988994062,0.131151855,9.95E-01
0.086946168,0.997975528,0.015148353,9.96E-01
0.087172592,0.993143797,-0.101226121,9.97E-01
0.087399008,0.974590898,-0.216201633,9.97E-01
0.087625432,0.942662895,-0.328108996,9.96E-01
0.087851856,0.897894263,-0.435387403,9.96E-01
0.08807828,0.840984821,-0.536578536,9.95E-01
0.088304704,0.772790253,-0.630331218,9.95E-01
0.08853112,0.69431901,-0.715426862,9.94E-01
0.088757544,0.606704056,-0.790808976,9.93E-01
0.088983968,0.511154115,-0.855607569,9.93E-01
0.089210392,0.408881873,-0.909125626,9.94E-01
0.089436808,0.301050216,-0.950757384,9.95E-01
0.089663232,0.18881765,-0.979867935,9.96E-01
0.089889656,0.073513366,-0.995763302,9.97E-01
0.09011608,-0.043219604,-0.997861087,9.98E-01
0.090342504,-0.159496889,-0.985928357,9.97E-01
0.09056892,-0.273409724,-0.960161567,9.97E-01
0.090795344,-0.383192539,-0.921106756,9.95E-01
0.091021768,-0.487278968,-0.869543016,9.94E-01
0.091248192,-0.584296584,-0.806401074,9.92E-01
0.091474616,-0.67304945,-0.73272121,9.90E-01
0.091701032,-0.752507627,-0.649628341,9.88E-01
0.091927456,-0.821806431,-0.558309317,9.87E-01
0.09215388,-0.880248606,-0.459983349,9.86E-01
0.092380304,-0.927289963,-0.355855495,9.86E-01
0.092606728,-0.962490797,-0.247070551,9.87E-01
0.092833144,-0.985411584,-0.134712368,9.89E-01
0.093059568,-0.995520711,-0.019914828,9.91E-01
0.093285992,-0.992239416,0.095943354,9.94E-01
0.093512416,-0.975169599,0.211152419,9.96E-01
0.093738832,-0.94430548,0.32380265,9.97E-01
0.093965256,-0.900072455,0.432007372,9.97E-01
0.09419168,-0.843232155,0.534043312,9.96E-01
0.094418104,-0.774779975,0.628396153,9.95E-01
0.094644528,-0.695874512,0.713762641,9.94E-01
0.094870944,-0.60779798,0.789049387,9.92E-01
0.095097368,-0.511917353,0.853375554,9.90E-01
0.095323792,-0.409644574,0.906077027,9.89E-01
0.095550216,-0.302383572,0.946700633,9.88E-01
0.09577664,-0.191470698,0.97497052,9.87E-01
0.096003056,-0.078132384,0.99070698,9.88E-01
0.09622948,0.036483653,0.993710577,9.89E-01
0.096455904,0.151164323,0.983695149,9.91E-01
0.096682328,0.264457971,0.960386693,9.92E-01
0.096908752,0.374653518,0.923750699,9.94E-01
0.097135168,0.47995013,0.874145567,9.94E-01
0.097361592,0.578649223,0.812297225,9.95E-01
0.097588016,0.669248164,0.739195287,9.94E-01
0.09781444,0.750451982,0.656005263,9.94E-01
0.098040856,0.821165919,0.564019918,9.92E-01
0.09826728,0.880494118,0.464633197,9.91E-01
0.098493704,0.927749336,0.359311104,9.90E-01
0.098720128,0.962460697,0.249551013,9.89E-01
0.098946552,0.98437047,0.136828989,9.88E-01
