Frequency (GHz),Re( S21 ),Im( S21 ),S2
0.0,0.0567177087,3.97447184e-05,0.0032169000598206965
0.000226459219,0.051973246,-0.0219399165,0.0031825782358034884
0.000452918438,0.0385189541,-0.0399752632,0.003081731492867181
0.000679377625,0.0187549349,-0.050803192,0.0029327119004921016
0.000905836875,-0.00377736939,-0.0524273291,0.0027628933560682164
0.00113229613,-0.0250100512,-0.044485271,0.0026044419969700624
0.00135875525,-0.0410669148,-0.028333772,0.002489294126938443
0.0015852145,-0.0489621945,-0.00682879006,0.002443928863939385
0.00181167375,-0.0471517481,0.016169291,0.002484733320328535
0.002038133,-0.0358329341,0.0364810489,0.0026148660950591337
0.00226459225,-0.0169301443,0.0503632836,0.002823090120992852
0.0024910515,0.00623305701,0.055190865,0.003084882579138135
0.0027175105,0.0295171924,0.049940411,0.0033653092980275383
0.00294396975,0.0489154235,0.0353892185,0.0036451154422250946
0.003170429,0.0604282618,0.0139700947,0.0038467383700963075
0.00339688825,0.0620987602,-0.0104484009,0.003965425099744225
0.0036233475,0.0533483736,-0.0335891545,0.003974280265790047
0.00384980675,0.0356172286,-0.0511935465,0.0038893661763923205
0.004076266,0.0118463077,-0.0598667935,0.0037243679700947217
0.004302725,-0.0137581164,-0.0577172562,0.0035205674301323872
0.0045291845,-0.0364974886,-0.0447434671,0.003334044522235913
0.0047556435,-0.0519989841,-0.0229132231,0.0032289101402624264
0.004982103,-0.0570170358,0.00410289504,0.0032677761191277376
0.005208562,-0.0500750393,0.0315186419,0.0035009343481169795
0.005435021,-0.0318166614,0.0542527176,0.0039556573096276
0.0056614805,-0.00498656137,0.0678428859,0.004627522961537195
0.0058879395,0.0259763226,0.0692856386,0.005475269052029082
0.006114399,0.0559262969,0.0577033535,0.006457427690092912
0.006340858,0.0788777843,0.0343343578,0.007400552981615747
0.0065673175,0.0906152651,0.00292911218,0.0082197059673063
0.0067937765,0.0883493721,-0.0310783125,0.008771473058311914
0.0070202355,0.0717061907,-0.0616780296,0.008945957120043244
0.007246695,0.043055743,-0.0829529241,0.00873498462202241
0.007473154,0.00693529239,-0.0899879113,0.00814592246067146
0.0076996135,-0.0301537644,-0.0800597817,0.007318818153342362
0.0079260725,-0.0607724935,-0.0532368869,0.0065274620930109335
0.008152532,-0.0776967928,-0.0126786781,0.006197540489769551
0.008378991,-0.0751643851,0.0355338491,0.006912339219322672
0.00860545,-0.0500200875,0.0830711499,0.009402825099215927
0.008831909,-0.00255250791,0.120476425,0.014521084277411238
0.009058369,0.0636923239,0.138794065,0.023320504603006737
0.009284828,0.140116289,0.130120531,0.03656392703085348
0.009511287,0.216885448,0.0904371142,0.055218169178984554
0.009737746,0.282341033,0.0196327381,0.0801019033208103
0.009964206,0.324835509,-0.0777957961,0.11157029379812186
0.010190665,0.3355259,-0.194762349,0.1505100021588078
0.010417124,0.307404429,-0.319897264,0.19683174248350174
0.010643583,0.237875,-0.440341622,0.2504852596905909
0.010870042,0.128634617,-0.542808175,0.3111875795375673
0.011096502,-0.0144967409,-0.614957869,0.3783833361417429
0.011322961,-0.182035923,-0.646587074,0.4512119215263435
0.01154942,-0.361610144,-0.63068521,0.5285257303564448
0.011775879,-0.539062858,-0.564221501,0.6089346670658211
0.012002339,-0.699755669,-0.448562473,0.6908662884815132
0.012228798,-0.829948604,-0.289536506,0.7726460735882369
0.012455257,-0.917970359,-0.0973052382,0.8521378893837477
0.012681716,-0.954064846,0.115306415,0.9235352997131558
0.012908175,-0.934912264,0.335475892,0.9866050154908015
0.013134635,-0.861871064,0.546904445,1.0419262029212502
0.013361094,-0.739497304,0.73507005,1.087184241030271
0.013587553,-0.57642144,0.888144076,1.1210615762255673
0.013814012,-0.384130448,0.99773407,1.1430294755194457
0.014040471,-0.175557122,1.05944049,1.1532344549363631
0.014266931,0.0363486186,1.07290065,1.152437026844551
0.01449339,0.239892751,1.04132938,1.1419154096335324
0.014719849,0.425595433,0.970669329,1.1233304188517679
0.014946308,0.5867576,0.868430376,1.0984557991172612
0.015172768,0.721091926,0.743113339,1.0721910003421184
0.015399227,0.825286746,0.604000092,1.045914324259277
0.015625686,0.901352823,0.456334263,1.0206778711178224
0.015852145,0.934412837,0.314705044,0.9721666146694304
0.016078604,0.967620432,0.169884205,0.9651499435323487
0.016305064,0.973525107,0.0244757365,0.9483501956365789
0.016531523,0.960906029,-0.11460577,0.9364748790858417
0.016757982,0.932370305,-0.247779727,0.9307091787579874
0.016984442,0.888969421,-0.37510547,0.9309707450969961
0.0172109,0.830919981,-0.496265978,0.9367079357453368
0.01743736,0.757964909,-0.610327005,0.9470098563076483
0.017663818,0.669778168,-0.715596914,0.9606817376557597
0.017890278,0.566382229,-0.809652925,0.976326688288064
0.018116738,0.448518693,-0.889518261,0.9924117546228923
0.018343196,0.31797111,-0.951978624,1.0073689273475654
0.018569656,0.177760452,-0.994160473,1.019953824370828
0.018796116,0.0318367556,-1.01414824,1.0295102317022315
0.019022574,-0.115178101,-1.01138246,1.0361604753456182
0.019249034,-0.259782463,-0.988063276,1.0437559654621986
0.019475492,-0.402309418,-0.942631483,1.050406980554278
0.019701952,-0.534934103,-0.873268247,1.0487519257708677
0.019928412,-0.652754903,-0.784798682,1.0419979346594768
0.02015487,-0.753628075,-0.681284964,1.032104477600687
0.02038133,-0.836275995,-0.566492438,1.020271222124424
0.020607788,-0.900252223,-0.443988502,1.0075798549246457
0.020834248,-0.945836723,-0.31695497,0.9950675595830796
0.021060708,-0.973814487,-0.188035086,0.9836718486581004
0.021287166,-0.985212505,-0.0592936128,0.9741594125272514
0.021513626,-0.981066465,0.0677038059,0.9670752140809412
0.021740084,-0.962282121,0.191724762,0.9627452647602153
0.021966544,-0.929624379,0.311708152,0.9613634580543907
0.022193004,-0.883799016,0.426661849,0.963141034074667
0.022419462,-0.825680017,0.535849035,0.9688816787835516
0.022645922,-0.755461156,0.6396842,0.9799174339544963
0.02287238,-0.670621634,0.736916125,0.9927787512738455
0.02309884,-0.571272016,0.823041916,1.0037497117576553
0.0233253,-0.459740311,0.895328283,1.012973887898105
0.023551758,-0.338220984,0.95188272,1.0204741466525267
0.023778218,-0.209163353,0.991038501,1.0259066187025296
0.024004678,-0.0754294023,1.01154971,1.0289224105324193
0.024231136,0.0598186851,1.01278973,1.0293213122805658
0.024457596,0.193323553,0.994848371,1.0270972774258975
0.024684054,0.32195434,0.958539069,1.0224517438442224
0.024910514,0.442910671,0.905324876,1.0157829935900855
0.025136974,0.553892136,0.837195873,1.0076934280908747
0.025363432,0.65323776,0.756508708,0.9990249963696469
0.025589892,0.740071416,0.665792108,0.9909848318553288
0.02581635,0.814557254,0.567314506,0.9853492687620446
0.02604281,0.877424598,0.461851835,0.9831810426683287
0.02626927,0.927578986,0.349361837,0.9824564684208027
0.026495728,0.963468552,0.231704697,0.9819587173048386
0.026722188,0.984908581,0.110971183,0.982359516383853
0.026948646,0.99196732,-0.0113605363,0.984128225733006
0.027175106,0.984532714,-0.133975238,0.9872540293333624
0.027401566,0.962387621,-0.255436629,0.9914378044889233
0.027628024,0.92535758,-0.374080479,0.9962228556323259
0.027854484,0.873463929,-0.487997025,1.0010803316729677
0.028080942,0.807065547,-0.595084131,1.0054799201224345
0.028307402,0.726974905,-0.693161964,1.0089660208360962
0.028533862,0.634524047,-0.780146897,1.0112499471199867
0.02876032,0.531554341,-0.854278624,1.0123419848592776
0.02898678,0.420246631,-0.914397895,1.0127307412472812
0.02921324,0.302567184,-0.960094512,1.013328372806208
0.029439698,0.179694265,-0.990830004,1.0140341257005303
0.029666158,0.0534273572,-1.00509202,1.0130644511650568
0.029892616,-0.0730826855,-1.00226068,1.0098675495939544
0.030119076,-0.197000742,-0.983093858,1.0052828259858748
0.030345536,-0.316235751,-0.948784113,1.0001963432917307
0.030571994,-0.429180771,-0.900590539,0.9952594531324649
0.030798454,-0.534548163,-0.839760005,0.9909386045642746
0.031024912,-0.631277204,-0.767494738,0.9875590811477462
0.031251372,-0.718454301,-0.684940159,0.9853196040363439
0.031477832,-0.795243323,-0.593202651,0.9843013279295102
0.03170429,-0.860847712,-0.493400276,0.9845026156125111
0.03193075,-0.914521396,-0.386719406,0.9859012827187817
0.032157208,-0.95563966,-0.274439633,0.9885642719260903
0.032383668,-0.983804405,-0.157816589,0.9927771830609989
0.032610128,-0.998662531,-0.0377576686,0.9987524923614334
0.032836586,-0.999135196,0.0849471167,1.0054871525216018
0.033063046,-0.983687818,0.208308473,1.011034143205193
0.033289504,-0.951866567,0.329372674,1.014536319750276
0.033515964,-0.904270351,0.445424497,1.0161078502253662
0.033742424,-0.841957986,0.554169893,1.0159975204968077
0.033968884,-0.766284704,0.653620064,1.0144114356477316
0.03419534,-0.678872526,0.742085814,1.0115592618976632
0.0344218,-0.581557214,0.818220556,1.007693671416391
0.03464826,-0.476307511,0.881056368,1.0031291686283665
0.03487472,-0.365129262,0.930008829,0.9982357999866159
0.03510118,-0.249978825,0.964861631,0.9934473799243608
0.035327636,-0.132675633,0.985736549,0.98927936762638
0.035554096,-0.0147937052,0.993057668,0.9863823856871425
0.035780556,0.102524921,0.987421036,0.9855116617613694
0.036007016,0.21866855,0.969139397,0.987047105576626
0.036233476,0.332899362,0.937736154,0.9901710797387187
0.036459932,0.443506062,0.892670929,0.9935590145124709
0.036686392,0.548408687,0.834240973,0.9967100890090507
0.036912852,0.645835519,0.763254941,0.9996616225629129
0.037139312,0.734245062,0.680665851,1.0024218117889379
0.037365772,0.812176526,0.587562919,1.0048608931692293
0.037592232,0.878241837,0.48524946,1.0067757626874263
0.037818688,0.93119365,0.375287294,1.0079621668381649
0.038045148,0.970015585,0.259489954,1.0082652713698141
0.038271608,0.994015336,0.139874488,1.007631360596455
0.038498068,1.00289881,0.0185699314,1.006150865451617
0.038724528,0.996816456,-0.102319814,1.0041123912893946
0.038950984,0.976343691,-0.220908895,1.0020477428456245
0.039177444,0.942278266,-0.33575204,1.0006177629401283
0.039403904,0.895170689,-0.44578445,1.0000543383065372
0.039630364,0.835200191,-0.549648941,0.9996733173888579
0.039856824,0.762972414,-0.645445824,0.9987272162440264
0.04008328,0.679837883,-0.731487453,0.9972534410583489
0.04030974,0.587374806,-0.806649089,0.9956919155080676
0.0405362,0.487074167,-0.870163739,0.994426176829204
0.04076266,0.380327135,-0.921421885,0.9936670197742614
0.04098912,0.268492907,-0.959891558,0.9934802442289781
0.041215576,0.152959973,-0.985104859,0.9938283365655707
0.041442036,0.035191156,-0.99668026,0.994609958134284
0.041668496,-0.0832571089,-0.994374156,0.9957117083030989
0.041894956,-0.20075132,-0.978140712,0.9970603449536093
0.042121416,-0.315651834,-0.94818753,0.9986956723550644
0.042347872,-0.426445544,-0.904962301,1.0008125682286704
0.042574332,-0.531847417,-0.848960042,1.0035948278822135
0.042800792,-0.63056159,-0.7804479,1.0067068433977382
0.043027252,-0.7207672,-0.699732065,1.0091303193850043
0.043253712,-0.800329864,-0.607887506,1.0100551111611584
0.043480168,-0.867554367,-0.506736159,1.009432114538844
0.043706628,-0.921384573,-0.398327112,1.0076140195166527
0.043933088,-0.961227834,-0.284671992,1.0049970918855795
0.044159548,-0.986817539,-0.167691842,1.0019294091513695
0.044386008,-0.998141587,-0.0492078178,0.9987080370315166
0.044612464,-0.995402575,0.0690710247,0.9955970927697385
0.044838924,-0.978982031,0.185558975,0.9928379502239356
0.045065384,-0.94941175,0.298800498,0.9906644086431105
0.045291844,-0.907350242,0.407487363,0.9893304126621524
0.045518304,-0.853545427,0.510490954,0.9891408100684425
0.04574476,-0.78873378,0.606902838,0.9904320304855427
0.04597122,-0.713433027,0.69595331,0.9933376937143389
0.04619768,-0.627863824,0.776616812,0.9973466541689462
0.04642414,-0.532448888,0.847282052,1.001388693973767
0.0466506,-0.428359509,0.906174898,1.0046448147160314
0.046877056,-0.317330688,0.951937258,1.006883308715112
0.047103516,-0.201270834,0.983684838,1.0081458091301418
0.047329976,-0.0821249709,1.00087976,1.0085048048229832
0.047556436,0.0381391831,1.00327468,1.008014680816638
0.047782896,0.157550156,0.990915239,1.0067350625380513
0.048009356,0.274180681,0.964152277,1.0047646590779082
0.048235812,0.386213183,0.923637927,1.0022676429158488
0.048462272,0.49201265,0.870296657,0.9994927189453982
0.048688732,0.590200841,0.805270493,0.9967975996135703
0.048915192,0.679725409,0.729815125,0.9946567483189829
0.049141652,0.759871542,0.64511472,0.9935777623021361
0.049368108,0.830078542,0.552066505,0.9938078118317607
0.049594568,0.889530599,0.451344997,0.9949769928742288
0.049821028,0.937049687,0.34391427,0.996339141016431
0.050047488,0.971573114,0.231289655,0.997449220357676
0.050273948,0.992485106,0.115228035,0.9983041856817924
0.050500404,0.999516964,-0.00255425856,0.9990406855605687
0.050726864,0.99259299,-0.120410539,0.9997395416994107
0.050953324,0.971780956,-0.236713246,1.0003913872761305
0.051179784,0.937311709,-0.349820614,1.0009277018078377
0.051406244,0.889620423,-0.458085477,1.0012668012570165
0.0516327,0.829380751,-0.559896767,1.0013568198263763
0.05185916,0.757519424,-0.653746963,1.0012207693690152
0.05208562,0.67518878,-0.738319933,1.000996212103013
0.05231208,0.58367759,-0.812569618,1.000948913164874
0.05253854,0.484238684,-0.8757177,1.001368593175342
0.052764996,0.377958417,-0.927046239,1.0022672942251911
0.052991456,0.265954822,-0.965616882,1.0031479301484536
0.053217916,0.149800226,-0.990417898,1.0033677203883895
0.053444376,0.0315057747,-1.00085068,1.0026946974959097
0.053670836,-0.086881943,-0.996883929,1.0013260399179322
0.053897292,-0.203520238,-0.978865266,0.9995976962568275
0.054123752,-0.316784471,-0.947340488,0.997806401270828
0.054350212,-0.425214916,-0.902971566,0.9961653737933793
0.054576672,-0.527475417,-0.846514404,0.9948169517187991
0.054803132,-0.622331262,-0.778817117,0.9938523013947043
0.055029588,-0.708648145,-0.700829029,0.9933435213010238
0.055256048,-0.785410464,-0.61360091,0.9933756737135235
0.055482508,-0.851754367,-0.518263042,0.9940820824066643
0.055708968,-0.906983078,-0.415952623,0.9956348883589342
0.055935428,-0.95049125,-0.307710499,0.9981193675213915
0.056161884,-0.981542289,-0.19449836,1.001254877138049
0.056388344,-0.999143422,-0.0775256678,1.0042978068937058
0.056614804,-1.00237811,0.0414326154,1.0064785370260565
0.056841264,-0.990854323,0.160213739,1.0074607315721484
0.057067724,-0.964759171,0.276662141,1.007302198291311
0.05729418,-0.924679637,0.388819784,1.0062132555122585
0.05752064,-0.871464431,0.494948298,1.0044240721912507
0.0577471,-0.806155145,0.59351939,1.002151384115943
0.05797356,-0.729947388,0.683214366,0.9996050591568045
0.05820002,-0.644156754,0.762935698,0.9970088030065638
0.05842648,-0.550173759,0.831814706,0.9946068702100564
0.058652936,-0.449415267,0.889221728,0.9926893637599873
0.058879396,-0.343249798,0.934756041,0.9915892800130345
0.059105856,-0.232903302,0.968192995,0.9916416236495732
0.059332316,-0.119393796,0.989317656,0.993004302996624
0.059558776,-0.00366566773,0.997694016,0.9954067866821149
0.059785232,0.113042317,0.992661238,0.998154898860421
0.060011692,0.229010373,0.973722339,1.0005809444092302
0.060238152,0.342287689,0.940860927,1.00238014599626
0.060464612,0.450995624,0.894501925,1.003530746695855
0.060691072,0.553419232,0.835355878,1.0040922892566206
0.060917528,0.647997439,0.764340162,1.0041165641967449
0.061143988,0.733313024,0.682559729,1.003635774820578
0.061370448,0.808116019,0.591303527,1.002691361207048
0.061596908,0.871364117,0.492025137,1.0013641598350587
0.061823368,0.922265708,0.386301339,0.9998027606659341
0.062049824,0.960311949,0.275760084,0.9982426633198658
0.062276284,0.985277593,0.161980957,0.9970097656985094
0.062502744,0.99714303,0.0463796631,0.9964452954268506
0.062729204,0.995907724,-0.0698268935,0.9967079897787207
0.062955664,0.98141259,-0.185436651,0.997557423344604
0.06318212,0.953453422,-0.298959643,0.9984502960661976
0.06340858,0.912144601,-0.408609003,0.9989690904661034
0.06363504,0.858066082,-0.512605786,0.9990420929195085
0.0638615,0.792115986,-0.609398007,0.9988136662123244
0.06408796,0.715341747,-0.697667658,0.9984539760202169
0.064314416,0.6288746,-0.776271701,0.9980810162985934
0.064540876,0.53392458,-0.84420085,0.9977505322688989
0.064767336,0.43179512,-0.900574803,0.9974820014543032
0.064993796,0.323888958,-0.944663107,0.9972924428412193
0.065220256,0.211691126,-0.975918889,0.9972308107341422
0.065446712,0.0967245549,-0.99400866,0.9974088556755987
0.065673172,-0.0195278693,-0.998807132,0.9979970246134634
0.065899632,-0.135696605,-0.990320921,0.9991490951788143
0.066126092,-0.250493348,-0.968532026,1.0008012027799138
0.066352552,-0.362491876,-0.933342397,1.002528390203705
0.066579008,-0.469936132,-0.884809852,1.0037284423553832
0.066805468,-0.570894301,-0.823472202,1.0040267703810075
0.067031928,-0.663600922,-0.75036788,1.0034181390149444
0.067258384,-0.746628881,-0.666830778,1.0021179724313973
0.067484848,-0.818875313,-0.574314535,1.0003939633531143
0.067711304,-0.87949729,-0.474309951,0.9984854127349665
0.067937768,-0.927865088,-0.368320763,0.99659380598615
0.068164224,-0.963537097,-0.257849038,0.9948898636927128
0.06839068,-0.986248374,-0.144384071,0.9935326151761769
0.068617144,-0.995907247,-0.0293805934,0.9926944638956552
0.0688436,-0.992578328,0.0857783854,0.9925696686171065
0.069070064,-0.976435244,0.199824974,0.9933558059594403
0.06929652,-0.947652698,0.311613977,0.9951489066884356
0.069522976,-0.906288683,0.419999003,0.9977583394548685
0.06974944,-0.852337897,0.523586154,1.0006223513228942
0.069975896,-0.786048174,0.620636404,1.0030612778187855
0.07020236,-0.708181918,0.709310174,1.004642551922069
0.070428816,-0.619964123,0.78797847,1.0052655829907
0.070655272,-0.522886813,0.855343938,1.0050238714826447
0.070881736,-0.418570518,0.91042316,1.004071608803174
0.071108192,-0.308701217,0.952508271,1.0025684477006904
0.071334656,-0.194995567,0.981148899,1.0006764331585638
0.071561112,-0.0791664496,0.996146977,0.9985761265285079
0.071787568,0.0371212438,0.997548044,0.9964800868294849
0.072014032,0.152302429,0.985623598,0.9946499068137656
0.072240488,0.264971972,0.960822165,0.9933893787008559
0.072466952,0.373922974,0.923680484,0.9930040270074789
0.072693408,0.478114456,0.874680459,0.9936593383926267
0.072919864,0.576494336,0.814163208,0.9952074487009321
0.073146328,0.667773128,0.742452681,0.997156934002992
0.073372784,0.750424206,0.660163641,0.9989525218491074
0.073599248,0.822951853,0.568353295,1.0002752202934904
0.073825704,0.884120226,0.468401909,1.0010689223771352
0.074052168,0.932990611,0.361840636,1.0014001260750378
0.074278624,0.968873441,0.250265568,1.001348599201543
0.07450508,0.991292655,0.135315046,1.000971289530931
0.074731544,0.999985099,0.0186627191,1.0003184953062454
0.074958,0.994909525,-0.0980058238,0.9994501044344422
0.075184464,0.976263463,-0.213032663,0.998473264693624
0.07541092,0.944473624,-0.324848622,0.9975570536469922
0.075637376,0.900153339,-0.432036847,0.9969318708785505
0.07586384,0.844007552,-0.533372402,0.9968348670482823
0.076090296,0.776707768,-0.627764046,0.9973626543218319
0.07631676,0.698861778,-0.714080751,0.9983191036980453
0.076543216,0.611194253,-0.791006863,0.9992502722133287
0.076769672,0.51479435,-0.857162058,0.9997400164667178
0.076996136,0.411133945,-0.911376834,0.9996388542831266
0.077222592,0.301877022,-0.952844977,0.9990432866057191
0.077449056,0.188709468,-0.981087387,0.9981437242433308
0.077675512,0.0732705593,-0.995868683,0.9971230086402894
0.077901968,-0.0428521261,-0.99713701,0.9961185214230304
0.078128432,-0.158114478,-0.985003352,0.9952317916044484
0.078354888,-0.271017641,-0.959738731,0.9945489935146952
0.078581352,-0.380126297,-0.921774447,0.994164132813088
0.078807808,-0.484100878,-0.871693492,0.9942032040755251
0.079034264,-0.581731439,-0.810185969,0.9948127714854795
0.079260728,-0.671935797,-0.737972736,0.9961014743693508
0.079487184,-0.753664374,-0.655731857,0.9979942569214804
0.079713648,-0.825738907,-0.564160705,1.0001220435996516
0.079940104,-0.886810362,-0.464208245,1.001921912876551
0.08016656,-0.935577571,-0.357266039,1.0029444139810098
