Frequency (GHz),Re( S21 ),Im( S21 ),S2
0,0.056608211,4.86E-05,3.20E-03
0.000226461,0.051870383,-0.021891883,3.17E-03
0.000452923,0.038435876,-0.039891634,3.07E-03
0.000679384,0.018702921,-0.05069023,2.92E-03
0.000905845,-0.003789006,-0.052295066,2.75E-03
0.001132306,-0.024974914,-0.044347122,2.59E-03
0.001358768,-0.040982619,-0.028205728,2.48E-03
0.001585229,-0.048832197,-0.00672848,2.43E-03
0.00181169,-0.046986118,0.016224708,2.47E-03
0.002038151,-0.035648696,0.036478069,2.60E-03
0.002264613,-0.0167506,0.050294887,2.81E-03
0.002491074,0.006381501,0.055059243,3.07E-03
0.002717535,0.029606933,0.049757354,3.35E-03
0.002943996,0.04896434,0.035186727,3.64E-03
0.003170458,0.060383871,0.013763482,3.84E-03
0.003396919,0.061968178,-0.010628308,3.95E-03
0.00362338,0.053134516,-0.033696368,3.96E-03
0.003849842,0.035370391,-0.051203866,3.87E-03
0.004076303,0.01160433,-0.059766974,3.71E-03
0.004302764,-0.013950207,-0.057511035,3.50E-03
0.004529225,-0.036596794,-0.044453256,3.32E-03
0.004755687,-0.051972166,-0.022578819,3.21E-03
0.004982148,-0.056848124,0.004428289,3.25E-03
0.005208609,-0.049770735,0.031775937,3.49E-03
0.00543507,-0.031408593,0.05438678,3.94E-03
0.005661532,-0.004529665,0.067812882,4.62E-03
0.005887993,0.026684245,0.06920401,5.50E-03
0.006114454,0.056286596,0.057348665,6.46E-03
0.006340915,0.079073802,0.033851333,7.40E-03
0.006567377,0.090602644,0.002390636,8.21E-03
0.006793838,0.088112429,-0.031579759,8.76E-03
0.007020299,0.071253277,-0.062024556,8.92E-03
0.007246761,0.042473145,-0.08307419,8.71E-03
0.007473222,0.00632214,-0.089822128,8.11E-03
0.007699683,-0.030672466,-0.079590663,7.28E-03
0.007926144,-0.061063472,-0.052499924,6.48E-03
0.008152606,-0.077639684,-0.011764836,6.17E-03
0.008379067,-0.074674167,0.0364835,6.91E-03
0.008605528,-0.049067907,0.08387918,9.44E-03
0.008831989,-0.001180548,0.120952137,1.46E-02
0.00905845,0.065388687,0.138782963,2.35E-02
0.009284912,0.141921028,0.129487991,3.69E-02
0.009511373,0.218586117,0.089081615,5.57E-02
0.009737834,0.283685148,0.017597405,8.08E-02
0.009964295,0.325567424,-0.080385745,1.12E-01
0.010190757,0.335461438,-0.197713241,1.52E-01
0.010417218,0.306423306,-0.322952449,1.98E-01
0.010643679,0.235941604,-0.44320941,2.52E-01
0.01087014,0.125804201,-0.545193374,3.13E-01
0.011096602,-0.018079106,-0.616587639,3.81E-01
0.011323063,-0.186143264,-0.647236347,4.54E-01
0.011549524,-0.365950167,-0.630202532,5.31E-01
0.011775985,-0.543302178,-0.562546611,6.12E-01
0.012002447,-0.703548849,-0.445738167,6.94E-01
0.012228908,-0.832973838,-0.285710692,7.75E-01
0.012455369,-0.919964433,-0.092728443,8.55E-01
0.01268183,-0.954827011,0.120295487,9.26E-01
0.012908292,-0.934357107,0.340527236,9.89E-01
0.013134753,-0.860044718,0.551643968,1.04E+00
0.013361214,-0.73655647,0.739155531,1.09E+00
0.013587675,-0.572617054,0.891304314,1.12E+00
0.013814137,-0.379778326,0.999796391,1.14E+00
0.014040598,-0.170998752,1.06034315,1.15E+00
0.014267059,0.040785596,1.07269168,1.15E+00
0.014493521,0.243928999,1.04014826,1.14E+00
0.014719982,0.429024369,0.968723595,1.12E+00
0.014946443,0.589455664,0.865960896,1.10E+00
0.015172904,0.723041356,0.740356565,1.07E+00
0.015399366,0.826517582,0.601183951,1.04E+00
0.015625827,0.901962817,0.453626722,1.02E+00
0.015852288,0.934605002,0.312273294,9.71E-01
0.016078749,0.967434108,0.16770862,9.64E-01
0.016305211,0.973133445,0.022581935,9.47E-01
0.016531672,0.960408628,-0.116265401,9.36E-01
0.016758133,0.931826651,-0.249274209,9.30E-01
0.016984594,0.88839519,-0.376508147,9.31E-01
0.017211056,0.830293298,-0.497636646,9.37E-01
0.017437516,0.757236242,-0.611697733,9.48E-01
0.017663978,0.668887913,-0.7169649,9.61E-01
0.01789044,0.565276086,-0.810980558,9.77E-01
0.0181169,0.447163612,-0.890739322,9.93E-01
0.018343362,0.316364914,-0.953010738,1.01E+00
0.018569824,0.175936431,-0.994920373,1.02E+00
0.018796284,0.029860167,-1.01456511,1.03E+00
0.019022746,-0.117218293,-1.01141262,1.04E+00
0.019249206,-0.261790395,-0.987688065,1.04E+00
0.019475668,-0.40416652,-0.941863179,1.05E+00
0.01970213,-0.536541879,-0.872171938,1.05E+00
0.01992859,-0.654044688,-0.783463061,1.04E+00
0.020155052,-0.754565597,-0.679813743,1.03E+00
0.020381514,-0.83686465,-0.56499064,1.02E+00
0.020607974,-0.900529444,-0.442547977,1.01E+00
0.020834436,-0.945865333,-0.315643221,9.94E-01
0.021060896,-0.973671496,-0.186888665,9.83E-01
0.021287358,-0.984974623,-0.058316298,9.74E-01
0.02151382,-0.980798304,0.068536289,9.67E-01
0.02174028,-0.962026894,0.192456886,9.63E-01
0.021966742,-0.929397166,0.31239301,9.61E-01
0.022193204,-0.883589447,0.427349448,9.63E-01
0.022419664,-0.825453877,0.536575437,9.69E-01
0.022646126,-0.755168736,0.640461504,9.80E-01
0.022872588,-0.670216262,0.737727523,9.93E-01
0.023099048,-0.570716381,0.823852241,1.00E+00
0.02332551,-0.459014475,0.896085083,1.01E+00
0.02355197,-0.337328523,0.952525496,1.02E+00
0.023778432,-0.20813328,0.991509557,1.03E+00
0.024004894,-0.074312635,1.01180518,1.03E+00
0.024231354,0.06095653,1.01280665,1.03E+00
0.024457816,0.194411889,0.994629741,1.03E+00
0.024684278,0.322928339,0.958112895,1.02E+00
0.024910738,0.443720132,0.904739738,1.02E+00
0.0251372,0.554508626,0.836513817,1.01E+00
0.02536366,0.653657794,0.755795717,9.98E-01
0.025590122,0.740314662,0.665106595,9.90E-01
0.025816584,0.814661145,0.566699505,9.85E-01
0.026043044,0.877434313,0.461332828,9.83E-01
0.026269506,0.92754364,0.348946214,9.82E-01
0.026495968,0.963434517,0.231378734,9.82E-01
0.026722428,0.984908581,0.110704191,9.82E-01
0.02694889,0.992015421,-0.011607789,9.84E-01
0.02717535,0.98462373,-0.13424173,9.88E-01
0.027401812,0.96249938,-0.255753458,9.92E-01
0.027628274,0.925456047,-0.374464482,9.97E-01
0.027854734,0.873510838,-0.488447756,1.00E+00
0.028081196,0.807025373,-0.595583022,1.01E+00
0.028307658,0.72682339,-0.693676293,1.01E+00
0.028534118,0.634252429,-0.780635178,1.01E+00
0.02876058,0.531171083,-0.854697526,1.01E+00
0.028987042,0.419776797,-0.914711058,1.01E+00
0.029213502,0.302048773,-0.96027559,1.01E+00
0.029439964,0.179174334,-0.990867853,1.01E+00
0.029666424,0.052955352,-1.00499594,1.01E+00
0.029892886,-0.073465481,-1.00205874,1.01E+00
0.030119348,-0.197267517,-0.982827425,1.00E+00
0.030345808,-0.316377819,-0.948500693,1.00E+00
0.03057227,-0.429207623,-0.900336623,9.95E-01
0.030798732,-0.534485996,-0.839573026,9.91E-01
0.031025192,-0.63116467,-0.767398715,9.87E-01
0.031251654,-0.718333423,-0.684940696,9.85E-01
0.031478114,-0.795155227,-0.593289137,9.84E-01
0.031704576,-0.860823572,-0.493546516,9.85E-01
0.031931038,-0.914578021,-0.386890203,9.86E-01
0.032157498,-0.955777764,-0.274596721,9.89E-01
0.03238396,-0.984008312,-0.157925591,9.93E-01
0.032610422,-0.998903692,-0.037794817,9.99E-01
0.032836882,-0.999378681,0.084989756,1.01E+00
0.033063344,-0.983899176,0.208423749,1.01E+00
0.033289804,-0.952018201,0.329539329,1.01E+00
0.033516266,-0.904345453,0.445611566,1.02E+00
0.033742728,-0.841955245,0.55434221,1.02E+00
0.033969188,-0.766218007,0.653744638,1.01E+00
0.034195648,-0.678768337,0.742138028,1.01E+00
0.034422112,-0.581450522,0.818189502,1.01E+00
0.034648572,-0.476234883,0.880945861,1.00E+00
0.034875032,-0.365123183,0.929838002,9.98E-01
0.035101496,-0.250061184,0.964660764,9.93E-01
0.035327956,-0.132855177,0.985542417,9.89E-01
0.035554416,-0.015063321,0.992907405,9.86E-01
0.03578088,0.102185376,0.987345815,9.85E-01
0.03600734,0.218288675,0.969159782,9.87E-01
0.0362338,0.332513362,0.937860787,9.90E-01
0.036460264,0.44314906,0.89289546,9.94E-01
0.036686724,0.548110604,0.834547281,9.97E-01
0.036913184,0.645615757,0.763616085,1.00E+00
0.037139648,0.734110594,0.681051075,1.00E+00
0.037366108,0.812120855,0.587942898,1.01E+00
0.037592568,0.87824899,0.485602111,1.01E+00
0.037819032,0.931240022,0.375600338,1.01E+00
0.038045492,0.970077336,0.259763569,1.01E+00
0.038271952,0.994072139,0.140119493,1.01E+00
0.038498412,1.00293815,0.018804869,1.01E+00
0.038724876,0.996836483,-0.102072418,1.00E+00
0.038951336,0.976353645,-0.220627517,1.00E+00
0.039177796,0.942297339,-0.335420936,1.00E+00
0.03940426,0.89522481,-0.445396185,1.00E+00
0.03963072,0.835319221,-0.54920876,9.99E-01
0.03985718,0.763183177,-0.644971192,9.98E-01
0.040083644,0.680159092,-0.731007099,9.97E-01
0.040310104,0.587813616,-0.806198895,9.95E-01
0.040536564,0.487624049,-0.869779706,9.94E-01
0.040763028,0.380968958,-0.921136439,9.94E-01
0.040989488,0.269196868,-0.959728539,9.94E-01
0.041215948,0.153690413,-0.985076129,9.94E-01
0.041442412,0.035911422,-0.996784925,9.95E-01
0.041668872,-0.082579754,-0.994598329,9.96E-01
0.041895332,-0.200141311,-0.978461683,9.97E-01
0.042121792,-0.315122366,-0.948576748,9.99E-01
0.042348256,-0.425997853,-0.905390978,1.00E+00
0.042574716,-0.531471372,-0.849403679,1.00E+00
0.042801176,-0.630239904,-0.78089124,1.01E+00
0.04302764,-0.72047925,-0.700171232,1.01E+00
0.0432541,-0.800057292,-0.608328283,1.01E+00
0.04348056,-0.867285728,-0.507193625,1.01E+00
0.043707024,-0.921117067,-0.398821235,1.01E+00
0.043933484,-0.960970521,-0.28522265,1.00E+00
0.044159944,-0.986588955,-0.168315321,1.00E+00
0.044386408,-0.997968495,-0.049911708,9.98E-01
0.044612868,-0.995315254,0.068290763,9.95E-01
0.044839328,-0.979009509,0.184717849,9.93E-01
0.045065792,-0.949577093,0.297925234,9.90E-01
0.045292252,-0.907666266,0.406612307,9.89E-01
0.045518712,-0.854013324,0.509653151,9.89E-01
0.045745176,-0.789342582,0.606137872,9.90E-01
0.045971636,-0.714160919,0.695290089,9.93E-01
0.046198096,-0.628682911,0.776076019,9.98E-01
0.046424556,-0.533328235,0.846873939,1.00E+00
0.04665102,-0.429268301,0.905899048,1.00E+00
0.04687748,-0.318243116,0.951783717,1.01E+00
0.04710394,-0.20216912,0.98363781,1.01E+00
0.047330404,-0.083000802,1.00092196,1.01E+00
0.047556864,0.037285268,1.00339067,1.01E+00
0.047783324,0.156711891,0.991096079,1.01E+00
0.048009788,0.273348987,0.964397073,1.00E+00
0.048236248,0.385380685,0.923953295,1.00E+00
0.048462708,0.491177082,0.870696008,9.99E-01
0.048689172,0.589368105,0.805771232,9.97E-01
0.048915632,0.678910196,0.730433583,9.94E-01
0.049142092,0.759097338,0.645863652,9.93E-01
0.049368556,0.829374731,0.552951097,9.94E-01
0.049595016,0.888930976,0.452360868,9.95E-01
0.049821476,0.936587989,0.345045894,9.96E-01
0.050047936,0.971278429,0.232510075,9.97E-01
0.0502744,0.992377102,0.11650116,9.98E-01
0.05050086,0.999603689,-0.001268593,9.99E-01
0.05072732,0.992870986,-0.119152434,1.00E+00
0.050953784,0.972234428,-0.235518053,1.00E+00
0.051180244,0.937917888,-0.348715961,1.00E+00
0.051406704,0.890351951,-0.457089692,1.00E+00
0.051633168,0.830209911,-0.55901742,1.00E+00
0.051859628,0.758421183,-0.652983606,1.00E+00
0.052086088,0.676145315,-0.737664998,1.00E+00
0.052312552,0.58467859,-0.812014103,1.00E+00
0.052539012,0.48528108,-0.875252545,1.00E+00
0.052765472,0.379045844,-0.926667571,1.00E+00
0.052991936,0.267093867,-0.965328991,1.00E+00
0.053218396,0.150995985,-0.990232229,1.00E+00
0.053444856,0.032757919,-1.00078595,1.00E+00
0.05367132,-0.08558207,-0.996962667,1.00E+00
0.05389778,-0.202190682,-0.979109704,1.00E+00
0.05412424,-0.315452456,-0.947768629,9.98E-01
0.0543507,-0.423915565,-0.903594375,9.96E-01
0.054577164,-0.526248336,-0.847331762,9.95E-01
0.054803624,-0.621216476,-0.779817641,9.94E-01
0.055030084,-0.707681298,-0.701989353,9.94E-01
0.055256548,-0.784619391,-0.614888787,9.94E-01
0.055483008,-0.851155937,-0.519640267,9.94E-01
0.055709468,-0.906582594,-0.417379886,9.96E-01
0.055935932,-0.95028317,-0.309151471,9.99E-01
0.056162392,-0.981511474,-0.195923001,1.00E+00
0.056388852,-0.999271095,-0.078913361,1.00E+00
0.056615316,-1.00264382,0.040093903,1.01E+00
0.056841776,-0.991239786,0.158927664,1.01E+00
0.057068236,-0.965251267,0.275425702,1.01E+00
0.0572947,-0.925274074,0.387627214,1.01E+00
0.05752116,-0.872164428,0.493795186,1.00E+00
0.05774762,-0.806970179,0.592405796,1.00E+00
0.057974084,-0.730891228,0.682148874,1.00E+00
0.058200544,-0.645241976,0.761935592,9.97E-01
0.058427004,-0.551409185,0.83090651,9.94E-01
0.058653464,-0.450800985,0.88843745,9.93E-01
0.058879928,-0.344775766,0.934131682,9.91E-01
0.059106388,-0.234548032,0.967762649,9.92E-01
0.059332848,-0.121125408,0.989110529,9.93E-01
0.059559312,-0.005444251,0.997731626,9.95E-01
0.059785772,0.111263096,0.992954135,9.98E-01
0.060012232,0.227278233,0.974268019,1.00E+00
0.060238696,0.340647727,0.941644549,1.00E+00
0.060465156,0.449485511,0.895498395,1.00E+00
0.060691616,0.552067518,0.836533308,1.00E+00
0.06091808,0.646821678,0.765663922,1.00E+00
0.06114454,0.732320428,0.683996379,1.00E+00
0.061371,0.807306647,0.592824161,1.00E+00
0.061597464,0.870733738,0.493607253,1.00E+00
0.061823924,0.921808064,0.387928128,1.00E+00
0.062050384,0.96002239,0.27742058,9.99E-01
0.062276844,0.985155165,0.163667738,9.97E-01
0.062503308,0.997191429,0.048085794,9.97E-01
0.062729768,0.996135712,-0.068109922,9.97E-01
0.062956228,0.981831372,-0.183722794,9.98E-01
0.063182692,0.954075515,-0.29726997,9.99E-01
0.063409152,0.912978351,-0.406971216,9.99E-01
0.063635612,0.859113991,-0.511054397,9.99E-01
0.063862076,0.793370724,-0.607968926,9.99E-01
0.064088536,0.716787338,-0.696397483,9.99E-01
0.064314996,0.630485058,-0.77519238,9.98E-01
0.06454146,0.535667002,-0.843337655,9.98E-01
0.06476792,0.43363145,-0.899943411,9.98E-01
0.06499438,0.325780332,-0.944270372,9.98E-01
0.065220844,0.213600397,-0.97576201,9.98E-01
0.065447304,0.098619908,-0.99407655,9.98E-01
0.065673764,-0.017671514,-0.999084949,9.98E-01
0.065900228,-0.133896738,-0.990791619,1.00E+00
0.066126688,-0.248760298,-0.969180465,1.00E+00
0.066353148,-0.360832751,-0.934158504,1.00E+00
0.066579608,-0.468356311,-0.885788441,1.00E+00
0.066806072,-0.569401443,-0.824612677,1.00E+00
0.067032532,-0.662206531,-0.751672745,1.00E+00
0.067258992,-0.74535054,-0.66830349,1.00E+00
0.067485456,-0.817736804,-0.575955391,1.00E+00
0.06771192,-0.878528237,-0.476114601,9.98E-01
0.067938376,-0.927098274,-0.37027657,9.97E-01
0.06816484,-0.963005126,-0.259932786,9.95E-01
0.068391296,-0.98598212,-0.146563485,9.94E-01
0.06861776,-0.995928764,-0.031613562,9.93E-01
0.068844224,-0.992900133,0.083539799,9.93E-01
0.06907068,-0.977058232,0.197631225,9.94E-01
0.069297144,-0.948566079,0.309514433,9.96E-01
0.069523608,-0.907471001,0.418038607,9.98E-01
0.069750064,-0.853759527,0.521802664,1.00E+00
0.069976528,-0.787673354,0.619059145,1.00E+00
0.070202992,-0.709972024,0.707957804,1.01E+00
0.070429448,-0.621881008,0.786859453,1.01E+00
0.070655912,-0.524897277,0.854459763,1.01E+00
0.070882376,-0.420646697,0.909768701,1.00E+00
0.071108832,-0.310822248,0.952078164,1.00E+00
0.071335296,-0.197145715,0.980938077,1.00E+00
0.07156176,-0.081333488,0.996153951,9.99E-01
0.071788216,0.034948692,0.997776091,9.97E-01
0.07201468,0.150138646,0.986078739,9.95E-01
0.072241144,0.262834817,0.961514294,9.94E-01
0.0724676,0.371836573,0.924617887,9.93E-01
0.072694064,0.476108491,0.875870109,9.94E-01
0.072920528,0.574604809,0.815606892,9.95E-01
0.073146984,0.666039765,0.74414432,9.97E-01
0.073373448,0.748888671,0.6620875,9.99E-01
0.073599912,0.821653485,0.570482731,1.00E+00
0.073826368,0.883091688,0.470701247,1.00E+00
0.074052832,0.932256579,0.364268154,1.00E+00
0.074279296,0.968448043,0.25277558,1.00E+00
0.074505752,0.991181791,0.137862593,1.00E+00
0.074732216,1.0001843,0.021204585,1.00E+00
0.07495868,0.995409846,-0.095507875,1.00E+00
0.075185136,0.977050185,-0.21061182,9.99E-01
0.0754116,0.945530295,-0.322532058,9.98E-01
0.075638064,0.901464939,-0.429847807,9.97E-01
0.07586452,0.845559418,-0.531331122,9.97E-01
0.076090984,0.778488636,-0.625891209,9.98E-01
0.07631744,0.700860381,-0.712398171,9.99E-01
0.076543904,0.61339891,-0.789540768,1.00E+00
0.076770368,0.517188549,-0.85594064,1.00E+00
0.076996824,0.413695246,-0.910431266,1.00E+00
0.077223288,0.304575622,-0.952205539,9.99E-01
0.077449752,0.191507369,-0.980781376,9.99E-01
0.077676208,0.076122381,-0.995916724,9.98E-01
0.077902672,-0.039997999,-0.997552574,9.97E-01
0.078129136,-0.155313239,-0.985789537,9.96E-01
0.078355592,-0.26832518,-0.960886359,9.95E-01
0.078582056,-0.377595901,-0.923264444,9.95E-01
0.07880852,-0.481779963,-0.873496175,9.95E-01
0.079034976,-0.5796597,-0.81226474,9.96E-01
0.07926144,-0.670143723,-0.740285993,9.97E-01
0.079487904,-0.752173722,-0.658236861,9.99E-01
0.07971436,-0.824563146,-0.56681484,1.00E+00
0.079940824,-0.885957479,-0.466971904,1.00E+00
0.080167288,-0.935049832,-0.360101074,1.00E+00
0.080393744,-0.970863581,-0.247960344,1.00E+00
0.080620208,-0.99284786,-0.132446691,1.00E+00
0.080846672,-1.00082505,-0.015432739,1.00E+00
0.081073128,-0.994899154,0.101304367,1.00E+00
0.081299592,-0.975397229,0.216100991,9.98E-01
0.081526056,-0.942828774,0.327415794,9.96E-01
0.081752512,-0.897859633,0.433841825,9.94E-01
0.081978976,-0.841281831,0.534121871,9.93E-01
0.08220544,-0.773970366,0.627166152,9.92E-01
0.082431896,-0.696816385,0.712049603,9.93E-01
0.08265836,-0.610648274,0.787955582,9.94E-01
0.082884824,-0.516206741,0.854035437,9.96E-01
0.08311128,-0.414278954,0.909260213,9.98E-01
0.083337744,-0.305951387,0.952456713,1.00E+00
0.083564208,-0.192733988,0.982564867,1.00E+00
0.083790664,-0.076431088,0.998873115,1.00E+00
0.084017128,0.041061901,1.00106716,1.00E+00
0.084243584,0.15788272,0.989167333,1.00E+00
0.084470048,0.272251189,0.963466346,1.00E+00
0.084696512,0.382489771,0.924489915,1.00E+00
0.084922968,0.487048954,0.872976124,9.99E-01
0.085149432,0.584539056,0.809847772,9.98E-01
0.085375896,0.673766315,0.736173451,9.96E-01
0.085602352,0.753757358,0.653101265,9.95E-01
0.085828816,0.823748052,0.561771214,9.94E-01
0.08605528,0.883098841,0.463229865,9.94E-01
0.086281736,0.931143165,0.358437955,9.96E-01
0.0865082,0.967078924,0.248434365,9.97E-01
0.086734664,0.990069151,0.134549499,9.98E-01
0.08696112,0.999490917,0.018430242,9.99E-01
0.087187584,0.995083869,-0.098127067,1.00E+00
0.087414048,0.976926029,-0.213349313,1.00E+00
0.087640504,0.945348918,-0.325558513,1.00E+00
0.087866968,0.900877655,-0.433179557,9.99E-01
0.088093432,0.844209433,-0.534737945,9.99E-01
0.088319888,0.77620554,-0.62886858,9.98E-01
0.088546352,0.69788295,-0.714343548,9.97E-01
0.088772816,0.610386252,-0.79010433,9.97E-01
0.088999272,0.514933169,-0.855287015,9.97E-01
0.089225736,0.412737995,-0.909202337,9.97E-01
0.0894522,0.304958642,-0.951253355,9.98E-01
0.089678656,0.19274728,-0.980807543,9.99E-01
0.08990512,0.077427611,-0.997173965,1.00E+00
0.090131584,-0.039366603,-0.999776959,1.00E+00
0.09035804,-0.155770689,-0.988387585,1.00E+00
0.090584504,-0.269901782,-0.963193953,1.00E+00
0.090810968,-0.380018353,-0.924719751,1.00E+00
0.091037424,-0.484568089,-0.873709798,9.98E-01
0.091263888,-0.58217901,-0.811055899,9.97E-01
0.091490352,-0.671640813,-0.737758636,9.95E-01
0.091716808,-0.75189662,-0.654909074,9.94E-01
0.091943272,-0.82204473,-0.563670874,9.93E-01
0.092169728,-0.881344676,-0.465251446,9.93E-01
0.092396192,-0.929207623,-0.360856831,9.94E-01
0.092622656,-0.965148389,-0.251645446,9.95E-01
0.092849112,-0.988687217,-0.138727859,9.97E-01
0.093075576,-0.999258757,-0.023281956,9.99E-01
0.09330204,-0.996273041,0.093258396,1.00E+00
0.093528496,-0.979344428,0.209129095,1.00E+00
0.09375496,-0.948498964,0.322381556,1.00E+00
0.093981424,-0.904200315,0.431108028,1.00E+00
0.09420788,-0.84724915,0.533580005,1.00E+00
0.094434344,-0.77867502,0.628291905,1.00E+00
0.094660808,-0.699663341,0.713959277,9.99E-01
0.094887264,-0.611512065,0.78951472,9.97E-01
0.095113728,-0.515591919,0.854107201,9.95E-01
0.095340192,-0.413305342,0.90710032,9.94E-01
0.095566648,-0.30603534,0.948062062,9.92E-01
0.095793112,-0.195088774,0.97672534,9.92E-01
0.096019576,-0.08166004,0.992905617,9.93E-01
0.096246032,0.033128694,0.996380746,9.94E-01
0.096472496,0.148076028,0.98683548,9.96E-01
0.09669896,0.261725903,0.963967264,9.98E-01
0.096925416,0.372356594,0.927721441,9.99E-01
0.09715188,0.478156,0.878441095,1.00E+00
0.097378344,0.577411056,0.816838741,1.00E+00
0.0976048,0.668600321,0.743894458,1.00E+00
0.097831264,0.750408351,0.660770833,1.00E+00
0.098057728,0.821720839,0.568765163,9.99E-01
0.098284184,0.881628335,0.469281822,9.97E-01
0.098510648,0.929436266,0.363798499,9.96E-01
0.098737112,0.964672625,0.253823102,9.95E-01
0.098963568,0.987082422,0.140836775,9.94E-01
