Frequency (GHz),Re( S21 ),Im( S21 ),S2
0.0,0.0567062944,4.01469515e-05,0.0032156054363571
0.000226459781,0.0519624278,-0.0219361056,0.0031812866317645
0.000452919563,0.0385098644,-0.0399684533,0.0030804869153006
0.000679379375,0.0187486671,-0.0507940874,0.0029315518328254
0.000905839125,-0.00378026487,-0.0524168573,0.0027618173316959
0.001132299,-0.0250091366,-0.0444748402,0.0026034683242929
0.00135875875,-0.0410622656,-0.0283245929,0.0024883922191556
0.0015852185,-0.048954457,-0.00682231179,0.0024430827983248
0.00181167825,-0.0471418947,0.016171962,0.0024838905908353
0.00203813813,-0.0358223617,0.0364792943,0.0026139805103916
0.002264598,-0.0169208534,0.0503567718,0.0028221197459015
0.00249105775,0.00623935228,0.0551804788,0.0030838147574711
0.0027175175,0.0295188073,0.0499271937,0.0033640846551718
0.00294397725,0.0489135236,0.035375379,0.0036439502303613
0.003170437,0.060420163,0.0139570748,0.0038453960339193
0.00339689675,0.0620853603,-0.0104588084,0.0039639786367287
0.0036233565,0.0533303618,-0.0335940905,0.003972690406241
0.0038498165,0.0355980136,-0.0511920974,0.0038878494084768
0.00407627625,0.0118281487,-0.05985865,0.0037229630814918
0.004302736,-0.0137723815,-0.0577028245,0.0035192944474593
0.004529196,-0.036505688,-0.0447245464,0.003332950307039
0.0047556555,-0.0519994386,-0.0228925012,0.0032280082259071
0.0049821155,-0.0570091419,0.0041222889,0.0032670355259493
0.005208575,-0.0500595756,0.0315333083,0.0035003106415949
0.005435035,-0.0317957215,0.0542595945,0.0039550715010099
0.0056614945,-0.00496347761,0.0678397715,0.0046268707071571
0.0058879545,0.0259973127,0.0692717582,0.0054744367517408
0.0061144145,0.055942025,0.0576810241,0.0064566107023254
0.006340874,0.078883037,0.0343047306,0.0073993480678819
0.006567334,0.090607509,0.00289654336,0.0082181106506214
0.0067937935,0.0883277804,-0.0311083253,0.0087695246933612
0.0070202535,0.0716709718,-0.0616986454,0.0089434510429513
0.007246713,0.0430124588,-0.0829596967,0.0087323828885776
0.007473173,0.00688989181,-0.0899774507,0.0081434122436244
0.007699633,-0.0301941633,-0.080031231,0.0073166854327624
0.0079260925,-0.0608002022,-0.0531925261,0.00652610942046
0.0081525525,-0.077704981,-0.0126238419,0.0061974254565265
0.008379012,-0.075148277,0.0355910435,0.0069139859134876
0.008605472,-0.0499780923,0.0831204727,0.0094068226918187
0.008831932,-0.00248696958,0.120506749,0.0145280615722408
0.009058392,0.0637755767,0.138796031,0.0233316624047705
0.009284851,0.140204832,0.130085871,0.0365797287499768
0.009511311,0.216965929,0.0903585926,0.0552388896034858
0.009737771,0.282396883,0.0195122957,0.0801287292115999
0.009964231,0.324847817,-0.0779509619,0.1116024566708007
0.01019069,0.335481077,-0.194939062,0.1505487909185198
0.01041715,0.307292491,-0.320076138,0.1968774091419801
0.01064361,0.237691894,-0.440499902,0.2505376001353168
0.01087007,0.12838389,-0.542921126,0.3112457722686399
0.01109653,-0.0148031246,-0.615002155,0.3784467831525671
0.011322989,-0.182378337,-0.646543086,0.4512798198612889
0.011549449,-0.361962914,-0.630539358,0.5285970330984237
0.011775909,-0.539395988,-0.563968062,0.609008006826532
0.012002369,-0.700037837,-0.448205233,0.6909409041202228
0.012228829,-0.83014971,-0.289087832,0.7727203156235444
0.012455288,-0.918064356,-0.096785754,0.8522096439350433
0.012681748,-0.954034388,0.115868792,0.9236071904460738
0.012908208,-0.934745133,0.336045682,0.9866751640580328
0.013134668,-0.861564815,0.547446966,1.0419921110285897
0.013361128,-0.739060223,0.735550761,1.087244935228489
0.013587587,-0.575870574,0.888531625,1.1211153666242302
0.013814047,-0.383490503,0.998003006,1.1430749658762291
0.014040507,-0.174858287,1.05957329,1.1532709774139982
0.014266967,0.037073493,1.0728879,1.152462889849631
0.014493426,0.240610421,1.0411706,1.1419295929981574
0.014719886,0.426275015,0.970372021,1.1233322475528746
0.014946346,0.587372482,0.868009567,1.098447041014368
0.015172806,0.721619606,0.74258703,1.072170352887816
0.015399266,0.825714648,0.603389502,1.045883571045572
0.015625725,0.901672006,0.455661744,1.0206400313491857
0.015852185,0.934621334,0.314001799,0.972114167743176
0.016078645,0.967725515,0.169153541,0.965105592814854
0.016305105,0.973519623,0.0237375982,0.9483039299343666
0.016531565,0.96079576,-0.115337096,0.9364311381476907
0.016758024,0.932160139,-0.248493358,0.9306714737106156
0.016984484,0.888662934,-0.375791967,0.9309414127272172
0.017210944,0.830519915,-0.496916324,0.9366891622692802
0.017437404,0.757473171,-0.61093092,0.9470021937968416
0.017663864,0.669197261,-0.716143012,0.9606857877663342
0.017890324,0.565715313,-0.810127735,0.9763407623789182
0.018116784,0.447772264,-0.889907598,0.9924355333858152
0.018343242,0.317154735,-0.95226717,1.0073998889927291
0.018569702,0.176887676,-0.994334042,1.0199894370007387
0.018796162,0.0309249293,-1.01419449,1.02954681479857
0.019022622,-0.116108753,-1.0112927,1.036194167596505
0.019249082,-0.260710686,-0.987834394,1.0437868517639377
0.019475542,-0.403213382,-0.942258239,1.050431620387259
0.019702002,-0.535786331,-0.872754037,1.048766601586239
0.019928462,-0.653530538,-0.784154177,1.0419999374051168
0.020154922,-0.754306436,-0.680525303,1.032092887414264
0.02038138,-0.836840868,-0.565635562,1.0202462273540491
0.02060784,-0.900691092,-0.443054914,1.0075421000276998
0.0208343,-0.946141422,-0.315965235,0.9950176201527872
0.02106076,-0.973981082,-0.187009946,0.9836118679968135
0.02128722,-0.98524034,-0.0582524613,0.9740918768108237
0.02151368,-0.980957091,0.0687428787,0.9670023977551452
0.02174014,-0.962039828,0.192745745,0.9626715528738744
0.0219666,-0.929253221,0.312696368,0.9612905672992662
0.02219306,-0.883304358,0.427604198,0.9630719390090152
0.02241952,-0.825066745,0.536732972,0.968817416936848
0.022645978,-0.754733682,0.640498459,0.979861206726652
0.022872438,-0.669784069,0.737645626,0.9927317686431288
0.023098898,-0.57033205,0.823669791,1.0037105718631862
0.023325358,-0.458709359,0.895838916,1.012941639454246
0.023551818,-0.337113082,0.952261388,1.0204469811312251
0.023778278,-0.207995757,0.991272211,1.0258828312308317
0.024004738,-0.0742220581,1.01162791,1.028899942199568
0.024231198,0.0610433817,1.01270461,1.0292969215646235
0.024457658,0.19454132,0.994596899,1.0270693166877587
0.024684116,0.323140472,0.958122194,1.0224179032797565
0.024910576,0.444040626,0.904748023,1.0157410626608805
0.025137036,0.554943323,0.836469114,1.0076426704182273
0.025363496,0.65419066,0.755645752,0.998965922146881
0.025589956,0.740909457,0.66480875,0.9909174975485971
0.025816416,0.815267503,0.566227198,0.985274341202786
0.026042876,0.877997041,0.460677326,0.983102402695266
0.026269336,0.92800349,0.348116785,0.9823757734509164
0.026495796,0.963738024,0.230408072,0.9818788585461816
0.026722256,0.985018849,0.109641828,0.9822834633324664
0.026948714,0.991915762,-0.0127051342,0.9840582993390806
0.027175174,0.984317839,-0.13531734,0.9871923906783056
0.027401634,0.962008834,-0.256758958,0.9913861592072852
0.027628094,0.92481488,-0.375364661,0.9961811909970594
0.027854554,0.872758985,-0.489223629,1.0010480050701598
0.028081014,0.806201756,-0.596232235,1.0054541494305786
0.028307474,0.725959539,-0.694210827,1.0089459245891166
0.028533934,0.63336724,-0.781075358,1.011232775580046
0.028760394,0.530269265,-0.855064809,1.0123213209938469
0.028986852,0.418850899,-0.915023506,1.0127040921256405
0.029213312,0.301081181,-0.96054256,1.0132918871237084
0.029439772,0.178140596,-0.991084874,1.0139832994148312
0.029666232,0.0518333428,-1.00514138,1.0129958892141266
0.029892692,-0.0746860057,-1.00209785,1.0097781004220427
0.030119152,-0.198582008,-0.982718349,1.005170167362598
0.030345612,-0.317765176,-0.948201358,1.0000605223913552
0.030572072,-0.430629373,-0.899809897,0.9950995076295236
0.030798532,-0.535890281,-0.838795364,0.9907560559381514
0.031024992,-0.632490337,-0.766362786,0.9873559461640552
0.03125145,-0.719518304,-0.683659852,0.9850973830276984
0.03147791,-0.79614234,-0.591795146,0.9840641203698368
0.03170437,-0.86156863,-0.491887569,0.9842538847368064
0.03193083,-0.915053487,-0.385124058,0.9856434241212466
0.03215729,-0.955975831,-0.272784531,0.9883011898090306
0.03238375,-0.98393929,-0.15612416,0.9925112797414096
0.03261021,-0.998592198,-0.0360503122,0.9984860029161886
0.03283667,-0.998856843,0.0866461545,1.0052225488975646
0.03306313,-0.983201087,0.209973663,1.010773316631619
0.033289588,-0.951175511,0.33097738,1.0142808787977755
0.033516048,-0.903382242,0.446942925,1.015857453368502
0.033742508,-0.840884805,0.555577815,1.015753963800062
0.033968968,-0.765040576,0.654894769,1.014174241389975
0.034195428,-0.677474499,0.743206501,1.011327599923964
0.034421888,-0.580025315,0.819169641,1.007468266776918
0.034648348,-0.47466287,0.881818354,1.002908449607906
0.034874808,-0.363395452,0.930571973,0.9980204514673972
0.035101268,-0.248179436,0.965216219,0.993235381873934
0.035327728,-0.13083522,0.985876918,0.9890711522376272
0.035554188,-0.0129357856,0.992979348,0.9861753201035942
0.035780648,0.10437651,0.987122953,0.9853061801792202
0.036007108,0.220490143,0.968620002,0.9868406114346404
0.036233568,0.334665567,0.936995745,0.9899620678835366
0.036460024,0.445189476,0.8917135,0.9933466356234046
0.036686484,0.549980998,0.833073497,0.996490549564885
0.036912944,0.647269249,0.761889696,0.9994333895719963
0.037139404,0.735513866,0.679118872,1.0021830893848185
0.037365864,0.813255429,0.585854053,1.004609364214501
0.037592324,0.879108727,0.483403057,1.0065106694045058
0.037818784,0.931828618,0.373330563,1.007680282593687
0.038045244,0.970404387,0.257454634,1.0079675628769196
0.038271704,0.994148493,0.137794197,1.0073184668610458
0.038498164,1.0027715,0.0164790209,1.0058222393420726
0.038724624,0.996430516,-0.104387142,1.0037704486309544
0.038951084,0.975705564,-0.222919837,1.0016946013486645
0.039177544,0.941398442,-0.337676585,1.0002565026572896
0.039404004,0.894061983,-0.447594792,0.9996879272714154
0.039630464,0.833878517,-0.551319063,0.9993060903413172
0.039856924,0.761456788,-0.646951675,0.9983629097765828
0.040083384,0.678149581,-0.732808292,0.9968948470344328
0.040309844,0.585537016,-0.807768285,0.9953431993580254
0.040536304,0.48510927,-0.871066868,0.9940884923672624
0.04076276,0.378258288,-0.922095954,0.993340280823861
0.04098922,0.26634419,-0.96032542,0.9931641398449323
0.04121568,0.150756478,-0.985288262,0.993520474893945
0.04144214,0.0329598635,-0.996604979,0.9943078367695292
0.0416686,-0.0854872242,-0.994033575,0.9954108137287015
0.04189506,-0.202948615,-0.977531135,0.9967552602248064
0.04212152,-0.317783237,-0.947309911,0.998382253197026
0.04234798,-0.4284769,-0.903821349,1.0004854847417897
0.04257444,-0.533743978,-0.847565591,1.0032500650984435
0.0428009,-0.632288694,-0.778815031,1.0063418450717565
0.04302736,-0.722290695,-0.697881877,1.0087429623286264
0.04325382,-0.801619112,-0.60584861,1.0096457389626008
0.04348028,-0.868584991,-0.504542947,1.0090034719579148
0.04370674,-0.922138572,-0.396016538,1.0071686443397048
0.0439332,-0.961695313,-0.282282174,1.0045411008043343
0.04415966,-0.986994147,-0.165260822,1.001468585500373
0.04438612,-0.998028338,-0.0467710495,0.9982480945223736
0.04461258,-0.995005369,0.0714806244,0.99514516400344
0.04483904,-0.978309095,0.187911183,0.9923992980561784
0.045065496,-0.948473275,0.301068664,0.9902438938319704
0.045291956,-0.906156421,0.40964672,0.9889298945262878
0.045518416,-0.852107048,0.512517631,0.9887607433371264
0.045744876,-0.787061751,0.608773351,0.9900711927749553
0.045971336,-0.7115376,0.697642565,0.9929909047135392
0.046197796,-0.62575829,0.778097391,0.997008987384731
0.046424256,-0.530150831,0.848523557,1.0010521303939228
0.046650716,-0.425893247,0.907146513,1.0042998538882624
0.046877176,-0.314727813,0.952610612,1.0065205743707777
0.047103636,-0.198569492,0.984035969,1.007756631438907
0.047330096,-0.079368785,1.00089025,1.008080696577439
0.047556556,0.0409021564,1.00293362,1.0075488325244748
0.047783016,0.160269275,0.990220785,1.006223443555042
0.048009476,0.276805371,0.963112533,1.0042069646361238
0.048235936,0.388695121,0.922269225,1.0016644204713052
0.048462396,0.494307876,0.868623912,0.9988477767738152
0.048688856,0.592272401,0.803325415,0.9961183193712272
0.048915316,0.681543291,0.727632225,0.9939499123655612
0.049141776,0.761413991,0.642731249,0.992854724131648
0.049368232,0.83132875,0.549518108,0.993077641596462
0.049594692,0.890476406,0.448666662,0.9942500032328992
0.049821152,0.937681615,0.34114027,0.9956234949246812
0.050047612,0.971885622,0.228453547,0.996752685387208
0.050274072,0.992474258,0.112361617,0.9976302857675052
0.050500532,0.999180734,-0.00541973347,0.9983915127076644
0.050726992,0.991928637,-0.123243921,0.999111484964132
0.050953452,0.97078687,-0.239480495,0.999778054449842
0.051179912,0.935988426,-0.352485567,1.000320408549269
0.051406372,0.887972355,-0.460608304,1.0006549129580025
0.051632832,0.827417314,-0.562234342,1.0007268668311475
0.051859292,0.755257547,-0.655855238,1.0005600555124938
0.052085752,0.672653913,-0.740154624,1.000292154102793
0.052312212,0.580903828,-0.814089775,1.0001914191446042
0.052538672,0.481267869,-0.876886606,1.0005488815140005
0.052765132,0.374839425,-0.927833915,1.0013803683585578
0.052991592,0.262743115,-0.966001987,1.0021937833678514
0.053218052,0.146555498,-0.990389347,1.0023495726451146
0.053444512,0.0282889325,-1.0004102,1.0016208319660294
0.053670968,-0.0900136456,-0.996044874,1.0002078474158782
0.053897428,-0.206515968,-0.97764957,0.998447526760162
0.054123888,-0.31960088,-0.945777655,0.9966400951940736
0.054350348,-0.427817047,-0.901093841,0.9949975359919334
0.054576808,-0.529835105,-0.844354689,0.9936600793266476
0.054803268,-0.624426842,-0.776407063,0.9927168084863788
0.055029728,-0.710461199,-0.698198974,0.9922369225791704
0.055256188,-0.786924601,-0.610778153,0.9923002798411006
0.055482648,-0.852952778,-0.515273929,0.9930356634050144
0.055709108,-0.907848477,-0.412824035,0.9946125410649008
0.055935568,-0.951003909,-0.304470718,0.9971108530527156
0.056162028,-0.981680095,-0.191180825,1.0002459167668896
0.056388488,-0.998885751,-0.0741717219,1.003274187880445
0.056614948,-1.0017091,0.0447731465,1.0054257556703206
0.056841408,-0.989766419,0.163484037,1.0063645945339008
0.057067868,-0.963255644,0.279801399,1.0061502585802118
0.057294328,-0.922776937,0.391766101,1.004997953351844
0.057520788,-0.869190454,0.497642636,1.0031402384897543
0.057747248,-0.803550124,0.595908642,1.0007999113906996
0.057973704,-0.727060854,0.685254395,0.9981910712860252
0.058200164,-0.641044676,0.764594018,0.9955422889893294
0.058426624,-0.546895623,0.833071649,0.9931031948241372
0.058653084,-0.446029216,0.890068889,0.9911646886912692
0.058879544,-0.339809895,0.935195982,0.9900622894888552
0.059106004,-0.229456797,0.968235493,0.9901303915944524
0.059332464,-0.115980841,0.988976896,0.9915268563008622
0.059558924,-0.000320270687,0.996984243,0.993977683363596
0.059785384,0.116290592,0.991595745,0.9967856232898156
0.060011844,0.232133731,0.972313583,0.9992797727542784
0.060238304,0.34525907,0.93911916,1.0011486220963703
0.060464764,0.453786373,0.892435849,1.0023638169008455
0.060691224,0.555998743,0.83297509,1.002982102778088
0.060917684,0.650329411,0.761655331,1.0030471860523265
0.061144144,0.735357702,0.679586887,1.0025892868730717
0.061370604,0.809831023,0.588066757,1.0016487965017236
0.061597064,0.872706771,0.488557786,1.0003058184104685
0.061823524,0.923196495,0.382646561,0.9987101590254118
0.062049984,0.960797548,0.271970898,0.9971000976017386
0.06227644,0.985294402,0.158117756,0.9958062833750132
0.0625029,0.996678352,0.0425074324,0.9951746191546764
0.06272936,0.994961083,-0.0736414939,0.9953706263083566
0.06295582,0.979993284,-0.189127207,0.9961559371127254
0.06318228,0.95158428,-0.302463591,0.9969968658237336
0.06340874,0.90985775,-0.411869973,0.9974779998940831
0.0636352,0.855400622,-0.515577137,0.9975300083151036
0.06386166,0.789114177,-0.612042665,0.9972974081226896
0.06408812,0.712045431,-0.699957252,0.9969488504353672
0.06431458,0.625322163,-0.778182924,0.9965964707441884
0.06454104,0.530152023,-0.845712662,0.9962910741581188
0.0647675,0.427836448,-0.901666343,0.9960462203362505
0.06499396,0.319777876,-0.945310533,0.9958698937798156
0.06522042,0.207465678,-0.9760952,0.9958038470110396
0.06544688,0.0924289599,-0.993684769,0.9959525327707792
0.06567334,-0.0238399543,-0.997953892,0.9964803139789736
0.0658998,-0.139959186,-0.988911688,0.997534900408792
0.06612626,-0.254627317,-0.966549337,0.999052691417758
0.06635272,-0.366406351,-0.93078196,1.000608671114577
0.066579176,-0.473531097,-0.88168782,1.001605111762376
0.066805636,-0.574067414,-0.819829106,1.0016731588614067
0.067032096,-0.666257262,-0.746269882,1.0008174759480306
0.06725856,-0.748687625,-0.66236639,0.9992623944297726
0.067485016,-0.820276856,-0.569590449,0.9972874000812664
0.06771148,-0.88020736,-0.469444871,0.9951434835063762
0.067937936,-0.927876353,-0.363436252,0.9930404357243882
0.0681644,-0.962870181,-0.253063768,0.9911602561333306
0.068390856,-0.984948575,-0.139804423,0.9896689720848936
0.068617312,-0.994038999,-0.0250954945,0.9887433153771216
0.068843776,-0.99021852,0.0897019804,0.9885791626386724
0.069070232,-0.973665535,0.203341573,0.9893723693569504
0.069296696,-0.944553018,0.31469959,0.9912162357590764
0.069523152,-0.902930915,0.422646344,0.9939141693593035
0.069749616,-0.848784089,0.525799215,0.9968992442341762
0.069976072,-0.782349229,0.622427046,0.9994857437091804
0.070202536,-0.70437628,0.710691929,1.0012289617723793
0.070428992,-0.616080523,0.788963437,1.0020185157428068
0.070655456,-0.518947482,0.85593915,1.0019383175768628
0.070881912,-0.414594263,0.910628021,1.0011317955428896
0.071108376,-0.304709017,0.95231539,0.9997521870719585
0.071334832,-0.191014022,0.980545759,0.9979563420935024
0.071561296,-0.0752304867,0.995118976,0.9959214025244074
0.071787752,0.0409675017,0.996083736,0.9938611453192572
0.072014216,0.156007499,0.983717084,0.992037641097698
0.072240672,0.268477589,0.958477616,0.9907595561682964
0.072467136,0.377168983,0.920912504,0.9903362817608043
0.072693592,0.481040597,0.871515989,0.9909401750447646
0.072920048,0.579043329,0.810639977,0.9924283491699628
0.073146512,0.669894099,0.738620043,0.9943176717963436
0.073372968,0.752074957,0.656079948,0.9960576391142346
0.073599432,0.82410264,0.56408298,0.99733476958065
0.073825888,0.88475287,0.464011133,0.9980939725211806
0.074052352,0.933096886,0.357394487,0.99840061800089
0.074278808,0.968453526,0.245826513,0.9983329065155718
0.074505272,0.990352929,0.130942434,0.9979448450007234
0.074731728,0.998534977,0.0144128324,0.9972798300301812
0.074958192,0.992963254,-0.102077134,0.9963957650799224
0.075184648,0.973837972,-0.216870263,0.995393106682762
0.075411112,0.941590607,-0.328396171,0.9944369163180896
0.075637568,0.896840692,-0.43523699,0.993754464291299
0.075864032,0.840301335,-0.536166549,0.9935809018693518
0.076090488,0.772654593,-0.630095005,0.9940148354099456
0.076316952,0.694520116,-0.715893507,0.9948617048934124
0.076543408,0.606636703,-0.792254686,0.9956755769156688
0.076769872,0.51010555,-0.85781008,0.996045805490409
0.076996328,0.406407446,-0.911408603,0.9958326537866544
0.077222784,0.297209352,-0.95226419,0.995140486472616
0.077449248,0.184193641,-0.979917765,0.9941661235474324
0.077675704,0.0689904466,-0.994152308,0.9930984932237944
0.077902168,-0.0468259491,-0.994931042,0.9920804478443216
0.078128624,-0.161728397,-0.982374966,0.9912166482196908
0.078355088,-0.274236083,-0.956759095,0.990593395084402
0.078581544,-0.382931471,-0.918513894,0.9903042849532672
0.078808008,-0.486489713,-0.868214786,0.9904691554838484
0.079034464,-0.583712161,-0.806542695,0.991231005757153
0.079260928,-0.673521698,-0.734205484,0.9926891704124772
0.079487384,-0.754868805,-0.651870012,0.9947614253070082
0.079713848,-0.826570868,-0.560224295,0.9970706605345204
0.079940304,-0.887271404,-0.460213542,0.999047048596317
0.080166768,-0.935661912,-0.353227645,1.0002329827597418
0.080393224,-0.970760882,-0.241024107,1.0004693101765654
0.080619688,-0.992015421,-0.125504285,0.9998459210551685
