Frequency (GHz),Re( S21 ),Im( S21 ),S2
0.0,0.0566497073,4.11836518e-05,0.0032091910332688
0.000226434813,0.0519096553,-0.0219114404,0.0031747235337675
0.000452869625,0.0384690054,-0.0399225056,0.0030736708298472
0.000679304438,0.0187261254,-0.050731454,0.0029243481974506
0.00090573925,-0.00377919292,-0.0523442514,0.0027542029537529
0.00113217413,-0.0249816868,-0.0444004014,0.0025954803198544
0.00135860888,-0.0410081893,-0.0282577015,0.0024801692837277
0.00158504375,-0.0488767363,-0.00677216565,0.0024347975789307
0.0018114785,-0.0470469818,0.0161968395,0.0024757561062782
0.00203791337,-0.0357198492,0.0364728011,0.0026061728469509
0.00226434825,-0.0168228354,0.0503165759,0.0028147656011959
0.002490783,0.00631960481,0.0551086925,0.0030769053940141
0.00271721775,0.0295688137,0.0498313084,0.0033574740404812
0.0029436525,0.0489312112,0.0352695584,0.00363820517923
0.0031700875,0.0603944659,0.0138535351,0.0038394119461131
0.00339652225,0.0620199032,-0.0105434544,0.0039576328236222
0.003622957,0.0532284938,-0.0336401798,0.0039649342491929
0.00384939175,0.0354831629,-0.0511890836,0.0038793771291957
0.00407582675,0.0117197512,-0.0598012023,0.0037135363647154
0.0043022615,-0.0138524743,-0.0575946122,0.0035090303987005
0.0045286965,-0.0365370028,-0.0445780717,0.0033221570500975
0.004755131,-0.0519671813,-0.0227281991,0.0032171589665963
0.004981566,-0.0569072589,0.00427784724,0.0032567360925204
0.0052080005,-0.0498931035,0.0316518098,0.003491158840477
0.0054344355,-0.0315817744,0.054315336,0.0039475641990453
0.0056608705,-0.00472956011,0.0678150877,0.0046212548585927
0.005887305,0.0262170471,0.069160752,0.0054705431758491
0.00611374,0.0561172552,0.0574968457,0.0064550335966315
0.006340175,0.078978464,0.0340652466,0.0073980388017181
0.0065666095,0.0906026214,0.00263774116,0.0082157926829788
0.0067930445,0.0882183313,-0.0313426331,0.0087648346269977
0.007019479,0.0714643672,-0.0618537441,0.0089330414384847
0.007245914,0.042750705,-0.0830043629,0.0087173470384319
0.007472349,0.00662087882,-0.0898844525,0.0081230508375738
0.0076987835,-0.0304103047,-0.0797951445,0.0072920517177227
0.0079252185,-0.060900487,-0.0528324731,0.0065001395306993
0.0081516535,-0.0776334107,-0.0121848444,0.006175416889967
0.008378088,-0.0748660341,0.0360404551,0.0069038374656774
0.008604523,-0.0494735464,0.0834958702,0.0094191921338482
0.008830958,-0.00178214768,0.120718442,0.0145761182892606
0.009057393,0.0646294877,0.138767228,0.0234333142471684
0.009283827,0.141114131,0.1297535,0.0367491687301351
0.009510262,0.217827097,0.0896942168,0.0554936967148128
0.009736697,0.283093959,0.0185312349,0.0804855962892126
0.009963132,0.325270087,-0.0791881382,0.1120713907285698
0.010189567,0.335549176,-0.196348086,0.1511458203901423
0.010416001,0.306955934,-0.321545094,0.1976131928932811
0.010642436,0.236937657,-0.4419038,0.2514184217590897
0.010868871,0.127236605,-0.544136763,0.3122739705000442
0.011095306,-0.0162829608,-0.615916669,0.3796184779644699
0.011321741,-0.184097424,-0.647064686,0.4525845693917144
0.011548176,-0.363802552,-0.630606592,0.5300169707155672
0.01177461,-0.541221619,-0.563557148,0.610517499934875
0.012001045,-0.701711774,-0.44733423,0.6925073270999199
0.01222748,-0.83154577,-0.287817031,0.7743070109385478
0.012453915,-0.919085145,-0.0952170417,0.8537837887897707
0.01268035,-0.954604506,0.117587239,0.9250965216511472
0.012906784,-0.934831917,0.337783486,0.9880083964562072
0.013133219,-0.861203313,0.549061418,1.0431395870583466
0.013359654,-0.738327205,0.736915052,1.0881708555072749
0.013586089,-0.574878693,0.889554381,1.121792508421681
0.013812524,-0.382373542,0.99863863,1.1434886389499026
0.014038958,-0.173753366,1.05982554,1.1534204074326215
0.014265393,0.0380440578,1.0728066,1.1523613513374498
0.014491828,0.241353408,1.0408417,1.1416029120121045
0.014718263,0.426735699,0.969904721,1.1228185246191065
0.014944698,0.587536514,0.867519557,1.0977893370607483
0.015171133,0.721523106,0.742166758,1.071407089172118
0.015397567,0.825411499,0.603140652,1.045082788776412
0.015624002,0.901238501,0.455639482,1.0198381732419557
0.015850437,0.934207439,0.314168572,0.971445430715458
0.016076872,0.967319608,0.169628337,0.9644809967346594
0.016303307,0.973268032,0.0244053826,0.9478462848130054
0.016529741,0.960740983,-0.114533804,0.9361412286745168
0.016756176,0.932330608,-0.247623995,0.9305580055134096
0.016982612,0.88906306,-0.374927908,0.93100406085382
0.017209046,0.831130743,-0.496121019,0.9369143774533304
0.01743548,0.758259058,-0.610253751,0.9473664396486174
0.017661916,0.670113564,-0.715614557,0.9611563828470884
0.01788835,0.566716552,-0.809760571,0.9768798326570148
0.018114786,0.448818147,-0.889698625,0.993001372403404
0.01834122,0.318215013,-0.952203572,1.0079524370281494
0.018567654,0.177943096,-0.994396925,1.0204889898635208
0.01879409,0.0319685973,-1.0143646,1.0299575329464894
0.019020524,-0.115076073,-1.01155388,1.0364837547201555
0.01924696,-0.259661973,-0.988166094,1.0438965695534694
0.019473394,-0.40212068,-0.942711771,1.0504065244656189
0.019699828,-0.534675896,-0.873353183,1.0486240960196342
0.019926264,-0.652414501,-0.784920037,1.0417441455991605
0.020152698,-0.753209949,-0.681484699,1.0317466222437033
0.020379134,-0.835802495,-0.566811144,1.0198406836108138
0.020605568,-0.899762988,-0.444457382,1.007115798988982
0.020832002,-0.945382118,-0.317588866,0.994610036841332
0.021058438,-0.97344929,-0.188830093,0.9832603242238928
0.021284872,-0.984988451,-0.0602260977,0.9738294314475492
0.021511308,-0.981024802,0.066673778,0.9668550548119323
0.021737742,-0.962448061,0.190649569,0.9626535282825456
0.021964176,-0.930003405,0.310644746,0.9614064915289986
0.022190612,-0.884376884,0.425663948,0.9633122695804962
0.022417046,-0.826423705,0.534955561,0.9691535924307516
0.022643482,-0.756341517,0.638910234,0.980258777447796
0.022869916,-0.671619177,0.736288011,0.9931923540564932
0.023096352,-0.572341383,0.822575629,1.0042053241190985
0.023322786,-0.460843921,0.895014763,1.0134285455106005
0.02354922,-0.339335114,0.95170486,1.0208904601410125
0.023775656,-0.210277021,0.990978181,1.0262541807787031
0.02400209,-0.0765417144,1.01159251,1.0291780403313913
0.024228526,0.0587018952,1.01292896,1.0294709905067534
0.02445496,0.192194432,0.995087266,1.0271373666471573
0.024681394,0.320808142,0.958889782,1.0223874779974995
0.02490783,0.441749841,0.905806124,1.0156276562994286
0.025134264,0.552729726,0.837829947,1.007469170094058
0.0253607,0.652097225,0.757314444,0.9987559579437296
0.025587134,0.738983333,0.666781604,0.9906940738846016
0.025813568,0.813553929,0.568492711,0.9850539578514664
0.026040004,0.876546204,0.463226974,0.9829124771880065
0.026266438,0.926884234,0.350920737,0.98225974689439
0.026492874,0.963003755,0.233406141,0.981854658800612
0.026719308,0.984701514,0.112766199,0.9823532873108
0.026945742,0.99203229,-0.00952377915,0.9842187667719422
0.027172178,0.984870851,-0.132148638,0.9874338556747194
0.027398612,0.962987423,-0.253668666,0.9916925689664003
0.027625048,0.926196814,-0.372412026,0.9965312553731752
0.027851482,0.874514759,-0.48646006,1.0014194536840315
0.028077916,0.80829668,-0.593699515,1.0058226370102576
0.028304352,0.728356302,-0.691941679,1.0092861898004544
0.028530786,0.63602972,-0.779095531,1.0115236511474504
0.028757222,0.533163309,-0.853394687,1.0125456058636575
0.028983656,0.421945989,-0.913677812,1.0128455617742955
0.029210092,0.30435586,-0.95953536,1.013340596606669
0.029436526,0.181579739,-0.990445495,1.0139534801811032
0.02966296,0.0554019324,-1.00491178,1.0129170596964228
0.029889396,-0.0710393339,-1.00230944,1.0096708004740695
0.03011583,-0.194913745,-0.983393848,1.005054828274172
0.030342266,-0.314137071,-0.949355841,0.9999586122172764
0.0305687,-0.427110404,-0.901450694,0.9950366509181248
0.030795134,-0.532553852,-0.840917051,0.9907550919425746
0.03102157,-0.629412472,-0.768945038,0.987436531373972
0.031248004,-0.71677202,-0.686666548,0.9852730767971168
0.03147444,-0.79379338,-0.595175207,0.9843414571593172
0.031700874,-0.859671235,-0.495577127,0.9846313210919994
0.031927308,-0.913646758,-0.389050066,0.9861103522585148
0.032153744,-0.955081761,-0.276870996,0.9888387186208932
0.032380178,-0.983563006,-0.160298675,0.9930918519785116
0.032606614,-0.998730302,-0.0402517691,0.9990824210486908
0.032833048,-0.999509275,0.0824747831,1.0058208806584177
0.033059482,-0.984360814,0.205898345,1.0113603406124816
0.033285918,-0.952820063,0.327060074,1.0148343644602094
0.033512352,-0.905482173,0.443234414,1.016354711374725
0.033738788,-0.843411207,0.552120864,1.0161799125573034
0.033965224,-0.767965853,0.651728868,1.014522068758579
0.034191656,-0.680770934,0.740370154,1.011597029513216
0.034418092,-0.583663881,0.816703081,1.0076674484988748
0.034644528,-0.478610337,0.879763544,1.0030517480346934
0.03487096,-0.367611885,0.928970277,0.99812427354271
0.035097396,-0.252616912,0.964108407,0.9933203246764934
0.035323832,-0.135436833,0.98529774,0.9891547721821776
0.035550264,-0.0176387783,0.992956758,0.9862742497577872
0.0357767,0.0996385142,0.987675488,0.9854307031080218
0.036003136,0.215784684,0.969763756,0.9870047723002072
0.036229572,0.330072999,0.938743591,0.9901877143124294
0.036456004,0.440803081,0.89405781,0.9936467238410884
0.03668244,0.545890331,0.835983276,0.9968642912309816
0.036908876,0.643551767,0.765317202,0.9998692964859311
0.037135308,0.732235432,0.683006942,1.0026672106964178
0.037361744,0.8104707,0.590138674,1.0051264101089683
0.03758818,0.876860857,0.488015413,1.007044005864335
0.037814612,0.930150568,0.378200084,1.0082153826883296
0.038041048,0.969318151,0.262509167,1.0084887406170926
0.038267484,0.993667543,0.142962769,1.0078135393318044
0.03849392,1.00290239,0.0216918718,1.0062837411698995
0.038720352,0.997171223,-0.0991969183,1.0041904765795326
0.038946788,0.977048874,-0.217815816,1.0020682318844136
0.039173224,0.943336546,-0.332717031,1.0005844617366653
0.039399656,0.896591008,-0.442840457,0.999983105982425
0.039626092,0.836991072,-0.546843648,0.999592029965657
0.039852528,0.765127599,-0.642837286,0.9986600190233508
0.040078964,0.682335496,-0.729132295,0.9972156327135332
0.040305396,0.590182543,-0.804599464,0.995695731531034
0.040531832,0.490150124,-0.868465841,0.9944800610410528
0.040758268,0.383621365,-0.920114696,0.9937764054796356
0.0409847,0.271948367,-0.959004998,0.9936465005029468
0.041211136,0.156515017,-0.984657407,0.994047159706474
0.041437572,0.0387829989,-0.996679068,0.994873285593026
0.041664004,-0.079689905,-0.994814098,0.9960055705384626
0.04189044,-0.197264686,-0.979006469,0.9973670226865264
0.042116876,-0.312293857,-0.949455857,0.998993877511541
0.042343312,-0.4232544,-0.906606078,1.0010788677859022
0.042569744,-0.528852344,-0.850955665,1.0038103455498866
0.04279618,-0.627790809,-0.782779038,1.00686432219708
0.043022616,-0.718257546,-0.702381968,1.0092343313574952
0.043249048,-0.798118711,-0.610830069,1.0101068500428465
0.043475484,-0.865674734,-0.509940386,1.0094319423597995
0.04370192,-0.919866383,-0.401760578,1.0075657246083969
0.043928352,-0.960101426,-0.288299233,1.0049111959556218
0.044154788,-0.986111283,-0.171473086,1.0018184816822693
0.044381224,-0.997882903,-0.0530962348,0.9985894982496442
0.04460766,-0.995613813,0.0651295036,0.9954887168755812
0.044834092,-0.979677975,0.181625172,0.99275663780413
0.045060528,-0.950596154,0.294940412,0.9906228946303214
0.045286964,-0.909015,0.403768182,0.9893370150205852
0.045513396,-0.855670035,0.50697726,0.989197150954009
0.045739832,-0.791288793,0.603652537,0.9905343393539332
0.045966268,-0.716384113,0.693017781,0.9934798421409607
0.046192704,-0.631173611,0.774047434,0.9975295573047636
0.046419136,-0.536068201,0.845128596,1.0016114599003076
0.046645572,-0.432226539,0.904476106,1.0048968073408415
0.046872008,-0.321380049,0.950715601,1.0071452898800335
0.04709844,-0.205440357,0.982951522,1.008399434886404
0.047324876,-0.0863569155,1.00063789,1.0087337037583262
0.047551312,0.0338980369,1.00352216,1.008205802516739
0.047777744,0.153350279,0.991647303,1.0068806816165516
0.04800418,0.270070851,0.965362251,1.0048625402156512
0.048230616,0.382241845,0.925316274,1.0023190349982474
0.048457052,0.48822844,0.87243104,0.9995029291803152
0.048683484,0.586652815,0.807844818,0.9967747753168772
0.04890992,0.676462352,0.732808411,0.994609480905717
0.049136356,0.756941915,0.648503363,0.9935176745061768
0.049362788,0.827532947,0.555823386,0.9937504147950098
0.049589224,0.887427568,0.45543468,0.994948436193097
0.04981566,0.93544662,0.348282427,0.9963610278264348
0.050042092,0.970516145,0.235865697,0.9975342147269568
0.050268528,0.992003322,0.119932167,0.9984543155403516
0.050494964,0.999623954,0.00219636713,0.999252873439164
0.0507214,0.993287683,-0.115694247,1.0000055799884056
0.050947832,0.973049641,-0.232108653,1.0007000306477034
0.051174268,0.939129591,-0.345399588,1.0012652640823971
0.051400704,0.891953766,-0.453912526,1.001618101941283
0.051627136,0.832188666,-0.556027889,1.0017049891646557
0.051853572,0.760756552,-0.650229275,1.0015486414779544
0.052080008,0.678809226,-0.735191464,1.0012884540411824
0.052306444,0.587636232,-0.809861124,1.0011913813257012
0.052532876,0.488495141,-0.873455346,1.0015517442365895
0.052759312,0.382476062,-0.925260067,1.0023941295878722
0.052985748,0.270692319,-0.96434468,1.0032349934099
0.05321218,0.154702172,-0.989696264,1.0034314569970753
0.053438616,0.0365063511,-1.00070786,1.0027489347364158
0.053665052,-0.0818534717,-0.997337937,1.0013829514087589
0.053891484,-0.19853811,-0.979924202,0.9996688227877089
0.05411792,-0.311925232,-0.949003041,0.9979041221855016
0.054344356,-0.420557231,-0.90522486,0.996300431708407
0.054570792,-0.523096919,-0.849333346,0.9949975192948484
0.054797224,-0.618305683,-0.782164097,0.994082592265922
0.05502366,-0.705043197,-0.7046538,0.9936228874904208
0.055250096,-0.782283127,-0.617843807,0.9936978606371514
0.055476528,-0.849149346,-0.522857487,0.9944345635241828
0.055702964,-0.904933095,-0.420831412,0.9960029837521928
0.0559294,-0.949019611,-0.312808454,0.9984873509564614
0.056155832,-0.980669439,-0.199752763,1.001613714914709
0.056382268,-0.998888314,-0.0828688741,1.0046451141403645
0.056608704,-1.00275075,0.0360748731,1.0068104630947434
0.05683514,-0.991851747,0.154916406,1.0077689808749088
0.057061572,-0.966368318,0.271495849,1.00757772205838
0.057288008,-0.926883161,0.383850664,1.0064537263985929
0.057514444,-0.874239445,0.490239918,1.0046297843945546
0.057740876,-0.809474409,0.589134097,1.002327803073905
0.057967312,-0.733778238,0.679214478,0.9997628096871972
0.058193748,-0.64845866,0.759382665,0.9971606656314976
0.058420184,-0.554897308,0.828766823,0.9947654693311604
0.058646616,-0.454502314,0.88673228,0.9928664898253532
0.058873052,-0.348634273,0.932871103,0.9917943511226752
0.059099488,-0.238514006,0.966949821,0.9918808873901002
0.05932592,-0.12515606,0.988747001,0.9932846713412176
0.059552356,-0.00949833728,0.997821987,0.9957389361517128
0.059778792,0.107231811,0.993504107,0.9985490719162072
0.060005224,0.223321825,0.975277305,1.0010384591693935
0.06023166,0.336818069,0.94310379,1.0028911703172527
0.060458096,0.445831776,0.897391796,1.0040780080194198
0.060684532,0.548636854,0.838842273,1.004658756538824
0.060910964,0.64365977,0.768364668,1.004682162547203
0.0611374,0.729473174,0.687061369,1.0041844363577883
0.061363836,0.804818213,0.596219242,1.003209740507568
0.061590268,0.868644416,0.497291058,1.0018415178147404
0.061816704,0.920153081,0.39185369,1.0002310068404088
0.06204314,0.958830655,0.281536102,0.9986188016970834
0.062269572,0.984447718,0.167918101,0.9973337981188536
0.062496008,0.996983409,0.0524168089,0.9967234396765206
0.062722444,0.996438861,-0.0637537017,0.99695493819143
0.06294888,0.982656062,-0.179400727,0.9977975570334764
0.063175312,0.955423713,-0.293050438,0.998713030574698
0.063401748,0.914837956,-0.40292573,0.9992776296342908
0.063628184,0.861457884,-0.507249832,0.9994120779697856
0.063854616,0.796162963,-0.604465008,0.9992534095493796
0.064081052,0.719985902,-0.693246007,0.9989697253001976
0.064307488,0.634043336,-0.772439063,0.9986730579743268
0.064533924,0.539534032,-0.841021717,0.9984145001518052
0.064760356,0.437753141,-0.898098588,0.9982088862229596
0.064986792,0.33009845,-0.942922771,0.9980683387627208
0.065213228,0.218054533,-0.974930525,0.9980373079386236
0.06543966,0.103148423,-0.993772924,0.9982242216428966
0.065666096,-0.0131293265,-0.999312222,0.998797296252921
0.065892532,-0.129398972,-0.991549015,0.9999135431021272
0.066118964,-0.244365841,-0.970464766,1.001516526295072
0.0663454,-0.356605172,-0.935961962,1.0031920430080392
0.066571836,-0.46436432,-0.888092041,1.0043416949766082
0.066798272,-0.565711617,-0.827381968,1.0045905545803078
0.067024704,-0.658875465,-0.754860282,1.0039309237200855
0.067251136,-0.742423534,-0.671855628,1.0025826887123237
0.067477576,-0.815248728,-0.579816103,1.0008172018037245
0.067704008,-0.876504183,-0.480227321,0.9988778626513344
0.067930448,-0.925555706,-0.374585032,0.9969673111075994
0.06815688,-0.96195662,-0.264384061,0.9952594704726762
0.068383312,-0.9854334,-0.151105061,0.9939117252953736
0.068609752,-0.995882571,-0.0361962505,0.9930922637718288
0.068836184,-0.993356884,0.0789625123,0.992992977338917
0.069062616,-0.97801733,0.193104029,0.9938070637963616
0.069289056,-0.950029373,0.305081874,0.995630759406125
0.069515488,-0.909442663,0.413750559,0.998275482357344
0.06974192,-0.856241465,0.51772064,1.0011841074673558
0.06996836,-0.790653944,0.615254045,1.0036711990516172
0.070194792,-0.713422835,0.704502165,1.0052954419891245
0.070421224,-0.625759602,0.783821344,1.0059509788051648
0.070647664,-0.529148519,0.85189867,1.0057294991076622
0.070874096,-0.425206721,0.907735884,1.0047851906848333
0.071100528,-0.315618813,0.950613678,1.0032815999202165
0.071326968,-0.202100962,0.980070293,1.0013825780624317
0.0715534,-0.0863661617,0.99589783,0.9992716016854994
0.07177984,0.029919846,0.998132944,0.9971645710827708
0.072006272,0.145191729,0.98703742,0.995323506650266
0.072232704,0.258040935,0.963051856,0.9940540014807188
0.072459144,0.367258251,0.926705599,0.993661890145528
0.072685576,0.471801877,0.878477633,0.994319962822006
0.072912008,0.570623219,0.81870234,0.9958843795833976
0.073138448,0.662439704,0.747692466,0.9978703851487688
0.07336488,0.745723844,0.666041732,0.9997156402756964
0.073591312,0.818970859,0.574787617,1.0010940725477366
0.073817752,0.880928338,0.47529608,1.0019411003548089
0.074044184,0.930640996,0.369090557,1.0023205027024424
0.074270616,0.967401922,0.257761806,1.0023076273216758
0.074497056,0.990720928,0.142947778,1.0019620244123184
0.074723488,1.00031877,0.0263214614,1.0013304609445448
0.07494992,0.996141315,-0.090428032,1.0004747484213223
0.07517636,0.978372931,-0.205638871,0.9995009373796854
0.075402792,0.947429955,-0.317734838,0.9985789469101884
0.075629224,0.903918028,-0.425292343,0.9979413783578384
0.075855664,0.848537087,-0.527079463,0.997827948330814
0.076082096,0.781957448,-0.622003138,0.9983453541645196
0.076308536,0.704781651,-0.708934367,0.9993051122999764
0.076534968,0.617721558,-0.786562324,1.0002602127542284
0.0767614,0.52184695,-0.853501797,1.0007895567065317
0.07698784,0.418612897,-0.908572137,1.0007400856674793
0.077214272,0.309672564,-0.950949788,1.000202596191579
0.077440704,0.196704671,-0.980139375,0.999365922018609
0.077667144,0.0813439339,-0.995887637,0.9984090211117714
0.077893576,-0.034822844,-0.998126268,0.9974686773358562
0.078120008,-0.150251552,-0.986948848,0.996643557446936
0.078346448,-0.263438582,-0.962608755,0.9960155016888208
0.07857288,-0.372940719,-0.925521493,0.995674813893186
0.078799312,-0.477406859,-0.876256347,0.9957424946780302
0.079025752,-0.575615048,-0.815495193,0.9963650932901492
0.079252184,-0.666470826,-0.743954122,0.9976510975499132
0.079478616,-0.74891597,-0.662310183,0.9995299086265343
0.079705056,-0.82177031,-0.571257234,1.001641269794827
0.079931488,-0.883680642,-0.47173515,1.0034255287910545
0.080157928,-0.933335185,-0.365123034,1.0044293975163494
0.08038436,-0.969744563,-0.253168881,1.0044989997748532
0.080610792,-0.992345572,-0.13776578,1.0037291444070155
