Frequency (GHz),Re( S21 ),Im( S21 ),S2
0.0,0.0566409528,3.85040221e-05,0.0032081990166515453
0.000226524766,0.0518969223,-0.0219209045,0.0031738165983103577
0.000453049531,0.0384449735,-0.0399333388,0.0030726875351312875
0.00067957425,0.0186887942,-0.0507348403,0.002923295048916458
0.000906099063,-0.00382600655,-0.0523303971,0.002753108786764332
0.00113262375,-0.0250281412,-0.0443623252,0.0025944237490776925
0.0013591485,-0.0410408452,-0.0281939674,0.002479250772482626
0.00158567338,-0.0488813445,-0.00668916199,0.0024341307282561408
0.00181219813,-0.0470129102,0.0162856448,0.0024754359520250315
0.00203872288,-0.0356435031,0.0365482382,0.002606233028763649
0.0022652475,-0.0167102721,0.0503583215,0.0028151937379534003
0.00249177225,0.00645294506,0.0550997406,0.0030776219141346673
0.002718297,0.0296997633,0.0497625358,0.0033583859093223086
0.002944822,0.049020417,0.0351403616,0.0036378462962326436
0.00317134675,0.0604290478,0.0136839682,0.0038389208037132964
0.0033978715,0.0619790256,-0.0107260868,0.0039564485523665895
0.00362439625,0.0531141087,-0.0338040851,0.003963824712443458
0.003850921,0.0352967083,-0.051298134,0.003877356168697245
0.00407744575,0.0114884702,-0.0598246567,0.003710974496809143
0.0043039705,-0.0140887909,-0.0575140156,0.0035063560194609662
0.004530495,-0.0367314331,-0.0443933569,0.003319968314430553
0.00475702,-0.0520738959,-0.0224607307,0.0032161750577819593
0.0049835445,-0.0568915121,0.00458707521,0.003257685408006643
0.0052100695,-0.0497393422,0.0319471806,0.003494624510777718
0.005436594,-0.0312998816,0.0545361079,0.003953869653054461
0.005663119,-0.00435609836,0.0679068938,0.004630321818486474
0.005889644,0.0266224742,0.0690877959,0.005481879674849722
0.0061161685,0.0564734936,0.0572420061,0.006465902741741678
0.0063426935,0.0792166963,0.0336636789,0.007408528249768739
0.006569218,0.090660505,0.00214735861,0.008223938315854966
0.006795743,0.0880580172,-0.0318384469,0.008767901094199617
0.0070222675,0.0710983574,-0.0622670315,0.008932159636800129
0.0072487925,0.0422112048,-0.083233282,0.008709565043159067
0.007475317,0.00599424075,-0.0898550451,0.008109860052091996
0.007701842,-0.0310065597,-0.0794691369,0.007276750464060606
0.0079283665,-0.0613320209,-0.0522222444,0.0064887795978513674
0.0081548915,-0.0777704865,-0.0113607626,0.006177315497300241
0.008381416,-0.0746081546,0.0369528979,0.006931893396025326
0.008607941,-0.0487717986,0.0843273327,0.009489787378975451
0.008834466,-0.000657204946,0.121278048,0.014708796845031352
0.00906099,0.0660757348,0.138861597,0.02364854585075034
0.009287515,0.142710343,0.129240111,0.03706924829046997
0.00951404,0.219343588,0.0885109603,0.05594579968994192
0.009740565,0.284269243,0.0166830178,0.08108732559870817
0.009967089,0.325863332,-0.0815978274,0.11284511657854242
0.010193614,0.335336983,-0.19912605,0.15210207595614478
0.010420139,0.305792242,-0.3244223,0.19875872400467656
0.010646664,0.234770134,-0.444565892,0.2527558481481336
0.010873188,0.124117494,-0.546254694,0.3137993430338737
0.011099713,-0.0201967414,-0.617181242,0.38132059383984107
0.011326238,-0.188552126,-0.64721787,0.45444287546645673
0.011552763,-0.368465662,-0.629473031,0.5320032408294252
0.011779288,-0.545710742,-0.561066628,0.6125959749894809
0.012005812,-0.705628276,-0.443536401,0.6946358029027649
0.012232337,-0.83451432,-0.282886684,0.7764390262695784
0.012458862,-0.920778871,-0.0894528404,0.8558355399356625
0.012685387,-0.954768419,0.123852566,0.9269221920245438
0.012911911,-0.933409393,0.344122082,0.9896731022606432
0.013138436,-0.858212829,0.555016637,1.044572727206973
0.013364961,-0.733920395,0.742076278,1.0893163485672892
0.013591486,-0.56932193,0.893581986,1.1226162256826293
0.01381801,-0.376014233,1.00129282,1.1439740148021307
0.014044535,-0.166980296,1.0609839,1.1535692553114578
0.01427106,0.0448420681,1.07246566,1.1521934029507206
0.014497585,0.247825012,1.03910375,1.1411538398368626
0.014724109,0.4325957,0.966951728,1.1221346839406758
0.014950634,0.592582464,0.86357522,1.0969161372383596
0.015177159,0.72566396,0.737541318,1.0705553786000586
0.015403684,0.828584552,0.598022282,1.0441830095815283
0.015630208,0.903498173,0.450222105,1.019008892444969
0.015856733,0.935572147,0.30911389,0.9708466392331218
0.016083258,0.967945218,0.164100349,0.9638468695909893
0.016309783,0.973112226,0.0190203134,0.9473091767125094
0.016536307,0.959926903,-0.119776651,0.9358061052279473
0.016762832,0.930900216,-0.252715468,0.9304403199153056
0.016989356,0.887023687,-0.379851639,0.9310982889500603
0.017215882,0.828466415,-0.500842631,0.9371999418099544
0.017442406,0.754943788,-0.614710927,0.9478096468129882
0.017668932,0.666126788,-0.71971339,0.961712261436489
0.017895456,0.562059283,-0.813378692,0.9774955342061049
0.01812198,0.443528056,-0.892692924,0.9936177930188089
0.018348506,0.312378913,-0.954426765,1.0085110350354267
0.01857503,0.171698004,-0.995725036,1.0209485518947852
0.018801556,0.0254878514,-1.01471388,1.0302938888336428
0.01902808,-0.121590704,-1.01091313,1.0367296557056125
0.019254604,-0.266145378,-0.986608386,1.044229469556288
0.01948113,-0.40841496,-0.940031767,1.050462502520944
0.019707654,-0.540451884,-0.869673848,1.0484208408142766
0.019934178,-0.657526612,-0.780408204,1.0413782103587041
0.020160704,-0.757556558,-0.676295936,1.0312681316189236
0.020387228,-0.839320481,-0.561103523,1.0192960333490828
0.020613754,-0.902425051,-0.438381642,1.0065494367149688
0.020840278,-0.947191119,-0.311279863,0.9940661690217708
0.021066802,-0.974427283,-0.182400718,0.9827785517816777
0.021293328,-0.985165656,-0.0537670217,0.9734422623843986
0.021519852,-0.980429649,0.073089689,0.9665843992763798
0.021746376,-0.961104155,0.196959406,0.9625142043701369
0.021972902,-0.927928269,0.316789031,0.9614061625712553
0.022199426,-0.881589711,0.431583285,0.9634645504324548
0.022425952,-0.822951376,0.540613413,0.969511829575802
0.022652476,-0.752123594,0.644304752,0.9808185141012582
0.022879,-0.666559517,0.741231263,0.9937253749518484
0.023105526,-0.566521943,0.826872945,1.0046659790734682
0.02333205,-0.454365313,0.898539007,1.013820184758134
0.023558576,-0.332309544,0.954340041,1.0211945468893697
0.0237851,-0.202843383,0.992624044,1.0264479307537988
0.024011624,-0.0688637197,1.01217663,1.029243742209077
0.02423815,0.066444993,1.01241517,1.0293994135408988
0.024464674,0.199818999,0.993480921,1.0269319727523702
0.024691198,0.328139096,0.95623523,1.02206108141685
0.024917724,0.448630989,0.902183473,1.0152047832454598
0.025144248,0.559032857,0.833346725,1.006984499273808
0.025370774,0.657730103,0.75209713,0.9982589813466275
0.025597298,0.743899524,0.660962045,0.9902573267380087
0.025823822,0.817762852,0.562170148,0.9847713574135157
0.026050348,0.880033135,0.456410617,0.9827689700082489
0.026276872,0.929539025,0.343667865,0.9821504004316088
0.026503396,0.96477294,0.225843742,0.9817922215568061
0.026729922,0.985570014,0.104994245,0.9823720439790802
0.026956446,0.991979897,-0.0174212512,0.9843276160455041
0.027182972,0.983869433,-0.14008303,0.9876223164857223
0.027409496,0.961007774,-0.261537313,0.991937707779695
0.02763602,0.923218668,-0.380094975,0.9968048989639449
0.027862546,0.870533824,-0.493820071,1.0016874012505081
0.02808907,0.803335488,-0.600587785,1.0060535937714044
0.028315594,0.722469985,-0.698205948,1.009454425048479
0.02854212,0.629309058,-0.784591973,1.0116144545768802
0.028768644,0.525731206,-0.858004034,1.0125642233224876
0.02899517,0.413940758,-0.91732198,1.0128265661247349
0.029221694,0.295890331,-0.962170839,1.0133238114012535
0.029448218,0.172747284,-0.991985619,1.0138770924321898
0.029674744,0.0463839024,-1.00526202,1.012703195256333
0.029901268,-0.0800330415,-1.00146878,1.009345005046429
0.030127794,-0.203712866,-0.981413841,1.004672059080307
0.030354318,-0.322605342,-0.946303368,0.9995642709750805
0.030580842,-0.435134262,-0.897398055,0.9946650950840676
0.030807368,-0.540037334,-0.835938096,0.9904328224579327
0.031033892,-0.636270344,-0.76311332,0.9871818898153009
0.031260416,-0.722926378,-0.680054188,0.9850962466245383
0.031486942,-0.799169779,-0.587855577,0.9842465150769117
0.031713466,-0.864195645,-0.487627894,0.9846150758438412
0.031939992,-0.917249501,-0.380558223,0.9861712081776668
0.032166516,-0.957702994,-0.267931342,0.9889822287424851
0.03239304,-0.985155463,-0.151001841,0.9933328422641337
0.032619566,-0.999232113,-0.0306685753,0.9994053771613767
0.03284609,-0.998804688,0.0922366232,1.0061183994301162
0.033072614,-0.982363105,0.215636536,1.0115363857233204
0.03329914,-0.949527979,0.336553067,1.0148713498109307
0.033525664,-0.900945663,0.4522838,1.0162637234209497
0.033752188,-0.837709188,0.560548604,1.0159714211059683
0.033978712,-0.761203408,0.659375548,1.0142067416511147
0.03420524,-0.673077285,0.747100174,1.0111917015738014
0.034431764,-0.575184941,0.822407842,1.0071923749362703
0.034658288,-0.469502419,0.884364724,1.0025334865024478
0.034884812,-0.358033091,0.932419896,0.9975945567076651
0.035111336,-0.242720708,0.966386139,0.9928155117433486
0.035337864,-0.125364691,0.986407936,0.9887169219533055
0.035564388,-0.00751002319,0.992924273,0.9859550123608928
0.035790912,0.109738849,0.986528277,0.9852806563004336
0.036017436,0.225795865,0.967488825,0.9870183991509789
0.03624396,0.339886338,0.935286462,0.9902834887595277
0.036470488,0.450250387,0.889402509,0.9937622340091448
0.036697012,0.554807901,0.830167353,0.9969896409990524
0.036923536,0.651792288,0.758399069,1.0000023345563418
0.03715006,0.739656925,0.675058067,1.0027957605222322
0.037376584,0.816932321,0.581249714,1.005229647119529
0.037603112,0.882227659,0.478301823,1.0070982761897436
0.037829636,0.934301555,0.367804319,1.0081994127504716
0.03805616,0.972155154,0.251598656,1.00838752714977
0.038282684,0.995123267,0.131723821,1.0076214815435933
0.038509208,1.00294638,0.0103213498,1.0060079714167984
0.038735732,0.995813727,-0.110506542,1.0038566747064284
0.03896226,0.974335432,-0.228893399,1.0017217221563997
0.039188784,0.93932116,-0.343427509,1.0002666955616906
0.039415308,0.89130336,-0.453057498,0.9996827760413096
0.039641832,0.83046478,-0.556400716,0.999253507585761
0.039868356,0.757456958,-0.651556611,0.998267060560419
0.040094884,0.67365551,-0.73687762,0.9968003730102246
0.040321408,0.58063066,-0.811273217,0.9952961959535647
0.040547932,0.479857564,-0.873990715,0.9941230516342254
0.040774456,0.372716188,-0.924423695,0.9934765246747044
0.04100098,0.260559797,-0.962036848,0.9934063047224563
0.041227508,0.144779041,-0.986357033,0.9938611672614428
0.041454032,0.0268454496,-0.997000992,0.9947316562132102
0.041680556,-0.0916716531,-0.993725836,0.9958947291159856
0.04190708,-0.209124655,-0.97649616,0.9972778718236145
0.042133604,-0.323864907,-0.945536017,0.9989268374303429
0.042360132,-0.434379369,-0.901309073,1.0010434812849573
0.042586656,-0.539384484,-0.844312072,1.0037984965048796
0.04281318,-0.637558937,-0.774811208,1.0068138061909893
0.043039704,-0.727043152,-0.693155766,1.0090566608091418
0.043266228,-0.80571413,-0.60049367,1.0097679069917258
0.043492752,-0.871926308,-0.498687774,1.008944982519586
0.04371928,-0.924672663,-0.389798254,1.00696221252096
0.043945804,-0.963398576,-0.275833458,1.0042209127910655
0.044172328,-0.987868786,-0.15870598,1.0010723264408743
0.044398852,-0.998097181,-0.0402223282,0.9978158184059753
0.044625376,-0.994305193,0.0779259503,0.9947152705569253
0.044851904,-0.976886868,0.194172665,0.9920109767040517
0.045078428,-0.94637984,0.307082027,0.9899341728648543
0.045304952,-0.903442562,0.415363222,0.988735069023345
0.045531476,-0.848817945,0.517903864,0.9887163161001534
0.045758,-0.783225775,0.613808274,0.9902032118552098
0.045984528,-0.707154155,0.702299833,0.9932920543655919
0.046211052,-0.620811522,0.782308877,0.9974141248809576
0.046437576,-0.524660408,0.85218209,1.0014828582394946
0.0466641,-0.41992718,0.910149693,1.0047113001707468
0.046890624,-0.3083781,0.954880655,1.006894117852839
0.047117152,-0.191937938,0.985515416,1.008080807217345
0.047343676,-0.0725657567,1.00153816,1.008344474981629
0.0475702,0.0477582403,1.00272703,1.0077423462091732
0.047796724,0.167055905,0.989159167,1.0063435330555028
0.048023248,0.283401608,0.961218238,1.0042569724808101
0.048249772,0.394988418,0.919588506,1.0016588707214547
0.0484763,0.50020206,0.865223169,0.998813233002646
0.048702824,0.597693801,0.799284041,0.9960928579511172
0.048929348,0.686445713,0.723031819,0.9939827281825271
0.049155872,0.765773535,0.637636781,0.9929897713904382
0.049382396,0.835120142,0.543967009,0.9933257584545061
0.049608924,0.893644989,0.442691326,0.9945769764804484
0.049835448,0.940159321,0.33480522,0.9959940842024294
0.050061972,0.973625302,0.221847177,0.9971623986374605
0.050288496,0.993452132,0.105572581,0.9980927084343472
0.05051502,0.999380708,-0.0123100094,0.9989133358540093
0.050741548,0.991337895,-0.130154774,0.9996910872580221
0.050968072,0.969394684,-0.246326223,1.0004026615049055
0.051194596,0.933792114,-0.359172583,1.0009726565474808
0.05142112,0.884981871,-0.467035949,1.0013154896569914
0.051647644,0.823660314,-0.568299532,1.0013806709299975
0.051874172,0.750781596,-0.661457717,1.0011993162711594
0.052100696,0.667524159,-0.745206535,1.0009212826553635
0.05232722,0.575193763,-0.818521321,1.0008250179256852
0.052553744,0.475045741,-0.88064158,1.0011980484671357
0.052780268,0.368166536,-0.930847228,1.0020231601055232
0.053006792,0.255703419,-0.968192399,1.0027807599696648
0.05323332,0.139274731,-0.991692543,1.002851550536929
0.053459844,0.0209076647,-1.00080562,1.002049019466792
0.053686368,-0.0973673686,-0.995548666,1.0005975508424678
0.053912892,-0.213734761,-0.976296365,0.9988371403719405
0.054139416,-0.326594085,-0.943607867,0.9970595030212769
0.054365944,-0.434505969,-0.89815104,0.9954707277497106
0.054592468,-0.536149025,-0.84068352,0.994204557808041
0.054818992,-0.630299568,-0.772053063,0.9933434775086686
0.055045516,-0.715830684,-0.693209708,0.9929532674213533
0.05527204,-0.79173243,-0.60520494,0.9931132601141086
0.055498568,-0.857146204,-0.50916934,0.9939530318276452
0.055725092,-0.911378026,-0.406236798,0.9956382423249494
0.055951616,-0.953812599,-0.297441483,0.9982299098203742
0.05617814,-0.98368448,-0.183758065,1.0014021826454145
0.056404664,-0.999985814,-0.0664468855,1.0043868167938927
0.056631188,-1.0018295,0.0526597165,1.0064353928121104
0.056857716,-0.988880396,0.171373576,1.0072533401441446
0.05708424,-0.961376071,0.287541002,1.006923777722561
0.057310764,-0.919942439,0.399217069,1.0056683592542193
0.057537288,-0.865460157,0.504680514,1.003723704565769
0.057763812,-0.798998535,0.602424204,1.0013135804971798
0.05799034,-0.721775413,0.691155791,0.9986560742441564
0.058216864,-0.635121226,0.769808173,0.9959835949333411
0.058443388,-0.540433109,0.837544262,0.9935483361125305
0.058669912,-0.439124972,0.893765509,0.9916475261120298
0.058896436,-0.33255142,0.938098371,0.9906190006168701
0.059122964,-0.221914157,0.970332623,0.9907912923350808
0.059349488,-0.108206563,0.990244269,0.9922923725636172
0.059576012,0.00762449764,0.997370303,0.9948056542705741
0.059802536,0.124305241,0.99104023,0.9976125304185208
0.06002906,0.240083829,0.970784426,1.0000626467114506
0.060255588,0.353004664,0.936623812,1.0018764580111643
0.060482112,0.461197615,0.889007747,1.0030380143077042
0.060708636,0.562956095,0.828665078,1.003605376394395
0.06093516,0.656722248,0.75652951,1.0036210105190135
0.061161684,0.741085649,0.673726976,1.0031159773438556
0.061388208,0.814807534,0.581569016,1.0021338378343696
0.061614736,0.876863599,0.481530726,1.00076161133332
0.06184126,0.926486373,0.375205576,0.9991562236161868
0.062067784,0.963197649,0.264231116,0.9975677937017328
0.062294308,0.986801863,0.15018256,0.9963327181484243
0.062520832,0.997298539,0.0344607048,0.9957919160668472
0.06274736,0.994686007,-0.0817296878,0.9960799943894895
0.062973884,0.978798389,-0.197173715,0.9969237601958967
0.063200408,0.949451387,-0.310352981,0.99777690909181
0.063426932,0.906804562,-0.41947332,0.9982523798558344
0.063653456,0.851476192,-0.522776902,0.9983073948075385
0.063879984,0.784380853,-0.618740439,0.9980930534069203
0.064106508,0.706571937,-0.706067145,0.997774715404383
0.064333032,0.619181454,-0.783627808,0.997458214448439
0.064559556,0.523424089,-0.850421906,0.9971901951501528
0.06478608,0.420610636,-0.905577362,0.9969836656832036
0.065012608,0.312151849,-0.948372364,0.9968489176330674
0.065239132,0.199543476,-0.978273571,0.9968367785312546
0.065465656,0.0843143016,-0.994961679,0.9970576441327947
0.06569218,-0.0320524313,-0.998327613,0.9976853812305189
0.065918704,-0.148188457,-0.988382638,0.99886005788788
0.066145228,-0.262794256,-0.965104342,1.0004872119338464
0.066371756,-0.374408513,-0.928402841,1.0021135697837424
0.06659828,-0.48123908,-0.878381371,1.003144885039086
0.066824804,-0.581354618,-0.81564337,1.0032472988948826
0.067051328,-0.673021317,-0.741279066,1.002452346826247
0.067277856,-0.754852116,-0.656650543,1.0009916526518725
0.067504376,-0.825782537,-0.563225865,0.9991401734191547
0.067730904,-0.885003328,-0.46250245,0.9971394068270781
0.067957424,-0.931914985,-0.355983824,0.9951900222172133
0.068183952,-0.966104925,-0.245168328,0.9934662351635712
0.06841048,-0.987333298,-0.131536394,0.9921288642860802
0.068637,-0.995529234,-0.0165294483,0.9913516784097293
0.068863528,-0.990771651,0.0984875783,0.9913282675046644
0.069090048,-0.973238289,0.212266698,0.9922499182554707
0.069316576,-0.943091989,0.323675871,0.9941885691835849
0.069543104,-0.90037173,0.431557924,0.9969114939503827
0.069769624,-0.845075607,0.534482062,0.9998238561461903
0.069996152,-0.777492285,0.630681694,1.0022536523812309
0.070222672,-0.698434353,0.718320489,1.0037948703677277
0.0704492,-0.609163642,0.795795679,1.0043711054497753
0.070675728,-0.511193573,0.861839116,1.0040855309441676
0.070902248,-0.406157583,0.915492952,1.0030913273900761
0.071128776,-0.295752853,0.956074715,1.0015486107199707
0.071355296,-0.181704223,0.983160973,0.9996219234863405
0.071581824,-0.0657276586,0.996582389,0.9974965831699855
0.071808352,0.0505151786,0.996414244,0.9953931289150814
0.072034872,0.165470868,0.982954502,0.9935801611587415
0.0722614,0.277752489,0.956673563,0.99237075128881
0.07248792,0.386176139,0.918113887,0.992065119835196
0.072714448,0.489712805,0.867749333,0.992807536302913
0.072940976,0.587298214,0.805911064,0.9944118352452019
0.073167496,0.677615166,0.732940257,0.9963637335244335
0.073394024,0.759129584,0.649497569,0.9981248174409227
0.073620544,0.830367625,0.556681454,0.9994046338756949
0.073847072,0.890126288,0.455893636,1.0001638159339596
0.0740736,0.937495828,0.348674297,1.0004721929058498
0.07430012,0.971809387,0.236624405,1.0004045937029198
0.074526648,0.992612302,0.121387847,1.0000141914810345
0.074753168,0.999662519,0.00464344677,0.9993467134913312
0.074979696,0.992945075,-0.111920372,0.9984660916353739
0.075206224,0.972683132,-0.226648256,0.9974819072251709
0.075432744,0.939329088,-0.337979794,0.9965694767151942
0.075659272,0.8935166,-0.4445149,0.99596541079757
0.075885792,0.835958004,-0.545045435,0.9959003106660033
0.07611232,0.767322719,-0.638485968,0.99644848642645
0.076338848,0.688225567,-0.723689437,0.9973808322978485
0.076565368,0.599427104,-0.799326062,0.9982350064022547
0.076791896,0.502067983,-0.86402899,0.9986183551141083
0.077018416,0.397655189,-0.916672885,0.9984188274328489
0.077244944,0.287863016,-0.956497729,0.9977530215627737
0.077471464,0.174372196,-0.983061433,0.996815443789876
0.077697992,0.0588129833,-0.99615562,0.9957849862622306
0.07792452,-0.0572351962,-0.995750606,0.9947951370334197
0.07815104,-0.172237694,-0.981976569,0.9939438052994494
0.078377568,-0.284704536,-0.955121815,0.9933143543078696
0.078604088,-0.393211633,-0.915634394,0.9930017318022739
0.078830616,-0.496432871,-0.864109457,0.9931307490861374
0.079057144,-0.593173742,-0.80124408,0.993847163933329
0.079283664,-0.682360113,-0.727754891,0.9952425051877947
0.079510192,-0.762932599,-0.644316137,0.9972094350154976
0.079736712,-0.833688021,-0.551641941,0.9993445474291438
0.07996324,-0.893265247,-0.450730801,1.0010810564680725
0.080189768,-0.940387428,-0.343028843,1.0019973018703738
