Frequency (GHz),Re( S21 ),Im( S21 ),S2
0.0,0.0567118339,5.40613873e-05,0.0032162350269347
0.000226424953,0.0519715734,-0.021920586,0.0031815565322549
0.000452849906,0.0385279618,-0.0399557129,0.0030808628338094
0.000679274875,0.0187766179,-0.0507900603,0.0029321916050402
0.000905699813,-0.003745961,-0.0524281599,0.0027627441743134
0.00113212475,-0.0249764714,-0.0445060208,0.002604610011045
0.00135854975,-0.0410415716,-0.0283761919,0.0024896188661435
0.00158497475,-0.0489566214,-0.00688892836,0.0024442081128521
0.00181139963,-0.0471750535,0.0161008295,0.0024847223833159
0.00203782463,-0.0358895622,0.0364184044,0.0026143608539496
0.0022642495,-0.0170180909,0.0503221974,0.0028219389690452
0.0024906745,0.00612315489,0.0551853552,0.003082916454357
0.0027170995,0.0293978453,0.0499777459,0.0033620083935276
0.0029435245,0.0488720536,0.0354849957,0.0036476625429102
0.0031699495,0.0604073666,0.0140895713,0.0038475659589645
0.0033963745,0.0621228889,-0.0103289019,0.0039659395397415
0.00362279925,0.0533960871,-0.0334726907,0.0039715631402886
0.00384922425,0.0357223116,-0.0511100031,0.0038883159629295
0.00407564925,0.0119879646,-0.0598378517,0.003724279791322
0.0043020745,-0.0136066265,-0.0577584095,0.0035211741526801
0.004528499,-0.0363689438,-0.044857569,0.0033349015697173
0.004754924,-0.0519260913,-0.0230884962,0.0032293976144733
0.004981349,-0.0570262782,0.00389289483,0.0032671510355012
0.005207774,-0.0501800962,0.0313111916,0.0034984327740531
0.005434199,-0.032014031,0.0540899895,0.003950625144979
0.005660624,-0.00525421742,0.0677629709,0.0046194270258908
0.005887049,0.0259630475,0.0694608912,0.0054988952417854
0.006113474,0.0556859076,0.0578915104,0.006452347281629
0.006339899,0.0787091032,0.0346126892,0.007393161180204
0.006566324,0.0905652121,0.00325743924,0.0082126685531202
0.006792749,0.0884417295,-0.0307545122,0.0087677795376111
0.007019174,0.0719097629,-0.0613864362,0.0089393085496708
0.0072455985,0.0433812663,-0.0827871561,0.0087356474809172
0.0074720235,0.00732525671,-0.0899929702,0.0081523940712854
0.0076984485,-0.0297792349,-0.0802638903,0.0073290949173198
0.0079248735,-0.0605046563,-0.0536349863,0.0065375251893823
0.0081512985,-0.0776254684,-0.0132262111,0.0062006460043811
0.0083777235,-0.0753609613,0.0349198021,0.0068986670667632
0.008604149,-0.0505217612,0.0825039893,0.0093593566051643
0.008830573,-0.00335045857,0.120085053,0.014431645526642
0.009056998,0.0626903996,0.138746411,0.0231806527673885
0.009283423,0.138990611,0.130512029,0.0363517796598501
0.009509848,0.215798214,0.0912364423,0.054892957569151
0.009736273,0.28147468,0.0208687335,0.0796634995189964
0.009962698,0.324311078,-0.0761791468,0.110980937720698
0.010189123,0.335507959,-0.192884728,0.1497701088479796
0.010415548,0.307994127,-0.317929775,0.1959397240980427
0.010641973,0.239108056,-0.438479602,0.2494370238141776
0.010868398,0.130480483,-0.541255832,0.3099830321179255
0.011094823,-0.0121317459,-0.613907754,0.3770299096799066
0.011321248,-0.179304868,-0.64620018,0.4497249083205298
0.011547673,-0.358714134,-0.631071985,0.5269276801832101
0.011774098,-0.536234081,-0.565427959,0.6072557664448202
0.012000523,-0.697235167,-0.450561672,0.6891426983769535
0.012226948,-0.82796371,-0.292225212,0.7709194796054091
0.012453373,-0.916711152,-0.100504518,0.8504604943395794
0.012679798,-0.953681469,0.11181654,0.9220112829315694
0.012906223,-0.935446203,0.331943214,0.985245896027767
0.013132648,-0.863294303,0.543597341,1.040775122734526
0.013359073,-0.741704166,0.732228398,1.086283496699402
0.013585498,-0.579237819,0.88595736,1.1204368946980463
0.013811923,-0.387337774,0.996323824,1.142691713437258
0.014038348,-0.178919643,1.05885208,1.153179965971574
0.014264773,0.033057265,1.07310414,1.15264527805442
0.014491197,0.236865237,1.04223156,1.1423517651591
0.014717622,0.422974765,0.972133815,1.1239518060932594
0.014944047,0.584629357,0.870301962,1.0992169901272828
0.015170472,0.719467402,0.74521482,1.072978470488262
0.015396897,0.824159563,0.606203556,1.046721736591396
0.015623322,0.900656402,0.45853591,1.0214371352231135
0.015849747,0.934063613,0.316654861,0.972745134125543
0.016076172,0.96755141,0.171875939,0.9656970694001198
0.016302597,0.973685265,0.0263172984,0.9487555954731948
0.016529022,0.961226344,-0.112878568,0.936697655513337
0.016755447,0.932825267,-0.246132448,0.930744160712094
0.016981872,0.889560401,-0.373508096,0.930826004804826
0.017208298,0.831669569,-0.494702995,0.9364053252626158
0.017434722,0.75890559,-0.608802974,0.9465787556844928
0.017661146,0.670944154,-0.714140892,0.9601632714133312
0.017887572,0.567796052,-0.808315337,0.9757660406962104
0.018113996,0.450182468,-0.888364911,0.991856469590609
0.018340422,0.31986022,-0.951081038,1.0068657011816058
0.018566846,0.179821834,-0.993580401,1.0195379052344444
0.018793272,0.0339971595,-1.01392901,1.0292078441736483
0.019019696,-0.1130068,-1.01153421,1.0359719948465642
0.019246122,-0.257643759,-0.988560736,1.0436326353125118
0.019472546,-0.400282174,-0.943529069,1.050472922870173
0.019698972,-0.533140898,-0.874498129,1.048986194744747
0.019925396,-0.651245534,-0.786276937,1.0423521672130471
0.020151822,-0.752426684,-0.682931244,1.0325409988266234
0.020378246,-0.835383177,-0.56823045,1.020750896721816
0.020604672,-0.899648428,-0.445753455,1.0080634366473082
0.020831096,-0.94548744,-0.318698287,0.9955150973344878
0.021057522,-0.973679543,-0.189728171,0.9840486313276942
0.021283946,-0.985254645,-0.060926158,0.974438712222717
0.021510372,-0.981256962,0.066128023,0.967238140899358
0.021736796,-0.962606192,0.190194622,0.9627846751144638
0.021963222,-0.930079222,0.310211957,0.9612788174618953
0.022189646,-0.884392202,0.425193012,0.962938664412041
0.022416072,-0.82642287,0.534401119,0.968559316047489
0.022642496,-0.75639689,0.638250232,0.9794996138497258
0.022868922,-0.671801865,0.735558391,0.9923638923879872
0.023095346,-0.572685063,0.821830809,1.0033740600049086
0.02332177,-0.461363286,0.8943156,1.0126564740720778
0.023548196,-0.340019196,0.951118231,1.020238942989056
0.02377462,-0.211086765,0.990563214,1.0257731032881752
0.024001046,-0.0774153173,1.01138985,1.0289025600356825
0.02422747,0.0578387603,1.01295185,1.0294167726114636
0.024453896,0.191416904,0.995319545,1.0273014277959522
0.02468032,0.32017976,0.959287167,1.0227469474845436
0.024906746,0.441312402,0.906303823,1.016143255743425
0.02513317,0.552497268,0.83835274,1.0080885478129715
0.025359596,0.652053535,0.757788301,0.9994169216384629
0.02558602,0.739085376,0.667145669,0.991330536682519
0.025812446,0.813737333,0.568712711,0.9856025947709224
0.02603887,0.87674731,0.463303149,0.9833356534655522
0.026265296,0.927055299,0.350866377,0.9825387419130855
0.02649172,0.963097394,0.233247623,0.9819610439647416
0.026718146,0.984685421,0.112550542,0.982273002834441
0.02694457,0.991899192,-0.00974190794,0.9839589118605644
0.027170996,0.984636903,-0.132319331,0.9870182361057188
0.02739742,0.962687731,-0.253755957,0.9911597531309144
0.027623846,0.925876915,-0.372399926,0.9959297666147228
0.02785027,0.874220431,-0.486353904,1.000801481913867
0.028076696,0.808065951,-0.593524873,1.0052423560352006
0.02830312,0.728210747,-0.691737294,1.0087913759567404
0.028529546,0.635971129,-0.77890569,1.0111533508359107
0.02875597,0.533172905,-0.853259325,1.0123248223255947
0.028982394,0.421989202,-0.913622797,1.0127815018027002
0.02920882,0.304394424,-0.959569812,1.0134301894640072
0.029435244,0.18157427,-0.990569949,1.014198039387895
0.02966167,0.0553045347,-1.00510883,1.0133023517023525
0.029888094,-0.0712656528,-1.00253463,1.010154477618247
0.03011452,-0.195280582,-0.98358947,1.0055827512011395
0.030340944,-0.314632058,-0.949465334,1.000477752389047
0.03056737,-0.427699953,-0.901425898,0.9954958993813086
0.030793794,-0.533188879,-0.840725899,0.991110417938635
0.03102022,-0.630034685,-0.768576324,0.9876532701164022
0.031246644,-0.717324138,-0.68613112,0.9853298327898974
0.03147307,-0.794226825,-0.594503343,0.984230474387756
0.031699494,-0.859952986,-0.494813144,0.984359185605481
0.03192592,-0.913762987,-0.388245523,0.9856973825407056
0.032152344,-0.955037177,-0.276075691,0.9883137966132568
0.03237877,-0.983378053,-0.159556046,0.992490526937225
0.032605194,-0.998440683,-0.0395952463,0.9984515809990642
0.03283162,-0.999164343,0.0830331147,1.005223882459405
0.033058044,-0.98400265,0.206374958,1.0108518384965242
0.03328447,-0.952472091,0.327484071,1.0144489008926454
0.033510894,-0.905151606,0.443638116,1.0161142078124086
0.03373732,-0.843088031,0.552535772,1.0160932073550928
0.033963744,-0.767626166,0.652177632,1.014585594408987
0.034190168,-0.680380702,0.740862727,1.0117954799118891
0.034416596,-0.583185494,0.817231297,1.007972313208326
0.03464302,-0.478010118,0.880301833,1.0034249900935337
0.034869444,-0.366867483,0.929479063,0.9985230786381132
0.035095868,-0.251722217,0.964538872,0.9936993101304276
0.035322292,-0.134404704,0.985599279,0.9894705632226474
0.03554872,-0.0165008418,0.993083477,0.9864870700705182
0.035775144,0.100833163,0.987594485,0.9855101935629996
0.036001568,0.216977328,0.969465494,0.9869425049226838
0.036227992,0.331210226,0.938240349,0.9899951662986128
0.03645442,0.441843897,0.893373787,0.993342752614868
0.036680844,0.546801925,0.835150063,0.9964679729126096
0.036907268,0.644313633,0.764374077,0.9994077872592606
0.037133692,0.732842803,0.681995034,1.002175800309558
0.03736012,0.810933053,0.589093745,1.0046438568460256
0.037586544,0.877196848,0.486961961,1.0066062616021003
0.037812968,0.930383503,0.377149701,1.0078553596189403
0.038039392,0.969468772,0.261460453,1.0082312683661532
0.03826582,0.993748486,0.141904086,1.0076728230507874
0.038492244,1.00291348,0.0206066314,1.0062600816233656
0.038718668,0.997100413,-0.100324191,1.004274176904575
0.038945092,0.976872504,-0.218991965,1.0022373698057914
0.03917152,0.943025112,-0.333935916,1.0008095578573717
0.039397944,0.896118939,-0.44408235,1.0002382864160082
0.039624368,0.836337745,-0.548083842,0.999856721573166
0.039850792,0.764273942,-0.644041181,0.998903701244094
0.04007722,0.681273341,-0.730252862,0.9974026076164932
0.040303644,0.58892101,-0.805585802,0.9957964404034032
0.040530068,0.488716274,-0.869270265,0.9944743900856134
0.040756492,0.382056057,-0.920700669,0.9936565525874348
0.040982916,0.270301014,-0.95934993,0.993414926360433
0.041209344,0.154837966,-0.984755993,0.9937191614644332
0.041435768,0.0371244252,-0.996540427,0.9944710455917728
0.041662192,-0.081290178,-0.994459689,0.9955581660852484
0.041888616,-0.198779166,-0.978464544,0.9969060207007836
0.042115044,-0.31370756,-0.948756695,0.9985516995084768
0.042341468,-0.42456165,-0.905775785,1.000682367343089
0.042567892,-0.530054629,-0.850016892,1.0034866264096671
0.042794316,-0.628898084,-0.781747818,1.0066424510066323
0.043020744,-0.719284296,-0.701261282,1.0091372841044992
0.043247168,-0.799072921,-0.609607399,1.0101387139910176
0.043473592,-0.866549492,-0.508596778,1.0095787046774394
0.043700016,-0.920639813,-0.400279075,1.0078010031635305
0.043926444,-0.960740268,-0.286671519,1.0052024223624791
0.044152868,-0.98657608,-0.169702947,1.0021314518486513
0.044379292,-0.998129964,-0.0512021631,0.9988850865407602
0.044605716,-0.995604277,0.0671137124,0.9957321267728024
0.044832144,-0.979381204,0.183652148,0.9929156542135034
0.045058568,-0.949996054,0.296952933,0.9906735470328734
0.045284992,-0.90811187,0.405705333,0.989263985659538
0.045511416,-0.854480863,0.508778572,0.988993180559584
0.045737844,-0.789847493,0.605264783,0.9902045197384222
0.045964268,-0.714738309,0.694400132,0.9930423936737968
0.046190692,-0.62937969,0.775178552,0.9970205816653128
0.046417116,-0.534176946,0.84600842,1.0010752563487832
0.04664354,-0.430277973,0.905114412,1.0043712328590944
0.046869968,-0.319404095,0.95112741,1.0066623259560772
0.047096392,-0.203457177,0.983153641,1.0079859046843662
0.047322816,-0.0843772739,1.00064552,1.0084109810468658
0.04754924,0.0358708873,1.00334442,1.0079867457008254
0.047775668,0.155316323,0.991285503,1.0067701086482033
0.048002092,0.272028178,0.96480763,1.0048530925322166
0.048228516,0.384181917,0.924553514,1.002394945599543
0.04845494,0.490133166,0.87144053,0.9996391177398644
0.048681368,0.588491976,0.806608498,0.9969400748622006
0.048907792,0.678193748,0.731314957,0.9947683261581994
0.049134216,0.758515,0.646754146,0.9936359305931894
0.04936064,0.828895807,0.553837717,0.9938044756339532
0.049587068,0.888535023,0.45324561,0.9949260700818826
0.049813492,0.936263204,0.34593156,0.9962574313683792
0.050039916,0.97101444,0.233401045,0.9973450904956056
0.05026634,0.992166638,0.117409222,0.9981795629708684
0.050492768,0.999450386,-0.000326947513,0.9989011809702252
0.050719192,0.992790103,-0.118164584,0.9995950575266436
0.050945616,0.972251892,-0.234480083,1.0002546508212664
0.05117204,0.938062012,-0.347638041,1.0008125459078057
0.051398468,0.890648544,-0.455995589,1.0011868061167768
0.051624892,0.830674946,-0.557942927,1.0013211757014304
0.051851316,0.759056449,-0.65196991,1.0012314563138978
0.05207774,0.676937282,-0.736752689,1.0010486085102783
0.052304164,0.585601628,-0.811235249,1.0010318959363425
0.052530592,0.486305624,-0.874629557,1.0014700219120456
0.052757016,0.380139947,-0.926217318,1.0023848994682758
0.05298344,0.268218994,-0.965064704,1.0032913116489797
0.053209864,0.152102917,-0.990152657,1.0035375815240686
0.053436292,0.0338011906,-1.00086653,1.0028763313602185
0.053662716,-0.0846301839,-0.997163296,1.0014969069165314
0.05388914,-0.201337144,-0.979387164,0.9997358625620396
0.054115564,-0.314686984,-0.94808656,0.9978960231516498
0.054341992,-0.42321527,-0.903927743,0.9961965293262468
0.054568416,-0.525584757,-0.847670615,0.9947848083252272
0.05479484,-0.620561779,-0.780166149,0.993756141601135
0.055021264,-0.707015395,-0.702365696,0.9931883396845704
0.055247692,-0.783932745,-0.615318894,0.993167889996618
0.055474116,-0.850451291,-0.520154715,0.993828325900298
0.05570054,-0.905875504,-0.418008864,0.9953418391298244
0.055926964,-0.949605227,-0.309922606,0.9978021088555528
0.056153392,-0.980912745,-0.196852311,1.0009406456494758
0.056379816,-0.998812318,-0.0799892247,1.0040243226566403
0.05660624,-1.0023762,0.0389128849,1.006272258937681
0.056832664,-0.99119097,0.157699138,1.007328557135484
0.057059092,-0.96542573,0.274210125,1.0072380327985486
0.057285516,-0.925656378,0.386480659,1.0062070299131531
0.05751194,-0.87272346,0.492763788,1.0044623883984805
0.057738364,-0.807663679,0.591521978,1.0022188688328475
0.057964788,-0.73167032,0.681427956,0.9996855163872402
0.058191216,-0.646058619,0.761375487,0.9970843713886745
0.05841764,-0.552222311,0.830489039,0.9946615246653242
0.058644064,-0.451582074,0.888132155,0.9927050943030856
0.058870488,-0.345513433,0.93390137,0.9915513012713224
0.059096916,-0.235250458,0.967571735,0.99153784036012
0.05932334,-0.121819004,0.988938272,0.992838775561898
0.059549764,-0.00615948392,0.997578561,0.9952009246089916
0.059776188,0.110506371,0.992839932,0.9979427886053542
0.060002616,0.226475745,0.974216342,1.000388744093166
0.06022904,0.339804053,0.941676617,1.0022216454397916
0.060455464,0.448611766,0.895635009,1.003414585940069
0.060681888,0.551182806,0.836792648,1.0040244213768856
0.060908316,0.645953417,0.766058445,1.0041013580897935
0.06113474,0.731502295,0.684529185,1.003675812707031
0.061361164,0.806573212,0.593485296,1.0027851428842045
0.061587588,0.870114625,0.494374514,1.0015056207316269
0.061814016,0.921322882,0.388770044,0.999978000008548
0.06204044,0.959678233,0.278301537,0.9984340563905648
0.062266864,0.984945178,0.164555416,0.9971954886003848
0.062493288,0.9970994,0.0489578582,0.9966040853598912
0.062719716,0.996145666,-0.0672647506,0.9968307345638636
0.06294614,0.981933236,-0.18291153,0.9976495077683728
0.063172564,0.954259574,-0.29650268,0.998525173817844
0.063398988,0.913228452,-0.406255573,0.9990297961358748
0.063625412,0.859412074,-0.510387778,0.9990847968687586
0.06385184,0.793706298,-0.607340515,0.99883218864533
0.064078264,0.717160285,-0.695794225,0.998448477924632
0.064304688,0.630904257,-0.774605572,0.9980539736741691
0.064531112,0.536146522,-0.842767417,0.9977100122095484
0.06475754,0.43418631,-0.899399817,0.9974377826110497
0.064983964,0.326419681,-0.943771124,0.9972537426403651
0.065210388,0.214326322,-0.975329936,0.9972042563598116
0.065436812,0.0994253606,-0.993735731,0.9973961053965444
0.06566324,-0.0168001764,-0.9988572,0.9979979519189112
0.065889664,-0.132977903,-0.990696132,0.9991619486460388
0.066116088,-0.24782002,-0.96923703,1.0008351826360211
0.066342512,-0.359909385,-0.934380889,1.0026024111395089
0.06656894,-0.467499167,-0.886172652,1.0038574402984068
0.066795364,-0.568655133,-0.825130761,1.004209433035687
0.067021788,-0.661598206,-0.752281129,1.003639083231933
0.067248216,-0.744887292,-0.66895473,1.0023575085724663
0.06747464,-0.817408085,-0.576607108,1.0006317344194908
0.067701064,-0.8783108,-0.476734161,0.998705321661014
0.067927488,-0.926960707,-0.37084353,0.9967810760648008
0.068153912,-0.962914467,-0.260442078,0.9950343467508522
0.068380336,-0.985906541,-0.147022188,0.993627231350892
0.06860676,-0.99584496,-0.0320408419,0.9927337999070625
0.068833192,-0.992794871,0.0831160098,0.9925499269689804
0.069059616,-0.976932228,0.197178379,0.9932758912501116
0.06928604,-0.948438883,0.309001207,0.9950180607137444
0.069512464,-0.907379925,0.417446285,0.9975997291533067
0.069738888,-0.853749335,0.521137178,1.000471885306746
0.069965312,-0.787779152,0.618349195,1.002951719282987
0.070191736,-0.710209429,0.707241774,1.004588359931173
0.07041816,-0.622251034,0.786176741,1.0052702174034502
0.070644584,-0.525388062,0.853844762,1.0050834932869526
0.070871016,-0.42123726,0.909251451,1.004179030357913
0.07109744,-0.311482906,0.951678693,1.0027139354403931
0.071323864,-0.197842747,0.98066622,1.0008479875895946
0.071550288,-0.0820327252,0.996007323,0.9987599554733652
0.071776712,0.0342774391,0.997740328,0.9966607049488018
0.072003136,0.149516016,0.986130953,0.9948092955052004
0.07222956,0.262268573,0.961626709,0.9935107318456272
0.072455984,0.371320933,0.924766958,0.9930731618925642
0.072682416,0.475628436,0.876043379,0.9936744110215436
0.07290884,0.574146867,0.815806031,0.9951841051018886
0.073135264,0.665601373,0.744377255,0.9971226855008202
0.073361688,0.748474896,0.662357807,0.99893253443606
0.073588112,0.821269155,0.570789397,1.0002835606820375
0.073814536,0.882739842,0.471042633,1.0011107907577577
0.07404096,0.931940734,0.364643812,1.00147864131835
0.074267384,0.968174517,0.253184915,1.0014644965517403
0.074493816,0.99095881,0.138301596,1.0011266945727633
0.07472024,1.00002074,0.0216648318,1.00051084536707
0.074946664,0.995310366,-0.0950393826,0.9996752089120432
0.075173088,0.977014363,-0.210150048,0.998720108182698
0.075399512,0.945551157,-0.322090805,0.9978094771695868
0.075625936,0.901529849,-0.429435581,0.9971709868667704
0.07585236,0.845656812,-0.530948281,0.9970415207788584
0.076078784,0.7786116,-0.625534117,0.9975289551855296
0.076305208,0.70100832,-0.712066472,0.9984513252557492
0.07653164,0.613567293,-0.789239228,0.9993633820533838
0.076758064,0.517366588,-0.855671883,0.9998425577355274
0.076984488,0.413870394,-0.9101879,0.9997307163361252
0.077210912,0.304742634,-0.951973498,0.999121613871614
0.077437336,0.191670686,-0.9805457,0.9982075216602004
0.07766376,0.07629437,-0.995668471,0.9971765350371748
0.077890184,-0.0398014337,-0.997290015,0.9961715281432756
0.078116608,-0.155077323,-0.985519171,0.9952970125173736
0.07834304,-0.268039554,-0.960622549,0.9946408841557762
0.078569464,-0.377255946,-0.92302382,0.9942950210797472
0.078795888,-0.481387675,-0.873296738,0.9943812862433462
0.079022312,-0.579223275,-0.812124074,0.995045113872083
0.079248736,-0.669676423,-0.740220785,0.9963933220680912
0.07947516,-0.751698077,-0.658262372,0.9983593493565645
0.079701584,-0.824112594,-0.566936672,1.0005787576478444
0.079928008,-0.885570228,-0.467176169,1.0024882016014884
0.08015444,-0.934753597,-0.36035347,1.0036189104454794
0.080380864,-0.970664561,-0.24821718,1.0038014584284751
0.080607288,-0.992732525,-0.132667452,1.0031185190130478
0.080833712,-1.00076377,-0.0155877806,1.0017711022486466
