Frequency (GHz),Re( S21 ),Im( S21 ),S2
0.0,0.0566545501,3.68632973e-05,0.003209739405936
0.000226519469,0.0519102402,-0.0219271854,0.0031754744971876
0.000453038938,0.038456846,-0.0399446338,0.0030745027736838
0.000679558438,0.0186979342,-0.0507514738,0.0029253248362196
0.000906077875,-0.00382163422,-0.0523523241,0.0027553707267829
0.00113259737,-0.0250310991,-0.0443885401,0.0025968984143633
0.00135911688,-0.0410532951,-0.028222207,0.0024818660065185
0.00158563625,-0.048904676,-0.00671561854,0.0024367668670397
0.00181215575,-0.0470470339,0.0162652675,0.0024779823256343
0.00203867525,-0.0356862582,0.0365389362,0.0026086028829447
0.00226519475,-0.0167571288,0.0503639355,0.0028173273646679
0.00249171425,0.00640849629,0.0551219471,0.0030794978767941
0.00271823375,0.0296653565,0.0498007536,0.0033601484354
0.00294475325,0.0489946753,0.0351884998,0.003638708725927
0.0031712725,0.0604259111,0.0137388632,0.0038400470942934
0.003397792,0.061999239,-0.0106720487,0.0039577982600342
0.0036243115,0.0531607568,-0.0337657295,0.0039661905522159
0.003850831,0.0353566408,-0.0512832403,0.0038800627843277
0.0040773505,0.0115524391,-0.0598388426,0.0037141459328667
0.00430387,-0.0140332086,-0.0575587787,0.0035099439490466
0.0045303895,-0.0366970934,-0.0444646738,0.0033237838801487
0.004756909,-0.0520718955,-0.0225490499,0.0032199419523556
0.0049834285,-0.0569284931,0.00449586287,0.0032610661095825
0.005209948,-0.0498157591,0.0318696722,0.0034972858608446
0.0054364675,-0.0314088278,0.0544887446,0.003955537751854
0.005662987,-0.00448365184,0.0679028034,0.0046308938434013
0.0058895065,0.0264952537,0.0691339076,0.0054814956486727
0.0061160255,0.0563621446,0.0573315099,0.0064635933713251
0.006342545,0.0791464895,0.03379298,0.007406132297454
0.0065690645,0.090646252,0.00229723728,0.0082220203007681
0.006795584,0.0881072283,-0.0316928253,0.0087673188542046
0.0070221035,0.0712126344,-0.062161874,0.0089353378773799
0.007248623,0.0423647836,-0.0831881613,0.0087150450699496
0.0074751425,0.00616110396,-0.0898897499,0.0081181263390904
0.007701662,-0.030861916,-0.0795906857,0.0072871351093872
0.0079281815,-0.0612484738,-0.0524229072,0.006499536742129
0.008154701,-0.0777843148,-0.0116160233,0.0061853316262116
0.0083812205,-0.0747457147,0.0366826318,0.0069325373417881
0.00860774,-0.0490435846,0.0840931833,0.0094769366679447
0.008834259,-0.00105293375,0.12113566,0.0146749567931174
0.009060779,0.0655832067,0.138857111,0.0235824542763212
0.009287298,0.142179161,0.129416361,0.0369635083171462
0.009513818,0.218836397,0.088891983,0.0557911532936138
0.009740337,0.283858389,0.017260531,0.0808735109360772
0.009966857,0.325623512,-0.0808608606,0.1125691503441867
0.010193376,0.335318536,-0.198280618,0.1517537240596452
0.010419896,0.306028962,-0.323538989,0.1983312029859396
0.010646415,0.235273287,-0.443725646,0.2522459684939017
0.010872935,0.124872983,-0.54553932,0.3132064115493807
0.011099454,-0.0192272458,-0.616666138,0.3806468127368886
0.011325974,-0.187429547,-0.646965981,0.4536948156599176
0.011552493,-0.367269337,-0.629527152,0.5311912010056505
0.011779013,-0.544531822,-0.561444581,0.6117349227049054
0.012005532,-0.704561055,-0.444226533,0.693743492843913
0.012232051,-0.833646297,-0.28384763,0.7755356255584291
0.012458571,-0.920183659,-0.0906127691,0.8549486402145982
0.01268509,-0.954505384,0.122578852,0.9261061030426252
0.01291161,-0.933489561,0.342830837,0.9889357432940932
0.013138129,-0.85862112,0.553812742,1.043938780911613
0.013364649,-0.734610498,0.741051257,1.088809549273088
0.013591168,-0.570220768,0.892804265,1.1222511798607
0.013817688,-0.377032578,1.00080276,1.1437597292969437
0.014044207,-0.16802384,1.06078959,1.1535065650607137
0.014270727,0.0438606963,1.0725435,1.1522733200721709
0.014497246,0.246976554,1.03940547,1.1413611492916358
0.014723766,0.431927323,0.967412412,1.122447987245604
0.014950285,0.592115879,0.864125013,1.0973132522561928
0.015176805,0.725384831,0.738102317,1.0709781834056669
0.015403324,0.828476191,0.598542213,1.0446255797968058
0.015629844,0.903514385,0.450662851,1.0194352491733765
0.015856363,0.9356637,0.309377074,0.9711807334144914
0.016082882,0.968074441,0.164330781,0.9641727289015324
0.016309402,0.973240674,0.0191428699,0.9475638589959828
0.016535921,0.960015953,-0.119728647,0.9359655789269488
0.016762441,0.930933475,-0.252708167,0.9304985525440757
0.01698896,0.886999786,-0.379852414,0.9310564767856732
0.01721548,0.828396738,-0.50082463,0.9370664655436776
0.017442,0.754848123,-0.614657104,0.94759904429429
0.017668518,0.666028678,-0.719618261,0.961444641483092
0.017895038,0.561980784,-0.813247859,0.9771944817533385
0.018121558,0.443484008,-0.89254117,0.9933078054967128
0.018348078,0.312374979,-0.954274774,1.0082184717980016
0.018574596,0.171729177,-0.995592058,1.0206944561857725
0.018801116,0.0255399831,-1.01461446,1.03009479317784
0.019027636,-0.121539004,-1.01084936,1.0365881581057217
0.019254156,-0.266095221,-0.986568868,1.0441247979458403
0.019480674,-0.408384621,-0.940043688,1.0504601340179551
0.019707194,-0.540477931,-0.869710147,1.0485121336928025
0.019933714,-0.657615304,-0.780438066,1.0415414629168327
0.020160232,-0.75770247,-0.676292539,1.0314846313511674
0.020386752,-0.839509785,-0.561042428,1.0195452851268814
0.020613272,-0.902635217,-0.438245475,1.0068094313266127
0.020839792,-0.947394431,-0.311060518,0.994314853748242
0.02106631,-0.974594831,-0.182100639,0.982995727336127
0.02129283,-0.985270858,-0.0533988625,0.9736101021403502
0.02151935,-0.980452418,0.073505342,0.9666899792645838
0.02174587,-0.961032748,0.197396636,0.962549374632548
0.021972388,-0.927760541,0.317220628,0.9613685482653272
0.022198908,-0.881330609,0.431984127,0.963353928340263
0.022425428,-0.822611392,0.540959179,0.9693263355925316
0.022651948,-0.751730382,0.644570529,0.9805697340772056
0.022878466,-0.66614753,0.74142462,0.9934629988672452
0.023104986,-0.566101611,0.827005327,1.004408844863172
0.023331506,-0.453945994,0.898618758,1.0135826376981107
0.023558026,-0.331896991,0.954377115,1.0209912902705771
0.023784544,-0.202437013,0.992628753,1.0262925855146972
0.024011064,-0.0684582517,1.01215637,1.0291470495573976
0.024237584,0.0668583661,1.0123719,1.0293669050271714
0.024464102,0.200249344,0.993409455,1.0269621450558273
0.024690622,0.328592539,0.956125498,1.022149024612215
0.024917142,0.449108362,0.902020812,1.0153398660994624
0.025143662,0.55952847,0.833114445,1.007151787208199
0.02537018,0.658230722,0.751779199,0.9984396474337228
0.0255967,0.744383454,0.660546362,0.9904282229404052
0.02582322,0.818199694,0.56165421,0.984906190872418
0.02604974,0.880397081,0.455810547,0.9828622749897598
0.026276258,0.929819465,0.342998266,0.982212047971893
0.026502778,0.964954138,0.225116298,0.9818138360685478
0.026729298,0.985638082,0.104229443,0.982346205476729
0.026955818,0.991928875,-0.0181985404,0.984254079931456
0.027182336,0.983701169,-0.140848428,0.987506269562038
0.027408856,0.960731328,-0.262269706,0.99179008328597
0.027635376,0.922846854,-0.380778491,0.9966385751459343
0.027861896,0.870081961,-0.494445056,1.0015185322604487
0.028088414,0.802817106,-0.601149917,1.005896528395322
0.028314934,0.721895993,-0.698704839,1.009322276751472
0.028541454,0.628685594,-0.785029173,1.0115163785641967
0.028767972,0.525060654,-0.858380675,1.0125060735923634
0.028994492,0.41322282,-0.917633832,1.0128049485997568
0.029221012,0.295128584,-0.962408781,1.0133315428397511
0.029447532,0.171949536,-0.992147446,1.0139231975349383
0.02967405,0.0455485545,-1.00534606,1.0127953711745628
0.02990057,-0.0809069946,-1.00146163,1.0094713381374616
0.03012709,-0.204616815,-0.981297255,1.0048123436512792
0.03035361,-0.323522538,-0.946063221,0.9997024507228562
0.030580128,-0.436042786,-0.897024095,0.9947855382332108
0.030806648,-0.540911257,-0.835426807,0.9905229378035354
0.031033168,-0.637082458,-0.76246798,0.9872314788166022
0.031259688,-0.723651648,-0.679286063,0.985101263039156
0.031486206,-0.799785972,-0.586981297,0.984204644035787
0.031712726,-0.864686668,-0.486668885,0.9845296374440856
0.031939246,-0.917604983,-0.379538,0.9860479982704304
0.032165764,-0.957916975,-0.266873568,0.9888264322902012
0.032392284,-0.985227585,-0.149930283,0.9931524840053922
0.032618804,-0.999167562,-0.0296082813,0.9992124672745638
0.032845324,-0.998620629,0.0932672396,1.0059419386469597
0.033071842,-0.982074678,0.216633886,1.0114009137322648
0.033298362,-0.949141562,0.337516934,1.0147873854525602
0.033524882,-0.90046227,0.453212172,1.0162335725425105
0.0337514,-0.837127507,0.56143713,1.015994113918672
0.03397792,-0.760520697,0.66021806,1.0142796173155295
0.03420444,-0.672289252,0.747886419,1.011306934079363
0.03443096,-0.574288607,0.823123336,1.0073394303977692
0.03465748,-0.468497336,0.884990275,1.002697540683673
0.034884,-0.356924415,0.932933629,0.997760194142202
0.03511052,-0.241519496,0.966764569,0.9929653988218496
0.035337036,-0.124089271,0.98662883,0.9888345953644804
0.035563556,-0.00618665759,0.992967844,0.9860234139501444
0.035790076,0.111076728,0.986380875,0.9852852700689516
0.036016596,0.227108926,0.967150331,0.9869582270222832
0.036243116,0.341141611,0.93476969,0.9901719720983714
0.036469636,0.451424062,0.88872391,0.993613871958268
0.036696156,0.555878341,0.829343498,0.9968113676677882
0.036922672,0.652742326,0.757451117,0.999804738796438
0.037149192,0.740474761,0.674009264,1.002591359635829
0.037375712,0.817613244,0.580122888,1.005033981945664
0.037602232,0.882772326,0.477116942,1.0069275558948816
0.037828752,0.934713185,0.366576761,1.008067259918095
0.038055272,0.972438216,0.250339061,1.0083057293996245
0.038281792,0.995279908,0.130438834,1.007596384683768
0.038508312,1.00297606,0.00901498273,1.0060422468467456
0.038734828,0.995710433,-0.11182984,1.003945179499473
0.038961348,0.974089026,-0.230225086,1.0018530207973362
0.039187868,0.93892169,-0.34475255,1.0004282606839587
0.039414388,0.890746236,-0.454356194,0.9998684079743334
0.039640908,0.829748273,-0.557655752,0.999462134285168
0.039867428,0.756577194,-0.652748168,0.99848922130827
0.040093948,0.67261076,-0.73797971,0.9970192868394616
0.040320464,0.579428077,-0.812255621,0.9954960902620136
0.040546984,0.478513181,-0.874823511,0.994291039789106
0.040773504,0.371253222,-0.92508173,0.9936051620251742
0.041000024,0.259007752,-0.962500572,0.9934923666964208
0.041226544,0.14317067,-0.986615121,0.9939072377340936
0.041453064,0.0252133477,-0.997049034,0.9947424891025742
0.041679584,-0.0932959244,-0.993567348,0.9958802045214036
0.041906104,-0.210713416,-0.976139426,0.9972483226739988
0.04213262,-0.325394541,-0.944993019,0.998893413271335
0.04235914,-0.435829252,-0.900592983,1.0010148579277178
0.04258566,-0.540737212,-0.843439937,1.003787659768097
0.04281218,-0.638803482,-0.77380228,1.0068398571485226
0.0430387,-0.728178024,-0.692025602,1.0091426684600069
0.04326522,-0.806737721,-0.599247456,1.0099232640067457
0.04349174,-0.87283206,-0.497327685,1.009170631231303
0.04371826,-0.925447106,-0.388325691,1.0072491882944028
0.043944776,-0.964025259,-0.274253458,1.0045596592149748
0.044171296,-0.988328338,-0.157027185,1.0014504405228664
0.044397816,-0.998368502,-0.0384588093,0.998218745798498
0.044624336,-0.994367838,0.0797546208,0.995128196787746
0.044850856,-0.976722538,0.196040168,0.9924186637066296
0.045077376,-0.945973873,0.308956474,0.9903206712251328
0.045303896,-0.902786613,0.417207658,0.9890858985058566
0.045530412,-0.847911179,0.519678354,0.9890189590893194
0.045756932,-0.782076359,0.615470827,0.9904477701947608
0.045983452,-0.705781996,0.703809857,0.9934765406881044
0.046209972,-0.619246185,0.783636093,0.9975513638893588
0.046436492,-0.522931337,0.853304923,1.0015864748326435
0.046663012,-0.418062836,0.911051571,1.0047914998659309
0.046889532,-0.30640775,0.955547512,1.0069567569494526
0.047116052,-0.189892352,0.985936522,1.0081299307615486
0.047342568,-0.0704756975,1.00170767,1.0083850800749403
0.047569088,0.0498624332,1.00264311,1.0077794682750965
0.047795608,0.169145405,0.988822103,1.0063793194139563
0.048022128,0.285448223,0.960630894,1.004292402521097
0.048248648,0.39696455,0.918755591,1.001692689950462
0.048475168,0.502079368,0.864150941,0.998840540602465
0.048701688,0.59944272,0.797980905,0.9961050993056174
0.048928204,0.68803519,0.721511126,0.993970727620124
0.049154724,0.767171502,0.635917544,0.992943236247928
0.049381244,0.836298525,0.542078137,0.9932439295305664
0.049607764,0.894584,0.440665752,0.9944668380417256
0.049834284,0.940846264,0.332674682,0.9958641365265588
0.050060804,0.974049926,0.219643384,0.997016474475577
0.050287324,0.993606746,0.103328705,0.9979311869736854
0.050513844,0.999263644,-0.0145586822,0.9987397854475594
0.05074036,0.990953267,-0.132373929,0.9995112344568702
0.05096688,0.968751729,-0.248484626,1.0002245217988492
0.0511934,0.932903588,-0.361242324,1.0008051211521949
0.05141992,0.883862257,-0.468993396,1.0011672948407468
0.05164644,0.822324514,-0.570123792,1.0012587445297954
0.05187296,0.7492432,-0.663130283,1.0011071449779
0.05209948,0.665796041,-0.746708453,1.000857881992927
0.052325996,0.573289156,-0.81983155,1.0007842267625948
0.052552516,0.47298193,-0.881737471,1.0011728738720007
0.052779036,0.365965903,-0.931708038,1.0020109102324148
0.053005556,0.253389686,-0.968801141,1.0027819837740806
0.053232076,0.136871189,-0.992031395,1.00286001104392
0.053458596,0.0184418689,-1.00085461,1.0020500528867768
0.053685116,-0.0998591632,-0.995288551,1.0005711522266838
0.053911636,-0.21620819,-0.975713849,0.998763496553471
0.054138152,-0.32899949,-0.942699432,0.9969228835133828
0.054364672,-0.436791509,-0.896924138,0.99525973166154
0.054591192,-0.538263679,-0.839156628,0.9939116344469456
0.054817712,-0.632196963,-0.770255744,0.9929669111914168
0.055044232,-0.71747154,-0.691180229,0.992495519670464
0.055270752,-0.793087006,-0.60298872,0.9925823955332824
0.055497272,-0.85819459,-0.50681591,0.9933603209343962
0.055723792,-0.912111044,-0.403796643,0.9949982854848394
0.055950308,-0.954232037,-0.294965982,0.9975637109743938
0.056176828,-0.983805776,-0.181293741,1.0007412254167372
0.056403348,-0.999833882,-0.0640277192,1.003767340421144
0.056629868,-1.00143015,0.0550122783,1.0058886960927793
0.056856388,-0.98825407,0.173647553,1.0067995795344526
0.057082908,-0.960537493,0.28972882,1.0065750645973175
0.057309428,-0.918901682,0.40131253,1.00543204791743
0.057535944,-0.864220917,0.506676614,1.003598984554826
0.057762464,-0.797560871,0.604311883,1.0012961948852843
0.057988984,-0.720136344,0.692920864,0.9987356777161928
0.058215504,-0.633277237,0.771429121,0.996142947629187
0.058442024,-0.53838402,0.838993132,0.9937668285345298
0.058668544,-0.436876148,0.895008385,0.9919007779116262
0.058895064,-0.330117792,0.939096868,0.9908806840823648
0.059121584,-0.21932219,0.971047521,0.9910355110666416
0.0593481,-0.10549584,0.990642071,0.9925010850924748
0.05957462,0.0104071097,0.997427523,0.9949699715702236
0.05980114,0.127110258,0.990745008,0.9977326885657466
0.06002766,0.242860839,0.97013104,1.0001356218912654
0.06025418,0.355702221,0.935615003,1.0018995038630227
0.0604807,0.463763803,0.887656271,1.003010520418648
0.06070722,0.56534183,0.826993287,1.0035292814908132
0.060933736,0.658886194,0.75456816,1.0035041247295913
0.061160256,0.742993474,0.671512604,1.0029684797374496
0.061386776,0.816433966,0.579140246,1.0019678453754297
0.061613296,0.878189683,0.478926361,1.000587578588343
0.061839816,0.927499294,0.372463048,0.9989836624959488
0.062066336,0.96388793,0.2613855,0.9974023212099348
0.062292856,0.987161875,0.147268713,0.996176641282192
0.062519376,0.99732244,0.0315143242,0.9956452019573364
0.062745892,0.994372606,-0.0846718699,0.9959462051155936
0.062972412,0.978150666,-0.200077057,0.9968095541340248
0.063198932,0.948473752,-0.313185304,0.9976874928745296
0.063425452,0.905499935,-0.422202498,0.9981850816024443
0.063651972,0.849847496,-0.525366664,0.9982508980999588
0.063878492,0.782436311,-0.621149123,0.998032813774958
0.064105012,0.704327345,-0.708251595,0.9976973307347932
0.064331528,0.616661608,-0.785544991,0.9973524716663358
0.064558048,0.520661473,-0.852031291,0.9970456903096564
0.064784568,0.417645216,-0.906843305,0.9967923062710096
0.065011088,0.309030503,-0.94926703,0.996607746029454
0.065237608,0.196316674,-0.978774607,0.9965399677984268
0.065464128,0.0810366273,-0.995057046,0.9967054597584052
0.065690648,-0.0353245512,-0.998012543,0.9972768599028082
0.065917168,-0.151397854,-0.987662554,0.9983986307696084
0.066143684,-0.265886158,-0.963996589,0.999984872619636
0.066370204,-0.377336502,-0.926934123,1.0015897041233752
0.066596724,-0.483966678,-0.876580894,1.002617809140195
0.066823244,-0.583850265,-0.813539803,1.002728143005849
0.067049764,-0.675255895,-0.738901019,1.0019452396114894
0.06727628,-0.756798685,-0.654029191,1.000498432297844
0.0675028,-0.827416658,-0.560393631,0.9986593476012532
0.06772932,-0.886303425,-0.459494382,0.9966688482562926
0.06795584,-0.932863355,-0.352837294,0.9947281951390984
0.06818236,-0.96668601,-0.24192217,0.993008178267229
0.06840888,-0.987535417,-0.128231704,0.9916695697401076
0.0686354,-0.9953444,-0.0132093616,0.9908849618452396
0.06886192,-0.990196407,0.101776749,0.9908474310727188
0.06908844,-0.972275138,0.215476707,0.9917491552324827
0.06931496,-0.941752672,0.326756805,0.9936681048329477
0.06954148,-0.898677111,0.43446207,0.9963778401039912
0.069768,-0.843054533,0.537170351,0.9992929316053112
0.06999452,-0.77517426,0.633120537,1.001736747737716
0.07022104,-0.695850074,0.720481813,1.0033013683495726
0.070447552,-0.606345236,0.797653019,1.00390488393971
0.070674072,-0.508175433,0.863368988,1.0036482801448816
0.070900592,-0.402977109,0.91667527,1.0026841010075709
0.071127112,-0.292448133,0.956894279,1.0011725716781157
0.071353632,-0.178314194,0.983606756,0.9992782022307132
0.071580152,-0.062291231,0.996645689,0.99718282686178
0.071806672,0.0539581776,0.996089697,0.9951061693994652
0.072033192,0.168879643,0.982238948,0.993313684787954
0.072259712,0.281084448,0.955567002,0.9921167622187328
0.072486232,0.389385134,0.916620553,0.9918140207622238
0.072712752,0.492751896,0.865881205,0.9925546921838468
0.072939272,0.590122581,0.803688526,0.9941599074301544
0.073165792,0.680185676,0.730388463,0.9961198607190794
0.073392312,0.761408746,0.646642208,0.9978894236524078
0.073618832,0.8323192,0.553551316,0.9991743101339718
0.073845344,0.891713977,0.45252347,0.9999313076779972
0.074071864,0.938685775,0.345105082,1.0002285018095771
0.074298384,0.972573102,0.23290357,1.0001425116526474
0.074524904,0.992927313,0.117568091,0.9997269049227844
0.074751424,0.999513626,0.000780335104,0.9990280974825424
0.074977944,0.992324471,-0.115768224,0.998110137433544
0.075204464,0.971590281,-0.23042056,0.9970813086043724
0.075430984,0.937771738,-0.341615379,0.9961168997608544
0.075657504,0.891510904,-0.447952777,0.9954533823729088
0.075884024,0.833530068,-0.548224747,0.9953227474832986
0.076110544,0.764509976,-0.641349852,0.9958051360639426
0.076337064,0.685074389,-0.726189435,0.9966780139693424
0.076563584,0.595989048,-0.801423609,0.9974827463985312
0.076790104,0.498396575,-0.865694165,0.9978255332867778
0.077016624,0.393805653,-0.917879939,0.9975864747534
0.077243136,0.2838943,-0.957227767,0.9968809714882962
0.077469656,0.170347035,-0.983303785,0.9959044459286176
0.077696176,0.054794576,-0.995909333,0.9948378451155244
0.077922696,-0.0611850619,-0.995024502,0.9938173713800548
0.078149216,-0.176059917,-0.980787814,0.9929418304649456
0.078375736,-0.288345307,-0.953495502,0.9922966884031562
0.078602256,-0.39662236,-0.913601339,0.9919767030745624
0.078828776,-0.499570698,-0.861705422,0.9921071166044052
0.079055296,-0.596001506,-0.798508167,0.992833087919968
0.079281816,-0.684846103,-0.724730253,0.9942481244077308
0.079508336,-0.76505357,-0.641049623,0.996251584118187
0.079734856,-0.835430264,-0.548179984,0.99844502086535
0.079961376,-0.894622386,-0.447114497,1.000260586959896
0.080187896,-0.941354752,-0.339293182,1.001268632464667
0.080414416,-0.974700689,-0.226500928,1.001344103521936
0.080640928,-0.994160175,-0.110641189,1.0005959262593642
0.080867448,-0.999595523,0.00641820626,0.9992324029732396
