Frequency (GHz),Re( S21 ),Im( S21 ),S2
0.0,0.0568127185,4.58205723e-05,0.003227687082885
0.0002264835,0.0520626232,-0.0219705347,0.003193221129469
0.000452967,0.0385921039,-0.0400393456,0.0030924996795046
0.0006794505,0.0188016295,-0.0508939065,0.002943690990686
0.000905934,-0.00376531109,-0.0525347441,0.0027740769052569
0.0011324175,-0.0250376798,-0.0445971377,0.0026157901008
0.001358901,-0.0411349051,-0.0284359194,0.0025006819297093
0.0015853845,-0.049066592,-0.00690683909,0.0024552348767096
0.001811868,-0.0472830608,0.0161280762,0.0024958026805295
0.0020383515,-0.0359770544,0.0364863388,0.0026256013623289
0.002264835,-0.0170697849,0.0504190028,0.0028334533998786
0.0024913185,0.00611677067,0.0552941747,0.0030948606391834
0.002717802,0.0294405725,0.0500803366,0.003374787423097
0.0029442855,0.0489173159,0.0355546735,0.0036570386025519
0.003170769,0.0604872294,0.014127871,0.0038583016594808
0.0033972525,0.062214762,-0.0103258844,0.0039773004993588
0.003623736,0.0534999333,-0.0335177891,0.0039856850492565
0.0038502195,0.03579529,-0.0511923321,0.0039019576520207
0.004076703,0.0120196203,-0.0599447452,0.003737843749249
0.0043031865,-0.013622446,-0.0578712896,0.0035346571949899
0.00452967,-0.036430575,-0.044956781,0.0033482989527125
0.0047561535,-0.052024208,-0.0231562611,0.0032427306461586
0.004982637,-0.0571449213,0.00386880897,0.0032805097132295
0.0052091205,-0.0502994247,0.0313357264,0.0035119598741666
0.005435604,-0.0321141407,0.0541594476,0.0039645637972365
0.0056620875,-0.00531806331,0.0678664222,0.0046341330595978
0.005888571,0.0259259436,0.0695586652,0.005510562455956
0.0061150545,0.0556936413,0.0579844564,0.0064639788652565
0.006341538,0.0787607878,0.0346924514,0.0074068278790179
0.0065680215,0.0906469598,0.00331110042,0.0082278347069741
0.006794505,0.0885363445,-0.0307365041,0.0087834169817119
0.0070209885,0.0720188394,-0.0614309125,0.0089604702391056
0.007247472,0.0434639752,-0.082869783,0.0087565180746533
0.0074739555,0.0073662363,-0.0901070163,0.0081735358237159
0.007700439,-0.0297892746,-0.0803925246,0.0073503588927558
0.0079269225,-0.0605685897,-0.0537582599,0.0065585045657228
0.008153406,-0.0777385384,-0.0133247105,0.006220828262477
0.0083798895,-0.0755115077,0.0348626636,0.0069173931084139
0.008606373,-0.050692942,0.0824993402,0.0093759155020506
0.008832857,-0.00352241099,0.120137192,0.0144453522808273
0.00905934,0.062516585,0.138826698,0.0231811754776454
0.009285824,0.138853639,0.130613074,0.0363401081632717
0.009512307,0.215699285,0.0914006531,0.0548802609366177
0.009738791,0.281412154,0.0210615341,0.0796363886375651
0.009965274,0.324311972,-0.0759769455,0.1109507514300387
0.010191758,0.335554391,-0.192687064,0.149725053952321
0.010418241,0.308077365,-0.317744792,0.1958734156684665
0.010644725,0.239221558,-0.438315243,0.2493472060580964
0.010871208,0.130618125,-0.541116893,0.3098685864684891
0.011097692,-0.0119770877,-0.613796771,0.3768899267197999
0.011324175,-0.179139927,-0.646117628,0.4495591026579117
0.011550659,-0.358545542,-0.631017089,0.5267374722981076
0.011777142,-0.536067009,-0.565398097,0.6070428462294275
0.012003626,-0.697074413,-0.450554579,0.6889121659171618
0.012230109,-0.82781136,-0.29224053,0.7706761751197304
0.012456593,-0.916558623,-0.100549288,0.8501898687129631
0.012683076,-0.953508675,0.111776225,0.9216727177755064
0.01290956,-0.935289681,0.331905633,0.9849281366022123
0.013136043,-0.863147676,0.543549657,1.0404701402090186
0.013362527,-0.741563499,0.732170105,1.085989485704834
0.01358901,-0.579102099,0.885889709,1.1201598175783103
0.013815494,-0.387206346,0.996248484,1.14243979625497
0.014041977,-0.178790599,1.05877137,1.152962892222456
0.014268461,0.0331877992,1.07301927,1.1524717838070726
0.014494944,0.237002924,1.04214132,1.142228916835892
0.014721428,0.423126459,0.972032547,1.1238832727331858
0.014947911,0.584802806,0.870173812,1.099196784996085
0.015174395,0.719679058,0.745091677,1.0730995536584396
0.015400878,0.8243891,0.606030583,1.04689045573013
0.015627362,0.900917947,0.458289951,1.0216828264142772
0.015853845,0.934262514,0.316597015,0.9730801149725103
0.016080329,0.96776861,0.171447739,0.9659704097095444
0.016306812,0.973811865,0.0258573461,0.9489781507621136
0.016533296,0.961275816,-0.113389835,0.9369084491077933
0.016759779,0.932779431,-0.246685684,0.9309312935872316
0.016986262,0.88940382,-0.374082714,0.930977031944198
0.017212746,0.831392527,-0.495271802,0.9365076918077728
0.01743923,0.758508742,-0.609336734,0.9466267670922092
0.017665714,0.670435369,-0.714609921,0.9601509231977924
0.017892196,0.56719166,-0.808693767,0.9756919879582058
0.01811868,0.449505538,-0.888631821,0.9917217419864456
0.018345164,0.31914112,-0.951221466,1.0066733318540435
0.018571648,0.179096356,-0.993593872,1.0193042872084312
0.01879813,0.0332976691,-1.01382732,1.0289545695458755
0.019024614,-0.113648653,-1.01135361,1.0357521407887464
0.019251098,-0.258289874,-0.988371134,1.0435911575353818
0.019477582,-0.40095225,-0.943198562,1.0503862341389305
0.019704064,-0.53374064,-0.874064803,1.0488683506310383
0.019930548,-0.65177989,-0.785776615,1.0422619136892703
0.020157032,-0.752902806,-0.682373881,1.0324967487536758
0.020383516,-0.835803747,-0.567618072,1.0207581791602371
0.020609998,-0.900011003,-0.445084333,1.008119869003121
0.020836482,-0.945785105,-0.317970008,0.9956143908273812
0.021062966,-0.973900318,-0.188939899,0.9841801148346312
0.02128945,-0.98538208,-0.0600813963,0.9745876177664842
0.021515932,-0.98127377,0.0670187175,0.9673897201853578
0.021742416,-0.962496281,0.191112995,0.9629232677967008
0.0219689,-0.929834068,0.311133116,0.961395209885298
0.022195384,-0.884015799,0.426089942,0.963036571555172
0.022421866,-0.825935483,0.535264671,0.9686776900991814
0.02264835,-0.755772948,0.639106691,0.9796501114095802
0.022874834,-0.67099005,0.736334085,0.9924155319317898
0.023101318,-0.571736336,0.822460234,1.0033232744140397
0.0233278,-0.460324109,0.894785166,1.0125387786202915
0.023554284,-0.338923931,0.951423228,1.0200755897824327
0.023780768,-0.209966123,0.990704179,1.025580543095715
0.024007252,-0.076296933,1.01137364,1.028697861672056
0.024233734,0.0589325614,1.01278937,1.0292153547781615
0.024460218,0.192468628,0.995024681,1.027118288563354
0.024686702,0.32117787,0.958874106,1.0225947753350362
0.024913186,0.442249566,0.905786574,1.0160339962658458
0.025139668,0.553369105,0.837743163,1.0080309735217456
0.025366152,0.65285933,0.757098138,0.999422895331116
0.025592636,0.739831865,0.66638577,0.9914211829278712
0.02581912,0.814448178,0.567877769,0.985810995171937
0.026045602,0.877420962,0.462338805,0.9836247151658334
0.026272086,0.927620351,0.349754751,0.982807901436435
0.02649857,0.963512182,0.23202467,0.98219117235101
0.026725054,0.984933317,0.111245058,0.982469101866046
0.026951536,0.991963744,-0.0111048389,0.9841153868574926
0.02717802,0.984503746,-0.133709863,0.9871259533515112
0.027404504,0.962347746,-0.255138785,0.9912089838425566
0.027630988,0.925330997,-0.37373656,0.9959164702896476
0.02785747,0.873478711,-0.48760578,1.00072445525963
0.028083954,0.807148576,-0.594656885,1.005105634616731
0.028310438,0.727147222,-0.692721844,1.0086066356170778
0.028536922,0.634797215,-0.779724538,1.0109378593310696
0.028763404,0.531927288,-0.853909612,1.0121082651850255
0.028989888,0.420704246,-0.914120555,1.0126084516759366
0.029216372,0.303071886,-0.959942698,1.0133425515271162
0.029442856,0.180190518,-0.990805507,1.0141641754786357
0.029669338,0.0538816527,-1.00516999,1.0132699412942834
0.029895822,-0.0726888031,-1.00242126,1.0101320445960982
0.030122306,-0.196684778,-0.983314633,1.005592569368834
0.03034879,-0.316007942,-0.949035764,1.000529900758139
0.030575272,-0.429038137,-0.900840878,0.9955880104762416
0.030801756,-0.534476101,-0.839981496,0.9912336161625604
0.03102824,-0.631252229,-0.767669678,0.987796111138092
0.031254724,-0.718447924,-0.685061753,0.9854770249233428
0.031481206,-0.795229137,-0.593277633,0.9843677301518474
0.03170769,-0.860805213,-0.493445724,0.9844742972618596
0.031934174,-0.914440751,-0.386760533,0.985785596975888
0.032160658,-0.95552659,-0.274503022,0.9883829732841606
0.03238714,-0.983678818,-0.157920226,0.9925628147617682
0.032613624,-0.998547733,-0.0379003622,0.9985340125343304
0.032840108,-0.999039829,0.0847730115,1.0052670434071282
0.033066592,-0.983621061,0.208100095,1.0108160411817748
0.033293074,-0.951849163,0.329135269,1.0143468544035028
0.033519558,-0.904318869,0.445178896,1.015976866273218
0.03374604,-0.842076004,0.553943872,1.0159458098389604
0.033972524,-0.766462266,0.653440118,1.0144483930137087
0.034199008,-0.679089725,0.741972148,1.0116855230083095
0.034425492,-0.581787348,0.818183839,1.007901312693651
0.034651976,-0.476521581,0.88109529,1.0034017272189235
0.03487846,-0.365302265,0.930111527,0.998553197472402
0.035104944,-0.250092715,0.965007186,0.99378523512771
0.035331428,-0.132722676,0.985901356,0.9896167924872395
0.035557908,-0.0147745926,0.99321866,0.9867015951586916
0.035784392,0.1026062,0.987560332,0.9858034416183904
0.036010876,0.218806446,0.969233513,0.987289863533472
0.03623736,0.333070695,0.937758267,0.9903266551946264
0.036463844,0.44367066,0.892614782,0.9936048035897432
0.036690328,0.548534036,0.834123313,0.9966512899405452
0.036916812,0.645903826,0.763102174,0.9995166804049646
0.037143296,0.734251559,0.680505872,1.0022135937204109
0.037369776,0.812127948,0.587421238,1.0046155147761433
0.03759626,0.87815398,0.485145956,1.0065210112129943
0.037822744,0.931087494,0.375233084,1.007723788811351
0.038049228,0.969915748,0.259486973,1.0080700473751023
0.038275712,0.993944705,0.139914542,1.0075021556606067
0.038502196,1.00287473,0.0186359454,1.0061050225335249
0.03872868,0.996849835,-0.102250665,1.0041647920324694
0.038955164,0.976436615,-0.22086522,1.0022099085183067
0.039181648,0.942418694,-0.335766315,1.0008920130893448
0.039408128,0.895325243,-0.445881903,1.0004179621759106
0.039634612,0.83532536,-0.54982841,1.000079737502258
0.039861096,0.763038516,-0.645685852,0.9991379963724484
0.04008758,0.679828584,-0.731763124,0.9976441732696844
0.040314064,0.587282062,-0.806935132,0.9960445276028292
0.040540548,0.486897111,-0.870432198,0.9947210080152576
0.040767032,0.380074888,-0.921646476,0.9938891472114312
0.040993516,0.268183351,-0.960049987,0.9936182872922894
0.041219996,0.152617767,-0.985182822,0.99387737556795
0.04144648,0.0348443799,-0.996674657,0.9945745027166832
0.041672964,-0.0835811794,-0.994292021,0.9956024365741596
0.041899448,-0.201031461,-0.977999747,0.9968971534438584
0.042125932,-0.315877527,-0.948012829,0.9985069360122188
0.042352416,-0.426620334,-0.904779971,1.0006317053050324
0.0425789,-0.53198868,-0.848786473,1.003450432395922
0.042805384,-0.630686879,-0.78028214,1.00660615734574
0.043031864,-0.720881522,-0.699568093,1.009065685504693
0.043258348,-0.800436676,-0.607725918,1.0100296636948718
0.043484832,-0.867661774,-0.506575823,1.0094560185089545
0.043711316,-0.921500266,-0.398159266,1.0076935413397297
0.0439378,-0.9613536,-0.284482479,1.0051310250909455
0.044164284,-0.986945927,-0.16746673,1.0021073684787822
0.044390768,-0.998258114,-0.0489373431,0.998914125716524
0.044617252,-0.995488703,0.0693896189,0.9958126770117096
0.044843732,-0.979018331,0.185919166,0.9930428287201613
0.045070216,-0.949382365,0.299188524,0.9908406478662916
0.0452967,-0.90724653,0.407883763,0.989465430316081
0.045523184,-0.853367448,0.510875881,0.9892301670935588
0.045749668,-0.788487017,0.607261062,0.990477773398926
0.045976152,-0.713121057,0.696273148,0.9933379385626272
0.046202636,-0.627489924,0.77688092,0.9972875685815722
0.04642912,-0.532028913,0.847468138,1.0012570091931483
0.0466556,-0.427923203,0.906272292,1.0044477349127126
0.046882084,-0.316907346,0.951952279,1.0066434074420576
0.047108568,-0.200880781,0.983634233,1.007889392504668
0.047335052,-0.0817781836,1.00078559,1.0082594684645634
0.047561536,0.0384426601,1.0031569,1.0078016041331743
0.04778802,0.157817736,0.990790308,1.006571872222901
0.048014504,0.274424911,0.96403116,1.0046651092283034
0.048240988,0.386448801,0.923524141,1.0022395148041257
0.048467468,0.492253423,0.870186806,0.9995385097916986
0.048693952,0.590458274,0.80515641,0.9969178178991472
0.048920436,0.680007994,0.729683042,0.9948482136862778
0.04914692,0.760183811,0.644945681,0.9938343579470376
0.049373404,0.830413103,0.551833749,0.9941064081694836
0.049599888,0.889861345,0.45102644,0.9952780629042828
0.049826372,0.93733865,0.343507707,0.9966012895522204
0.050052856,0.971790254,0.230812311,0.9976506206785452
0.050279336,0.9926126,0.114704527,0.9984369021930536
0.05050582,0.999546945,-0.00309745129,0.9991036894633268
0.050732304,0.992526054,-0.120947927,0.9997363689144084
0.050958788,0.971625268,-0.237220734,1.000329338055571
0.051185272,0.937082469,-0.350278974,1.0008189133336287
0.051411756,0.889338315,-0.458483011,1.0011293099026657
0.05163824,0.829068065,-0.560229719,1.001211194453663
0.051864724,0.75719732,-0.654020548,1.0010906586214026
0.052091204,0.674874127,-0.738548338,1.0009087348565744
0.052317688,0.583377182,-0.81277436,1.0009310967516707
0.052544172,0.48394537,-0.875920832,1.0014404250760092
0.052770656,0.377650112,-0.927258492,1.0024279180797266
0.05299714,0.265609682,-0.965831876,1.0033797158698206
0.053223624,0.149408132,-0.990618467,1.0036477370691594
0.053450108,0.031064868,-1.00102246,1.003010991448309
0.053676592,-0.0873714462,-0.997013986,1.0016706578906878
0.053903072,-0.20405592,-0.978938222,0.9999588609795678
0.054129556,-0.317358702,-0.94734031,0.9981702086860208
0.05435604,-0.425813168,-0.902883351,0.9965151995551852
0.054582524,-0.528077483,-0.846327841,0.9951366425033368
0.054809008,-0.622913122,-0.778529346,0.9941287001429748
0.055035492,-0.709185958,-0.70044589,0.9935691678422698
0.055261976,-0.785884738,-0.61313647,0.9935511522653896
0.05548846,-0.852152228,-0.517735898,0.9942138797632304
0.05571494,-0.907301426,-0.415380955,0.9957372153983454
0.055941424,-0.950731456,-0.30710575,0.9982042431109424
0.056167908,-0.981701076,-0.193867341,1.001321548525968
0.056394392,-0.999213338,-0.0768807381,1.004337942727903
0.056620876,-1.00235808,0.0420709215,1.0064916829771455
0.05684736,-0.990754724,0.1608271,1.007460279222726
0.057073844,-0.964595258,0.277241826,1.0073070418399008
0.057300328,-0.924465001,0.389365137,1.0062407479849589
0.057526808,-0.87120688,0.495463341,1.0044853500342168
0.057753292,-0.80585748,0.594008446,1.0022523119912854
0.057979776,-0.72960794,0.683680296,0.9997464932496912
0.05820626,-0.643771648,0.763377726,0.9971874873215668
0.058432744,-0.54973954,0.832228899,0.9948185021701638
0.058659228,-0.44892928,0.88960135,0.9929280603631409
0.058885712,-0.342711329,0.935094357,0.9918525115181897
0.059112196,-0.232310072,0.968481302,0.9919240018762604
0.059338676,-0.118743002,0.989543736,0.9932967059808098
0.05956516,-0.00296041253,0.99783498,0.9956834113539482
0.059791644,0.113783166,0.992694139,0.998388262469935
0.060018128,0.229754984,0.973636508,1.0007554023832743
0.060244612,0.34300524,0.940662146,1.0024978675847829
0.060471096,0.451663435,0.894206703,1.0036054862061294
0.06069758,0.5540241,0.834983528,1.0041401954121367
0.060924064,0.648533702,0.763910055,1.004154534759928
0.061150544,0.733781636,0.682089984,1.0036822356039568
0.061377028,0.80852282,0.590807736,1.002762931378198
0.061603512,0.871718168,0.491512805,1.0014774019002444
0.061829996,0.922577798,0.385775626,0.9999726269782204
0.06205648,0.960592151,0.275218576,0.9984825451382744
0.062282964,0.985534012,0.161414385,0.9973318924937444
0.062509448,0.997376084,0.0457716286,0.9968540949198714
0.062735932,0.996104538,-0.0704953521,0.9971938452918964
0.062962412,0.981544673,-0.186174676,0.998090955078382
0.063188896,0.953488946,-0.299756914,0.9989953776349944
0.06341538,0.91206193,-0.409440964,0.9994988671565744
0.063641864,0.857855976,-0.513445139,0.9995427863216418
0.063868348,0.791776717,-0.61021781,0.999276145224494
0.064094832,0.714878142,-0.698443115,0.9988735428002754
0.064321316,0.628296196,-0.776979089,0.9984526146513404
0.0645478,0.533247173,-0.844820321,0.9980739222870352
0.06477428,0.431038499,-0.901091039,0.9977592481862724
0.065000764,0.323075444,-0.945068657,0.9975325089595808
0.065227248,0.210842535,-0.976212919,0.9974462377877268
0.065453732,0.0958587751,-0.994197249,0.9976170746828404
0.065680216,-0.0204011425,-0.998900712,0.998218839049412
0.0659067,-0.136576816,-0.99032557,0.9993979612645228
0.066133184,-0.251383781,-0.968444705,1.001078951992393
0.066359668,-0.363388389,-0.933149934,1.0028199205842196
0.066586148,-0.470822155,-0.884500325,1.0040143265639496
0.066812632,-0.571747899,-0.823043048,1.0042955188720446
0.067039116,-0.664403081,-0.749823749,1.0036671086067075
0.0672656,-0.747363389,-0.666177928,1.0023450669719385
0.06749208,-0.819525659,-0.573559463,1.0005927633562326
0.067718568,-0.880046308,-0.473462909,0.9986486304231732
0.067945048,-0.92829442,-0.36739555,0.9967100203629388
0.068171536,-0.963830888,-0.25686574,0.9949499890486162
0.068398016,-0.986396492,-0.143368065,0.9935324414917504
0.068624504,-0.995906234,-0.0283596423,0.9926334962314468
0.068850984,-0.99243319,0.0867764577,0.992453790224536
0.069077472,-0.976157606,0.20077838,0.9931956296270756
0.069303952,-0.947255671,0.312507212,0.9949540637936732
0.069530432,-0.905781448,0.420819104,0.9975287498323396
0.06975692,-0.851730406,0.524314821,1.000350716025187
0.0699834,-0.785360694,0.621254265,1.002748281460852
0.070209888,-0.707443833,0.709805369,1.004300438710958
0.070436368,-0.619206727,0.78835386,1.004918779338952
0.070662856,-0.522135317,0.855614126,1.0047008218694344
0.070889336,-0.417838961,0.910606802,1.0037941451782266
0.071115816,-0.307994843,0.952624798,1.0023548290791355
0.071342304,-0.194311708,0.981214702,1.0005393312868265
0.071568784,-0.0784980804,0.99617219,0.998520980755881
0.071795272,0.0377838425,0.99753809,0.996509859754913
0.072021752,0.152969822,0.985577583,0.9947629385548336
0.07224824,0.265652984,0.960734546,0.9935823757859304
0.07247472,0.374625683,0.923538268,0.9932673348236564
0.072701208,0.478841066,0.874464035,0.9939761149964976
0.072927688,0.577233613,0.813846588,0.9955449127762754
0.073154168,0.668495655,0.742015839,0.9974739460807528
0.073380656,0.751091003,0.659605682,0.9992173505142312
0.073607136,0.823529363,0.567691624,1.000474391682943
0.073833624,0.884585977,0.467663765,1.0012017477990198
0.074060104,0.93333447,0.361056924,1.0014753352585228
0.074286592,0.969096243,0.249466136,1.0013808812074856
0.074513072,0.991403639,0.134526432,1.0009785363290928
0.074739552,1.00000048,0.0179048758,1.000321544577644
0.07496604,0.994850695,-0.0987202004,0.9994735833089992
0.07519252,0.976152956,-0.213700771,0.9985426130335324
0.075419008,0.944331944,-0.325477272,0.9976982750473812
0.075645488,0.899994731,-0.432642668,0.9971701940019208
0.075871976,0.843833983,-0.533977807,0.9971880892341736
0.076098456,0.776504993,-0.628390253,0.997834314219334
0.076324944,0.698602974,-0.714734316,0.9988912577496328
0.076551424,0.610853255,-0.791676104,0.9998927527887138
0.076777904,0.514356375,-0.857823908,1.000424337639533
0.077004392,0.410594821,-0.912008166,1.0003470018827056
0.077230872,0.301239401,-0.953423679,0.999761888392734
0.07745736,0.187979996,-0.981592059,0.9988594491880196
0.07768384,0.0724619925,-0.996279597,0.9978237757555524
0.077910328,-0.0437211357,-0.997437716,0.9967935350061944
0.078136808,-0.159020901,-0.985183537,0.9958742485306822
0.078363296,-0.271936417,-0.95979619,0.995158141229314
0.078589776,-0.381033778,-0.921715438,0.9947460886244852
0.078816256,-0.484979331,-0.87153089,0.9947710437213996
0.079042744,-0.582573473,-0.809936523,0.9953890227326112
0.079269224,-0.672741532,-0.737647474,0.9967049647762876
0.079495712,-0.754436255,-0.655333817,0.9986364745622144
0.079722192,-0.826472878,-0.563687205,1.000800683150315
0.07994868,-0.887497306,-0.4636617,1.0026336402041476
0.08017516,-0.936209917,-0.356653661,1.0036908425938498
0.08040164,-0.971642911,-0.244417816,1.0038300152747637
0.080628128,-0.993251979,-0.128842607,1.0031499111659727
0.080854608,-1.00085557,-0.011792386,1.0018509323675977
