Frequency (GHz),Re( S21 ),Im( S21 ),S2
0.0,0.0567075908,4.21363693e-05,0.0032157526298138
0.000226423516,0.0519649424,-0.0219322797,0.0031813801314743
0.000452847031,0.0385155156,-0.0399644412,0.0030806015023621
0.000679270563,0.0187582579,-0.0507922284,0.0029317227052806
0.000905694063,-0.00376757258,-0.0524199978,0.0027620507724975
0.0011321175,-0.0249962732,-0.0444850102,0.0026037298063831
0.00135854113,-0.0410531275,-0.0283423774,0.0024886496342152
0.00158496463,-0.0489531122,-0.00684600137,0.0024432749288238
0.00181138813,-0.0471517034,0.0161460079,0.0024839767046284
0.00203781163,-0.0358446911,0.0364564583,0.002613915231834
0.002264235,-0.0169543214,0.0503433459,0.0028219014905415
0.00249065875,0.00619900692,0.0551814511,0.0030834202322958
0.00271708225,0.0294776596,0.049945455,0.0033634808906504
0.00294350575,0.0488896333,0.0354132392,0.0036442937548448
0.00316992925,0.0604102463,0.0140057178,0.0038455579891199
0.00339635275,0.0620965101,-0.0104079498,0.0039643019856387
0.00362277625,0.0533581302,-0.0335468948,0.0039724842091624
0.00384919975,0.0356479883,-0.0511595346,0.0038880770503255
0.00407562325,0.0118920114,-0.0598499961,0.0037234419683077
0.0043020465,-0.0137060303,-0.0577239506,0.0035199097394557
0.00452847,-0.0364505239,-0.0447759815,0.0033335292118728
0.004754894,-0.0519689433,-0.0229685027,0.0032283231839985
0.0049813175,-0.057013806,0.00403334387,0.0032668419373793
0.005207741,-0.0501042753,0.0314474627,0.003499381313606
0.0054341645,-0.0318782069,0.0541944429,0.0039532577164005
0.005660588,-0.00507327355,0.0678112954,0.0046241098883391
0.0058870115,0.0258769728,0.0692903548,0.0054707709896018
0.006113435,0.0558392592,0.0577564016,0.0064538247937852
0.0063398585,0.0788136497,0.0344210044,0.0073963969229391
0.006566282,0.0905894935,0.00303675095,0.0082156781889188
0.0067927055,0.0883720666,-0.0309681725,0.0087686498631445
0.007019129,0.0717685521,-0.0615772791,0.0089424863718897
0.0072455525,0.0431619287,-0.0828916803,0.0087339827520612
0.007471976,0.00706577115,-0.0899834037,0.0081469380633813
0.0076983995,-0.0300257206,-0.0801227465,0.0073211984042525
0.007924823,-0.0606782548,-0.0533670373,0.0065298912757533
0.0081512465,-0.0776677579,-0.012862036,0.0061977125872783
0.00837767,-0.0752261505,0.0353252254,0.0069068452686094
0.008604093,-0.0501866303,0.0828762203,0.009387165752083
0.008830517,-0.00282145361,0.120340161,0.0144897149499793
0.00905694,0.0633473098,0.138769388,0.0232698247047917
0.009283364,0.139728829,0.130239636,0.0364865084391237
0.009509788,0.216511279,0.0907041132,0.0551043700856142
0.009736211,0.282039821,0.0200516097,0.0799485276812732
0.009962635,0.32465139,-0.0772451907,0.1113653445152114
0.010189058,0.335514545,-0.194122925,0.1502537199171126
0.010415482,0.307599366,-0.319226295,0.1965227973830289
0.010641905,0.238287643,-0.439704955,0.2501214482580475
0.010868329,0.129254609,-0.542273939,0.3107677788663186
0.011094752,-0.0136997495,-0.614590287,0.377908904011105
0.011321176,-0.181112066,-0.646440983,0.4506875249527945
0.011547599,-0.360625565,-0.630798876,0.5279580200944325
0.011774023,-0.538094759,-0.56461221,0.6083329173443521
0.012000446,-0.698885262,-0.449223638,0.6902424863787637
0.01222687,-0.829253495,-0.290434241,0.7720134073149612
0.012453293,-0.917519152,-0.0983762518,0.8515192812050162
0.012679717,-0.953920662,0.114127241,0.9229896565287904
0.01290614,-0.935079098,0.334271789,0.986110548437754
0.013132564,-0.862342298,0.545773625,1.0415030886655614
0.013358987,-0.74023819,0.734096766,1.0868506397861348
0.013585411,-0.577372372,0.887395144,1.1208289975436871
0.013811834,-0.385215193,0.997252584,1.1429034612127045
0.014038258,-0.176692903,1.05924177,1.1532135092833005
0.014264681,0.0352409966,1.07297289,1.152512750516313
0.014491105,0.238879815,1.04163885,1.1420750598437568
0.014717528,0.424725592,0.971167266,1.1235576870496653
0.014943952,0.58605808,0.869064331,1.098736884549764
0.015170375,0.720556855,0.743807197,1.0724513275964878
0.015396799,0.824919164,0.604722798,1.0461812895554077
0.015623222,0.901119649,0.457054436,1.0209153792811612
0.015849646,0.934304655,0.315250129,0.9723078321891858
0.016076069,0.967589855,0.17053619,0.9653127195986372
0.016302493,0.973574162,0.0250606276,0.948474683969708
0.016528916,0.960999846,-0.114062689,0.9365310010339344
0.01675534,0.932499945,-0.247261509,0.93069440125796
0.016981764,0.889137089,-0.37459895,0.9308891363764964
0.017208186,0.831135333,-0.495763928,0.93656781406701
0.01743461,0.758241475,-0.60983032,0.9468231536014782
0.017661034,0.670130014,-0.71511513,0.9604638848185572
0.017887458,0.566818953,-0.809204698,0.9760959687452871
0.01811388,0.449042171,-0.889127791,0.9921871000649328
0.018340304,0.318572313,-0.951672792,1.0071694216432452
0.018566728,0.178418651,-0.993961036,1.019791756110853
0.018793152,0.0325237773,-1.01406777,1.029391238242633
0.019019576,-0.114496686,-1.01141679,1.0360734141988863
0.019245998,-0.259097219,-0.9881863,1.043643532401224
0.019472422,-0.401640654,-0.942907512,1.0503897911315778
0.019698846,-0.534352601,-0.873663545,1.0488206920574323
0.01992527,-0.652274966,-0.785274565,1.0421187737062405
0.020151692,-0.753255188,-0.681811213,1.0322599084214468
0.020378116,-0.836007416,-0.567041159,1.0204440756070603
0.02060454,-0.900078893,-0.444537371,1.007755487839697
0.020830964,-0.945744097,-0.31748721,0.9952300255239296
0.021057386,-0.973786354,-0.18854183,0.9838078848963624
0.02128381,-0.985233545,-0.0597730912,0.9742579606248706
0.021510234,-0.981125176,0.0672482923,0.9671289437982972
0.021736658,-0.962372124,0.191287413,0.962750979424504
0.02196308,-0.929742932,0.311282724,0.9613188538648167
0.022189504,-0.883945405,0.426243126,0.963042681482866
0.022415928,-0.825852692,0.535425365,0.96871299036903
0.022642352,-0.755687773,0.639233649,0.9796836682755548
0.022868774,-0.670943141,0.736473382,0.9925577408494636
0.023095198,-0.571676731,0.82264322,1.0035561521788148
0.023321622,-0.460216999,0.894990385,1.0128074754110143
0.023548046,-0.338758051,0.951621711,1.0203408979638862
0.023774468,-0.209744275,0.990869224,1.0258144799656377
0.024000892,-0.0760328546,1.011482,1.0288768313026246
0.024227316,0.0592167974,1.01282597,1.0293230746007536
0.02445374,0.192746922,0.994983912,1.027144361079298
0.024680162,0.321423769,0.95876193,1.0225376776954902
0.024906586,0.442442119,0.905617714,1.015898472575796
0.02513301,0.553494096,0.837537527,1.0078248234401328
0.025359434,0.65291065,0.756876171,0.999153855111044
0.025585856,0.739804983,0.666164577,0.9910866565212192
0.02581228,0.8143273,0.567682564,0.985392444994904
0.026038704,0.877216876,0.462236345,0.9831718861781584
0.026265128,0.927410841,0.349770039,0.9824299481863888
0.02649155,0.963343441,0.232124776,0.9819124969507708
0.026717974,0.984821081,0.11140161,0.9822828802926006
0.026944398,0.991917849,-0.0109164072,0.984020187110943
0.027170822,0.984527349,-0.133514673,0.9871202688352648
0.027397244,0.962435782,-0.254961312,0.9912879050907129
0.027623668,0.925468981,-0.373597473,0.996067906625164
0.027850092,0.873646855,-0.487518221,1.000932843058396
0.028076516,0.807323575,-0.594625652,1.0053510207672056
0.02830294,0.727305532,-0.69274193,1.008864718457928
0.028529362,0.634918451,-0.779782534,1.0111822397517003
0.028755786,0.53199631,-0.853980839,1.01230334723276
0.02898221,0.420718402,-0.914169312,1.012709504783987
0.029208634,0.303062379,-0.959929287,1.013311041605468
0.029435056,0.180214494,-0.990737855,1.014038761177677
0.02966148,0.0539505817,-1.00508904,1.0131146435938905
0.029887904,-0.072584413,-1.00233936,1.009952689615764
0.030114328,-0.196542472,-0.983236194,1.0053823564914763
0.03034075,-0.31582278,-0.948973179,1.0002941228282944
0.030567174,-0.428811342,-0.900811851,0.9953411579298872
0.030793598,-0.534217715,-0.840003371,0.9909942303111848
0.031020022,-0.630979598,-0.767754495,0.9875822176849468
0.031246444,-0.718182743,-0.685214102,0.9853048179226704
0.031472868,-0.794994056,-0.593492627,0.9842490473786922
0.031699292,-0.860618949,-0.493709236,0.9844137850895684
0.031925716,-0.914313436,-0.387049973,0.9857767408494268
0.032152138,-0.955453992,-0.274794936,0.9884045876799802
0.032378562,-0.983640552,-0.158201352,0.9925764033134926
0.032604986,-0.998529196,-0.0381854624,0.9985186848031082
0.03283141,-0.999060154,0.0844718516,1.0052566850232365
0.033057832,-0.983695328,0.207808301,1.0108407882935342
0.033284256,-0.95195955,0.328874797,1.0143856169379937
0.03351068,-0.904442966,0.44494915,1.0159968248325997
0.033737104,-0.842201114,0.553732872,1.0159228099562094
0.033963528,-0.766586065,0.653233707,1.0143684710131462
0.034189952,-0.679217517,0.74175781,1.0115410840956414
0.034416372,-0.581930816,0.817954719,1.0076933969447948
0.034642796,-0.476694763,0.880851269,1.0031368551705364
0.03486922,-0.365517855,0.929858685,0.9982404763937304
0.035095644,-0.250359148,0.964757204,0.9934361656571834
0.035322068,-0.133043468,0.985665917,0.9892378643129178
0.035548492,-0.0151511822,0.9930076,0.9862936519798176
0.035774916,0.102165215,0.987381995,0.9853609352061764
0.03600134,0.218287021,0.96911639,0.9868358009036868
0.03622776,0.332490206,0.937752128,0.9899287906544508
0.036454184,0.443082154,0.892741323,0.99330886498507
0.036680608,0.547982872,0.834369421,0.9964575587052436
0.036907032,0.645417213,0.763443589,0.9994094924218884
0.037133456,0.733844578,0.680917084,1.0021759399430612
0.03735988,0.811807275,0.587876856,1.0046302495633703
0.037586304,0.877918184,0.48562184,1.0065689092828436
0.037812728,0.930929303,0.375709176,1.0077867521146648
0.038039152,0.96982187,0.259947777,1.0081273062975384
0.038265572,0.993898153,0.140350804,1.0075318867202578
0.038491996,1.00285757,0.0190457795,1.0060860474230675
0.03871842,0.996843457,-0.101861186,1.0040725789770375
0.038944844,0.976425171,-0.220477328,1.0020163667243989
0.039171268,0.942401707,-0.335347086,1.0005786454452057
0.039397692,0.895335615,-0.445401728,1.0000085627928144
0.039624116,0.835410058,-0.549297392,0.9996375898655652
0.03985054,0.763217807,-0.645138085,0.9987045696393564
0.04007696,0.68010211,-0.73122561,0.997229772746324
0.040303384,0.587646246,-0.806427121,0.9956528119222412
0.040529808,0.487346977,-0.869972765,0.9943596878327838
0.040756232,0.380600989,-0.921254158,0.9935663364600672
0.040982656,0.268770248,-0.959741771,0.993341713212198
0.04120908,0.15324463,-0.98497051,0.993650822193497
0.041435504,0.0354867615,-0.996562362,0.994395851596777
0.041661928,-0.0829482526,-0.994274735,0.9954626612687136
0.041888348,-0.200428054,-0.978062212,0.99677709537256
0.042114772,-0.31531316,-0.948131621,0.9983759596092734
0.042341196,-0.426087976,-0.90493089,1.0004508789679687
0.04256762,-0.531464875,-0.848962545,1.0031923161716425
0.042794044,-0.630156994,-0.780503094,1.0062829168306888
0.043020468,-0.720360518,-0.699853599,1.0087143359264812
0.043246892,-0.799942672,-0.608070791,1.009658365353865
0.043473316,-0.867198169,-0.50696981,1.009051052568389
0.043699736,-0.921063483,-0.398600489,1.0072402895471304
0.04392616,-0.960943699,-0.284977019,1.004624694005929
0.044152584,-0.986569703,-0.168023273,1.0015515991471406
0.044379008,-0.997929275,-0.0495611355,0.998319144054075
0.044605432,-0.99522543,0.0686981976,0.9951930988721734
0.044831856,-0.978840053,0.185167938,0.9924150146202146
0.04505828,-0.949305236,0.298392504,0.990218517540406
0.045284704,-0.907280266,0.40706259,0.9888574332505388
0.045511124,-0.853513658,0.510047495,0.988634011548316
0.045737548,-0.788746536,0.606436551,0.9898863884407748
0.045963972,-0.713505507,0.695462465,0.9927581487432032
0.046190396,-0.628017068,0.776114106,0.9967585432314958
0.04641682,-0.532692015,0.846795619,1.0008236032023534
0.046643244,-0.428684205,0.905730486,1.004117860886278
0.046869668,-0.317721963,0.951550841,1.0063962487803806
0.047096092,-0.201712981,0.983366251,1.007697310309701
0.047322516,-0.0826025009,1.00063479,1.0080931561132789
0.047548936,0.0376418009,1.00310504,1.007636626448397
0.04777536,0.157047883,0.990819335,1.0063869921646238
0.048001784,0.273686767,0.96412468,1.0044408450160145
0.048228208,0.385737985,0.923669696,1.0019595003805928
0.048454632,0.491562158,0.870376945,0.99918938156515
0.048681056,0.589775801,0.805388153,0.9964855724379432
0.04890748,0.679320037,0.729960978,0.994318742072398
0.049133904,0.759475946,0.645288348,0.993200764617164
0.049360324,0.829686701,0.552278817,0.9933919135231828
0.049586748,0.889151573,0.451610029,0.9945421380617552
0.049813172,0.936700821,0.344234109,0.9959055498610978
0.050039596,0.971267641,0.231656179,0.9970254157225849
0.05026602,0.992229819,0.115631528,0.9978906639803874
0.050492444,0.999316216,-0.00212158868,0.9986374006990856
0.050718868,0.992451072,-0.119956985,0.9993488085642396
0.050945292,0.971700907,-0.236248165,1.00001584813049
0.051171712,0.9372949,-0.349355429,1.000570945337784
0.051398136,0.88966471,-0.457632601,1.0009308937174095
0.05162456,0.829480052,-0.559467494,1.0010410335085629
0.051850984,0.757662952,-0.653349698,1.0009189767100457
0.052077408,0.675364017,-0.737957299,1.0006975306057515
0.052303832,0.58387357,-0.812237382,1.0006379104627587
0.052530256,0.484452099,-0.875406742,1.0010308001645605
0.05275668,0.378194571,-0.926752567,1.0019014539749636
0.0529831,0.266217589,-0.96534735,1.0027673108449957
0.053209524,0.15008305,-0.990179062,1.0029794967205026
0.053435948,0.0317991041,-1.00064015,1.002291892813585
0.053662372,-0.0865813121,-0.99669373,1.0008947150262706
0.053888796,-0.203208521,-0.978688896,0.9991256581607062
0.05411522,-0.316454232,-0.94717598,0.9972856180396702
0.054341644,-0.424857974,-0.902822137,0.9955921091286316
0.054568068,-0.527085662,-0.846387863,0.9941917097196852
0.054794488,-0.621906757,-0.778724551,0.9931799407324088
0.055020912,-0.70819056,-0.700781643,0.9926287804388932
0.055247336,-0.784925461,-0.613609612,0.9926247352648532
0.05547376,-0.851249635,-0.518337607,0.9932998159181196
0.055700184,-0.906467676,-0.416102707,0.9948251104055688
0.055926608,-0.949979424,-0.307948053,0.9972929093698626
0.056153032,-0.981058538,-0.194832429,1.0004355303727377
0.056379456,-0.998721004,-0.0779504701,1.003519919619579
0.05660588,-1.00204277,0.0409408845,1.0057658689329152
0.0568323,-0.990616202,0.159685507,1.0068199208107518
0.057058724,-0.964614809,0.276124418,1.0067264239579452
0.057285148,-0.924620092,0.388293296,1.005693998248632
0.057511572,-0.871475756,0.494447559,1.00394838189683
0.057737996,-0.80622226,0.593052983,1.001706173164706
0.05796442,-0.730055332,0.682785749,0.9991771668191212
0.058190844,-0.644291222,0.762542009,0.9965814942360094
0.058417268,-0.550324678,0.831449389,0.994165337684277
0.058643688,-0.449576586,0.888873458,0.992215131016293
0.058870112,-0.343422741,0.934412718,0.9910663065961006
0.059096536,-0.233098075,0.967843711,0.9910561614909572
0.05932296,-0.119629093,0.988961101,0.9923551791831348
0.059549384,-0.00395933539,0.997344077,0.9947108842637126
0.059775808,0.112686999,0.992342293,0.9974415862201238
0.060002232,0.228603661,0.973453403,0.9998711616348834
0.060228656,0.341843992,0.940652311,1.0016840850561368
0.060455076,0.450528502,0.894357979,1.0028521257153284
0.0606815,0.552942336,0.835278511,1.003435417879514
0.060907924,0.647523284,0.76432842,1.0034843369418411
0.061134348,0.732854187,0.682608485,1.0030296031974264
0.061360772,0.80768317,0.591404974,1.0021119463731896
0.061587196,0.870964229,0.492168069,1.0008080963407533
0.06181362,0.921899974,0.386472404,0.99926048111474
0.062040044,0.959975779,0.275948077,0.9977008374666548
0.062266464,0.984960616,0.162179857,0.99644972108764
0.062492888,0.996834695,0.04659288,0.9958503056224376
0.062719312,0.995605052,-0.0695883185,0.9960719536395802
0.062945736,0.981123149,-0.185163945,0.9968883200316392
0.06317216,0.953188241,-0.298654288,0.997762206521461
0.063398584,0.911907554,-0.40827778,0.9982661326839912
0.063625008,0.857856393,-0.51225251,0.9983202250122708
0.063851432,0.791932285,-0.609020948,0.99806325912814
0.064077852,0.715188146,-0.697264493,0.9976718573774646
0.064304276,0.628757477,-0.775841951,0.997266697814892
0.0645307,0.533851445,-0.843746901,0.996906198275692
0.064757124,0.431773424,-0.900102437,0.9966126867660228
0.064983548,0.323923111,-0.944180727,0.9964034270781668
0.065209972,0.211783335,-0.975435555,0.9963267029418804
0.065436396,0.0968749747,-0.993531108,0.9964888232868332
0.06566282,-0.0193186142,-0.998342335,0.9970606267078608
0.065889244,-0.135425061,-0.989876807,0.998196040183369
0.066115664,-0.250157416,-0.968123913,0.9998426437022286
0.066342088,-0.36210081,-0.932989776,1.0015869187231865
0.066568512,-0.469510645,-0.884524822,1.002824406502448
0.066794936,-0.570457101,-0.823252439,1.003165882400773
0.06702136,-0.663166404,-0.750201344,1.0025917359336978
0.067247784,-0.746201932,-0.666703761,1.0013112282520775
0.067474208,-0.818454444,-0.574215829,0.9995914951775065
0.067700632,-0.879076958,-0.474233001,0.9976732373239996
0.067927056,-0.927437842,-0.368262589,0.9957582852305998
0.06815348,-0.96309495,-0.257811219,0.9940185073577684
0.068379904,-0.985785484,-0.144372106,0.9926163254559895
0.068606328,-0.995418131,-0.0294030029,0.9917217921030704
0.068832744,-0.992060363,0.0857091919,0.9915298294118428
0.069059168,-0.975891411,0.199691936,0.992240915366999
0.069285592,-0.947095752,0.311398476,0.993959374311568
0.069512016,-0.905743361,0.419688344,0.9965093420850386
0.06973844,-0.851835072,0.523184299,0.9993448006093664
0.069964864,-0.785609841,0.620161474,1.001783076109898
0.070191288,-0.707816482,0.708783507,1.0033782319860751
0.070417712,-0.619671881,0.787417233,1.0040191389274544
0.070644136,-0.522665262,0.854761243,1.0037957586364337
0.07087056,-0.418415576,0.909828007,1.002858596561004
0.071096984,-0.308608294,0.951907754,1.001367451250915
0.071323408,-0.194959521,0.980547786,0.9994831754580512
0.071549832,-0.0791832581,0.995547116,0.9973840485392488
0.071776256,0.0370548293,0.996949434,0.9952812343273726
0.07200268,0.152186722,0.985023439,0.993431973732492
0.072229104,0.264802396,0.960218132,0.99213916994891
0.07245552,0.373689651,0.923073113,0.9917079272080124
0.072681944,0.477805167,0.87408036,0.9923142533496274
0.072908368,0.576104462,0.813589692,0.9938245380649644
0.073134792,0.667310774,0.741925597,0.9957572605802856
0.073361216,0.749905884,0.659692645,0.9975532207249176
0.07358764,0.822391033,0.567936897,0.9988793301327958
0.073814064,0.883523107,0.468034953,0.9996697978326458
0.074040488,0.932357848,0.361519665,0.9999876249089032
0.074266912,0.968202591,0.249989405,0.9999109598313672
0.074493336,0.990580022,0.135085613,0.9994969028251062
0.07471976,0.999225259,0.0184845775,0.9987927978289706
0.074946184,0.994097412,-0.0981233492,0.9978578562033228
0.075172608,0.975394189,-0.213076398,0.996795375319622
0.075399032,0.943545401,-0.324799091,0.9957723732626768
0.075625456,0.89917028,-0.431868374,0.9950174848966822
0.07585188,0.842985511,-0.533054531,0.9947717047755612
0.076078304,0.775678992,-0.627270043,0.995145605475358
0.07630472,0.697871387,-0.71339649,0.9959590247376238
0.076531144,0.610289991,-0.7901389,0.99677335440799
0.076757568,0.514015555,-0.856128335,0.99716771677183
0.076983992,0.410512775,-0.910202503,0.9969893349056655
0.077210416,0.301441848,-0.951558292,0.9963303707996124
0.07743684,0.188483953,-0.979723632,0.9953845956377776
0.077663264,0.0732710138,-0.994470477,0.9943401710878872
0.077889688,-0.0426200256,-0.995752156,0.993338822760793
0.078116112,-0.15765889,-0.983680308,0.9924832739430068
0.078342536,-0.270359784,-0.958521843,0.9918585363126432
0.07856896,-0.37929818,-0.920700073,0.9915557337735178
0.078795384,-0.483140349,-0.870785594,0.9916921475497746
0.079021808,-0.580678701,-0.809458375,0.992410614652688
0.079248232,-0.670829237,-0.737430453,0.9938155382257874
0.079474656,-0.752542615,-0.65537411,0.9958356114493304
0.07970108,-0.824643493,-0.563977242,0.9981072200411676
0.079927496,-0.885781348,-0.464172244,1.0000644685646929
0.08015392,-0.934639573,-0.35733372,1.0012385188666606
0.080380344,-0.970221043,-0.245211706,1.0014576530394383
0.080606768,-0.99195683,-0.129708663,1.0008026898408966
