Frequency (GHz),Re( S21 ),Im( S21 ),S2
0.0,0.0567229874,5.3854299e-05,0.0032175001998660797
0.000226425219,0.0519785322,-0.0219328012,0.003182815578145158
0.000452850438,0.0385237411,-0.03997517,0.0030820928448687295
0.000679275688,0.0187577214,-0.0508088432,0.002933390659442204
0.000905700875,-0.00377808255,-0.052437339,0.0027639484291555353
0.00113212613,-0.0250153281,-0.0444981456,0.0026058516017894487
0.00135855138,-0.0410775468,-0.0283478089,0.0024909631205371095
0.00158497663,-0.0489784218,-0.00684227562,0.0024457025376787614
0.00181140175,-0.0471736342,0.0161580555,0.00248643452117649
0.002037827,-0.0358598121,0.0364741161,0.0026162872691235855
0.00226425225,-0.0169612896,0.0503623113,0.002824047744373175
0.0024906775,0.00619863113,0.0551972166,0.0030851557482731206
0.00271710275,0.0294780899,0.0499528609,0.003364246096247231
0.002943528,0.0489394628,0.0354222283,0.0036498052768899046
0.00316995325,0.0604449473,0.0139953224,0.0038494607031797196
0.0033963785,0.0621164404,-0.0104400842,0.003967447526069842
0.0036228035,0.0533392429,-0.0335793458,0.0039726472975011775
0.00384922875,0.0356185436,-0.0511898398,0.0038890803469347644
0.004075654,0.0118505359,-0.0598698668,0.0037248361517669307
0.0043020795,-0.0137549592,-0.0577283427,0.0035217604534823073
0.0045285045,-0.0364996642,-0.0447623767,0.0033358958545454645
0.0047549295,-0.0520101711,-0.0229377523,0.0032311983784274307
0.004981355,-0.0570398942,0.00407657679,0.003270168008671961
0.00520778,-0.0501103066,0.0314951502,0.003502987313666564
0.0054342055,-0.0318633057,0.0542364903,0.003956867130193647
0.0056606305,-0.00504157972,0.0678370968,0.004627289228325685
0.005887056,0.0262032934,0.0694370791,0.0055081205389461395
0.006113481,0.0559085533,0.0577605739,0.006462050229356302
0.0063399065,0.078867428,0.0343856439,0.007402443705752791
0.0065663315,0.090618521,0.002966495,0.008220516440812464
0.006792757,0.0883648321,-0.0310602002,0.00877307958852527
0.007019182,0.0716996342,-0.0616467595,0.00894116050126465
0.007245607,0.043060936,-0.0829439834,0.008733948591455572
0.0074720325,0.00694375625,-0.0899979323,0.008147843569134797
0.0076984575,-0.0301522911,-0.0800905079,0.007323650114259101
0.007924883,-0.0607883893,-0.0532870106,0.006534733772372866
0.008151308,-0.0777405649,-0.0127425473,0.00620596794266385
0.0083777335,-0.0752440467,0.0354665518,0.006919542860373864
0.008604159,-0.0501396954,0.0830138549,0.009405289160163036
0.008830584,-0.00271097221,0.120443314,0.014513941257625987
0.009057009,0.0635348558,0.138839796,0.023313166854848407
0.009283434,0.13993305,0.130249724,0.03654624908437868
0.009509859,0.216710389,0.090562433,0.055164946971410805
0.009736285,0.282194316,0.0197836105,0.08002502322712357
0.00996271,0.324678898,-0.0776173547,0.11144084055712002
0.010189135,0.335385948,-0.194561839,0.1503380433109206
0.01041556,0.307284802,-0.319680363,0.196619484027991
0.010641986,0.23777093,-0.440105379,0.25022775977779854
0.010868411,0.128543034,-0.542546093,0.3108795746194898
0.011094836,-0.0145724537,-0.61466223,0.3780220133954115
0.011321261,-0.182087317,-0.646251917,0.45079733123843335
0.011547687,-0.361625344,-0.630307615,0.5280605789501066
0.011774112,-0.539027691,-0.563802361,0.6084239539339659
0.012000537,-0.699655712,-0.448107302,0.6903182694399461
0.012226962,-0.829770863,-0.28905201,0.772070749568805
0.012453387,-0.917705715,-0.0967918858,0.8515524485003814
0.012679813,-0.953729391,0.115829334,0.9230161858721143
0.012906238,-0.934477627,0.335982054,0.9861323759736101
0.013132663,-0.861324906,0.54738909,1.041515409546937
0.013359088,-0.73883146,0.735516906,1.0868570452975443
0.013585514,-0.575627506,0.888528287,1.1208295424629342
0.013811939,-0.383205175,0.998024344,1.1428987973634108
0.014038364,-0.174506262,1.05959976,1.1532040868692703
0.014264789,0.0375078656,1.07288945,1.15249861190317
0.014491214,0.241129667,1.04111052,1.142054631162201
0.01471764,0.426867366,0.97021389,1.1235307405047101
0.014944065,0.588012338,0.867724657,1.098704590005994
0.01517049,0.722252429,0.742132246,1.0724088417494047
0.015396915,0.826317191,0.602769613,1.0461313064983002
0.015623341,0.902188063,0.454886734,1.0208652417888786
0.015849766,0.935025334,0.312957585,0.9722148252308438
0.016076191,0.967986941,0.16812773,0.9652656515414905
0.016302616,0.973607838,0.0225965753,0.9484228274303227
0.016529041,0.960677385,-0.116533458,0.9364810848838759
0.016755467,0.931826711,-0.249697566,0.9306498937994019
0.016981892,0.888116539,-0.376960009,0.9308498352306186
0.017208318,0.829772294,-0.498008162,0.9365341893086405
0.017434742,0.756543219,-0.611912489,0.9467945364090571
0.017661168,0.668109298,-0.716986597,0.9604398143516931
0.017887592,0.564496517,-0.810813129,0.976074247863902
0.018114018,0.446449369,-0.890421331,0.9921671857803097
0.018340444,0.315752417,-0.952601254,1.0071487379637143
0.018566868,0.175426841,-0.994481504,1.0197680383413414
0.018793294,0.0294253659,-1.01414895,1.0293639449444514
0.019019718,-0.117630728,-1.01104081,1.036040507655266
0.019246144,-0.262198061,-0.987351716,1.0436112342803046
0.01947257,-0.40464294,-0.941610277,1.0503658226438604
0.019698994,-0.537173212,-0.871918321,1.0487966181858561
0.01992542,-0.654843807,-0.783118904,1.0420956293684143
0.020151846,-0.75551486,-0.679291606,1.032239789662879
0.02037827,-0.837911785,-0.564210057,1.0204291478618295
0.020604696,-0.901591599,-0.441449821,1.0077453558483087
0.02083112,-0.946838796,-0.314200193,0.9952254668919668
0.021057546,-0.974444389,-0.185111523,0.9838081432009628
0.021283972,-0.985443413,-0.0562543571,0.974263272917823
0.021510396,-0.980879128,0.0708013177,0.9671366903340967
0.021736822,-0.961667895,0.194821209,0.9627604437499528
0.021963246,-0.928581536,0.314743608,0.9613272077769771
0.022189672,-0.882332742,0.429577142,0.9630475885341268
0.022416098,-0.823800385,0.538579047,0.9687144641935763
0.022642522,-0.753207445,0.642154694,0.9796841062296617
0.022868948,-0.668048561,0.739098728,0.9925558095853886
0.023095374,-0.568401992,0.824904621,1.0035484582567216
0.023321798,-0.45661062,0.896827459,1.0127927495131812
0.023548224,-0.334878594,0.952982247,1.0203188358165858
0.023774648,-0.205659732,0.991710603,1.0257858454689355
0.024001074,-0.0718185976,1.01177239,1.0288412801275428
0.0242275,0.0634803101,1.01254725,1.0292816832529543
0.024453924,0.196977377,0.994131982,1.0270984846850484
0.02468035,0.325539798,0.95734632,1.0224881364994232
0.024906774,0.446366519,0.903660715,1.0158457571184887
0.0251332,0.557156861,0.835072935,1.0077705745288874
0.025359626,0.656249821,0.753946006,0.999098407525884
0.02558605,0.742768586,0.662816525,0.9910309181615149
0.025812476,0.816872537,0.563965201,0.9853374896437868
0.0260389,0.879304588,0.458195508,0.9831196820292277
0.026265326,0.928999245,0.345455945,0.982379407146413
0.026491752,0.964395344,0.227597982,0.9818592209393507
0.026718176,0.985309303,0.106727183,0.9822251141694612
0.026944602,0.991820812,-0.015670957,0.9839541020096353
0.027171028,0.98383075,-0.138278127,0.9870437850521906
0.027397452,0.961132109,-0.259658635,0.9911975376808512
0.027623878,0.923561215,-0.37814945,0.9959623243875788
0.027850302,0.871148467,-0.491844088,1.0008102584570018
0.028076728,0.804261208,-0.598644197,1.0052109652953942
0.028303154,0.723719537,-0.696375549,1.0087088734805458
0.028529578,0.630861342,-0.782959819,1.0110121109985537
0.028756004,0.52753216,-0.856641173,1.0121242791130816
0.028982428,0.41591841,-0.916262984,1.0125259796255124
0.029208854,0.297999889,-0.961419225,1.0131308600436129
0.02943528,0.174964473,-0.991593421,1.0138700793826512
0.029661704,0.0485944822,-1.00528693,1.012963235329111
0.02988813,-0.0779618248,-1.00187051,1.009822564933806
0.030114556,-0.201859042,-0.982105076,1.0052774531421236
0.03034098,-0.321001142,-0.947192311,1.0002150071828249
0.030567406,-0.433779091,-0.898400366,0.9952875174177203
0.03079383,-0.538904548,-0.836984515,0.9909611902048695
0.031020256,-0.635316491,-0.764156342,0.9875619587553741
0.031246682,-0.722101033,-0.681070924,0.9852875053778808
0.031473106,-0.798424542,-0.58884567,0.9842209723456588
0.031699532,-0.863493562,-0.488609284,0.9843601640264406
0.031925956,-0.91656661,-0.381559283,0.985681837010366
0.032152382,-0.957026362,-0.268987238,0.9882535917698237
0.032378808,-0.984481037,-0.1521613,0.9923559734302854
0.032605232,-0.998595059,-0.0320063829,0.998216500405555
0.032831658,-0.998319566,0.0906842723,1.0048655931010089
0.033058082,-0.982133508,0.213934526,1.0103542089512307
0.033284508,-0.949589252,0.33479026,1.013804265704787
0.033510934,-0.901300967,0.450534046,1.0153243597202652
0.03373736,-0.838346422,0.558879077,1.0151705459885738
0.033963784,-0.762094438,0.657847464,1.0135512183217672
0.034190208,-0.674176931,0.745763123,1.0106771699192918
0.034416636,-0.576436162,0.821294367,1.006803086127221
0.03464306,-0.470842898,0.88348645,1.002241341930641
0.034869484,-0.359403133,0.931767821,0.9973618842613037
0.035095912,-0.244070411,0.965931356,0.9925937500297077
0.035322336,-0.126661137,0.986106396,0.9884488678582417
0.03554876,-0.00874718651,0.992719591,0.985568699627048
0.035775184,0.108525679,0.986370981,0.9847055351613133
0.036001612,0.224541768,0.967385232,0.9862531926682597
0.036228036,0.338571131,0.935298085,0.9894129185512864
0.03645446,0.448910832,0.889565825,0.9928482920948629
0.036680888,0.553473115,0.830483675,0.9960356234693087
0.036907312,0.65047735,0.758870184,0.9990047390272162
0.037133736,0.73837924,0.675692439,1.0017641741847463
0.037360164,0.815720081,0.582054853,1.0041871024474982
0.037586588,0.881115973,0.479275852,1.0060707001860627
0.037813012,0.933327496,0.368932217,1.007211195530165
0.038039436,0.971351326,0.252851337,1.0074571971446458
0.038265864,0.994510889,0.133061379,1.0067572389209518
0.038492288,1.00252926,0.0116977571,1.0052017546773182
0.038718712,0.995576084,-0.109131739,1.003081475489939
0.03894514,0.974245012,-0.227540329,1.0009279447283084
0.039171564,0.939355075,-0.342083395,0.9994090060629817
0.039397988,0.891482353,-0.451705903,0.9987790085154621
0.039624416,0.830822647,-0.555075169,0.9983747140084651
0.03985084,0.757980049,-0.650310159,0.9974370575806477
0.040077264,0.674305022,-0.735731661,0.9959883396922393
0.040303692,0.581379473,-0.810224235,0.9944654026070929
0.040530116,0.480695218,-0.873030484,0.9932501186013418
0.04075654,0.373642534,-0.92355001,0.9925533641849413
0.040982964,0.26157856,-0.961256504,0.9924374095339755
0.041209392,0.145890951,-0.985685825,0.992860715189615
0.041435816,0.0280431695,-0.996458948,0.9937168544048725
0.04166224,-0.0904046521,-0.993333817,0.9948850731171115
0.041888668,-0.207813397,-0.976267636,0.996284905073708
0.042115092,-0.322535098,-0.94547379,0.9979495770188337
0.042341516,-0.433046341,-0.90140903,1.000067372819029
0.042567944,-0.538051844,-0.844586968,1.0028269333472333
0.042794368,-0.636257291,-0.775298834,1.0059116223524183
0.043020792,-0.725853205,-0.693867087,1.0083144096306376
0.04324722,-0.804710209,-0.601376057,1.0092116824016908
0.043473644,-0.871136546,-0.499663949,1.0085429437070847
0.043700068,-0.924087644,-0.390799612,1.0066623105328212
0.043926492,-0.962989986,-0.2768085,1.00397265880853
0.04415292,-0.987597466,-0.159621343,1.0008277279907447
0.044379344,-0.997920036,-0.0410618708,0.9975304754838372
0.044605768,-0.994180858,0.0771620944,0.9943495672258107
0.044832196,-0.976779282,0.193470389,0.9915285571642468
0.04505862,-0.946261883,0.306415528,0.9893020270182246
0.045285044,-0.903298557,0.414697856,0.9879225948492789
0.045511472,-0.848645687,0.517195702,0.9876908962309747
0.045737896,-0.783048987,0.613005638,0.9889416282615132
0.04596432,-0.707038462,0.701364517,0.9918155724539688
0.046190748,-0.620846689,0.781260252,0.9958181925973663
0.046417172,-0.524897099,0.851095796,0.9998810185074894
0.046643596,-0.420360655,0.909100711,1.0031671830127347
0.04687002,-0.308980703,0.953917921,1.0054284748313362
0.047096448,-0.192678094,0.984671295,1.00670240710445
0.047322872,-0.073408328,1.00083578,1.0070610411479641
0.047549296,0.0468528755,1.00217974,1.0065594232090862
0.047775724,0.166129321,0.988766551,1.0052582436723565
0.048002148,0.282492518,0.960966229,1.0032581160044607
0.048228572,0.39412719,0.919449925,1.0007244064798018
0.048455,0.49940452,0.865159929,0.9979065773437156
0.048681424,0.596954942,0.799255013,0.9951637785838536
0.048907848,0.685736477,0.72300446,0.9929699650682631
0.049134276,0.765046,0.637606978,0.9918380405102925
0.0493607,0.83433944,0.543974042,0.9920300595093314
0.049587124,0.892824709,0.442785501,0.9931949608967556
0.049813548,0.939340711,0.33499971,0.9945857770420697
0.050039976,0.972832501,0.222126678,0.9957433360812306
0.0502664,0.992688,0.105924517,0.9966494686456833
0.050492824,0.998647332,-0.0118870391,0.9974377954092832
0.050719252,0.990642667,-0.129658744,0.9981842835765306
0.050945676,0.968750179,-0.245759726,0.9988747522361272
0.0511721,0.933210969,-0.358545005,0.999437233272369
0.051398528,0.884471416,-0.466363013,0.9997841456154832
0.051624952,0.823219538,-0.567599237,0.9998593015879157
0.051851376,0.75039798,-0.660743594,0.9996792254001173
0.0520778,0.667179227,-0.744479835,0.9993783456619448
0.052304228,0.574873447,-0.817765117,0.9992192666476856
0.052530652,0.474760294,-0.879830062,0.9994982747578903
0.052757076,0.36795029,-0.929975629,1.0002420864450297
0.052983504,0.255577594,-0.967293143,1.0009759310496473
0.053209928,0.139218926,-0.990794301,1.001055256250672
0.053436352,0.0208911113,-0.999902189,1.0002408260983409
0.05366278,-0.0973549709,-0.994609594,0.9987262348357847
0.053889204,-0.213677526,-0.975291073,0.9968507621909719
0.054115628,-0.326458931,-0.942517877,0.9949153820942498
0.054342056,-0.434252322,-0.89697504,0.9931393015453932
0.05456848,-0.535735548,-0.839435458,0.99166446553853
0.054794904,-0.629689693,-0.770761013,0.9905816486312204
0.055021328,-0.714995146,-0.691912055,0.9899603506578842
0.055247756,-0.790650427,-0.603948116,0.9898814245352318
0.05547418,-0.855802953,-0.508007407,0.9904702199303839
0.055700604,-0.909768164,-0.405238122,0.9918960477500178
0.055927032,-0.951955259,-0.296693772,0.994246009481345
0.056153456,-0.981649816,-0.183348358,0.9972529816341301
0.05637988,-0.997885227,-0.0664135814,1.000185690059216
0.056606308,-0.999765456,0.0523374192,1.0022701724594045
0.056832732,-0.986917019,0.170741707,1.0031579329011202
0.057059156,-0.959550619,0.286643922,1.0029021284428254
0.057285584,-0.918280959,0.398092568,1.001717612358794
0.057512008,-0.863981903,0.50336349,0.9998395317764814
0.057738432,-0.797716498,0.60094887,0.9974911555356608
0.057964856,-0.720697224,0.689554632,0.9948900791939617
0.058191284,-0.634247422,0.768109322,0.9922617228569458
0.058417708,-0.539760649,0.835770488,0.9898538668206592
0.058644132,-0.438649923,0.891930878,0.9879544460777568
0.05887056,-0.332276672,0.936208367,0.9868938931962024
0.059096984,-0.221859932,0.96839118,0.9870033069288371
0.059323408,-0.108411163,0.988277137,0.9884446797799292
0.059549836,0.00713377586,0.995443046,0.9909577485877787
0.05977626,0.123550229,0.98923403,0.9938486251959933
0.060002684,0.239126429,0.969148278,0.9964298337966574
0.060229112,0.351908207,0.935165048,0.9983730531547972
0.060455536,0.460006356,0.887711108,0.9996368588269864
0.06068196,0.561695933,0.827507973,1.0002717665273093
0.060908384,0.655405462,0.755488753,1.0003195755289285
0.061134812,0.739711702,0.672780573,0.9998071014819452
0.061361236,0.813365221,0.580700159,0.9987756573950042
0.06158766,0.875330865,0.480730474,0.9973059118539129
0.061814088,0.924832225,0.374478281,0.9955486273391655
0.062040512,0.961385071,0.263599068,0.9937457233921437
0.062266936,0.984796047,0.149695605,0.9922320283431423
0.062493364,0.995085478,0.034200523,0.991364784299962
0.062719788,0.99230057,-0.0816629082,0.9913292517980066
0.062946212,0.976331592,-0.196703807,0.9919157652255477
0.06317264,0.947016299,-0.309459567,0.9926050941794847
0.063399064,0.904494941,-0.418176293,0.9929825103218155
0.063625488,0.849366546,-0.521109283,0.9929784142927441
0.063851912,0.782538593,-0.616741121,0.9927362598667562
0.06407834,0.705060065,-0.703789473,0.992429317563422
0.064304764,0.618053019,-0.781142294,0.9921728177705968
0.064531188,0.522711933,-0.847813845,0.9920160806742806
0.064757616,0.420320958,-0.902938843,0.9919682619322165
0.06498404,0.312263817,-0.945791304,0.9920298821294299
0.065210464,0.200011894,-0.975821376,0.9922321156000006
0.065436892,0.0850814432,-0.992685795,0.9926639395717768
0.065663316,-0.0310410149,-0.996250987,0.9934795737044962
0.06588974,-0.146973073,-0.98651737,0.9948176054987801
0.066116164,-0.261410236,-0.963472307,0.9966141978414779
0.066342592,-0.372912824,-0.927030623,0.9984497502834231
0.066569016,-0.479713827,-0.877263248,0.9997161621064954
0.06679544,-0.579866946,-0.81472528,1.0000229569344454
0.067021868,-0.671594679,-0.740484059,0.9993560544942286
0.067248296,-0.753467202,-0.655911386,0.9979325707741498
0.06747472,-0.824392259,-0.562499225,0.9960279748247237
0.067701144,-0.883549809,-0.46177581,0.9938971636850926
0.067927568,-0.930341184,-0.355273277,0.9917538199968405
0.068153992,-0.964364767,-0.244514212,0.9897866037009452
0.068380416,-0.985397935,-0.130997404,0.9881694101570033
0.06860684,-0.99339062,-0.0161762889,0.9870865962265606
0.068833272,-0.988444686,0.098575972,0.9867401195373834
0.069059696,-0.970768511,0.212007537,0.9873386976939633
0.06928612,-0.940566242,0.322994232,0.9889901294952724
0.069512544,-0.897920907,0.430417329,0.9915210323311969
0.069738968,-0.842842042,0.532918215,0.9943845316415161
0.069965392,-0.775577486,0.62879014,0.9968974769512997
0.070191824,-0.696881056,0.716215253,0.9986074948415292
0.070418248,-0.607970774,0.793577969,0.999394454920324
0.070644672,-0.510333419,0.859590054,0.9993352594839524
0.070871096,-0.405586511,0.913273454,0.9985688196862433
0.07109752,-0.295415223,0.953924239,0.9972416077318689
0.071323944,-0.181539193,0.981093943,0.9955018035863784
0.071550368,-0.06567844,0.994587004,0.9935169660065296
0.0717768,0.0504910015,0.994453192,0.9914864923114619
0.072003224,0.165389925,0.980973303,0.9896624484902353
0.072229648,0.277596414,0.954610407,0.988340798218365
0.072456072,0.385887146,0.915922403,0.9878227377653199
0.072682496,0.489207804,0.865424097,0.9882831431627678
0.07290892,0.586504221,0.803493619,0.9895891970245341
0.073135344,0.676495731,0.730493069,0.9912665979182631
0.073361776,0.757669568,0.64707011,0.9927629015287187
0.0735882,0.828547776,0.554314315,0.9937557769284653
0.073814624,0.887919366,0.453639984,0.9941900356013622
0.074041048,0.934880674,0.34660849,0.9941393199587742
0.074267472,0.968785465,0.234838173,0.9936942446932441
0.074493896,0.989206851,0.119979218,0.9929252068172277
0.074720328,0.995930314,0.00370533275,0.9918909198349268
0.074946752,0.988964498,-0.112307124,0.9906636684055433
0.075173176,0.96855092,-0.226420477,0.989357117037754
0.0753996,0.935154796,-0.337092668,0.9881459593011598
0.075626024,0.889421403,-0.442939788,0.9872660879079734
0.075852448,0.832080722,-0.542773545,0.9869614490759084
0.076078872,0.763824165,-0.635544538,0.9873442148195808
0.076305304,0.685269594,-0.720169485,0.98823850358609
0.076531728,0.597134829,-0.795382082,0.989202660371514
0.076758152,0.500488341,-0.859839439,0.989812440336767
0.076984576,0.396777302,-0.912399471,0.9899050220634791
0.077211,0.287641138,-0.952271879,0.9895591558041257
0.077437424,0.174741805,-0.978986979,0.9889502034662044
0.077663856,0.0596979074,-0.992311478,0.9882459095184835
0.07789028,-0.0559194349,-0.992191374,0.9875707058395432
0.078116704,-0.170576259,-0.978729725,0.9870081347330107
0.078343128,-0.282775909,-0.952189386,0.9866268415218333
0.078569552,-0.391077459,-0.912996054,0.9865033735574675
0.078795976,-0.494129509,-0.861732304,0.9867465354217295
0.0790224,-0.590706885,-0.799097717,0.9874917853010152
0.079248832,-0.679712057,-0.72583282,0.9888417630203239
0.079475256,-0.760089099,-0.642647028,0.9907306410158645
0.07970168,-0.83066529,-0.550271571,0.9928036258615922
0.079928104,-0.890108228,-0.449686766,0.9945108450688388
0.080154528,-0.93713665,-0.342311174,0.9954020406184808
