Frequency (GHz),Re( S21 ),Im( S21 ),S2
0,0.056640852,3.58E-05,3.21E-03
0.000226517,0.051898852,-0.021918796,3.17E-03
0.000453034,0.038451891,-0.039929248,3.07E-03
0.000679552,0.018702174,-0.050733026,2.92E-03
0.000906069,-0.003807678,-0.052335799,2.75E-03
0.001132586,-0.025009129,-0.044378579,2.59E-03
0.001359103,-0.041027427,-0.028222332,2.48E-03
0.001585621,-0.048880473,-0.006726998,2.43E-03
0.001812138,-0.047029726,0.016244341,2.48E-03
0.002038655,-0.035680361,0.036512561,2.61E-03
0.002265172,-0.016764317,0.050338216,2.81E-03
0.00249169,0.006389416,0.055103313,3.08E-03
0.002718207,0.029638933,0.049795017,3.36E-03
0.002944724,0.048964154,0.035197232,3.64E-03
0.003171241,0.060402628,0.01376382,3.84E-03
0.003397759,0.061989736,-0.010635377,3.96E-03
0.003624276,0.053170431,-0.033724267,3.96E-03
0.003850793,0.035385501,-0.051245976,3.88E-03
0.00407731,0.011597686,-0.059814416,3.71E-03
0.004303828,-0.013978171,-0.057554085,3.51E-03
0.004530345,-0.03664197,-0.0444832,3.32E-03
0.004756862,-0.052027281,-0.022589929,3.22E-03
0.004983379,-0.056904115,0.004438461,3.26E-03
0.005209896,-0.049818385,0.031805925,3.49E-03
0.005436414,-0.031440448,0.054431584,3.95E-03
0.005662931,-0.00453998,0.067865364,4.63E-03
0.005889448,0.026424231,0.069127187,5.48E-03
0.006115965,0.05628942,0.057358928,6.46E-03
0.006342483,0.079090446,0.033856195,7.40E-03
0.006569,0.090621822,0.002387578,8.22E-03
0.006795517,0.088125363,-0.031591233,8.76E-03
0.007022034,0.071278036,-0.062069755,8.93E-03
0.007248551,0.0424705,-0.083125323,8.71E-03
0.007475069,0.006292707,-0.089873955,8.12E-03
0.007701586,-0.030726319,-0.079632476,7.29E-03
0.007928103,-0.061135151,-0.052522928,6.50E-03
0.00815462,-0.077719592,-0.011763779,6.18E-03
0.008381138,-0.07475134,0.03650922,6.92E-03
0.008607655,-0.049132269,0.083925284,9.46E-03
0.008834172,-0.001224096,0.121010289,1.46E-02
0.009060689,0.065342985,0.138810292,2.35E-02
0.009287206,0.141905203,0.129479676,3.69E-02
0.009513723,0.218569994,0.089090593,5.57E-02
0.009740241,0.283653975,0.017595116,8.08E-02
0.009966758,0.325538754,-0.080407925,1.12E-01
0.010193275,0.335402459,-0.197748855,1.52E-01
0.010419792,0.306317508,-0.32298702,1.98E-01
0.01064631,0.235782027,-0.443225265,2.52E-01
0.010872827,0.125592142,-0.545168161,3.13E-01
0.011099344,-0.018334335,-0.616497993,3.80E-01
0.011325861,-0.186423898,-0.647061706,4.53E-01
0.011552379,-0.366230935,-0.629927397,5.31E-01
0.011778896,-0.543552637,-0.562164187,6.11E-01
0.012005413,-0.703736067,-0.445252061,6.93E-01
0.01223193,-0.833065033,-0.285136938,7.75E-01
0.012458447,-0.919919908,-0.092098959,8.55E-01
0.012684965,-0.954608083,0.120983817,9.26E-01
0.012911482,-0.933986545,0.341230035,9.89E-01
0.013137999,-0.859509587,0.552308202,1.04E+00
0.013364516,-0.73585856,0.739740252,1.09E+00
0.013591034,-0.571771383,0.891771197,1.12E+00
0.013817551,-0.378808916,1.00011182,1.14E+00
0.014044068,-0.169937626,1.06048048,1.15E+00
0.014270585,0.041902039,1.07263136,1.15E+00
0.014497102,0.245061442,1.03988051,1.14E+00
0.01472362,0.430134118,0.968244314,1.12E+00
0.014950137,0.590507507,0.865269303,1.10E+00
0.015176654,0.724011898,0.739506662,1.07E+00
0.015403171,0.827362359,0.600152433,1.04E+00
0.015629689,0.902676404,0.452425301,1.02E+00
0.015856206,0.93509227,0.311214864,9.71E-01
0.016082723,0.967772603,0.166245639,9.64E-01
0.01630924,0.973214328,0.021088062,9.48E-01
0.016535757,0.960258722,-0.117783144,9.36E-01
0.016762275,0.931442142,-0.250788629,9.30E-01
0.016988792,0.887774348,-0.377985924,9.31E-01
0.01721531,0.829438448,-0.499041468,9.37E-01
0.017441826,0.75615555,-0.612992465,9.48E-01
0.017668344,0.667596042,-0.718112528,9.61E-01
0.01789486,0.563794494,-0.811945736,9.77E-01
0.018121378,0.445520222,-0.891488314,9.93E-01
0.018347896,0.314597815,-0.953514218,1.01E+00
0.018574412,0.174091786,-0.995160818,1.02E+00
0.01880093,0.027986841,-1.01453853,1.03E+00
0.019027446,-0.119067393,-1.01114142,1.04E+00
0.019253964,-0.263655037,-0.987230778,1.04E+00
0.019480482,-0.406036973,-0.941075742,1.05E+00
0.019706998,-0.538288236,-0.871091425,1.05E+00
0.019933516,-0.655636072,-0.782133877,1.04E+00
0.020160034,-0.755976498,-0.678261638,1.03E+00
0.02038655,-0.838068724,-0.563240111,1.02E+00
0.020613068,-0.901502252,-0.440626323,1.01E+00
0.020839584,-0.946584523,-0.313579947,9.94E-01
0.021066102,-0.9741171,-0.184716269,9.83E-01
0.02129262,-0.985130072,-0.05607089,9.74E-01
0.021519136,-0.980651736,0.070814818,9.67E-01
0.021745654,-0.961572945,0.194724664,9.63E-01
0.02197217,-0.928640902,0.31460464,9.61E-01
0.022198688,-0.882548213,0.42946282,9.63E-01
0.022425206,-0.824160933,0.53857106,9.69E-01
0.022651722,-0.753606439,0.642356932,9.81E-01
0.02287824,-0.668338954,0.739436388,9.93E-01
0.023104758,-0.568582177,0.825295746,1.00E+00
0.023331274,-0.456678063,0.897234619,1.01E+00
0.023557792,-0.334834158,0.953359783,1.02E+00
0.023784308,-0.205524951,0.992010832,1.03E+00
0.024010826,-0.071636245,1.01196086,1.03E+00
0.024237344,0.063654274,1.01260984,1.03E+00
0.02446386,0.197083592,0.994080365,1.03E+00
0.024690378,0.32552743,0.957217097,1.02E+00
0.024916894,0.446200877,0.903510809,1.02E+00
0.025143412,0.556828558,0.83497268,1.01E+00
0.02536993,0.655780256,0.753970683,9.99E-01
0.025596446,0.742216051,0.663033485,9.90E-01
0.025822964,0.816341758,0.564400971,9.85E-01
0.02604948,0.878874063,0.458784431,9.83E-01
0.026275998,0.928658187,0.346162826,9.82E-01
0.026502516,0.964177489,0.228430465,9.82E-01
0.026729032,0.985264659,0.107650198,9.82E-01
0.02695555,0.991974294,-0.014715597,9.84E-01
0.027182068,0.984178662,-0.137351319,9.87E-01
0.027408584,0.961649418,-0.258810967,9.92E-01
0.027635102,0.924208403,-0.377414465,9.97E-01
0.027861618,0.871880651,-0.491235375,1.00E+00
0.028088136,0.805038393,-0.598156035,1.01E+00
0.028314654,0.724512935,-0.695987165,1.01E+00
0.02854117,0.631661832,-0.782644451,1.01E+00
0.028767688,0.528348982,-0.856378138,1.01E+00
0.028994204,0.416770071,-0.916054308,1.01E+00
0.029220722,0.298877925,-0.961284876,1.01E+00
0.02944724,0.175840706,-0.991505027,1.01E+00
0.029673756,0.049514566,-1.00520277,1.01E+00
0.029900274,-0.076934747,-1.00182176,1.01E+00
0.030126792,-0.200703964,-0.98215431,1.00E+00
0.030353308,-0.319729835,-0.947401583,1.00E+00
0.030579826,-0.432425618,-0.898823142,9.95E-01
0.030806342,-0.537520945,-0.837660789,9.91E-01
0.03103286,-0.633966804,-0.765108466,9.87E-01
0.031259378,-0.720854878,-0.682300746,9.85E-01
0.031485894,-0.797349632,-0.590334177,9.84E-01
0.031712412,-0.862650692,-0.490321189,9.85E-01
0.031938928,-0.916005254,-0.383444935,9.86E-01
0.032165446,-0.95678699,-0.270986646,9.89E-01
0.032391964,-0.984595597,-0.15419656,9.93E-01
0.03261848,-0.999059021,-0.03397065,9.99E-01
0.032844998,-0.999056995,0.08887355,1.01E+00
0.033071514,-0.983067572,0.212282553,1.01E+00
0.033298032,-0.950687468,0.33328566,1.01E+00
0.03352455,-0.902545154,0.449177057,1.02E+00
0.033751068,-0.839717925,0.557670534,1.02E+00
0.033977584,-0.763579011,0.656786084,1.01E+00
0.0342041,-0.675767183,0.744847655,1.01E+00
0.03443062,-0.578129888,0.820527256,1.01E+00
0.034657136,-0.472641736,0.882877231,1.00E+00
0.034883652,-0.361307919,0.931333363,9.98E-01
0.035110172,-0.246078074,0.965698302,9.93E-01
0.035336688,-0.128759578,0.986110151,9.89E-01
0.035563204,-0.010906852,0.993002713,9.86E-01
0.03578972,0.106365398,0.986971378,9.85E-01
0.03601624,0.222465232,0.968297362,9.87E-01
0.036242756,0.336627722,0.936470866,9.90E-01
0.036469272,0.447106183,0.89096874,9.94E-01
0.036695792,0.551824033,0.832112491,9.97E-01
0.036922308,0.649016857,0.760715127,1.00E+00
0.037148824,0.737140656,0.677731156,1.00E+00
0.037375344,0.814729929,0.584256172,1.01E+00
0.03760186,0.880393326,0.481606036,1.01E+00
0.037828376,0.93288511,0.371357888,1.01E+00
0.038054892,0.97119832,0.255341172,1.01E+00
0.038281412,0.994655132,0.135585889,1.01E+00
0.038507928,1.00298023,0.014227767,1.01E+00
0.038734444,0.996347249,-0.106630087,1.00E+00
0.038960964,0.975350678,-0.225114807,1.00E+00
0.03918748,0.940793335,-0.339804173,1.00E+00
0.039413996,0.893206775,-0.449640006,1.00E+00
0.039640516,0.832769632,-0.553240716,1.00E+00
0.039867032,0.760121703,-0.648701012,9.99E-01
0.040093548,0.676632524,-0.734360576,9.97E-01
0.040320068,0.583875179,-0.809117675,9.96E-01
0.040546584,0.483329654,-0.872215033,9.94E-01
0.0407731,0.376378626,-0.923043787,9.94E-01
0.040999616,0.264377594,-0.961071253,9.94E-01
0.041226136,0.148714781,-0.985824406,9.94E-01
0.041452652,0.030857611,-0.996921062,9.95E-01
0.041679168,-0.087630838,-0.994117141,9.96E-01
0.041905688,-0.205109984,-0.977372587,9.97E-01
0.042132204,-0.319936574,-0.946904063,9.99E-01
0.04235872,-0.430599988,-0.903165579,1.00E+00
0.04258524,-0.535818398,-0.846648753,1.00E+00
0.042811756,-0.63427633,-0.777611434,1.01E+00
0.043038272,-0.724120975,-0.69638598,1.01E+00
0.043264792,-0.803222716,-0.604096472,1.01E+00
0.043491308,-0.869918168,-0.502590954,1.01E+00
0.043717824,-0.92318064,-0.393923372,1.01E+00
0.04394434,-0.962440193,-0.280101895,1.00E+00
0.04417086,-0.987446189,-0.163041994,1.00E+00
0.044397376,-0.998200774,-0.044556551,9.98E-01
0.044623892,-0.994917035,0.07365597,9.95E-01
0.044850412,-0.977982521,0.190020174,9.93E-01
0.045076928,-0.947933316,0.303092331,9.90E-01
0.045303444,-0.905426979,0.411574662,9.89E-01
0.045529964,-0.851207852,0.514349401,9.89E-01
0.04575648,-0.786001146,0.610517859,9.91E-01
0.045982996,-0.710300624,0.699305654,9.94E-01
0.046209516,-0.624316514,0.779655874,9.98E-01
0.046436032,-0.528497696,0.849924445,1.00E+00
0.046662548,-0.424054742,0.908341765,1.00E+00
0.046889064,-0.312741071,0.953569174,1.01E+00
0.047115584,-0.196472347,0.984737873,1.01E+00
0.0473421,-0.077200323,1.00132298,1.01E+00
0.047568616,0.043101493,1.00309014,1.01E+00
0.047795136,0.162457824,0.990102351,1.01E+00
0.048021652,0.278942913,0.96272856,1.00E+00
0.048248168,0.39074561,0.921638489,1.00E+00
0.048474688,0.496242374,0.86777252,9.99E-01
0.048701204,0.594073176,0.802283406,9.97E-01
0.04892772,0.683206975,0.726428151,9.94E-01
0.04915424,0.762947142,0.641378939,9.93E-01
0.049380756,0.832732558,0.548010409,9.94E-01
0.049607272,0.891724229,0.446993113,9.95E-01
0.049833788,0.938733578,0.339315504,9.96E-01
0.050060308,0.972715735,0.22651206,9.97E-01
0.050286824,0.993072629,0.110337906,9.98E-01
0.05051334,0.999543309,-0.00749685,9.99E-01
0.05073986,0.992052436,-0.125348046,1.00E+00
0.050966376,0.970670044,-0.24158524,1.00E+00
0.051192892,0.935631275,-0.354561657,1.00E+00
0.051419412,0.887379944,-0.462625653,1.00E+00
0.051645928,0.826602221,-0.564163625,1.00E+00
0.051872444,0.754238129,-0.657670915,1.00E+00
0.05209896,0.671452999,-0.741839826,1.00E+00
0.05232548,0.579541147,-0.815639138,1.00E+00
0.052551996,0.479750037,-0.878298938,1.00E+00
0.052778512,0.373159438,-0.929094255,1.00E+00
0.053005032,0.260904968,-0.967073381,1.00E+00
0.053231548,0.144591227,-0.991235793,1.00E+00
0.053458064,0.026241193,-1.00101674,1.00E+00
0.053684584,-0.092108667,-0.996413231,1.00E+00
0.0539111,-0.208632186,-0.97778672,1.00E+00
0.054137616,-0.321718425,-0.945687592,9.98E-01
0.054364136,-0.429916739,-0.90077883,9.96E-01
0.054590652,-0.531898201,-0.843815565,9.95E-01
0.054817168,-0.626431346,-0.775646269,9.94E-01
0.055043684,-0.712384462,-0.697220087,9.94E-01
0.055270204,-0.788745046,-0.609589875,9.94E-01
0.05549672,-0.854651749,-0.513885736,9.95E-01
0.055723236,-0.909410894,-0.411241889,9.96E-01
0.055949756,-0.952409446,-0.302691013,9.99E-01
0.056176272,-0.982888997,-0.189201266,1.00E+00
0.056402788,-0.999842644,-0.072015271,1.00E+00
0.056629308,-1.0023725,0.047052607,1.01E+00
0.056855824,-0.990124047,0.165824726,1.01E+00
0.05708234,-0.963315666,0.282150388,1.01E+00
0.05730886,-0.922555625,0.394082636,1.01E+00
0.057535376,-0.868707657,0.499895453,1.00E+00
0.057761892,-0.802825451,0.598073065,1.00E+00
0.057988408,-0.726114273,0.687312186,1.00E+00
0.058214928,-0.639894068,0.766530931,9.97E-01
0.058441444,-0.545557082,0.834876895,9.95E-01
0.05866796,-0.444515228,0.89173609,9.93E-01
0.05889448,-0.33812654,0.936720312,9.92E-01
0.059120996,-0.227599636,0.969609022,9.92E-01
0.059347512,-0.113936171,0.990175188,9.93E-01
0.059574032,0.001915353,0.997957289,9.96E-01
0.059800548,0.118687332,0.992282748,9.99E-01
0.060027064,0.23463136,0.972672582,1.00E+00
0.060253584,0.347791463,0.939136267,1.00E+00
0.0604801,0.456292957,0.892116249,1.00E+00
0.060706616,0.558425903,0.832333982,1.00E+00
0.060933132,0.652630925,0.760717511,1.00E+00
0.061159652,0.73749429,0.678385079,1.00E+00
0.061386168,0.811773419,0.586638868,1.00E+00
0.061612684,0.874436975,0.486945361,1.00E+00
0.061839204,0.924709141,0.380890161,1.00E+00
0.06206572,0.96209985,0.270104408,9.99E-01
0.062292236,0.986400962,0.156161532,9.97E-01
0.062518756,0.997601926,0.04046388,9.97E-01
0.062745272,0.995694995,-0.075782545,9.97E-01
0.062971788,0.980508149,-0.191366315,9.98E-01
0.063198308,0.951844752,-0.304773539,9.99E-01
0.063424824,0.909847915,-0.414208382,9.99E-01
0.06365134,0.85512042,-0.517903328,9.99E-01
0.063877856,0.788569629,-0.61432302,9.99E-01
0.064104376,0.711244822,-0.702160418,9.99E-01
0.064330892,0.624276459,-0.78027761,9.99E-01
0.064557408,0.528877616,-0.847667277,9.98E-01
0.064783928,0.426357418,-0.903452098,9.98E-01
0.065010444,0.318125367,-0.946905434,9.98E-01
0.06523696,0.20567359,-0.977487803,9.98E-01
0.06546348,0.090529993,-0.994875431,9.98E-01
0.065689996,-0.025824044,-0.998952985,9.99E-01
0.065916512,-0.142022029,-0.989728034,1.00E+00
0.066143028,-0.256769896,-0.967175603,1.00E+00
0.066369548,-0.36861673,-0.931199193,1.00E+00
0.066596064,-0.475780547,-0.881884754,1.00E+00
0.06682258,-0.576329052,-0.819812417,1.00E+00
0.0670491,-0.668519258,-0.746053457,1.00E+00
0.067275616,-0.750951588,-0.661956429,1.00E+00
0.067502136,-0.822546899,-0.568978548,1.00E+00
0.067728648,-0.882481694,-0.468611121,9.98E-01
0.067955168,-0.930142045,-0.362353861,9.96E-01
0.068181688,-0.965100765,-0.25170368,9.95E-01
0.0684082,-0.987104893,-0.13814266,9.93E-01
0.06863472,-0.996070683,-0.023115782,9.93E-01
0.06886124,-0.99206835,0.092005163,9.93E-01
0.069087752,-0.975268483,0.205966026,9.94E-01
0.069314272,-0.945833027,0.31762892,9.95E-01
0.069540792,-0.903800666,0.425837278,9.98E-01
0.069767304,-0.849164546,0.529166818,1.00E+00
0.069993824,-0.782198608,0.625854015,1.00E+00
0.070220344,-0.703700423,0.71405834,1.01E+00
0.070446856,-0.614918888,0.792167962,1.01E+00
0.070673376,-0.517359138,0.858903348,1.01E+00
0.070899888,-0.412648499,0.913295805,1.00E+00
0.071126408,-0.302478284,0.95465225,1.00E+00
0.071352928,-0.188569367,0.982537448,1.00E+00
0.07157944,-0.072635643,0.996769011,9.99E-01
0.07180596,0.043661527,0.997409105,9.97E-01
0.07203248,0.158765167,0.984743118,9.95E-01
0.072258992,0.27128306,0.959230602,9.94E-01
0.072485512,0.380024314,0.921406329,9.93E-01
0.072712032,0.483955055,0.871741951,9.94E-01
0.072938544,0.582010925,0.810564935,9.96E-01
0.073165064,0.672878563,0.73820734,9.98E-01
0.073391584,0.75502038,0.655314207,9.99E-01
0.073618096,0.826953292,0.562970519,1.00E+00
0.073844616,0.88746202,0.462570459,1.00E+00
0.074071136,0.935624897,0.355648905,1.00E+00
0.074297648,0.970764816,0.243803367,1.00E+00
0.074524168,0.992417932,0.12867415,1.00E+00
0.074750688,1.00033033,0.011936723,1.00E+00
0.0749772,0.994476199,-0.104722634,1.00E+00
0.07520372,0.975065529,-0.219649002,9.99E-01
0.07543024,0.942537665,-0.331281155,9.98E-01
0.075656752,0.897514522,-0.438214481,9.98E-01
0.075883272,0.840698063,-0.53923595,9.98E-01
0.076109784,0.772750199,-0.633256316,9.98E-01
0.076336304,0.694273829,-0.719127655,9.99E-01
0.076562824,0.606013298,-0.795517325,1.00E+00
0.076789336,0.509089768,-0.861045897,1.00E+00
0.077015856,0.404996932,-0.914567113,1.00E+00
0.077242376,0.295404643,-0.955299437,1.00E+00
0.077468888,0.181994185,-0.982780516,9.99E-01
0.077695408,0.06640096,-0.996784866,9.98E-01
0.077921928,-0.049790215,-0.997269213,9.97E-01
0.07814844,-0.165036097,-0.984351099,9.96E-01
0.07837496,-0.277839303,-0.958309114,9.96E-01
0.07860148,-0.386766315,-0.919584274,9.95E-01
0.078827992,-0.490482569,-0.868765473,9.95E-01
0.079054512,-0.587785006,-0.806547225,9.96E-01
0.079281032,-0.677594244,-0.733645856,9.97E-01
0.079507544,-0.758850753,-0.650734663,9.99E-01
0.079734064,-0.830353618,-0.558520615,1.00E+00
0.079960584,-0.890741944,-0.457987875,1.00E+00
0.080187096,-0.938728511,-0.350565881,1.00E+00
0.080413616,-0.973370492,-0.238031223,1.00E+00
0.080640136,-0.994152308,-0.122282952,1.00E+00
0.080866648,-1.00091922,-0.005185578,1.00E+00
0.081093168,-0.993794382,0.111492269,1.00E+00
0.081319688,-0.97311759,0.226093382,9.98E-01
0.0815462,-0.939411581,0.337084115,9.96E-01
0.08177272,-0.893354177,0.443064421,9.94E-01
0.081999232,-0.835748315,0.542786539,9.93E-01
0.082225752,-0.767476559,0.63517195,9.92E-01
0.082452272,-0.689432681,0.719305694,9.93E-01
0.082678784,-0.602440298,0.794374347,9.94E-01
0.082905304,-0.507240415,0.859517395,9.96E-01
0.083131824,-0.404640794,0.913689077,9.99E-01
0.083358336,-0.295769453,0.955716312,1.00E+00
0.083584856,-0.182173312,0.984567523,1.00E+00
0.083811376,-0.065672785,0.999572515,1.00E+00
0.084037888,0.051837582,1.00045443,1.00E+00
0.084264408,0.16850552,0.987262845,1.00E+00
0.084490928,0.282562196,0.960312366,1.00E+00
0.08471744,0.392343521,0.920147896,1.00E+00
0.08494396,0.496314615,0.867523074,9.99E-01
0.08517048,0.593102336,0.803372562,9.97E-01
0.085396992,0.681530952,0.728772819,9.96E-01
0.085623512,0.760644734,0.644872606,9.94E-01
0.085850032,0.829691291,0.552804828,9.94E-01
0.086076544,0.888031065,0.453606457,9.94E-01
0.086303064,0.934982181,0.348238945,9.95E-01
0.086529584,0.969726562,0.237765968,9.97E-01
0.086756096,0.991436064,0.123556867,9.98E-01
0.086982616,0.999519229,0.007289823,9.99E-01
0.087209136,0.993755579,-0.109230354,9.99E-01
0.087435648,0.974257171,-0.224234283,9.99E-01
0.087662168,0.941381931,-0.336052507,9.99E-01
0.08788868,0.895679057,-0.443121672,9.99E-01
0.0881152,0.837866247,-0.543980002,9.98E-01
0.08834172,0.768824637,-0.637280285,9.97E-01
0.088568232,0.689585805,-0.721815407,9.97E-01
0.088794752,0.601302564,-0.796551645,9.96E-01
0.089021272,0.505191863,-0.860648632,9.96E-01
0.089247784,0.402457923,-0.913434446,9.96E-01
0.089474304,0.294245958,-0.954313517,9.97E-01
0.089700824,0.181710467,-0.982642591,9.99E-01
0.089927336,0.066197127,-0.997725844,1.00E+00
0.090153856,-0.050631791,-0.999006927,1.00E+00
0.090380376,-0.16689916,-0.986290932,1.00E+00
0.090606888,-0.280727535,-0.959798336,1.00E+00
0.090833408,-0.390388578,-0.920075178,9.99E-01
0.091059928,-0.494340837,-0.867880464,9.98E-01
0.09128644,-0.591221929,-0.804118752,9.96E-01
0.09151296,-0.679830313,-0.729804158,9.95E-01
0.09173948,-0.759118855,-0.646042287,9.94E-01
0.091965992,-0.828199744,-0.554010212,9.93E-01
0.092192512,-0.886349022,-0.454925358,9.93E-01
0.092419032,-0.932995737,-0.349998176,9.93E-01
0.092645544,-0.967667162,-0.240385532,9.94E-01
0.092872064,-0.989884794,-0.127199903,9.96E-01
0.093098576,-0.999082267,-0.011635884,9.98E-01
0.093325096,-0.994686186,0.104841836,1.00E+00
0.093551616,-0.976352274,0.22044681,1.00E+00
0.093778128,-0.944157124,0.333233714,1.00E+00
0.094004648,-0.898604512,0.441318899,1.00E+00
0.094231168,-0.840519369,0.543006003,1.00E+00
0.09445768,-0.770941913,0.636819541,1.00E+00
0.0946842,-0.691061556,0.721502841,9.98E-01
0.09491072,-0.602174401,0.796011508,9.96E-01
0.095137232,-0.505645692,0.859513879,9.94E-01
0.095363752,-0.402868688,0.911388993,9.93E-01
0.095590272,-0.295214623,0.951215267,9.92E-01
0.095816784,-0.183976084,0.978728652,9.92E-01
0.096043304,-0.070336022,0.9937343,9.92E-01
0.096269824,0.044581071,0.995990753,9.94E-01
0.096496336,0.159545988,0.985164046,9.96E-01
0.096722856,0.273061484,0.960960805,9.98E-01
0.096949376,0.383375138,0.923362494,1.00E+00
0.097175888,0.488666445,0.872755229,1.00E+00
0.097402408,0.587231338,0.809889853,1.00E+00
0.097628928,0.677562714,0.735775232,1.00E+00
0.09785544,0.758362651,0.651598155,1.00E+00
0.09808196,0.828537166,0.558677554,9.99E-01
0.09830848,0.887199402,0.458433926,9.97E-01
0.098534992,0.933682084,0.352358311,9.96E-01
0.098761512,0.967542589,0.241962656,9.95E-01
0.098988024,0.988552809,0.128724024,9.94E-01
