Frequency (GHz),Re( S21 ),Im( S21 ),S2
0.0,0.056579303,5.13231789e-05,0.003201220162034501
0.000226430266,0.0518439859,-0.0218784492,0.0031664654133963794
0.000452860531,0.0384164192,-0.0398695953,0.003065405893535911
0.000679290813,0.0186932702,-0.0506630465,0.0029161826314313705
0.000905721063,-0.00378726749,-0.0522669777,0.0027461803529331085
0.00113215138,-0.0249622893,-0.0443226285,0.0025876112842459073
0.00135858163,-0.0409615077,-0.0281889793,0.0024724636670329873
0.00158501188,-0.0488064326,-0.00672222441,0.002427256164156742
0.00181144213,-0.046960149,0.0162194427,0.0024683259156007844
0.00203787238,-0.0356272943,0.0364621356,0.0025987914316516
0.00226430275,-0.0167377051,0.0502708815,0.002807312298801608
0.002490733,0.00638295431,0.0550311022,0.003069164315070392
0.00271716325,0.029595295,0.0497293547,0.003348890205015437
0.0029435935,0.0489553474,0.0351667851,0.003633328813324269
0.00317002375,0.0603636093,0.0137495771,0.0038328161981518913
0.003396454,0.0619425438,-0.0106346738,0.003949975019247325
0.00362288425,0.053100165,-0.0336896814,0.00395462215586073
0.0038493145,0.0353424139,-0.0511861555,0.003869108735149093
0.00407574475,0.0115854433,-0.0597403049,0.0037031265260024787
0.004302175,-0.0139571922,-0.057479661,0.003498714642782662
0.0045286055,-0.0365909487,-0.0444221199,0.003312222263176008
0.0047550355,-0.0519544818,-0.0225532558,0.003207917526286765
0.004981466,-0.0568214916,0.0044440194,0.003248431216076447
0.005207896,-0.0497397669,0.031778805,0.003483936858494361
0.0054343265,-0.0313789397,0.0543757416,0.003941359131246207
0.0056607565,-0.00450673746,0.067788884,0.004615643476498822
0.005887187,0.0267033838,0.0691788718,0.005498787009890938
0.006113617,0.0562928505,0.0573190935,0.0064543634970770924
0.0063400475,0.0790646076,0.0338188931,0.007394929705451206
0.0065664775,0.0905791,0.00236032112,0.008210144472599518
0.006792908,0.0880783573,-0.0316027999,0.008756533986185902
0.007019338,0.0712043941,-0.0620260015,0.008917290601226117
0.0072457685,0.0424251519,-0.0830605477,0.00869894809796205
0.0074721985,0.00628160918,-0.0897918642,0.008102037490401502
0.007698629,-0.0306995027,-0.0795468614,0.007270162624618118
0.0079250595,-0.0610721521,-0.0524483509,0.006480637274255066
0.0081514895,-0.0776273608,-0.0117126452,0.00616319320235446
0.00837792,-0.0746410191,0.0365282223,0.006905592756684782
0.00860435,-0.0490167886,0.0839086026,0.009443299154941819
0.00883078,-0.00111675682,0.120959014,0.014632330213647213
0.009057211,0.0654652342,0.138772041,0.023543376252166535
0.009283641,0.141990632,0.129454568,0.03691982475182605
0.009510071,0.218644679,0.0890032202,0.055727068860982734
0.009736501,0.283721268,0.0174845885,0.08080346875054217
0.009962932,0.325556785,-0.0805247203,0.11247145083892947
0.010189362,0.335399836,-0.197866574,0.15164423109532438
0.010415792,0.30630368,-0.323104262,0.19821830850410704
0.010642222,0.235759959,-0.44333896,0.25213219172156326
0.010868653,0.125564098,-0.545278192,0.3130946493773425
0.011095083,-0.0183659028,-0.616606593,0.38054099691672666
0.011321513,-0.186457768,-0.647172272,0.45359844889318385
0.011547944,-0.366267771,-0.630044222,0.5311078017488937
0.011774374,-0.543594658,-0.562290788,0.6116660824757978
0.012000804,-0.703787684,-0.445390016,0.6936893705025642
0.012227234,-0.833132148,-0.285281837,0.7754949025531884
0.012453665,-0.920024753,-0.0922325626,0.8549523917364739
0.012680095,-0.954788923,0.120818533,0.9262190053997719
0.012906525,-0.934192419,0.341046423,0.9890281383581666
0.013132955,-0.859754264,0.552137196,1.0440328776729242
0.013359386,-0.736147821,0.739594758,1.0889140204241263
0.013585816,-0.572104037,0.891662657,1.1223653230399973
0.013812246,-0.379180044,1.00004983,1.1438771682508708
0.014038676,-0.170340061,1.06047428,1.1536214349230023
0.014265107,0.0414760523,1.07268679,1.1523772123548963
0.014491537,0.244619846,1.04000437,1.1414479586761603
0.014717967,0.429684401,0.968444049,1.1225125605062432
0.014944397,0.590055287,0.865561306,1.097361616161078
0.015170828,0.723544776,0.739832222,1.0708687595863475
0.015397258,0.826920807,0.60057646,1.044490105355663
0.015623688,0.90224278,0.452964723,1.0192190743445952
0.015850119,0.934796274,0.311456919,0.9708494862772556
0.016076549,0.967497945,0.167015344,0.9639463987106612
0.016302979,0.973104954,0.0218670163,0.9474114179012065
0.016529409,0.960277498,-0.116972022,0.9358153270959084
0.01675584,0.931599259,-0.2499578,0.9303560811501891
0.01698227,0.888077855,-0.377159178,0.9309313220910368
0.0172087,0.829890966,-0.498247802,0.9369698876462444
0.01743513,0.756752789,-0.61226207,0.9475396260199633
0.01766156,0.668325603,-0.717474461,0.9614287138125541
0.01788799,0.56463778,-0.811425805,0.9772276596232266
0.018114422,0.446452439,-0.891109586,0.9933960745501401
0.018340852,0.315585554,-0.953293681,1.0083630841280167
0.018567282,0.175094545,-0.995101035,1.0208841695468283
0.018793712,0.0289664716,-1.01462638,1.030305747468858
0.019020142,-0.118151799,-1.01133156,1.0367513718589698
0.019246572,-0.262706727,-0.987429798,1.0440324303893733
0.019473002,-0.40503034,-0.941492081,1.0504569149062262
0.019699434,-0.537369251,-0.871675909,1.0485846022512773
0.019925864,-0.654806554,-0.782837331,1.0416059099685584
0.020152294,-0.755236268,-0.679069936,1.031517798481612
0.020378724,-0.837424219,-0.564146399,1.019540482072427
0.020605154,-0.900963187,-0.441624403,1.0067667776543034
0.020831584,-0.946164429,-0.314662784,0.9942397943395267
0.021058014,-0.973831475,-0.185873523,0.9828967082531072
0.021284444,-0.984995961,-0.0572872274,0.9734988696094928
0.021510876,-0.980684638,0.0695613846,0.9665811454366603
0.021737306,-0.961782813,0.193463311,0.9624542320852757
0.021963736,-0.9290272,0.313368976,0.9612916534591287
0.022190166,-0.883093894,0.428283602,0.9632816693621777
0.022416596,-0.824827909,0.537448525,0.9691919964899879
0.022643026,-0.754431307,0.64123702,0.9803515128002087
0.022869456,-0.669401646,0.73841536,0.9933558075514388
0.023095888,-0.569815457,0.824457586,1.0044199661490663
0.023322318,-0.458025932,0.896591604,1.0136642587477616
0.023548748,-0.336259872,0.952915609,1.0211188593932974
0.023775178,-0.206997395,0.991768003,1.026451693311394
0.024001608,-0.0731258467,1.01191735,1.0293241126866146
0.024228038,0.0621744655,1.01276124,1.029550993406548
0.024454468,0.195637748,0.994418323,1.0271419295606439
0.024680898,0.324136972,0.957731366,1.0223141460375547
0.02490733,0.444885552,0.904188991,1.0154808858239428
0.02513376,0.55560565,0.835799694,1.007258766802416
0.02536019,0.654661357,0.754925847,0.9984945268177489
0.02558662,0.741199315,0.664092481,0.9903952478772046
0.02581305,0.815395415,0.565560758,0.9847286537925569
0.02603948,0.877999365,0.460113347,0.9825871770279455
0.02626591,0.927954435,0.347675472,0.9819776672665919
0.02649234,0.963693023,0.2300639,0.9816336406620886
0.026718772,0.985008478,0.109359421,0.9822011846933317
0.026945202,0.991953194,-0.0129651548,0.9841392343257896
0.027171632,0.984398961,-0.135593951,0.98742703396567
0.027398062,0.962112665,-0.257083893,0.9917529081934378
0.027624492,0.9249084,-0.375756592,0.9966485648220144
0.027850922,0.872803867,-0.489684612,1.0015776094797442
0.028077352,0.806161463,-0.596746564,1.0060027660721065
0.028303784,0.7258057,-0.69474715,1.0094675165856124
0.028530214,0.633086562,-0.781591952,1.0116845744161502
0.028756644,0.529864788,-0.855516016,1.0126643471947974
0.028983074,0.418344259,-0.915362239,1.0128999476253524
0.029209504,0.300519764,-0.960730016,1.0133142921979759
0.029435934,0.177591637,-0.991117001,1.0138516992035738
0.029662364,0.0513427369,-1.00504732,1.012756192071565
0.029888794,-0.0750908926,-1.00190735,1.0094569801354871
0.030115226,-0.198880062,-0.98246634,1.0047933882941196
0.030341656,-0.317947596,-0.947930396,0.9996627094628959
0.030568086,-0.430705547,-0.899563134,0.9947211002684712
0.030794516,-0.535885811,-0.838608086,0.9904371243357111
0.031020946,-0.632442296,-0.766256511,0.9871322984196448
0.031247376,-0.719468772,-0.683637977,0.9849961974798405
0.031473806,-0.796129763,-0.591843128,0.9841008876952606
0.031700238,-0.861620843,-0.491975337,0.9844302093082942
0.031926668,-0.915181994,-0.385212243,0.9859465542989071
0.032153098,-0.956171751,-0.272832751,0.9887021274286338
0.032379528,-0.984172165,-0.156102344,0.9929627921630816
0.032605958,-0.998825729,-0.0359523408,0.9989454077213807
0.032832388,-0.99906671,0.0868123844,1.0056706811154374
0.033058818,-0.983364642,0.210205376,1.0111923192350896
0.033285248,-0.951261401,0.331258714,1.0146305886334166
0.03351168,-0.903368652,0.44723919,1.0160978144881534
0.033738108,-0.840768754,0.555845797,1.0158566477452777
0.03396454,-0.764838815,0.655094087,1.0141266757529679
0.034190968,-0.677219272,0.743306398,1.0111303436759442
0.0344174,-0.579758763,0.819155037,1.0071351979177616
0.034643832,-0.474430263,0.881692827,1.002466315633501
0.03487026,-0.363236129,0.930355668,0.997502154390631
0.035096692,-0.248121694,0.96494329,0.9926799279494537
0.03532312,-0.130891263,0.985587597,0.9885154340899696
0.035549552,-0.013103134,0.992712677,0.9856501511971283
0.03577598,0.104110152,0.986912012,0.9848342431793513
0.036002412,0.220142588,0.968498647,0.9864523882921684
0.036228844,0.334274113,0.936996818,0.9897022195640619
0.036455272,0.444810092,0.891843677,0.9932411621499289
0.036681704,0.549661398,0.8333112,0.9965352084967545
0.036908132,0.647038281,0.762198687,0.999605375543959
0.037134564,0.73538202,0.679458439,1.002450485667597
0.037360992,0.813217819,0.586186111,1.004937377868421
0.037587424,0.879145801,0.483696282,1.006859432636555
0.037813856,0.931912243,0.373565853,1.0080118751809086
0.038040284,0.970502019,0.257626295,1.0082454767585034
0.038266716,0.994228899,0.137910962,1.0075105370465176
0.038493144,1.00281119,0.016561171,1.0059045551741075
0.038719576,0.996415496,-0.104310498,1.003724520661934
0.038946004,0.975634158,-0.222814158,1.001508159261618
0.039172436,0.941286862,-0.337504119,0.9999299869157733
0.039398868,0.893950701,-0.447327495,0.9992497436013663
0.039625296,0.833818913,-0.550958872,0.9988096583120141
0.039851728,0.761487186,-0.646524906,0.9978571885205074
0.040078156,0.678291798,-0.732349515,0.996415575354808
0.040304588,0.585800409,-0.807314217,0.9949183641548902
0.040531016,0.485491842,-0.870656908,0.9937457800966734
0.040757448,0.378743708,-0.921767235,0.9931016318691345
0.040983876,0.266903311,-0.960107207,0.9930432263561035
0.041210308,0.151351169,-0.985197484,0.9935212588375968
0.04143674,0.0335485414,-0.996642828,0.9944224312339052
0.041663168,-0.0849432796,-0.994185567,0.9956203023803154
0.0418896,-0.202479005,-0.977769017,0.9970299980709362
0.042116028,-0.317402214,-0.947595417,0.9986812397715058
0.04234246,-0.428179055,-0.904115319,1.0007618131911646
0.042568888,-0.533505142,-0.847840309,1.0034609261056555
0.04279532,-0.632080257,-0.779063642,1.0064656095754902
0.043021752,-0.722094536,-0.698108613,1.0087761544658391
0.04324818,-0.801419258,-0.606056213,1.009576960409172
0.043474612,-0.868362367,-0.504740775,1.0088164503694435
0.04370104,-0.921879053,-0.396226197,1.0068561875492597
0.043927472,-0.961396217,-0.282531768,1.0041068859911169
0.0441539,-0.986666679,-0.16557838,1.0009273353723136
0.044380332,-0.997696817,-0.0471792519,0.9976248204617751
0.044606764,-0.994702041,0.0709709823,0.9944690306981927
0.044833192,-0.978069067,0.187302709,0.9917014046209891
0.045059624,-0.948328555,0.30037719,0.9895535045006841
0.045286052,-0.906130672,0.408898354,0.9882706586430808
0.045512484,-0.852212429,0.511742949,0.9881468699932967
0.045738912,-0.787301123,0.608000815,0.9895080493177253
0.045965344,-0.711910546,0.696897149,0.9924822617903464
0.046191776,-0.626262903,0.777410328,0.996572041755055
0.046418204,-0.530769348,0.847929597,1.0007007022449275
0.046644636,-0.426591873,0.906668365,1.0040281502014214
0.046871064,-0.315470666,0.952250302,1.006302378765575
0.047097496,-0.199329957,0.983783066,1.0075615527059822
0.047323924,-0.0801309422,1.00072968,1.0078808603307623
0.047550356,0.0401439145,1.00285017,1.0073199973404126
0.047776784,0.159512997,0.990203202,1.005946777462975
0.048003216,0.276044756,0.963155806,1.0038698139466091
0.048229648,0.387923151,0.922376812,1.0012633543970522
0.048456076,0.493520349,0.868804634,0.9983838269369557
0.048682508,0.591469526,0.803593099,0.9955980689470885
0.048908936,0.680731297,0.728003263,0.9933838496539493
0.049135368,0.760604143,0.643224359,0.9922562383597253
0.049361796,0.830545664,0.55015552,0.9924771961756713
0.049588228,0.889763296,0.449462324,0.9936951036042647
0.04981466,0.937090933,0.342082828,0.9951600779232881
0.050041088,0.971459389,0.229507878,0.9964072105403161
0.05026752,0.992236614,0.113482118,0.9974116892679509
0.050493948,0.999139667,-0.00428145612,0.9982984050393784
0.05072038,0.992077291,-0.122134693,0.9991342345521029
0.050946808,0.97110486,-0.238441885,0.9998991816379726
0.05117324,0.936444104,-0.351549089,1.0005143218930928
0.051399672,0.888527393,-0.459792823,1.0008903681936858
0.0516261,0.828031838,-0.56154418,1.0009685908335306
0.051852532,0.755893767,-0.655279636,1.0007667883457427
0.05207896,0.673283339,-0.739669502,1.0004214267639169
0.052305392,0.581512809,-0.813662052,1.000203081895921
0.05253182,0.481863439,-0.876480639,1.0004106843867548
0.052758252,0.375448108,-0.927426696,1.0010815582542563
0.05298468,0.263396889,-0.965593576,1.001748875147346
0.053211112,0.147277623,-0.989994407,1.0017796241278116
0.053437544,0.0290935934,-1.00004721,1.0009408594057085
0.053663972,-0.0891153738,-0.995737195,0.9994341113539817
0.053890404,-0.205519825,-0.977427065,0.9976020658625447
0.054116832,-0.318513006,-0.945673585,0.9957490643579083
0.054343264,-0.426656574,-0.901142359,0.9940933833215022
0.054569692,-0.528633595,-0.844582677,0.9927733760511103
0.054796124,-0.623224318,-0.776831925,0.9918763902457708
0.055022556,-0.7093032,-0.698823392,0.9914651627366257
0.055248984,-0.785854399,-0.611591697,0.9916115402669909
0.055475416,-0.852006674,-0.516254127,0.9924336961850743
0.055701844,-0.907051802,-0.413942486,0.9940913532273075
0.055928276,-0.95037359,-0.3057006,0.9966628174098481
0.056154704,-0.981233716,-0.192496791,0.9998746199604663
0.056381136,-0.998640656,-0.0755400956,1.0029894658593674
0.056607568,-1.0016706,0.0433959141,1.0052271962649346
0.056833996,-0.989922583,0.162139043,1.0062357895983478
0.057060428,-0.96358484,0.278518409,1.006068248029717
0.057286856,-0.923254311,0.390563607,1.0049384538929351
0.057513288,-0.869794667,0.49653095,1.0030857470495433
0.057739716,-0.804262519,0.594893038,1.000735926129095
0.057966148,-0.727867246,0.684338212,0.9981095162029814
0.05819258,-0.641933084,0.763779998,0.9954379696786311
0.058419008,-0.547855318,0.832362652,0.9929730339053542
0.05864544,-0.447049886,0.889467478,0.9910059949922936
0.058871868,-0.340882033,0.934703648,0.989871470006721
0.0590983,-0.230574369,0.967852831,0.9899036421144627
0.059324728,-0.117141873,0.988708794,0.9912672977428826
0.05955116,-0.00151889329,0.996844769,0.9937018005194896
0.059777588,0.115073495,0.991603017,0.9965184525750173
0.06000402,0.230928332,0.972472191,0.9990300567886428
0.060230452,0.344094247,0.939420164,1.0009110953482838
0.06045688,0.452682167,0.892861784,1.0021233096474786
0.060683312,0.554965734,0.833505929,1.0027190995923119
0.06090974,0.649371505,0.76227349,1.002744225062745
0.061136172,0.734473526,0.680278301,1.0022299272063193
0.0613626,0.809016109,0.588821352,1.0012176491926077
0.061589032,0.871955037,0.489370435,0.9997890092017606
0.061815464,0.922501564,0.383516848,0.9980943082823013
0.062041892,0.960155785,0.27290386,0.9963756482718658
0.062268324,0.984704733,0.159123346,0.9949636504348371
0.062494752,0.996147573,0.0436017998,0.9942111041395897
0.062721184,0.994508564,-0.0724412277,0.9942950153400253
0.062947612,0.979655802,-0.187814653,0.9949998342737737
0.063174044,0.951400399,-0.301052272,0.9957951896937212
0.063400476,0.909856498,-0.410388976,0.9962579585751526
0.063626904,0.855598569,-0.51406008,0.9963066771244542
0.063853336,0.789519131,-0.610522687,0.9960784095566951
0.064079764,0.712660134,-0.698467195,0.9957408890840659
0.064306196,0.626143634,-0.776754618,0.9954035869830518
0.064532624,0.531172156,-0.844377875,0.995117855099204
0.064759056,0.429042131,-0.900453508,0.9948936702425273
0.064985484,0.32115221,-0.944245696,0.9947386764024084
0.065211916,0.208988726,-0.975200355,0.9946920199872292
0.065438348,0.0940800309,-0.992977738,0.9948558403777416
0.065664776,-0.0220790897,-0.997450471,0.9953949283001025
0.065891208,-0.138105378,-0.988631248,0.9964648399545605
0.066117636,-0.252701074,-0.966518939,0.9980166922464392
0.066344068,-0.3644436,-0.931033909,0.9996432772887803
0.066570496,-0.4715873,-0.882245004,1.0007508286042501
0.066796928,-0.572208524,-0.820694089,1.0009613826577985
0.06702336,-0.664546728,-0.747425139,1.0002666921046752
0.067249792,-0.74718374,-0.663779855,0.9988872372242087
0.067476216,-0.819027662,-0.571215987,0.9970940149255705
0.067702648,-0.879250884,-0.4712255,0.9951355888650314
0.06792908,-0.927235782,-0.365305454,0.9932142701432976
0.068155512,-0.962549925,-0.254948795,0.9915012461894577
0.068381936,-0.984932423,-0.141633868,0.9901520304412923
0.068608368,-0.994288743,-0.0268054996,0.9893286392653257
0.0688348,-0.990679085,0.088158384,0.9892169501259287
0.069061232,-0.974270642,0.201989293,0.990002958349732
0.069287664,-0.9452371,0.313536912,0.9917785704029058
0.069514088,-0.903641105,0.421651661,0.9943573698696799
0.06974052,-0.849481463,0.52494216,0.997183027326086
0.069966952,-0.783004403,0.621670842,0.9995705309103753
0.070193384,-0.704970837,0.709990263,1.0010700545752897
0.070419816,-0.616615713,0.788261354,1.0015708997284116
0.07064624,-0.51944828,0.855184793,1.0011675457734115
0.070872672,-0.415109247,0.909783006,1.0000208049513029
0.071099104,-0.305300385,0.951362729,0.9982993672114755
0.071325536,-0.191749558,0.9794963,0.9961808947068853
0.07155196,-0.0761729032,0.994009137,0.9938564756214014
0.071778392,0.0397701934,0.994973123,0.9915531837754464
0.072004824,0.154528067,0.982680738,0.9895403563269811
0.072231256,0.266713232,0.957599103,0.9881319901902903
0.072457688,0.375140786,0.920276284,0.9876390482135465
0.072684112,0.478795052,0.871204197,0.9882414546900974
0.072910544,0.576655507,0.810724139,0.9898052033107183
0.073136976,0.667466879,0.739145994,0.9918488350082488
0.073363408,0.749724388,0.657053709,0.9938062344726313
0.07358984,0.821936488,0.565470517,0.9953364959020213
0.073816264,0.882856429,0.465749443,0.9963580178814424
0.074042696,0.931528926,0.359404922,0.9969180379325396
0.074269128,0.967245579,0.24802354,0.9970796864891768
0.07449556,0.989511549,0.133243874,0.9968870355629074
0.074721984,0.998044848,0.0167455953,0.9963739335812946
0.074948416,0.992793858,-0.0997713953,0.9955939758026329
0.075174848,0.973950148,-0.214631557,0.9946455960494662
0.07540128,0.941943347,-0.326245308,0.9936932699495774
0.075627712,0.897400498,-0.433178157,0.9929709695125646
0.075854136,0.841049016,-0.534192085,0.9927246309912157
0.076080568,0.773590565,-0.628196836,0.9930736270174301
0.076307,0.695659816,-0.714076757,0.9938481944847909
0.076533432,0.607996345,-0.790545821,0.9946222506339231
0.076759856,0.511688471,-0.856249094,0.9949876023301387
0.076986288,0.408201605,-0.910038292,0.9947982432308532
0.07721272,0.299191684,-0.951125383,0.9941551579616527
0.077439152,0.186329842,-0.979047596,0.9932530052531242
0.077665584,0.0712358207,-0.993581712,0.9922791605716534
0.077892008,-0.0445256084,-0.994679689,0.991370213512527
0.07811844,-0.159433097,-0.982448637,0.990624236762169
0.078344872,-0.272006452,-0.957146049,0.9901160690459387
0.078571304,-0.380821437,-0.91918546,0.9899268767541566
0.078797736,-0.484540164,-0.869129419,0.9901651175004244
0.07902416,-0.581946194,-0.807652652,0.9909641789937188
0.079250592,-0.671944201,-0.735466242,0.9924196023791308
0.079477024,-0.753474593,-0.653248906,0.9944580954867124
0.079703456,-0.825353742,-0.561698675,0.9967142009301582
0.07992988,-0.886228085,-0.461763233,0.9986255019933796
0.080156312,-0.934785485,-0.354833186,0.9997304928535959
