Frequency (GHz),Re( S21 ),Im( S21 ),S2
0.0,0.0567732751,3.86979482e-05,0.0032232062631114
0.000226456609,0.0520287342,-0.0219556615,0.0031890402543568
0.000452913219,0.0385732166,-0.0400082357,0.0030885519626972
0.000679369813,0.0188041572,-0.0508569926,0.0029400300243187
0.000905826438,-0.00374076306,-0.0525044985,0.0027707156710075
0.001132283,-0.0249968488,-0.0445851497,0.0026126780237014
0.00135873963,-0.0410890207,-0.0284497384,0.0024976952371134
0.00158519625,-0.0490297899,-0.00694757653,0.0024521891172783
0.00181165288,-0.0472690798,0.0160668101,0.0024925082919282
0.0020381095,-0.0359953195,0.036417447,0.0026218934719048
0.002264566,-0.0171222202,0.0503595285,0.0028292525353196
0.00249102275,0.00603717333,0.0552610978,0.0030902363918776
0.00271747925,0.0293503441,0.0500871204,0.0033701623287525
0.00294393575,0.0488066673,0.0355984829,0.0036493427577144
0.0031703925,0.0604101829,0.0142168636,0.0038515094086324
0.003396849,0.0621853247,-0.0102044167,0.0039711447282316
0.00362330575,0.0535394773,-0.0333953388,0.003981724283124
0.00384976225,0.0358865298,-0.0510940179,0.0038984416862518
0.004076219,0.012151558,-0.0598946512,0.003735029604197
0.0043026755,-0.0134730143,-0.0578863509,0.0035323517348459
0.004529132,-0.0362941176,-0.0450429209,0.0033461276955662
0.0047555885,-0.0519328713,-0.0233053844,0.0032401640634941
0.0049820455,-0.0571259707,0.00367928459,0.0032769136635114
0.005208502,-0.0503688417,0.0311401151,0.0035067269826409
0.0054349585,-0.0322715342,0.0539981648,0.0039572537213897
0.005661415,-0.00554448646,0.0677783936,0.0046246519691016
0.0058878715,0.0254004672,0.0694504306,0.0054685460445036
0.0061143285,0.0554294214,0.0580953471,0.0064474901114082
0.006340785,0.0785598308,0.0349138938,0.0073906269956023
0.0065672415,0.0905518383,0.003611458,0.0082126780483951
0.006793698,0.088577725,-0.0304087773,0.0087707071030566
0.007020155,0.072214894,-0.0611552857,0.0089549598844798
0.0072466115,0.0437737294,-0.0826960132,0.0087547699847589
0.007473068,0.00774182472,-0.0900906473,0.0081762605809282
0.0076995245,-0.0294199605,-0.0805635452,0.007356018891014
0.007925981,-0.0602912307,-0.0541150048,0.0065634662438246
0.008152438,-0.0776386708,-0.0138284964,0.0062189905162755
0.0083788945,-0.0756588206,0.0342876613,0.0068999008520065
0.008605351,-0.0511255302,0.0819593295,0.0093311515303206
0.008831808,-0.00423397822,0.119755335,0.0143592668325296
0.009058264,0.0615663715,0.138707504,0.023030189765586
0.009284721,0.137791783,0.130859181,0.0361107007143098
0.009511177,0.214659631,0.0921019614,0.0545615284747832
0.009737634,0.280558109,0.0222058538,0.0792059524686428
0.009964091,0.323822588,-0.0744587705,0.1104051770033894
0.010190547,0.335559845,-0.190911129,0.1490474687524787
0.010417004,0.308669746,-0.315874934,0.1950539860252089
0.01064346,0.240437925,-0.436546624,0.248383350704103
0.010869917,0.132431507,-0.53965199,0.308762374357251
0.011096374,-0.00965711009,-0.612826288,0.3756493190391494
0.01132283,-0.176463544,-0.645801425,0.4481988628930706
0.011549287,-0.355710655,-0.631465614,0.525278891744926
0.011775743,-0.533303618,-0.566658437,0.6055145331951729
0.0120022,-0.694621921,-0.452600986,0.6873472656619024
0.012228657,-0.825896621,-0.294972241,0.7691138515397798
0.012455113,-0.91537261,-0.103790231,0.8486794271892456
0.01268157,-0.953201652,0.108242616,0.9203098532940523
0.012908027,-0.935905516,0.328328401,0.9837186737824432
0.013134483,-0.864662886,0.540196896,1.039454592873884
0.01336094,-0.743875682,0.729282856,1.085204514326482
0.013587396,-0.58204186,0.883660972,1.1196294402282445
0.013813853,-0.390558004,0.994804978,1.1421724987420443
0.01404031,-0.182319641,1.05816388,1.1529512484310231
0.014266766,0.0297077484,1.07322538,1.152695266591142
0.014493223,0.233767256,1.04307652,1.1426557565530802
0.014719679,0.420283079,0.973567843,1.1244722114173928
0.014946136,0.582444549,0.872159839,1.0999044374243194
0.015172593,0.7178303,0.747355819,1.0738210597912508
0.015399049,0.823050976,0.608448446,1.0476224205343674
0.015625506,0.90003556,0.46075657,1.0223606260626783
0.015851962,0.933758914,0.318853796,0.9735734526980688
0.016078419,0.967597544,0.173789978,0.9664479636080724
0.016304876,0.973926246,0.0280809235,0.9493208709122654
0.016531332,0.961615026,-0.111260228,0.9370822965635928
0.016757789,0.933321953,-0.244627967,0.9309327101902872
0.016984246,0.89015305,-0.372080088,0.9308160443103904
0.017210702,0.832370102,-0.493321508,0.9362060969588843
0.017437158,0.759743869,-0.607456028,0.946213572436626
0.017663616,0.671955943,-0.712839007,0.9596642392337654
0.017890072,0.569012642,-0.807092667,0.9751739598809932
0.018116528,0.451620847,-0.887274384,0.9912172219475768
0.018342986,0.321515858,-0.950185239,1.006224435358963
0.018569442,0.181667417,-0.992944896,1.018942616891903
0.018795898,0.0359809548,-1.01361156,1.0287030236739532
0.019022354,-0.110950962,-1.01158178,1.0356078135966935
0.019248812,-0.255628884,-0.989018321,1.0435033656087445
0.019475268,-0.398418903,-0.944320619,1.0504790537362665
0.019701724,-0.531467617,-0.875590444,1.0491164535437758
0.019928182,-0.649826467,-0.787618816,1.042617836530944
0.020154638,-0.751302063,-0.684447646,1.0329233699829972
0.020381094,-0.834564567,-0.569841743,1.0212176285571757
0.020607552,-0.899121344,-0.447386444,1.0085738215113311
0.020834008,-0.945218265,-0.320295215,0.9960265932415064
0.021060464,-0.973623097,-0.191251159,0.9845189408307148
0.02128692,-0.985362947,-0.0623592548,0.9748288139797362
0.021513378,-0.98148942,0.064781554,0.9675181313105912
0.021739834,-0.962934911,0.188916832,0.962933212235494
0.02196629,-0.930495381,0.308979064,0.9612897160526512
0.022192748,-0.884906113,0.423984081,0.9628213297661832
0.022419204,-0.827064812,0.533213377,0.9683527086603396
0.02264566,-0.757181883,0.637115598,0.9792406891583232
0.022872118,-0.67272383,0.734480441,0.9920188696614234
0.023098574,-0.573773742,0.820825875,1.0029714240781984
0.02332503,-0.462631375,0.8934322,1.0122488851312306
0.023551486,-0.341454178,0.950408876,1.019867987253239
0.023777944,-0.212656319,0.990075707,1.0254726156021796
0.0240044,-0.0790712833,1.01116073,1.0286982897368415
0.024230856,0.0561559014,1.01300108,1.0293246733432129
0.024457314,0.189769819,0.995646954,1.0273254412127708
0.02468377,0.318627983,0.959874034,1.0228819526980817
0.024910226,0.439905345,0.907116175,1.0163764675061997
0.025136684,0.551268518,0.839344978,1.0083969710317366
0.02536314,0.651021063,0.758912921,0.9997772461304022
0.025589596,0.738254011,0.668359637,0.99172358912836
0.025816054,0.813108683,0.569975674,0.9860179993217488
0.02604251,0.876307726,0.464562267,0.9837333305674704
0.026268966,0.926756382,0.352094322,0.9828478031623696
0.026495422,0.962906182,0.234453321,0.982156675061746
0.02672188,0.984588385,0.113746949,0.9823526562837168
0.026948336,0.991892874,-0.0085420832,0.9839244406773756
0.027174792,0.984728515,-0.13110438,0.9868786067092896
0.02740125,0.962893128,-0.252520084,0.9909295687729917
0.027627706,0.926218629,-0.371146828,0.9956309166411011
0.027854162,0.874722242,-0.485099107,1.000460144261704
0.02808062,0.808748305,-0.592295587,1.0048878832200474
0.028307076,0.729086161,-0.690571427,1.008455525950534
0.028533532,0.637039721,-0.777846992,1.010865549095206
0.028759988,0.534421742,-0.852354646,1.0121150408800998
0.028986446,0.423390627,-0.912919402,1.012681457579491
0.029212902,0.305897295,-0.959108531,1.0134623293252951
0.029439358,0.183109507,-0.990361154,1.0143443069059948
0.029665816,0.056822218,-1.00513291,1.0135209312235074
0.029892272,-0.0698008612,-1.00277424,1.0104283366318392
0.030118728,-0.19390288,-0.984022737,1.0058990738052656
0.030345186,-0.313367397,-0.950061202,1.0008154130482405
0.030571642,-0.426561803,-0.902149737,0.99582911974778
0.030798098,-0.5321787,-0.841544986,0.9914121321954302
0.031024554,-0.629144251,-0.769465983,0.9879003875605074
0.031251012,-0.716540217,-0.687076151,0.985503519851382
0.031477468,-0.793536484,-0.595499218,0.9843194700776938
0.031703924,-0.859347999,-0.495864481,0.9843605669027036
0.031930382,-0.913245082,-0.389362812,0.985619979165734
0.032156838,-0.954619706,-0.277269423,0.9881771160142794
0.032383294,-0.98308742,-0.160827965,0.9923265096882976
0.032609752,-0.9983055,-0.0409275107,0.9982889324623484
0.032836208,-0.999196053,0.0816672817,1.005062297231046
0.033062664,-0.984210789,0.204992056,1.0106926202071098
0.03328912,-0.952873647,0.326108247,1.0143147759084936
0.033515578,-0.905756831,0.442308098,1.0160318904595402
0.033742036,-0.843893111,0.551294982,1.0160817399716386
0.033968492,-0.768611252,0.651067495,1.0146521397465826
0.034194948,-0.681515455,0.739916742,1.0119401004957516
0.034421404,-0.584431052,0.816471696,1.0081856849109432
0.03464786,-0.479325652,0.879738033,1.0036920873719342
0.034874316,-0.368214309,0.929108918,0.998825158859478
0.035100772,-0.253067911,0.964349747,0.994013802116868
0.035327232,-0.135726392,0.985574543,0.9897788332949964
0.035553688,-0.0177832507,0.993206322,0.9867750420662268
0.035780144,0.0996026769,0.98785156,0.9857713978400794
0.0360066,0.215811655,0.969837189,0.9871588436012608
0.036233056,0.33010754,0.938702404,0.9901331912402308
0.036459512,0.440785885,0.893916488,0.9933788839334874
0.036685972,0.545777321,0.83578372,0.9964073107349756
0.036912428,0.643325746,0.765115798,0.9992701998156334
0.037138884,0.73190546,0.682859302,1.0019824287057388
0.03736534,0.810068071,0.590089977,1.0044164606095216
0.037591796,0.876433909,0.488093048,1.0063712203509505
0.037818252,0.929754078,0.378407955,1.0076352259649122
0.038044708,0.969004631,0.262828082,1.008048575587245
0.038271168,0.99347657,0.143353358,1.007545880388841
0.038497624,1.00285411,0.022101786,1.0062048548882816
0.03872408,0.997264504,-0.0988240167,1.004302677215088
0.038950536,0.977260828,-0.217532367,1.0023590566358684
0.039176992,0.943624794,-0.332565218,1.00102737607493
0.039403448,0.89689517,-0.442843318,1.000531150266578
0.039629904,0.837244391,-0.546993971,1.00018057457131
0.039856364,0.765275538,-0.643098235,0.9992219889213046
0.04008282,0.682345688,-0.729451239,0.9976947480108284
0.040309276,0.590045571,-0.804918349,0.996047324413602
0.040535732,0.489879638,-0.868728876,0.9946719197232344
0.040762188,0.383250266,-0.920276105,0.9937888758230418
0.040988644,0.271524727,-0.959036112,0.9934759414925012
0.041215104,0.15609324,-0.984551966,0.9937076733281628
0.04144156,0.0384138897,-0.996452808,0.9943938254929686
0.041668016,-0.0799666941,-0.99450171,0.9954283233582072
0.041894472,-0.197428524,-0.978655696,0.9967449934020632
0.042120928,-0.312346637,-0.949117541,0.9983845282790964
0.042347384,-0.423220813,-0.906325877,1.0005424518762
0.04257384,-0.52877605,-0.850761831,1.0033998041400751
0.0428003,-0.627723157,-0.782673061,1.0066134822491564
0.043026756,-0.718239307,-0.702343702,1.0091543778589052
0.043253212,-0.79817909,-0.610826969,1.010199445770955
0.043479668,-0.865828872,-0.509929895,1.0096881334035035
0.043706124,-0.92011106,-0.401695013,1.0079632462033938
0.04393258,-0.960412085,-0.288133889,1.0054125110043115
0.04415904,-0.986446083,-0.171175748,1.0023770113694024
0.044385496,-0.998187542,-0.0526539385,0.9991508062435636
0.044611952,-0.995831788,0.0657068491,0.9959983400099272
0.044838408,-0.979759932,0.18230553,0.9931648306212256
0.045064864,-0.95050931,0.295674503,0.9908913601209732
0.04529132,-0.908747315,0.404497981,0.9894402991527858
0.045517776,-0.855232716,0.507645667,0.9891271217406116
0.045744236,-0.790713072,0.604213715,0.9903013756257784
0.045970692,-0.715711713,0.693442941,0.993106368548124
0.046197148,-0.630448878,0.77432245,0.9970410443454614
0.046423604,-0.535338104,0.84525305,1.0010396041286171
0.04665006,-0.431536108,0.904468,1.0042857755317878
0.046876516,-0.320761144,0.950611532,1.0065499962715758
0.047102972,-0.204904035,0.982794523,1.0078707379980787
0.047329432,-0.0858935267,1.00046921,1.008316338086988
0.047555888,0.0343150049,1.003371,1.007930883202287
0.047782344,0.153756306,0.991526484,1.0067657701081678
0.0480088,0.270502895,0.965265095,1.0049085198287402
0.048235256,0.382729471,0.925219476,1.0025129267416544
0.048461712,0.488787681,0.872298896,0.9998187610601764
0.048688172,0.587282896,0.807636559,0.9971780113675072
0.048914628,0.677145183,0.73248446,0.9950590830015952
0.049141084,0.757645369,0.648032248,0.9939722996150796
0.04936754,0.828212321,0.555183709,0.9941645993952036
0.049593996,0.88802588,0.454621851,0.9952709909564408
0.049820452,0.935905635,0.347317725,0.9965489597239288
0.050046908,0.970790684,0.234793812,0.9975626862946791
0.050273368,0.992069602,0.118810438,0.9983180153901904
0.050499824,0.999480903,0.00108441431,0.9989632514160912
0.05072628,0.992954731,-0.116743714,0.9995881925737962
0.050952736,0.972560942,-0.233054593,1.0001892292223231
0.051179192,0.938528955,-0.346217781,1.000703351253956
0.051405648,0.891287088,-0.45459798,1.0010519966556002
0.051632108,0.831497014,-0.556592464,1.0011824552725073
0.051858564,0.760068715,-0.650698125,1.0011125014002666
0.05208502,0.678138494,-0.735597551,1.0009755740817856
0.052311476,0.586978436,-0.810238242,1.0010296931282567
0.052537932,0.487828165,-0.873830795,1.0015565768575994
0.052764388,0.381763101,-0.925643384,1.0025587396281077
0.052990844,0.269895643,-0.964722037,1.003532266783813
0.053217304,0.153795645,-0.990034521,1.0038214531926657
0.05344376,0.0354800299,-1.000965,1.003189763746705
0.053670216,-0.0829925314,-0.997468829,1.0018318250948113
0.053896672,-0.19976674,-0.979885995,1.0000833136073677
0.054123128,-0.313203841,-0.948760331,0.9982428116963828
0.054349584,-0.421833932,-0.90475744,0.9965298914219344
0.05457604,-0.524314106,-0.848638952,0.9950933526022374
0.0548025,-0.619407356,-0.781260014,0.994032682142191
0.055028956,-0.705982208,-0.703575969,0.9934300221668442
0.055255412,-0.783028245,-0.616640091,0.9933782342962684
0.055481868,-0.849688888,-0.521581769,0.9940187481438458
0.055708324,-0.905275166,-0.419533134,0.9955311767001896
0.05593478,-0.949187338,-0.311524689,0.998004234476073
0.05616124,-0.98069036,-0.198504403,1.001157580207316
0.056387696,-0.998787582,-0.0816650912,1.004245821078111
0.056614152,-1.00255096,0.0372324102,1.0064946797662226
0.056840608,-0.991571248,0.156035706,1.0075606814071958
0.057067064,-0.966015756,0.272592157,1.0074929248981643
0.05729352,-0.926453531,0.384941071,1.006495773244995
0.057519976,-0.873715699,0.491335571,1.0047897660089546
0.057746436,-0.80883044,0.59023428,1.002583185957712
0.057972892,-0.732986093,0.68030411,1.0000822946142969
0.058199348,-0.647495091,0.760430932,0.9975050952114868
0.058425804,-0.553751588,0.829732656,0.9950971016453362
0.05865226,-0.453178108,0.887568831,0.9931488273331662
0.058878716,-0.347151756,0.933532953,0.9919981160307838
0.059105172,-0.236906648,0.967398822,0.9919852406735836
0.059331632,-0.12346644,0.988956332,0.9932785884091678
0.059558088,-0.00777515117,0.997772992,0.9956113965403484
0.059784544,0.108932659,0.99319315,0.9982989574037328
0.060011,0.224943757,0.974719763,1.0006783101960512
0.060237456,0.338315874,0.942333758,1.0024505420667864
0.060463912,0.447177857,0.896453679,1.0035972343837474
0.060690372,0.54982245,0.83777982,1.0041797533232348
0.060916828,0.644691169,0.767216027,1.0042471354722513
0.061143284,0.730366707,0.685852408,1.003829052253422
0.06136974,0.805593967,0.594962418,1.0029619184992038
0.061596196,0.869318962,0.495985448,1.0017170223205183
0.061822652,0.920736194,0.390488476,1.0002363888304082
0.062049108,0.959320664,0.280095071,0.998749385175896
0.062275568,0.984829545,0.166385144,0.9975732488488076
0.062502024,0.997230172,0.0507796891,0.9970465927722422
0.06272848,0.996511638,-0.0654967427,0.9973252679737532
0.062954936,0.982506692,-0.181233779,0.9981650824754036
0.063181392,0.955006957,-0.294932395,0.999023405538836
0.063407848,0.914124846,-0.404796898,0.999484762704946
0.063634308,0.860442221,-0.509041309,0.9994838699478464
0.063860764,0.79486084,-0.606108546,0.9991713244997398
0.06408722,0.718432486,-0.694680929,0.9987268300564432
0.064313676,0.632290065,-0.773617744,0.9982751401293538
0.064540132,0.537642539,-0.841914833,0.9978800857677844
0.064766588,0.435788304,-0.898696899,0.9975675621754128
0.064993044,0.328121245,-0.943236709,0.9973590406255008
0.065219504,0.216115817,-0.974986732,0.9973051739336172
0.06544596,0.101282075,-0.993608475,0.9975158603081312
0.065672416,-0.0149075212,-0.998968959,0.9981612152338722
0.065898872,-0.13109228,-0.991061628,0.9993883363696088
0.066125328,-0.245990306,-0.969853938,1.0011278917000814
0.066351784,-0.35817793,-0.935230374,1.0029472819912646
0.06657824,-0.465894639,-0.887229264,1.004233581546922
0.0668047,-0.567198515,-0.826371312,1.0046037007148063
0.067031156,-0.660308361,-0.753682733,1.0040447936288557
0.067257608,-0.743780434,-0.670492172,1.002769086714506
0.067484072,-0.816495121,-0.578252733,1.001040505838774
0.067710528,-0.87759614,-0.478460908,0.999099825427084
0.067936984,-0.926443815,-0.372627705,0.9971495488853211
0.06816344,-0.962592244,-0.262264907,0.9953667096526742
0.068389896,-0.985776842,-0.148869038,0.9939179726985384
0.068616352,-0.995908499,-0.0339008048,0.9929830029465206
0.068842808,-0.993057013,0.0812559947,0.9927647677431688
0.069069264,-0.97740227,0.195336342,0.9934714839070938
0.06929572,-0.949121714,0.30720216,0.9952051950949634
0.069522176,-0.908273101,0.415718973,0.997782290512331
0.069748632,-0.854843497,0.519504607,1.0006424410574133
0.069975088,-0.789067984,0.61683017,1.003107741996053
0.070201544,-0.711690784,0.705860078,1.0047422217447006
0.070428008,-0.623917699,0.784963131,1.005440412154778
0.070654464,-0.52722317,0.852835,1.005291808209849
0.07088092,-0.423211962,0.908477783,1.0044402469844846
0.071107376,-0.313559085,0.951166689,1.00303737004926
0.071333832,-0.199976414,0.980431795,1.0012370708032214
0.071560288,-0.084178023,0.996054292,0.9992100921678096
0.071786744,0.0321640223,0.998063803,0.9971658791893376
0.0720132,0.14747493,0.986716807,0.99535891219478
0.072239656,0.260334969,0.96245569,0.9940952512976072
0.072466112,0.369525284,0.925813317,0.9936792334498232
0.072692568,0.473994672,0.877275169,0.994282671228366
0.072919024,0.572685719,0.8171857,0.9957614010310368
0.07314548,0.664307296,0.745872915,0.9976305888494288
0.073371944,0.747334003,0.66395402,0.9993430527141643
0.0735984,0.820273459,0.572485924,1.0005886807179585
0.073824856,0.881893039,0.472845733,1.001318419452963
0.074051312,0.931258202,0.366558552,1.0016070108366095
0.074277768,0.967680931,0.2552104,1.001538732489187
0.074504224,0.990683794,0.140427917,1.0011743795671932
0.07473068,0.999996006,0.0238708574,1.0005618298489634
0.074957136,0.995565951,-0.0927858204,0.9997607712578356
0.075183592,0.977574289,-0.207893118,0.9988710390256174
0.075410048,0.946430266,-0.319884747,0.9980564997640848
0.075636504,0.90272814,-0.427342266,0.9975395070578744
0.07586296,0.847155333,-0.529033303,0.9975483939134306
0.076089416,0.78036952,-0.623856425,0.9981734267588112
0.076315872,0.702966392,-0.710666716,0.9992089295117224
0.076542336,0.615662754,-0.78813386,1.000195607941364
0.076768792,0.519545257,-0.854859054,1.000711276276971
0.076995248,0.416087568,-0.909657419,1.000605484185896
0.077221704,0.306961417,-0.951709449,0.9999761868425316
0.07744816,0.193861827,-0.980528474,0.9990184962925466
0.077674616,0.0784367323,-0.995875716,0.9979207626924146
0.077901072,-0.0377190821,-0.997700751,0.9968295177004304
0.078127528,-0.153058946,-0.986117303,0.9958543762266248
0.078353984,-0.266084641,-0.961399734,0.9950904847113696
0.07858044,-0.375365466,-0.923981667,0.994641354017496
0.078806896,-0.479567826,-0.874443352,0.994636475591362
0.079033352,-0.577490926,-0.813471019,0.9952308683652358
0.079259808,-0.668058574,-0.741775334,0.996532904425725
0.079486272,-0.750226974,-0.660021484,0.9984688718587592
0.079712728,-0.822818518,-0.56888926,1.000665303707064
0.079939184,-0.884479165,-0.469309092,1.0025544171529617
0.08016564,-0.93389523,-0.362653881,1.003678138021115
0.080392096,-0.970073462,-0.25066486,1.003875393715485
0.080618552,-0.992444873,-0.135231063,1.003234266344096
