Frequency (GHz),Re( S21 ),Im( S21 ),S2
0,0.056621421,2.50E-05,3.21E-03
0.000226456,0.051880546,-0.021920003,3.17E-03
0.000452911,0.038433645,-0.03992191,3.07E-03
0.000679367,0.018686021,-0.050717559,2.92E-03
0.000905822,-0.003819019,-0.052312668,2.75E-03
0.001132278,-0.02501272,-0.044348866,2.59E-03
0.001358733,-0.041020144,-0.028188359,2.48E-03
0.001585189,-0.048859749,-0.006692846,2.43E-03
0.001811644,-0.046994891,0.016273387,2.47E-03
0.0020381,-0.035632603,0.036530338,2.60E-03
0.002264556,-0.016707718,0.050338808,2.81E-03
0.002491011,0.006448329,0.055083066,3.08E-03
0.002717467,0.029693401,0.049753729,3.36E-03
0.002943922,0.048973464,0.035130214,3.63E-03
0.003170378,0.060396347,0.013693416,3.84E-03
0.003396833,0.061958753,-0.01069591,3.95E-03
0.003623289,0.053121813,-0.033771824,3.96E-03
0.003849744,0.035316397,-0.051269319,3.88E-03
0.0040762,0.011519874,-0.059804648,3.71E-03
0.004302656,-0.014049831,-0.057508074,3.50E-03
0.004529111,-0.036691718,-0.04440403,3.32E-03
0.004755567,-0.052041154,-0.022487368,3.21E-03
0.004982022,-0.056872677,0.004548684,3.26E-03
0.005208478,-0.049739,0.031904403,3.49E-03
0.005434933,-0.03131878,0.054498214,3.95E-03
0.005661389,-0.004390491,0.067883372,4.63E-03
0.005887844,0.026580093,0.069088124,5.48E-03
0.0061143,0.05641029,0.057241116,6.46E-03
0.006340755,0.079165533,0.033696994,7.40E-03
0.006567211,0.090628855,0.002208556,8.22E-03
0.006793667,0.088058755,-0.031759523,8.76E-03
0.007020122,0.071150139,-0.06220327,8.93E-03
0.007246578,0.042286698,-0.083188236,8.71E-03
0.007473033,0.006087142,-0.089842707,8.11E-03
0.007699489,-0.030910848,-0.079497002,7.28E-03
0.007925944,-0.061251894,-0.052291259,6.49E-03
0.0081524,-0.07772471,-0.011463181,6.17E-03
0.008378855,-0.074611858,0.03683297,6.92E-03
0.008605311,-0.048833143,0.084212825,9.48E-03
0.008831766,-0.000773764,0.12119586,1.47E-02
0.009058222,0.065386318,0.138636291,2.35E-02
0.009284677,0.142524198,0.129253283,3.70E-02
0.009511133,0.219159409,0.088639252,5.59E-02
0.009737588,0.284124583,0.016907176,8.10E-02
0.009964044,0.325816631,-0.081301369,1.13E-01
0.010190499,0.335405052,-0.198783845,1.52E-01
0.010416955,0.305989653,-0.324071765,1.99E-01
0.010643411,0.235102743,-0.444252402,2.53E-01
0.010869866,0.124577418,-0.546023965,3.14E-01
0.011096322,-0.019631125,-0.617075861,3.81E-01
0.011322777,-0.187916219,-0.647274137,4.54E-01
0.011549233,-0.36780563,-0.629716277,5.32E-01
0.011775688,-0.545080721,-0.561508179,6.12E-01
0.012002144,-0.705085278,-0.444170028,6.94E-01
0.012228599,-0.834114075,-0.283685595,7.76E-01
0.012455055,-0.920581996,-0.090364106,8.56E-01
0.01268151,-0.95483768,0.122843221,9.27E-01
0.012907966,-0.933719575,0.343083233,9.90E-01
0.013134422,-0.85877341,0.554033339,1.04E+00
0.013360877,-0.734717131,0.741216183,1.09E+00
0.013587333,-0.570318878,0.892902792,1.12E+00
0.013813788,-0.377160072,1.00083864,1.14E+00
0.014040244,-0.168214992,1.06078196,1.15E+00
0.014266699,0.043581117,1.07252455,1.15E+00
0.014493155,0.246596575,1.03941536,1.14E+00
0.01471961,0.431449503,0.967495203,1.12E+00
0.014946066,0.591555417,0.864329457,1.10E+00
0.015172521,0.724762857,0.738417566,1.07E+00
0.015398977,0.827847779,0.599034071,1.04E+00
0.015625433,0.902905166,0.451348931,1.02E+00
0.015851888,0.935203671,0.309970319,9.71E-01
0.016078344,0.967702329,0.165374964,9.64E-01
0.016304799,0.973089814,0.020264892,9.47E-01
0.016531255,0.960076153,-0.118545987,9.36E-01
0.01675771,0.931215882,-0.251505643,9.30E-01
0.016984166,0.887506068,-0.378676713,9.31E-01
0.017210622,0.829116821,-0.499720752,9.37E-01
0.017437076,0.755762279,-0.613664687,9.48E-01
0.017663532,0.667109489,-0.718769133,9.62E-01
0.017889988,0.563197792,-0.812565804,9.77E-01
0.018116444,0.444805413,-0.892043173,9.94E-01
0.0183429,0.313766629,-0.953971267,1.01E+00
0.018569354,0.173155591,-0.995483756,1.02E+00
0.01879581,0.026969869,-1.01469183,1.03E+00
0.019022266,-0.120136812,-1.0110842,1.04E+00
0.019248722,-0.264658839,-0.986903369,1.04E+00
0.019475176,-0.406901896,-0.940628707,1.05E+00
0.019701632,-0.539060116,-0.870524585,1.05E+00
0.019928088,-0.656281233,-0.781458259,1.04E+00
0.020154544,-0.756474733,-0.677514434,1.03E+00
0.020380998,-0.838418365,-0.562461734,1.02E+00
0.020607454,-0.901715517,-0.43985182,1.01E+00
0.02083391,-0.946682513,-0.312834799,9.94E-01
0.021060366,-0.974125564,-0.184013963,9.83E-01
0.021286822,-0.985074162,-0.055412989,9.73E-01
0.021513276,-0.980550945,0.071437016,9.67E-01
0.021739732,-0.961435676,0.195327491,9.63E-01
0.021966188,-0.928462625,0.315205157,9.61E-01
0.022192644,-0.88230896,0.430072248,9.63E-01
0.022419098,-0.823824406,0.539173365,9.69E-01
0.022645554,-0.75318557,0.642891526,9.81E-01
0.02287201,-0.667881489,0.739931703,9.94E-01
0.023098466,-0.568051517,0.825766861,1.00E+00
0.023324922,-0.456056446,0.897649586,1.01E+00
0.023551376,-0.334128708,0.953686416,1.02E+00
0.023777832,-0.20475556,0.992223561,1.03E+00
0.024004288,-0.070830405,1.01204252,1.03E+00
0.024230744,0.06446483,1.01255417,1.03E+00
0.024457198,0.197867587,0.99389112,1.03E+00
0.024683654,0.326257348,0.956907332,1.02E+00
0.02491011,0.446857363,0.903100193,1.02E+00
0.025136566,0.557400286,0.834482253,1.01E+00
0.02536302,0.656262696,0.753418326,9.98E-01
0.025589476,0.742603242,0.662429929,9.90E-01
0.025815932,0.816613376,0.563765407,9.85E-01
0.026042388,0.879031718,0.458176017,9.83E-01
0.026268844,0.928764522,0.345601708,9.82E-01
0.026495298,0.964259863,0.227884531,9.82E-01
0.026721754,0.985320747,0.107098654,9.82E-01
0.02694821,0.991996288,-0.015284139,9.84E-01
0.027174666,0.984155118,-0.137943327,9.88E-01
0.02740112,0.961565971,-0.259427696,9.92E-01
0.027627576,0.92404902,-0.378051072,9.97E-01
0.027854032,0.871630251,-0.491880059,1.00E+00
0.028080488,0.80468446,-0.598790526,1.01E+00
0.028306944,0.724049151,-0.696588516,1.01E+00
0.028533398,0.631086767,-0.783186495,1.01E+00
0.028759854,0.527667999,-0.856830239,1.01E+00
0.02898631,0.41599983,-0.916380048,1.01E+00
0.029212766,0.298065394,-0.961448073,1.01E+00
0.02943922,0.175054401,-0.991519749,1.01E+00
0.029665676,0.048773781,-1.00511503,1.01E+00
0.029892132,-0.077634618,-1.0016489,1.01E+00
0.030118588,-0.201357424,-0.981903553,1.00E+00
0.030345042,-0.320329577,-0.947085083,1.00E+00
0.030571498,-0.432970107,-0.898454607,9.95E-01
0.030797954,-0.538013756,-0.83725214,9.90E-01
0.03102441,-0.634414971,-0.764665782,9.87E-01
0.031250866,-0.721265435,-0.68182373,9.85E-01
0.03147732,-0.79772681,-0.589817286,9.84E-01
0.031703776,-0.862992227,-0.489753366,9.85E-01
0.031930232,-0.916300714,-0.382815033,9.86E-01
0.032156688,-0.957012177,-0.27028662,9.89E-01
0.032383142,-0.984716356,-0.153435603,9.93E-01
0.032609598,-0.999050081,-0.033187863,9.99E-01
0.032836054,-0.998934746,0.089639053,1.01E+00
0.03306251,-0.982849896,0.213028952,1.01E+00
0.033288964,-0.950367153,0.334009349,1.01E+00
0.03351542,-0.902115822,0.449857563,1.02E+00
0.033741876,-0.839185834,0.558282077,1.02E+00
0.033968332,-0.762961149,0.65730679,1.01E+00
0.034194788,-0.675086141,0.745263636,1.01E+00
0.034421244,-0.577410936,0.820833027,1.01E+00
0.0346477,-0.471907526,0.883075655,1.00E+00
0.034874152,-0.360576868,0.931434274,9.98E-01
0.035100608,-0.245360151,0.965712845,9.93E-01
0.035327064,-0.128058687,0.986047268,9.89E-01
0.03555352,-0.010225094,0.992864072,9.86E-01
0.035779976,0.107015662,0.986754537,9.85E-01
0.036006432,0.223061979,0.968016863,9.87E-01
0.036232888,0.337174624,0.936161697,9.90E-01
0.036459344,0.447635472,0.890639782,9.94E-01
0.0366858,0.552353978,0.831743598,9.97E-01
0.036912252,0.649544835,0.760282636,1.00E+00
0.037138708,0.737652004,0.677217007,1.00E+00
0.037365164,0.815202951,0.583651483,1.01E+00
0.03759162,0.880803049,0.480909199,1.01E+00
0.037818076,0.933206677,0.370576382,1.01E+00
0.038044532,0.971409142,0.25448969,1.01E+00
0.038270988,0.994736075,0.134685397,1.01E+00
0.038497444,1.00291848,0.013304201,1.01E+00
0.0387239,0.996133566,-0.107547343,1.00E+00
0.038950352,0.974982262,-0.225989595,1.00E+00
0.039176808,0.940282643,-0.340590417,1.00E+00
0.039403264,0.892598629,-0.450300574,1.00E+00
0.03962972,0.832119286,-0.553779483,9.99E-01
0.039856176,0.759455025,-0.649146616,9.98E-01
0.040082632,0.675953269,-0.734733105,9.97E-01
0.040309088,0.583182037,-0.809428334,9.95E-01
0.040535544,0.482619882,-0.872470498,9.94E-01
0.040761996,0.3756468,-0.923248589,9.93E-01
0.040988452,0.2636154,-0.961223841,9.93E-01
0.041214908,0.147913456,-0.985918403,9.94E-01
0.041441364,0.030010732,-0.996942222,9.95E-01
0.04166782,-0.088524386,-0.994044662,9.96E-01
0.041894276,-0.206042483,-0.977180839,9.97E-01
0.042120732,-0.320886821,-0.946565926,9.99E-01
0.042347188,-0.431529492,-0.902659416,1.00E+00
0.042573644,-0.536673427,-0.845975757,1.00E+00
0.042800096,-0.635015666,-0.776805878,1.01E+00
0.043026552,-0.7247352,-0.695484579,1.01E+00
0.043253008,-0.80371052,-0.603116155,1.01E+00
0.043479464,-0.870269299,-0.501545429,1.01E+00
0.04370592,-0.923382521,-0.392833382,1.01E+00
0.043932376,-0.962486804,-0.27899465,1.00E+00
0.044158832,-0.987340748,-0.161944985,1.00E+00
0.044385288,-0.997953832,-0.043492597,9.98E-01
0.044611744,-0.994541883,0.074670084,9.95E-01
0.044838196,-0.977493763,0.190974593,9.92E-01
0.045064652,-0.947340667,0.303982347,9.90E-01
0.045291108,-0.904735088,0.412396103,9.89E-01
0.045517564,-0.850415885,0.51509279,9.89E-01
0.04574402,-0.785111487,0.611163199,9.90E-01
0.045970476,-0.709332824,0.699829638,9.93E-01
0.046196932,-0.623302519,0.780054212,9.97E-01
0.046423388,-0.527453721,0.85021323,1.00E+00
0.046649844,-0.422975749,0.908527434,1.00E+00
0.046876296,-0.31162259,0.953639925,1.01E+00
0.047102752,-0.195322886,0.984675109,1.01E+00
0.047329208,-0.076039068,1.00111008,1.01E+00
0.047555664,0.044247966,1.00271785,1.01E+00
0.04778212,0.16356039,0.989570141,1.01E+00
0.048008576,0.27997297,0.962043583,1.00E+00
0.048235032,0.391678274,0.920815647,1.00E+00
0.048461488,0.497057647,0.866829336,9.98E-01
0.048687944,0.594754755,0.801239967,9.96E-01
0.048914396,0.683739126,0.725306392,9.94E-01
0.049140852,0.763316572,0.64020896,9.93E-01
0.049367308,0.832938612,0.546835363,9.93E-01
0.049593764,0.891796589,0.445850343,9.94E-01
0.04982022,0.938714504,0.338209778,9.96E-01
0.050046676,0.972628772,0.225421757,9.97E-01
0.050273132,0.992918849,0.109238617,9.98E-01
0.050499588,0.999307811,-0.008622727,9.99E-01
0.05072604,0.991712868,-0.126508564,9.99E-01
0.050952496,0.970197439,-0.24277772,1.00E+00
0.051178952,0.93499589,-0.355772167,1.00E+00
0.051405408,0.886552811,-0.46382755,1.00E+00
0.051631864,0.825559735,-0.56531781,1.00E+00
0.05185832,0.75296694,-0.658726752,1.00E+00
0.052084776,0.669954419,-0.742736459,1.00E+00
0.052311232,0.577837408,-0.816308439,1.00E+00
0.052537688,0.477893949,-0.878678203,1.00E+00
0.05276414,0.371231079,-0.929146528,1.00E+00
0.052990596,0.258984745,-0.966802239,1.00E+00
0.053217052,0.142736673,-0.990663469,1.00E+00
0.053443508,0.02449684,-1.00016618,1.00E+00
0.053669964,-0.093700483,-0.995308459,9.99E-01
0.05389642,-0.210031569,-0.976460218,9.98E-01
0.054122876,-0.322893947,-0.944181323,9.96E-01
0.054349332,-0.43084991,-0.899139166,9.94E-01
0.054575788,-0.532582045,-0.842088044,9.93E-01
0.05480224,-0.626869678,-0.773871064,9.92E-01
0.055028696,-0.712587655,-0.695430219,9.91E-01
0.055255152,-0.788723409,-0.607808948,9.92E-01
0.055481608,-0.85441196,-0.51213342,9.92E-01
0.055708064,-0.908953309,-0.409540117,9.94E-01
0.05593452,-0.951736689,-0.301073939,9.96E-01
0.056160976,-0.982022762,-0.187707186,1.00E+00
0.056387432,-0.998821318,-0.070665292,1.00E+00
0.056613888,-1.00122797,0.048261184,1.00E+00
0.05684034,-0.98886919,0.166898608,1.01E+00
0.057066796,-0.961953223,0.283086658,1.01E+00
0.057293252,-0.921090543,0.394869655,1.00E+00
0.057519708,-0.867150605,0.500517249,1.00E+00
0.057746164,-0.801192999,0.598514795,1.00E+00
0.05797262,-0.724427164,0.687561572,9.98E-01
0.058199076,-0.638174653,0.766580045,9.95E-01
0.058425532,-0.543828189,0.834720314,9.93E-01
0.058651984,-0.442799658,0.8913697,9.91E-01
0.05887844,-0.336449414,0.936139286,9.90E-01
0.059104896,-0.225994349,0.968810439,9.90E-01
0.059331352,-0.112445019,0.989168942,9.91E-01
0.059557808,0.003256307,0.996775031,9.94E-01
0.059784264,0.119866922,0.990966797,9.96E-01
0.06001072,0.235659599,0.971248448,9.99E-01
0.060237176,0.348676413,0.937609673,1.00E+00
0.060463632,0.457029909,0.890483618,1.00E+00
0.060690084,0.558998227,0.830593586,1.00E+00
0.06091654,0.653015018,0.758874357,1.00E+00
0.061142996,0.737662613,0.676452518,1.00E+00
0.061369452,0.811697364,0.58463937,1.00E+00
0.061595908,0.874089837,0.484910905,9.99E-01
0.061822364,0.924067795,0.378861457,9.97E-01
0.06204882,0.961147428,0.268132657,9.96E-01
0.062275276,0.985130608,0.154309124,9.94E-01
0.062501732,0.996023536,0.038805097,9.94E-01
0.062728184,0.993850052,-0.077169672,9.94E-01
0.06295464,0.978471458,-0.192424282,9.94E-01
0.063181096,0.949702382,-0.305483252,9.95E-01
0.063407552,0.907672465,-0.414579362,9.96E-01
0.063634008,0.85296756,-0.517956018,9.96E-01
0.063860464,0.78648591,-0.614081085,9.96E-01
0.06408692,0.709269881,-0.701653063,9.95E-01
0.064313376,0.622441888,-0.779539585,9.95E-01
0.064539832,0.527204692,-0.846736908,9.95E-01
0.064766284,0.424855977,-0.902366579,9.95E-01
0.06499274,0.316795647,-0.945697427,9.95E-01
0.065219196,0.204509765,-0.976181865,9.95E-01
0.065445652,0.089525111,-0.99348557,9.95E-01
0.065672108,-0.026669135,-0.997485936,9.96E-01
0.065898564,-0.142695665,-0.988193929,9.97E-01
0.06612502,-0.257257104,-0.965600073,9.99E-01
0.066351476,-0.368919551,-0.929620087,1.00E+00
0.066577928,-0.475923181,-0.880330205,1.00E+00
0.066804384,-0.576339185,-0.818289042,1.00E+00
0.06703084,-0.668412268,-0.74455297,1.00E+00
0.067257296,-0.750730097,-0.66047132,1.00E+00
0.067483752,-0.822205544,-0.567505419,9.98E-01
0.067710208,-0.882013381,-0.467152327,9.96E-01
0.067936664,-0.929538488,-0.360915273,9.94E-01
0.06816312,-0.964353502,-0.250294715,9.93E-01
0.068389576,-0.986204624,-0.13677524,9.91E-01
0.068616032,-0.995007038,-0.021806676,9.91E-01
0.068842488,-0.990830481,0.093231298,9.90E-01
0.069068944,-0.973852277,0.20707348,9.91E-01
0.0692954,-0.94424969,0.318573505,9.93E-01
0.069521856,-0.902085423,0.42658031,9.96E-01
0.069748304,-0.847363651,0.52969408,9.99E-01
0.06997476,-0.780347526,0.626172543,1.00E+00
0.070201216,-0.701816142,0.714177072,1.00E+00
0.070427672,-0.613012731,0.792085767,1.00E+00
0.070654128,-0.515445352,0.858612835,1.00E+00
0.070880584,-0.410747558,0.912789524,1.00E+00
0.07110704,-0.300615281,0.953925788,1.00E+00
0.071333496,-0.186770186,0.981591463,9.98E-01
0.071559952,-0.070925601,0.995607495,9.96E-01
0.071786408,0.045257427,0.996038258,9.94E-01
0.072012864,0.160222173,0.983169317,9.92E-01
0.07223932,0.272573113,0.957461953,9.91E-01
0.072465776,0.381112605,0.919457734,9.91E-01
0.072692232,0.484806597,0.869642735,9.91E-01
0.072918688,0.582605302,0.80836004,9.93E-01
0.073145144,0.673219442,0.735939205,9.95E-01
0.0733716,0.755122185,0.653003573,9.97E-01
0.073598048,0.826819122,0.560620904,9.98E-01
0.073824504,0.887077093,0.460183889,9.99E-01
0.07405096,0.934962273,0.353238136,9.99E-01
0.074277416,0.969793677,0.241395757,9.99E-01
0.074503872,0.99110949,0.126312137,9.98E-01
0.074730328,0.998665035,0.009675751,9.97E-01
0.074956784,0.992445052,-0.106815934,9.96E-01
0.07518324,0.972675025,-0.221500278,9.95E-01
0.075409696,0.939813614,-0.332810044,9.94E-01
0.075636152,0.894503474,-0.439338773,9.93E-01
0.075862608,0.837477088,-0.539879203,9.93E-01
0.076089064,0.769427121,-0.633363068,9.93E-01
0.07631552,0.690978289,-0.718685508,9.94E-01
0.076541976,0.602865219,-0.794561386,9.95E-01
0.076768432,0.506179571,-0.859642208,9.95E-01
0.076994888,0.402385354,-0.912791371,9.95E-01
0.077221344,0.293129623,-0.953227162,9.95E-01
0.0774478,0.180076078,-0.980487823,9.94E-01
0.077674248,0.064841554,-0.994343698,9.93E-01
0.077900704,-0.05100603,-0.994742393,9.92E-01
0.07812716,-0.165936559,-0.981787622,9.91E-01
0.078353616,-0.278458565,-0.955739081,9.91E-01
0.078580072,-0.387136102,-0.917019129,9.91E-01
0.078806528,-0.490622222,-0.866201818,9.91E-01
0.079032984,-0.587695658,-0.803976238,9.92E-01
0.07925944,-0.677259326,-0.731068313,9.93E-01
0.079485896,-0.758248687,-0.648169041,9.95E-01
0.079712352,-0.829475045,-0.555998623,9.97E-01
0.079938808,-0.889588058,-0.455536574,9.99E-01
0.080165264,-0.937297285,-0.348204851,1.00E+00
0.08039172,-0.971649647,-0.235785604,1.00E+00
0.080618176,-0.99212724,-0.120193906,9.99E-01
0.080844632,-0.998587847,-0.003310016,9.97E-01
0.081071088,-0.991171777,0.113088533,9.95E-01
0.081297544,-0.97024107,0.227345943,9.93E-01
0.081523992,-0.936337829,0.337937564,9.91E-01
0.081750448,-0.890154064,0.443478644,9.89E-01
0.081976904,-0.832500458,0.542738557,9.88E-01
0.08220336,-0.764263332,0.634655237,9.87E-01
0.082429816,-0.686338127,0.718330324,9.87E-01
0.082656272,-0.599551141,0.792969823,9.88E-01
0.082882728,-0.504638612,0.857741296,9.90E-01
0.083109184,-0.402384013,0.911629558,9.93E-01
0.08333564,-0.293872476,0.953472376,9.95E-01
0.083562096,-0.180611759,0.982221425,9.97E-01
0.083788552,-0.064404264,0.997175276,9.99E-01
0.084015008,0.052856248,0.99802959,9.99E-01
0.084241464,0.16930823,0.984812975,9.99E-01
0.08446792,0.28316927,0.957827806,9.98E-01
0.084694376,0.392760426,0.917613029,9.96E-01
0.084920832,0.496529967,0.864920914,9.95E-01
0.085147288,0.593089104,0.800693274,9.93E-01
0.085373744,0.681248605,0.726018548,9.91E-01
0.085600192,0.760044575,0.642066181,9.90E-01
0.085826648,0.828724086,0.549994707,9.89E-01
0.086053104,0.886665344,0.450869858,9.89E-01
0.08627956,0.933220506,0.345669478,9.90E-01
0.086506016,0.967611015,0.235448048,9.92E-01
0.086732472,0.989030719,0.121546529,9.93E-01
0.086958928,0.996889651,0.005615741,9.94E-01
0.087185384,0.990959942,-0.110553995,9.94E-01
0.08741184,0.971349061,-0.225202665,9.94E-01
0.087638296,0.938411474,-0.33667022,9.94E-01
0.087864752,0.892689347,-0.443400979,9.93E-01
0.088091208,0.834891498,-0.54393971,9.93E-01
0.088317664,0.765887141,-0.636940241,9.92E-01
0.08854412,0.68669802,-0.721190691,9.92E-01
0.088770576,0.598471284,-0.795646608,9.91E-01
0.088997032,0.50242722,-0.85945487,9.91E-01
0.089223488,0.399783641,-0.911935031,9.91E-01
0.089449936,0.291704297,-0.952496231,9.92E-01
0.089676392,0.179352358,-0.980514824,9.94E-01
0.089902848,0.064065956,-0.995312452,9.95E-01
0.090129304,-0.052507404,-0.996333599,9.95E-01
0.09035576,-0.168492764,-0.983375669,9.95E-01
0.090582216,-0.282004029,-0.956657052,9.95E-01
0.090808672,-0.391303688,-0.916732907,9.94E-01
0.091035128,-0.494848877,-0.864378572,9.92E-01
0.091261584,-0.591283858,-0.800513983,9.90E-01
0.09148804,-0.679419458,-0.726165414,9.89E-01
0.091714496,-0.758225083,-0.642444313,9.88E-01
0.091940952,-0.826828301,-0.550528824,9.87E-01
0.092167408,-0.884518802,-0.451633841,9.86E-01
0.092393864,-0.930737436,-0.346967578,9.87E-01
0.09262032,-0.965025365,-0.237684488,9.88E-01
0.092846776,-0.986925662,-0.124889404,9.90E-01
0.093073232,-0.995893121,-0.009753958,9.92E-01
0.093299688,-0.991357028,0.106294468,9.94E-01
0.093526136,-0.972951651,0.221501112,9.96E-01
0.093752592,-0.940721869,0.333929807,9.96E-01
0.093979048,-0.895145774,0.441686273,9.96E-01
0.094205504,-0.837035835,0.543057203,9.96E-01
0.09443196,-0.767430782,0.63654989,9.94E-01
0.094658416,-0.687525809,0.720891774,9.92E-01
0.094884872,-0.598628283,0.795028448,9.90E-01
0.095111328,-0.50211823,0.858120382,9.88E-01
0.095337784,-0.399409026,0.909546494,9.87E-01
0.09556424,-0.291891962,0.948889792,9.86E-01
0.095790696,-0.180883422,0.975902498,9.85E-01
0.096017152,-0.067584597,0.990418851,9.85E-01
0.096243608,0.046876039,0.992239058,9.87E-01
0.096470064,0.161291644,0.981072128,9.89E-01
0.09669652,0.274205685,0.956645668,9.90E-01
0.096922976,0.383903712,0.918938518,9.92E-01
0.097149432,0.48858881,0.868323445,9.93E-01
0.097375888,0.586570561,0.805539131,9.93E-01
0.097602336,0.676353574,0.73158437,9.93E-01
0.097828792,0.756650209,0.647635221,9.92E-01
0.098055248,0.826373398,0.554996192,9.91E-01
0.098281704,0.884639263,0.455073804,9.90E-01
0.09850816,0.930776834,0.349345386,9.88E-01
0.098734616,0.964335442,0.239315107,9.87E-01
0.098961072,0.985078037,0.126459658,9.86E-01
