Frequency (GHz),Re( S21 ),Im( S21 ),S2
0.0,0.0566277839,4.50441839e-05,0.0032067079384036
0.000226477375,0.0518876649,-0.0219047517,0.0031721479158133
0.00045295475,0.0384471454,-0.0399122648,0.003071171870874
0.000679432125,0.0187053215,-0.0507160202,0.0029220037573451
0.0009059095,-0.00379691413,-0.0523223653,0.0027520464674972
0.00113238688,-0.024993198,-0.0443719998,0.0025935343125184
0.00135886425,-0.0410097949,-0.028224431,0.0024784217830138
0.00158534163,-0.0488653816,-0.00673795398,0.0024332255427502
0.001811819,-0.0470213778,0.0162264798,0.0024743086169101
0.00203829638,-0.035681434,0.0364910401,0.0026047607398761
0.00226477375,-0.0167764015,0.0503174514,0.0028132935626805
0.00249125125,0.00636632973,0.0550882071,0.0030752407157235
0.0027177285,0.0296052508,0.0497885309,0.0033553686841111
0.002944206,0.0489629731,0.0352117307,0.0036372387136806
0.00317068325,0.0603959188,0.0137828477,0.0038376338984175
0.00339716075,0.0619882047,-0.0106171211,0.0039552607823811
0.003623638,0.0531606823,-0.0336985774,0.0039616522613853
0.0038501155,0.0353927314,-0.0512195416,0.0038760868776666
0.00407659275,0.011618088,-0.0597940683,0.0037103105726408
0.00430307,-0.0139488839,-0.0575456806,0.0035060767177728
0.0045295475,-0.0366103761,-0.0444903485,0.0033197107478349
0.004756025,-0.0520009175,-0.0226125959,0.0032154249141785
0.0049825025,-0.0568902232,0.00440350175,0.003255888323408
0.0052089795,-0.0498219728,0.0317649469,0.0034912408252437
0.005435457,-0.0314632542,0.0543925688,0.0039484879055165
0.0056619345,-0.00458058761,0.0678363144,0.0046227473342285
0.005888412,0.0266376082,0.0692356899,0.0055031429265456
0.0061148895,0.056255281,0.057389617,0.0064582247797956
0.0063413665,0.0790623426,0.0338978879,0.0073999208214807
0.006567844,0.0906103626,0.00243493915,0.0082161667391676
0.0067943215,0.0881359205,-0.0315458961,0.0087630840431343
0.007020799,0.0712901726,-0.062012136,0.0089277937206202
0.007247276,0.0425116085,-0.0830852315,0.0087103925506658
0.0074737535,0.00635219179,-0.0898582488,0.0081148552179396
0.007700231,-0.0306612179,-0.0796492323,0.0072841104890906
0.0079267085,-0.0610804707,-0.0525746606,0.0064949188381387
0.0081531855,-0.0776923671,-0.0118454769,0.0061764192285895
0.008379663,-0.0747663081,0.0364098549,0.0069156783607431
0.00860614,-0.0491984859,0.0838273093,0.0094475087993303
0.008832618,-0.00134263665,0.120936058,0.0146273327977532
0.009059095,0.0652001426,0.138807058,0.0235184579456757
0.009285573,0.141731799,0.129558519,0.0368733126932497
0.00951205,0.218408033,0.0892157555,0.0556615199083648
0.009738527,0.283532411,0.0177828949,0.0807068594384973
0.009965005,0.325455159,-0.0801603273,0.1123467385925584
0.010191482,0.335396171,-0.197462425,0.1514820008083418
0.010417959,0.306407034,-0.322688848,0.1980133631082442
0.010644437,0.235971794,-0.442944527,0.2518825415628322
0.010870914,0.125876963,-0.544935286,0.3127994757420051
0.011097392,-0.017968487,-0.616342902,0.3802014393708507
0.011323869,-0.186000153,-0.64700973,0.4532176476306962
0.011550346,-0.365780205,-0.629996657,0.5306909462010176
0.011776824,-0.543110847,-0.562363088,0.6112216348739532
0.012003301,-0.703341722,-0.445577383,0.693228782147054
0.012229779,-0.832755029,-0.285571635,0.7750320970413641
0.012456256,-0.919729829,-0.0926098302,0.8544795390020421
0.012682733,-0.954572499,0.120419569,0.9257095284452508
0.012909211,-0.93409723,0.340654403,0.9885830573769592
0.013135688,-0.859764516,0.55177176,1.0436470981062118
0.013362165,-0.736241162,0.739283502,1.0885911449524943
0.013588643,-0.572252154,0.89142555,1.1221120389504422
0.01381512,-0.379351288,0.999896109,1.143699628500599
0.014041598,-0.170501918,1.06040108,1.1535213545068457
0.014268075,0.0413525328,1.07268167,1.1523559971229638
0.014494552,0.244557142,1.04004419,1.141500112855964
0.01472103,0.429696262,0.968499184,1.1226295469854386
0.014947507,0.590146959,0.865593314,1.09752521845845
0.015173984,0.723720372,0.739854813,1.0711563211670834
0.015400462,0.827147305,0.60052228,1.0447996729451614
0.015626939,0.902516782,0.452807426,1.019571106832381
0.015853417,0.935006201,0.311455637,0.971241209727528
0.016079894,0.967717528,0.166627988,0.9642421003833588
0.016306371,0.973216534,0.0214410536,0.9476101408304513
0.016532849,0.960295558,-0.117443189,0.935960461357021
0.016759326,0.931512177,-0.250454754,0.9304425197004798
0.016985804,0.887880504,-0.377655447,0.9309554260320636
0.01721228,0.829585731,-0.498715073,0.9369292091161996
0.017438758,0.756350935,-0.612675548,0.9474380639924744
0.017665236,0.667844236,-0.717814744,0.9612739302622092
0.017891714,0.56409657,-0.811679184,0.9770280380246708
0.01811819,0.445873231,-0.891268134,0.9931618248062214
0.018344668,0.314991921,-0.953355134,1.0081059218194284
0.018571146,0.174510539,-0.995072067,1.020622346745723
0.018797622,0.0284113232,-1.01452351,1.0300651556286953
0.0190241,-0.118660338,-1.01118875,1.0365829639408368
0.019250578,-0.263242155,-0.987310171,1.0440778059290932
0.019477054,-0.40562138,-0.94125402,1.0504878340792647
0.019703532,-0.537926495,-0.871343672,1.0486047087574284
0.01993001,-0.655333817,-0.78243351,1.0416646092747095
0.020156486,-0.755734324,-0.678592443,1.031622072168445
0.020382964,-0.837884903,-0.563588917,1.0196835780405522
0.020609442,-0.901372492,-0.440982372,1.0069378217490366
0.020835918,-0.946502566,-0.313935667,0.9944227104593192
0.021062396,-0.974077284,-0.185067579,0.983076564001738
0.021288874,-0.985127389,-0.0564158,0.9736587150475972
0.021515352,-0.980683565,0.0704766139,0.966707207767919
0.021741828,-0.961637199,0.194394007,0.9625351324580816
0.021968306,-0.92873621,0.314282954,0.9613247229401302
0.022194784,-0.882671475,0.429151088,0.9632795891102592
0.02242126,-0.824304879,0.538262188,0.969204716573752
0.022647738,-0.753790975,0.642029226,0.9804023610296098
0.022874216,-0.668597877,0.739121318,0.9933234438509644
0.023100692,-0.568899751,0.825023055,1.004309967969395
0.02332717,-0.457040489,0.89701277,1.0135179181284322
0.023553648,-0.335231155,0.953195632,1.0209618401465137
0.023780124,-0.205945224,0.99191016,1.0262992007996357
0.024006602,-0.0720671341,1.01192749,1.0291909168350872
0.02423308,0.0632265285,1.0126431,1.0294436418837714
0.024459558,0.196671501,0.994177163,1.0270679107363216
0.024686034,0.325142235,0.957370758,1.0222762412542898
0.024912512,0.445851445,0.903712451,1.0154797051010154
0.02513899,0.556520104,0.835210919,1.0072919053729954
0.025365466,0.655514061,0.754232943,0.998566016475153
0.025591944,0.741985679,0.663306892,0.9905187808157908
0.025818422,0.816130221,0.564682782,0.9849351819167684
0.026044898,0.878674448,0.459097177,0.982839003497474
0.026271376,0.928496182,0.346513659,0.9821768758621452
0.026497854,0.96406287,0.228803709,0.9817683545647936
0.02672433,0.985196352,0.10803777,0.9822840117406808
0.026950808,0.991953135,-0.0143178394,0.9841760225614126
0.027177286,0.984207988,-0.136947349,0.987419940041136
0.027403762,0.961732686,-0.258407295,0.9917040894299916
0.02763024,0.924347818,-0.377019793,0.996562812955124
0.027856718,0.87207675,-0.490860075,1.0014614711195682
0.028083196,0.805287957,-0.597811282,1.0058670225757174
0.028309672,0.724809766,-0.695683599,1.0093248668065675
0.02853615,0.631995022,-0.782390356,1.011552376994587
0.028762628,0.528705239,-0.856176913,1.0125681361002568
0.028989104,0.417136848,-0.91590035,1.0128766010894976
0.029215582,0.299256235,-0.961167097,1.0133964825417827
0.02944206,0.176241487,-0.991432369,1.0139992040409234
0.029668536,0.0499243811,-1.005193,1.0129054110772182
0.029895014,-0.0765371248,-1.00187206,1.0096055560812942
0.030121492,-0.200328752,-0.982253432,1.0049534135536562
0.030347968,-0.31938082,-0.947540522,0.999837149015905
0.030574446,-0.432103932,-0.898994029,0.9949040722275136
0.030800924,-0.537226021,-0.837858737,0.9906190608067276
0.031027402,-0.633697748,-0.765329719,0.9873024146048904
0.031253878,-0.72061187,-0.682543039,0.9851464672722524
0.031480356,-0.797132432,-0.590595424,0.9842230689959744
0.031706834,-0.862459242,-0.490598649,0.9845229785118398
0.03193331,-0.915839791,-0.383736372,0.986016125974646
0.032159788,-0.956644535,-0.271289468,0.9887667417930892
0.032386266,-0.984469891,-0.154513478,0.9930553811692084
0.032612742,-0.998950779,-0.0343154408,0.9990802083420052
0.03283922,-0.998986721,0.0884927437,1.0058054344218856
0.033065698,-0.983053684,0.211881012,1.0112881088721162
0.033292174,-0.950731337,0.332880676,1.0146996196080245
0.033518652,-0.902641952,0.448779047,1.0161651265365983
0.033745128,-0.839864612,0.557285309,1.015939482117136
0.033971608,-0.763772905,0.656419158,1.014235161401568
0.034198084,-0.676005542,0.744504571,1.0112705490546077
0.03442456,-0.578410089,0.82021302,1.0073076292345082
0.03465104,-0.472959906,0.882596552,1.0026677462858171
0.034877516,-0.361660033,0.931091547,0.9977294483644142
0.035103992,-0.24645853,0.965498745,0.992929633606336
0.035330472,-0.129162416,0.985954583,0.9887893694456612
0.035556948,-0.0113277677,0.992889941,0.9859587532600488
0.035783428,0.105924271,0.986900032,0.9851916243484824
0.036009904,0.22199671,0.968277216,0.986843306275535
0.03623638,0.336140424,0.936523855,0.9900673156309608
0.03646286,0.446625918,0.891103983,0.9935410191478072
0.036689336,0.551371574,0.832322776,0.9967718160635836
0.036915812,0.6486063,0.760990024,0.9997959490272106
0.037142292,0.73678118,0.678058088,1.0026092779044082
0.037368768,0.814427316,0.584623456,1.0050764383523476
0.037595244,0.880151033,0.482001066,1.0069908685161033
0.037821724,0.932703376,0.371768385,1.0081473196873056
0.0380482,0.971074402,0.255755633,1.008396438030888
0.038274676,0.994582415,0.135994375,1.0076886502588729
0.038501156,1.00295079,0.0146233775,1.006124130331132
0.038727632,0.99635011,-0.106249742,1.0040025493720786
0.038954108,0.975374997,-0.224745497,1.001866923194527
0.039180588,0.940834284,-0.33943221,1.0003833751352769
0.039407064,0.893277228,-0.449253321,0.999772752492893
0.03963354,0.832887948,-0.552844524,0.9993394016404372
0.03986002,0.760293901,-0.648311198,0.9983542253499932
0.040086496,0.676855326,-0.733987868,0.9968713227057516
0.040312972,0.58414638,-0.808768988,0.9953342692176484
0.040539452,0.483647317,-0.871896863,0.9941188669505392
0.040765928,0.376740128,-0.922765315,0.9934289506125056
0.040992404,0.264777422,-0.960839868,0.9933203351392236
0.041218884,0.149144962,-0.985648751,0.9937476800378416
0.04144536,0.0313066468,-0.996805966,0.9946022399870532
0.041671836,-0.0871755406,-0.994064212,0.9957632324580832
0.041898316,-0.20466052,-0.97737807,0.9971538201635952
0.042124792,-0.319501519,-0.946959555,0.9988136194491052
0.042351272,-0.430180848,-0.90326184,1.0009375135861849
0.042577748,-0.535409272,-0.846782088,1.0037029931012098
0.042804224,-0.633876503,-0.777790666,1.0067577411722326
0.043030704,-0.723743439,-0.696616411,1.0090789895700678
0.04325718,-0.802879691,-0.60436976,1.009878605022713
0.043483656,-0.869612873,-0.502895832,1.0091307667302862
0.043710136,-0.922910333,-0.394252896,1.0071988287625575
0.043936612,-0.962201416,-0.280453891,1.004485949929445
0.044163088,-0.987238824,-0.163417771,1.0013458634915111
0.044389568,-0.998027146,-0.0449574217,0.9980793539188167
0.044616044,-0.994782209,0.0732290819,0.9949541417788368
0.04484252,-0.977893531,0.189569294,0.9922122751993064
0.045069,-0.947896361,0.302622229,0.9900877246819708
0.045295476,-0.905447006,0.411091924,0.988830850652386
0.045521952,-0.85128808,0.513861358,0.9887448903956906
0.045748432,-0.786145151,0.61002934,0.9901599941016485
0.045974908,-0.710517585,0.698823154,0.99318903916074
0.046201384,-0.624617279,0.779197991,0.9972962544037998
0.046427864,-0.528879523,0.849520981,1.0013994470079095
0.04665434,-0.424496919,0.90801537,1.0046895463967294
0.046880816,-0.31321764,0.95332849,1.0069404998528495
0.047107296,-0.196960777,0.984582186,1.0081956286649825
0.047333772,-0.0776813775,1.00124478,1.008525505887546
0.047560248,0.0426420085,1.00307822,1.0079842563272825
0.047786728,0.162029177,0.990143299,1.006637206753901
0.048013204,0.278548628,0.962808251,1.0045890663543615
0.04823968,0.390384644,0.921744108,1.0020123709037223
0.04846616,0.495909303,0.867892265,0.999163020448776
0.048692636,0.593758285,0.802410007,0.9964107203398812
0.048919116,0.682897091,0.726559877,0.9942376917625172
0.049145592,0.762628376,0.641523838,0.9931548746026476
0.049372068,0.832398832,0.548188627,0.9933985862871092
0.049598548,0.891388297,0.447225541,0.9945837805513028
0.049825024,0.938418925,0.339608401,0.9959639448279324
0.0500515,0.972441554,0.22685796,0.9971071099612964
0.05027798,0.992851496,0.110725082,0.9980141368933448
0.050504456,0.999383152,-0.0070814006,0.9988168307359128
0.050730932,0.991958618,-0.124919176,0.9995867003569888
0.050957412,0.970642447,-0.241158903,1.0003043764143114
0.051183888,0.93566525,-0.354153812,1.0008943826116938
0.051410364,0.88746506,-0.46225071,1.0012699516163075
0.051636844,0.826722562,-0.563830614,1.001375155803461
0.05186332,0.754374921,-0.65738219,1.0012328651629523
0.052089796,0.671587527,-0.741588354,1.0009830932104051
0.052316276,0.579660416,-0.81540823,1.0008967794290258
0.052542752,0.479853243,-0.878067076,1.0012609247728068
0.052769228,0.37326014,-0.928846598,1.0020791347289932
0.052995708,0.261017561,-0.966807485,1.002846880202414
0.053222184,0.144722894,-0.990953803,1.002934155727898
0.05344866,0.0263981093,-1.00071716,1.0021316944930805
0.05367514,-0.091914922,-0.996094644,1.0006528926917528
0.053901616,-0.208386675,-0.977453232,0.9988398270648016
0.054128092,-0.321406424,-0.945351124,0.9969908370365312
0.054354572,-0.42952922,-0.900458813,0.9953214247431772
0.054581048,-0.531432152,-0.843534231,0.9939701310481124
0.054807524,-0.625893235,-0.775426567,0.9930287024281708
0.055034004,-0.711787701,-0.697082102,0.9925651882236036
0.05526048,-0.788107812,-0.609547973,0.992662654723836
0.05548696,-0.853994489,-0.513948619,0.9934497702143784
0.055713436,-0.908753216,-0.411414057,0.995093933887542
0.055939912,-0.951772928,-0.302977353,0.9976669829045798
0.056166392,-0.982301652,-0.189601392,1.0008652233702666
0.056392868,-0.999337971,-0.0725143924,1.003934717387538
0.056619344,-1.00197208,0.0464854166,1.006108943056002
0.056845824,-0.989832103,0.165223703,1.007066464162435
0.0570723,-0.963123381,0.281542599,1.006872882080546
0.057298776,-0.922448635,0.393486291,1.0057429454182998
0.057525256,-0.86866951,0.499319881,1.0039070611654943
0.057751732,-0.802841842,0.597521365,1.001586804897416
0.057978208,-0.726173699,0.686782002,0.9989977593904704
0.058204688,-0.639989078,0.766015947,0.9963664510175968
0.058431164,-0.545685351,0.834369838,0.9939455288601392
0.05865764,-0.444679976,0.891229153,0.992029684212458
0.05888412,-0.338336289,0.936207771,0.99095643493508
0.059110596,-0.227870524,0.969089866,0.9910601440919324
0.059337072,-0.1142883,0.989660084,0.9924888973797772
0.059563552,0.00146731141,0.997471988,0.994952519847446
0.059790028,0.118146271,0.991862774,0.9977503037981804
0.060016504,0.234019205,0.972344816,1.000219429510906
0.060242984,0.347134471,0.938914597,1.0020629614161225
0.06046946,0.455618024,0.892004848,1.0032604326491676
0.060695936,0.557757974,0.832330227,1.0038675643384565
0.060922416,0.651992381,0.760812342,1.0039294846215745
0.061148892,0.736903608,0.678563058,1.003474751165729
0.061375368,0.81124264,0.586880684,1.0025435582064774
0.061601848,0.873970807,0.487229228,1.0012172921057072
0.061828324,0.924303114,0.381195247,0.999646062885488
0.062054804,0.961741388,0.270414591,0.9980705484178638
0.06228128,0.986072183,0.156470537,0.996821379035454
0.062507756,0.997285306,0.0407773964,0.9962407776206764
0.062734236,0.995382965,-0.0754488111,0.9964797701085948
0.062960712,0.980207086,-0.190997362,0.9972859237355703
0.063187188,0.951567233,-0.304365218,0.9981183848474638
0.063413668,0.909601986,-0.413762569,0.998575236440624
0.063640144,0.854911506,-0.517421126,0.998598304722296
0.06386662,0.788405061,-0.613803566,0.99833735784473
0.0640931,0.711135268,-0.701605797,0.9979640637774372
0.064319576,0.624233782,-0.779693902,0.9975903954060092
0.064546052,0.528912544,-0.847067177,0.9972712815513012
0.064772532,0.426475108,-0.902851105,0.9970211355433326
0.064999008,0.318325907,-0.946321309,0.996855402934846
0.065225484,0.205951571,-0.976936579,0.9968211289855912
0.065451964,0.0908749029,-0.994368255,0.9970264745288296
0.06567844,-0.0254215747,-0.99849683,0.9976421759802766
0.065904916,-0.141568944,-0.989328504,0.9988126547321532
0.066131396,-0.256272912,-0.966842234,1.0004597108710704
0.066357872,-0.368091285,-0.930942774,1.0021456425557664
0.066584348,-0.475250155,-0.881707072,1.0032700706423372
0.066810828,-0.575814724,-0.819700897,1.003472156917801
0.067037304,-0.668030143,-0.745987654,1.002761851877024
0.067263784,-0.750485182,-0.661917448,1.0013627163684058
0.067490256,-0.822092652,-0.568953454,0.9995443612909232
0.067716736,-0.882025838,-0.468594819,0.997550683293245
0.067943216,-0.929670691,-0.362348616,0.9955841132215328
0.068169688,-0.964601338,-0.251718104,0.9938177451527452
0.068396168,-0.986569405,-0.138190791,0.9924158855992598
0.068622648,-0.995496392,-0.0232153032,0.9915520167876856
0.06884912,-0.991458476,0.0918341428,0.9914234194160534
0.0690756,-0.974634349,0.205700949,0.9922249946701543
0.06930208,-0.945198298,0.317248732,0.9940465804977048
0.069528552,-0.903201759,0.425331533,0.9966803304248242
0.069755032,-0.848641515,0.528544545,0.9995517570307522
0.069981512,-0.781781495,0.62514168,1.0019844259976576
0.070207984,-0.703402996,0.713288128,1.0035557283275205
0.070434464,-0.614743948,0.791368306,1.0041739173439364
0.070660944,-0.517302454,0.858099043,1.003935796511938
0.070887416,-0.412701964,0.912507772,1.0029933450498612
0.071113896,-0.302629858,0.953896344,1.0015030660496664
0.071340376,-0.188804865,0.981825113,0.999627829565131
0.071566856,-0.0729397386,0.996105909,0.9975471874117524
0.071793328,0.0433015376,0.996795595,0.9954764813699284
0.072019808,0.15835911,0.984175146,0.9936783257241134
0.072246288,0.270833582,0.958701611,0.992459608072946
0.07247276,0.379527181,0.920913339,0.9921222590659358
0.07269924,0.483402163,0.871290743,0.9928252100305706
0.07292572,0.581400633,0.810170293,0.9944025997125064
0.073152192,0.672221303,0.737885654,0.9963567185860256
0.073378672,0.754333794,0.65507108,0.9981375926228008
0.073605152,0.826251328,0.56280297,0.9994384400625844
0.073831624,0.886752486,0.46247223,1.000210534948353
0.074058104,0.934911668,0.355616093,1.000522632563127
0.074284584,0.970049798,0.243833363,1.0004513195117306
0.074511056,0.991702199,0.128766194,1.0000539842186813
0.074737536,0.999615848,0.0120909289,0.999378034134424
0.074964016,0.993763149,-0.104504697,0.9984864280054578
0.075190488,0.974353909,-0.219364479,0.9974863146305216
0.075416968,0.941828728,-0.330922872,0.9965513000988262
0.075643448,0.896811426,-0.437771142,0.9959143065721376
0.07586992,0.840011954,-0.538692415,0.9958096008414302
0.0760964,0.772103548,-0.632600188,0.9963268866918236
0.07632288,0.693698108,-0.718359411,0.9972573084150466
0.076549352,0.605535924,-0.79465133,0.9981444915253026
0.076775832,0.50872761,-0.860103667,0.9985820991631588
0.077002312,0.404759288,-0.913569093,0.9984385689071096
0.077228784,0.295297831,-0.954262376,0.99781749124247
0.077455264,0.182025105,-0.981722057,0.9969113360505724
0.077681744,0.0665743798,-0.995725453,0.99590132579781
0.077908216,-0.0494727977,-0.996230543,0.99492285251834
0.078134696,-0.164578676,-0.983356059,0.9940752793659244
0.078361176,-0.277250051,-0.957379699,0.9934434788368331
0.078587648,-0.386057287,-0.918738067,0.9931198646006968
0.078814128,-0.489667386,-0.868017495,0.993228520538148
0.079040608,-0.586876869,-0.805910528,0.993916238508482
0.07926708,-0.676605582,-0.733133912,0.9952804465179824
0.07949356,-0.757800341,-0.650365233,0.9972362931148606
0.07972004,-0.829271138,-0.558307528,0.9993979161412858
0.079946512,-0.889663339,-0.457930565,1.0012012591218482
0.080172992,-0.937685072,-0.350649327,1.002208244777198
0.080399472,-0.972380877,-0.238232538,1.0022793121172104
0.080625944,-0.993224025,-0.122579753,1.0015197596827417
