Frequency (GHz),Re( S21 ),Im( S21 ),S2
0.0,0.0567531995,3.77333054e-05,0.0032209270772891
0.000226438859,0.0520085767,-0.0219517983,0.0031867734989636
0.000452877719,0.0385529399,-0.0399985984,0.0030862170488974
0.000679316563,0.0187849253,-0.0508403368,0.002937613264464
0.000905755438,-0.00375657529,-0.0524796061,0.0027682209143205
0.00113219425,-0.0250054654,-0.0445517041,0.0026101276380845
0.00135863313,-0.0410860144,-0.0284095611,0.0024951637411716
0.001585072,-0.049011033,-0.00690482557,0.0024497579718792
0.00181151088,-0.0472321548,0.0161053203,0.0024902577890167
0.00203794962,-0.0359410904,0.0364433527,0.0026198799351575
0.0022643885,-0.0170556363,0.0503646471,0.0028274924071054
0.0024908275,0.00610711053,0.0552393273,0.0030886800795821
0.00271726625,0.0294116624,0.050036978,0.003368745052504
0.002943705,0.0488445722,0.0355234668,0.0036477089268917
0.003170144,0.0604165941,0.0141271967,0.0038497425292446
0.00339658275,0.0621543527,-0.0102938032,0.0039691259438763
0.00362302175,0.0534697324,-0.033467561,0.0039790899222163
0.0038494605,0.035787642,-0.0511329137,0.0038953301833718
0.00407589925,0.0120384051,-0.0598878898,0.0037314825420486
0.004302338,-0.0135803055,-0.0578285158,0.0035285619371041
0.004528777,-0.0363732912,-0.0449374132,0.0033423874178275
0.004755216,-0.0519637056,-0.0231652185,0.0032368540478362
0.004981655,-0.057094276,0.00383253349,0.0032744446649161
0.0052080935,-0.0502702259,0.0312789977,0.0035054713091536
0.0054345325,-0.0321137048,0.0540939197,0.0039574421844915
0.0056609715,-0.00534764491,0.0678066462,0.0046263385749754
0.00588741,0.0256059021,0.0693962574,0.0054715027634818
0.006113849,0.0556066185,0.0579558127,0.006450972246722
0.006340288,0.0786737502,0.0347055271,0.0073940325818208
0.006566727,0.0905736685,0.00336425775,0.0082149076557563
0.0067931655,0.0884937868,-0.0306529943,0.0087707563617596
0.0070196045,0.0720276386,-0.0613473989,0.0089514840740879
0.0072460435,0.0435091145,-0.0827932507,0.0087477654060471
0.007472482,0.00744303176,-0.0900585055,0.0081659331346738
0.007698921,-0.0296951681,-0.0803865045,0.0073437931142157
0.00792536,-0.0604780987,-0.0538021252,0.0065522690984034
0.0081517985,-0.0776757002,-0.0134158861,0.0062135004014084
0.0083782375,-0.0754988715,0.0347377956,0.0069067940409208
0.008604676,-0.0507464632,0.0823646039,0.0093591315029128
0.008831115,-0.00364677073,0.120023377,0.0144189099632413
0.009057554,0.06231438,0.138748288,0.0231341693777153
0.009283993,0.138615042,0.130601361,0.036270845363714
0.009510432,0.215450078,0.0915102214,0.0547928567308831
0.009736871,0.281188399,0.021282617,0.0795198655185518
0.00996331,0.324169606,-0.0756624043,0.1108107328786518
0.010189748,0.335520536,-0.192304552,0.149555070797648
0.010416187,0.308172971,-0.317330271,0.1956690809479003
0.010642626,0.239456788,-0.437913448,0.2491077412585256
0.010869065,0.130988926,-0.540773809,0.309594411235002
0.011095504,-0.011488596,-0.613555968,0.3765829137064683
0.011321943,-0.178565294,-0.646016479,0.4492228553608639
0.011548382,-0.357927561,-0.631082356,0.5263770789779194
0.01177482,-0.535456538,-0.565642774,0.6066654518653605
0.012001259,-0.696525097,-0.450974315,0.6885250435405786
0.012227698,-0.827374995,-0.29281193,0.770288208701575
0.012454137,-0.916284919,-0.101225547,0.8498246641522857
0.012680576,-0.953448594,0.111026384,0.9213910793446924
0.012907015,-0.935428798,0.331139028,0.9846800919925096
0.013133454,-0.863482058,0.542838275,1.040274657292891
0.013359892,-0.74206835,0.731570303,1.0858605443032343
0.013586331,-0.579735696,0.885444224,1.1201049510315666
0.01381277,-0.387915403,0.995982587,1.142459673491865
0.014039209,-0.179518983,1.05869007,1.1530517295739589
0.014265648,0.0324914344,1.07310939,1.1526194562155414
0.014492087,0.236379296,1.04237568,1.142422229832918
0.014718526,0.42260167,0.972376406,1.1241080464322657
0.014944964,0.584386945,0.870594263,1.099442472254946
0.015171403,0.719354749,0.745522857,1.0732755852182954
0.015397842,0.824160695,0.606473267,1.0470506747685364
0.015624281,0.900749981,0.458734363,1.021787744068516
0.01585072,0.934179127,0.316822767,0.9730673070120184
0.016077159,0.96770823,0.171881005,0.9660022982895428
0.016303597,0.973810136,0.026245473,0.9489950058293322
0.016530036,0.961302698,-0.113014817,0.9368752260436226
0.016756475,0.932835996,-0.246309876,0.9308515504484474
0.016982914,0.889498472,-0.373699784,0.9308590602519814
0.017209352,0.831538081,-0.494882792,0.936364557970878
0.017435792,0.758716941,-0.608950019,0.9464715222004978
0.01766223,0.670714974,-0.714240491,0.9599980553317418
0.01788867,0.567545414,-0.80836159,0.9755562571397596
0.018115108,0.449928463,-0.888359666,0.991618517993174
0.018341548,0.319617331,-0.951031089,1.0066153705200895
0.018567986,0.179600552,-0.993498206,1.0192950436039232
0.018794424,0.0338008255,-1.01382804,1.028989790494723
0.019020864,-0.113179199,-1.01143074,1.035801672903229
0.019247302,-0.257817954,-0.98847723,1.043557331633219
0.019473742,-0.40048036,-0.943429649,1.0504440213579929
0.01970018,-0.533349037,-0.874380291,1.0490020885580722
0.01992662,-0.651469707,-0.78613627,1.0424230141481785
0.020153058,-0.752668321,-0.682754457,1.032663249990324
0.020379496,-0.83563602,-0.568002999,1.0209149647944344
0.020605936,-0.899899006,-0.445462584,1.008255134743745
0.020832374,-0.945717096,-0.318336844,0.9957191719145536
0.021058814,-0.973866343,-0.189295515,0.9842484460273088
0.021285252,-0.985375941,-0.0604297929,0.9746175049715724
0.021511692,-0.981293499,0.0666728318,0.967382197679894
0.02173813,-0.962544262,0.190766588,0.9628833474062864
0.021964568,-0.929912746,0.310785919,0.961325602621935
0.022191008,-0.884124875,0.425743669,0.9629344662873472
0.022417446,-0.826068461,0.534910202,0.9685180264625892
0.022643886,-0.755961895,0.638714492,0.9794345889828092
0.022870324,-0.671285391,0.735954046,0.992252433993793
0.023096764,-0.572111964,0.822138488,1.0032237928028636
0.023323202,-0.460757434,0.894535124,1.0124905010559595
0.02354964,-0.339397192,0.951253653,1.0200739662833294
0.02377608,-0.210459679,0.990621924,1.0256250727942449
0.024002518,-0.0767901167,1.011379,1.0287842036637995
0.024228958,0.0584596656,1.01287711,1.029337572464016
0.024455396,0.192032993,0.995183706,1.0272672790884323
0.024681836,0.320791364,0.959089339,1.0227594594004374
0.024908274,0.441918641,0.906040668,1.016201777333173
0.025134712,0.553094029,0.838017821,1.0081868732290409
0.025361152,0.65263325,0.757375956,0.9995484977324764
0.02558759,0.739638627,0.666651845,0.9914899809923492
0.02581403,0.814255476,0.568132818,0.9857868790846078
0.026040468,0.877215028,0.462624401,0.9835275417496496
0.026266908,0.927438021,0.350088924,0.9827035375038742
0.026493346,0.963368893,0.232391804,0.98208557456642
0.026719784,0.984830201,0.111639321,0.9823538627950414
0.026946224,0.991906404,-0.0106842387,0.9839924672528098
0.027172662,0.984502673,-0.133266613,0.9870055032846368
0.027399102,0.962413669,-0.254681796,0.9911028874918272
0.02762554,0.925471127,-0.373280257,0.9958349571766362
0.02785198,0.873696029,-0.487168163,1.0006775701311634
0.028078418,0.807439387,-0.594256997,1.0050997421623935
0.028304856,0.727500558,-0.692377746,1.008644005046352
0.028531296,0.635195374,-0.779449344,1.01101444301303
0.028757734,0.532347679,-0.853706717,1.012209209987605
0.028984174,0.421126813,-0.913979709,1.0127067010912616
0.029210612,0.303496689,-0.959843397,1.0134095869984625
0.029437052,0.180634886,-0.990755856,1.014226128238526
0.02966349,0.0543289334,-1.00519228,1.01336315277598
0.029889928,-0.0722652376,-1.00250757,1.0102436924726892
0.030116368,-0.19629395,-0.983446836,1.0056989940450134
0.030342806,-0.315648019,-0.949200392,1.000615056071578
0.030569246,-0.428703964,-0.901030958,0.9956438760237112
0.030795684,-0.53416276,-0.840195537,0.991258394565536
0.031022122,-0.630956173,-0.767909229,0.9877902762301805
0.031248562,-0.71816951,-0.68533051,0.9854453530305
0.031475,-0.794971943,-0.593579292,0.9843167660484164
0.03170144,-0.860576153,-0.493781894,0.9844118739545066
0.031927878,-0.914246857,-0.387128353,0.9857156772308712
0.032154318,-0.955371559,-0.274897397,0.988303394623466
0.032380756,-0.983560383,-0.158339649,0.99246247145255
0.032607194,-0.998470724,-0.0383574553,0.9984150810621756
0.032833634,-0.999036074,0.0842758045,1.0051754883774555
0.033060072,-0.983714163,0.207595751,1.0107895503200446
0.033286512,-0.952033281,0.328658462,1.0143837527758304
0.03351295,-0.904575765,0.444749713,1.0160596218389175
0.033739388,-0.842387855,0.553572834,1.0160601807942926
0.033965828,-0.766811788,0.653131843,1.0145815225563335
0.034192268,-0.679460764,0.74172616,1.0118246262438093
0.034418704,-0.582166493,0.817995608,1.0080346402792086
0.034645144,-0.476899147,0.880957425,1.003518781071958
0.034871584,-0.365671813,0.930014551,0.9986429398944384
0.035098024,-0.250451535,0.964941442,0.9938379578728956
0.03532446,-0.133072048,0.985856593,0.989621391920482
0.0355509,-0.0151214143,0.993184626,0.986644358493192
0.03577734,0.102243684,0.987530768,0.9856707886645616
0.036003776,0.218403146,0.969224334,0.9870957438004409
0.036230216,0.332625806,0.937806785,0.990121492809186
0.036456656,0.443211496,0.892742932,0.9934263728225146
0.036683096,0.548086405,0.834331274,0.9965073821202872
0.036909532,0.645485461,0.763384938,0.9994080439276464
0.037135972,0.733877897,0.680856168,1.0021418892087868
0.037362412,0.811813056,0.587829113,1.0045835039824258
0.037588848,0.877909005,0.485597312,1.0065289704817155
0.037815288,0.930919528,0.375710756,1.0077697397858345
0.038041728,0.9698264,0.259972006,1.008148690040624
0.038268168,0.993928492,0.14038837,1.007602741640651
0.038494604,1.00291967,0.0190832783,1.0062120359835842
0.038721044,0.996938467,-0.101838648,1.004257417210778
0.038947484,0.976547897,-0.220485389,1.002259601897604
0.03917392,0.942540467,-0.335400254,1.0008758623158427
0.03940036,0.89546895,-0.445509166,1.000343057404118
0.0396268,0.835513175,-0.549453199,0.9999810834899144
0.03985324,0.763274968,-0.645325005,0.9990330388536512
0.040079676,0.68010807,-0.731425166,0.9975297603372524
0.040306116,0.587602079,-0.806621909,0.9959151073239264
0.040532556,0.487259448,-0.870147645,0.9945786937643106
0.040758992,0.380481362,-0.921397924,0.9937402011808848
0.040985432,0.268633306,-0.959849,0.9934739558934896
0.041211872,0.153105646,-0.98504144,0.993747977354351
0.041438312,0.0353588052,-0.996604562,0.9944708981043836
0.041664748,-0.0830565169,-0.994300365,0.9955316008386932
0.041891188,-0.200514764,-0.978086352,0.9968590825506436
0.042117628,-0.315384239,-0.948170245,0.9984940317129692
0.042344064,-0.426157862,-0.904995739,1.000627810952567
0.042570504,-0.531554401,-0.849054992,1.0034444606625887
0.042796944,-0.630285263,-0.780612171,1.0066148742683123
0.043023384,-0.720536172,-0.699960947,1.0091177024855504
0.04324982,-0.800167263,-0.6081599,1.010126112744921
0.04347626,-0.867470443,-0.507023633,1.0095779338991349
0.0437027,-0.921376169,-0.398601085,1.0078168697642935
0.043929136,-0.961282074,-0.284908116,1.0052358603564109
0.044155576,-0.986913323,-0.167873666,1.002179474851182
0.044382016,-0.998253465,-0.0493285768,0.9989432888736196
0.044608456,-0.995505095,0.0690080374,0.9957925033967588
0.044834892,-0.979054213,0.185540169,0.992972306305598
0.045061332,-0.949439406,0.298806041,0.9907202358037266
0.045287772,-0.907328367,0.407493204,0.9892954768690724
0.045514208,-0.853479326,0.510472476,0.9890091086629847
0.045740648,-0.788639545,0.606837988,0.9902046756176952
0.045967088,-0.713336587,0.695828974,0.9930270474107012
0.046193528,-0.627796829,0.776435971,0.996981675565168
0.046419964,-0.532435358,0.847063184,1.001003448136806
0.046646404,-0.428410739,0.905942798,1.004268114538595
0.046872844,-0.317447901,0.951716244,1.0065369789427734
0.04709928,-0.201446861,0.983497918,1.007848992517088
0.04732572,-0.0823449567,1.00074601,1.008273268424845
0.04755216,0.0378968306,1.00320625,1.0078589498085877
0.0477786,0.157309741,0.990914941,1.0066587749105207
0.048005036,0.273965985,0.964213312,1.0047646719750296
0.048231476,0.386042953,0.92374444,1.0023329519918738
0.048457916,0.491897464,0.870426834,0.9996059884368949
0.048684352,0.590141296,0.805400491,0.9969367001476006
0.048910792,0.679711044,0.72992301,0.99479470386303
0.049137232,0.759883583,0.645187438,0.993689889865922
0.049363672,0.830095947,0.552102804,0.9938767874104892
0.049590108,0.889539063,0.451352507,0.994998830178103
0.049816548,0.937039673,0.343901813,0.996311805760634
0.050042988,0.971537828,0.231267482,0.9973703994655778
0.050269424,0.992420912,0.115210004,0.9981726115965918
0.050495864,0.999428034,-0.00255280593,0.9988629119632214
0.050722304,0.992490053,-0.120377637,0.9995272807936468
0.050948744,0.971679628,-0.236642376,1.0001609135891436
0.05117518,0.937229514,-0.349713475,1.0006986765092518
0.05140162,0.889573455,-0.457952112,1.0010610687258974
0.05162806,0.829378545,-0.559752941,1.0011921258644665
0.051854496,0.75756377,-0.653611839,1.0011113016975748
0.052080936,0.675273061,-0.738210738,1.0009488006108145
0.052307376,0.58378917,-0.81249994,1.000965947509293
0.052533816,0.484362483,-0.875693738,1.001446537710338
0.052760252,0.378079236,-0.927070558,1.002403728204775
0.052986692,0.266055375,-0.965690076,1.0033427854512764
0.053213132,0.149859786,-0.990531385,1.003610380129984
0.053439568,0.0315079726,-1.00098526,1.00296424307463
0.053666008,-0.0869426206,-0.997014463,1.0015968587079738
0.053892448,-0.203637645,-0.978965998,0.999842715701282
0.054118888,-0.316943109,-0.94739157,0.9980037212496506
0.054345324,-0.425392538,-0.902961135,0.9962976227065696
0.054571764,-0.527647913,-0.846439898,0.994872821019506
0.054798204,-0.622475386,-0.778685451,0.9938266377749224
0.05502464,-0.708746135,-0.700654507,0.9932378220568514
0.05525108,-0.785450995,-0.61340338,0.9931969721419144
0.05547752,-0.851733804,-0.518064499,0.9938412980004312
0.05570396,-0.906906009,-0.41577518,0.9953475094643404
0.055930396,-0.950370431,-0.307574391,0.9978059621181466
0.056156836,-0.981400073,-0.194417283,1.0009441832135073
0.056383276,-0.999007702,-0.0775000975,1.0040226537678305
0.056609712,-1.00227189,0.0414165817,1.006264274723885
0.056836152,-0.990789115,0.160177961,1.007320049592601
0.057062592,-0.964734912,0.276628375,1.0072367082867884
0.057289032,-0.924689353,0.38880685,1.006221166158481
0.057515468,-0.871492982,0.494969785,1.0044951057381986
0.057741908,-0.806183815,0.593581259,1.0022710546039797
0.057968348,-0.729956865,0.6833148,0.9997561406596682
0.058194784,-0.644129157,0.763064325,0.9971695349852362
0.058421224,-0.550097525,0.831955194,0.9947567318347031
0.058647664,-0.449285805,0.8893525,0.992805603830748
0.058874104,-0.343072623,0.93485564,0.9916538922919096
0.05910054,-0.232693002,0.968242109,0.9916388148205396
0.05932698,-0.119174093,0.989307284,0.9929313666178292
0.05955342,-0.00346099003,0.997627914,0.995273433243979
0.059779856,0.113215402,0.992553294,0.9979797686802722
0.060006296,0.229143769,0.973589838,1.0003840395283916
0.060232736,0.342379868,0.940719545,1.0021772363567043
0.060459172,0.451049834,0.894366801,1.0033379274824012
0.060685612,0.553444982,0.835239828,1.0039269183784498
0.060912052,0.648008168,0.764251173,1.0039944412265922
0.061138492,0.733325005,0.682499468,1.003571086778533
0.061364928,0.808145106,0.591265678,1.0026936143325509
0.061591368,0.871421874,0.491997331,1.0014374561967954
0.061817808,0.922356844,0.386265725,0.9999433579834158
0.062044244,0.960433304,0.275698245,0.9984416537284364
0.062270684,0.985417008,0.161877662,0.9972510571102584
0.062497124,0.997283161,0.0462270491,0.9967106432826458
0.062723564,0.996031523,-0.0700286627,0.99698280840925
0.06295,0.981504917,-0.185682669,0.9978299556621404
0.06317644,0.953503072,-0.299243897,0.9987150182051836
0.06340288,0.912137866,-0.40892154,0.9992123124670056
0.063629316,0.857992589,-0.512931049,0.9992495438071632
0.063855756,0.791971505,-0.609715223,0.9989715178899048
0.064082196,0.715131223,-0.697956741,0.9985562784168168
0.064308636,0.62860918,-0.776515543,0.9981258897008572
0.064535072,0.533620358,-0.844388783,0.9977431033282692
0.064761512,0.431469679,-0.900702596,0.9974312503375022
0.064987952,0.323557764,-0.94473356,0.9972111260349532
0.065214388,0.211366564,-0.97593838,0.9971315459341904
0.065440828,0.0964141414,-0.993985415,0.9973026918946216
0.065667268,-0.0198199991,-0.998750448,0.9978952897445248
0.065893708,-0.135968551,-0.990238845,0.9990604170079738
0.066120144,-0.250746518,-0.968433559,1.0007373744865309
0.066346584,-0.362734258,-0.933235645,1.0025049110253763
0.066573024,-0.470179796,-0.884694695,1.0037537439277444
0.06679946,-0.571148872,-0.823338389,1.0040971367879876
0.0670259,-0.663867116,-0.750200272,1.0035199958150314
0.067252336,-0.746899128,-0.666615367,1.002234354927705
0.067478776,-0.819134712,-0.57404083,1.0005045509104118
0.067705216,-0.879727006,-0.473975062,0.9985719644836278
0.067931656,-0.928044856,-0.367928565,0.99663868369102
0.068158096,-0.963648379,-0.25741148,0.994878868385118
0.068384536,-0.986277819,-0.143918693,0.9934565264462252
0.068610976,-0.995846689,-0.0289095994,0.9925463929297312
0.068837408,-0.992427468,0.0862303451,0.9923479516569562
0.069063848,-0.976201713,0.20023334,0.99306317491169
0.069290288,-0.947354376,0.311957091,0.9947975403515318
0.069516728,-0.905951083,0.420264065,0.9973692491191972
0.069743168,-0.851989746,0.52377373,1.0002254475272574
0.069969608,-0.785711944,0.620759487,1.0026855996447623
0.070196048,-0.707868874,0.709386289,1.0043072497992194
0.07042248,-0.619677246,0.788025141,1.0049835120582142
0.07064892,-0.522622764,0.855376184,1.0048029696054015
0.07087536,-0.418320626,0.910451353,1.0039138123165623
0.0711018,-0.308453947,0.952537954,1.0024723912303848
0.07132824,-0.19473812,0.981178582,1.000634345156665
0.07155468,-0.0788881928,0.996169269,0.9985765594632444
0.07178112,0.037426088,0.997550488,0.996507688172022
0.072007552,0.152634189,0.985590219,0.9946852754401556
0.072233992,0.265322179,0.960738182,0.9934137130219732
0.072460432,0.374276072,0.923534036,0.9929976937221984
0.072686872,0.478449881,0.874469817,0.9936117494729276
0.072913312,0.576793671,0.813895702,0.9951171526397292
0.073139752,0.66802448,0.742141485,0.9970306896372756
0.073366192,0.750622392,0.659821808,0.9987987936841908
0.073592624,0.823094368,0.567992806,1.0001001663010731
0.073819064,0.884206533,0.468034297,1.0008772961681642
0.074045504,0.933023572,0.361477852,1.001199223394173
0.074271944,0.968859494,0.249917418,1.0011474349337228
0.074498384,0.991241395,0.134988278,1.0007813383589512
0.074724824,0.999905109,0.0183589421,1.000147277759333
0.074951264,0.994810045,-0.0982882455,0.9993076048363704
0.075177696,0.976148546,-0.213298172,0.9983620940364556
0.075404136,0.944343746,-0.325101912,0.9974763637953684
0.075630576,0.900005937,-0.432279497,0.9968762501618208
0.075857016,0.843840122,-0.533602953,0.9967982629472952
0.076083456,0.776520371,-0.62797904,0.9973415612572992
0.076309896,0.698657691,-0.714277685,0.9983151804824106
0.076536336,0.610974848,-0.791186273,0.9992659834722536
0.076762768,0.51455915,-0.857323468,0.9997746476322696
0.076989208,0.410881966,-0.911517203,0.9996876013489684
0.077215648,0.301611006,-0.952958703,0.9990994885637742
0.077442088,0.188435629,-0.981170952,0.998204423325212
0.077668528,0.0729970038,-0.99592185,0.9971888938711996
0.077894968,-0.0431173556,-0.997164547,0.996196240147652
0.078121408,-0.158366829,-0.985013545,0.9953317363609824
0.07834784,-0.27125746,-0.959741354,0.994684076183405
0.07857428,-0.380358964,-0.921779096,0.9943496433177303
0.07880072,-0.484335184,-0.871705294,0.9944506900479402
0.07902716,-0.581979692,-0.810207367,0.9951363394414876
0.0792536,-0.672210276,-0.738000453,0.9965113237882014
0.07948004,-0.753978729,-0.655759335,0.9985042292240977
0.07970648,-0.826107085,-0.564174175,1.0007454156241278
0.079932912,-0.887242854,-0.464184195,1.0026668488618633
0.080159352,-0.936073244,-0.357172132,1.003805050010109
0.080385792,-0.971608162,-0.244891852,1.003994439641008
0.080612232,-0.993286252,-0.129245728,1.0033220366184574
