Frequency (GHz),Re( S21 ),Im( S21 ),S2
0,0.03787747,0,0.001434703
9.56E-05,0.037162043,-0.007109298,0.00143156
0.000191289,0.03505623,-0.013904612,0.001422277
0.000286934,0.031678475,-0.020096639,0.001407401
0.000382578,0.027210694,-0.025442313,0.001387733
0.000478223,0.02188006,-0.029758068,0.00136428
0.000573867,0.015937869,-0.032926571,0.001338175
0.000669512,0.009639158,-0.034894478,0.001310538
0.000765156,0.003226367,-0.035665914,0.001282467
0.000860801,-0.003081066,-0.035291046,0.001254951
0.000956445,-0.009094618,-0.033854261,0.001228823
0.00105209,-0.01465818,-0.031463284,0.0012048
0.001147735,-0.019646782,-0.028239651,0.001183474
0.001243379,-0.023964321,-0.0243106,0.001165294
0.001339024,-0.027539017,-0.019804606,0.00115062
0.001434668,-0.030319711,-0.014847904,0.001139745
0.001530313,-0.032271624,-0.00956286,0.001132906
0.001625957,-0.033372778,-0.004067326,0.001130285
0.001721602,-0.033611063,0.001524993,0.001132029
0.001817246,-0.032980841,0.007101495,0.001138167
0.001912891,-0.031483349,0.012548197,0.001148658
0.002008535,-0.02912868,0.017746339,0.001163413
0.00210418,-0.02593855,0.022571284,0.001182271
0.002199825,-0.021950055,0.026893169,0.001205047
0.002295469,-0.017219432,0.030577263,0.001231478
0.002391114,-0.01182654,0.033485293,0.001261132
0.002486758,-0.005880369,0.035481304,0.001293502
0.002582403,0.000476857,0.036437403,0.001327912
0.002678047,0.007066636,0.036242154,0.001363431
0.002773692,0.013673483,0.034814782,0.001399033
0.002869336,0.020049473,0.032116436,0.001433447
0.002964981,0.025923271,0.028165309,0.001465301
0.003060625,0.031015664,0.023046937,0.001493133
0.00315627,0.035059746,0.016918395,0.001515418
0.003251915,0.037815563,0.009996091,0.001529939
0.003347559,0.038787246,0.002920438,0.001512979
0.003443204,0.03898751,-0.004632019,0.001541482
0.003538848,0.037327625,-0.01196445,0.0015365
0.003634493,0.034240324,-0.018724138,0.001522993
0.003730137,0.029921211,-0.024650937,0.001502948
0.003825782,0.024609059,-0.02953076,0.001477672
0.003921426,0.01857404,-0.033219796,0.00144855
0.004017071,0.01209518,-0.035647076,0.001417007
0.004112715,0.00543943,-0.03680804,0.001384419
0.00420836,-0.001152453,-0.036752395,0.001352067
0.004304005,-0.007473938,-0.035568956,0.00132101
0.004399649,-0.013356422,-0.033373389,0.001292177
0.004495294,-0.018667487,-0.030295795,0.00126631
0.004590938,-0.023307312,-0.026471602,0.001243977
0.004686583,-0.027204203,-0.022035725,0.001225642
0.004782227,-0.030308275,-0.017118951,0.00121165
0.004877872,-0.032588273,-0.011846097,0.001202326
0.004973516,-0.034027416,-0.006335325,0.001198001
0.005069161,-0.03462112,-0.000696406,0.001199107
0.005164806,-0.034370054,0.004972042,0.001206022
0.00526045,-0.033270482,0.010573084,0.001218715
0.005356095,-0.03132103,0.016001321,0.001237049
0.005451739,-0.028529674,0.021143973,0.00126101
0.005547384,-0.024915207,0.025881507,0.00129062
0.005643028,-0.020509373,0.030087011,0.001325863
0.005738673,-0.015361522,0.033625688,0.001366663
0.005834317,-0.009543954,0.036355384,0.001412801
0.005929962,-0.003158022,0.038130283,0.001463892
0.006025606,0.003658266,0.038806275,0.00151931
0.006121251,0.010725563,0.038250521,0.00157814
0.006216896,0.017818969,0.036353789,0.001639114
0.00631254,0.024668692,0.033044219,0.001700465
0.006408185,0.030962188,0.028296603,0.001759355
0.006503829,0.036311813,0.022140237,0.001808738
0.006599474,0.039611708,0.015292525,0.001802949
0.006695118,0.042486329,0.007419096,0.001860131
0.006790763,0.043587577,-0.001030155,0.001900938
0.006886407,0.042791769,-0.009572391,0.001922766
0.006982052,0.040164717,-0.017760381,0.001928636
0.007077696,0.035873368,-0.025169779,0.001920416
0.007173341,0.03018193,-0.031445842,0.00189979
0.007268985,0.023427635,-0.036331229,0.001868812
0.00736463,0.015983658,-0.039678212,0.001829838
0.007460275,0.008222199,-0.041445781,0.001785357
0.007555919,0.000483943,-0.041684046,0.001737794
0.007651564,-0.006940538,-0.040511463,0.00168935
0.007747208,-0.013819586,-0.03809097,0.001641903
0.007842853,-0.019980824,-0.034608845,0.001597005
0.007938497,-0.025304673,-0.030257452,0.00155584
0.008034142,-0.029716346,-0.02522409,0.001519316
0.008129786,-0.033175692,-0.019683642,0.001488072
0.008225431,-0.035668518,-0.013796006,0.001462573
0.008321075,-0.037198823,-0.007705029,0.00144312
0.00841672,-0.037782367,-0.001540421,0.00142988
0.008512364,-0.037442558,0.004579046,0.001422913
0.008608009,-0.036204856,0.010541038,0.001421905
0.008703653,-0.034151461,0.016163411,0.001427578
0.008799298,-0.03133997,0.021565519,0.001447265
0.008894942,-0.027716782,0.026554234,0.001473347
0.008990587,-0.023331728,0.031025231,0.001506934
0.009086232,-0.018234165,0.034871474,0.001548504
0.009181876,-0.012483675,0.037981685,0.001598451
0.009277521,-0.006156847,0.040239796,0.001657148
0.009373165,0.000646126,0.041527446,0.001724946
0.00946881,0.007790219,0.041730631,0.001802133
0.009564454,0.015070661,0.040746279,0.001887384
0.009660099,0.022157962,0.038316827,0.001959155
0.009755743,0.029249735,0.034257643,0.002029133
0.009851388,0.035886724,0.028948098,0.002125849
0.009947032,0.041618601,0.022294987,0.002229174
0.010042677,0.04611801,0.014386937,0.002333855
0.010138322,0.049053878,0.005452666,0.002436014
0.010233966,0.050123535,-0.004172947,0.002529782
0.010329611,0.049120668,-0.014061335,0.002610561
0.010425255,0.045968898,-0.023704905,0.002675062
0.0105209,0.040744167,-0.032568537,0.002720797
0.010616544,0.033680845,-0.040148143,0.002746273
0.010712189,0.02515401,-0.046029143,0.002751406
0.010807833,0.015636722,-0.04992944,0.002737456
0.010903478,0.005646434,-0.051720336,0.002706875
0.010999122,-0.004311724,-0.051423408,0.002662958
0.011094767,-0.013788484,-0.049186073,0.002609392
0.011190411,-0.022419583,-0.04524675,0.002549906
0.011286056,-0.029936809,-0.03989676,0.002487964
0.011381701,-0.036164232,-0.03344702,0.002426555
0.011477345,-0.041007217,-0.026202878,0.002368183
0.01157299,-0.044435099,-0.018447608,0.002314792
0.011668634,-0.046464849,-0.010434373,0.002267858
0.011764279,-0.047146499,-0.00238315,0.002228472
0.011859923,-0.046551008,0.005516776,0.002197431
0.011955568,-0.04476117,0.01310371,0.00217527
0.012051212,-0.041866794,0.020238087,0.002162409
0.012146857,-0.03795965,0.026797842,0.002159059
0.012242501,-0.033133883,0.032672729,0.002165361
0.012338146,-0.027484635,0.037759483,0.002181184
0.012433791,-0.021192309,0.041855507,0.002200997
0.012529435,-0.014280101,0.045196902,0.002246681
0.01262508,-0.006829638,0.047482468,0.002301229
0.012720724,0.001029607,0.048635863,0.002366507
0.012816369,0.009153494,0.048571609,0.002442988
0.012912013,0.0173792,0.047209583,0.002530781
0.013007658,0.02552061,0.044481896,0.002629941
0.013103302,0.033364251,0.040341128,0.00274058
0.013198947,0.040667817,0.034771398,0.002862921
0.013294591,0.047160383,0.027800197,0.002996953
0.013390236,0.052547053,0.01951104,0.003141873
0.013485881,0.056327943,0.010191632,0.003276707
0.013581525,0.058611438,-0.000161704,0.003435327
0.01367717,0.05892019,-0.011138439,0.003595654
0.013772814,0.057050392,-0.022337455,0.003753709
0.013868459,0.052892156,-0.033281419,0.003905233
0.013964103,0.046459056,-0.043445423,0.004045949
0.014059748,0.037907183,-0.052295364,0.00417176
0.014155392,0.02754036,-0.059335657,0.004279192
0.014251037,0.015795913,-0.064158194,0.004365785
0.014346681,0.003211966,-0.066483773,0.004430409
0.014442326,-0.00962005,-0.066187196,0.00447329
0.01453797,-0.022106381,-0.063303255,0.004495994
0.014633615,-0.033700343,-0.058013503,0.00450128
0.01472926,-0.043938968,-0.050616588,0.004492672
0.014824904,-0.052465096,-0.041492049,0.004474176
0.014920549,-0.059034824,-0.031062516,0.00444999
0.015016193,-0.063511141,-0.019760381,0.004424138
0.015111838,-0.065850794,-0.008002134,0.004400361
0.015207482,-0.066085987,0.003826831,0.004382002
0.015303127,-0.064306803,0.015382299,0.00437198
0.015398771,-0.060644727,0.026363187,0.004372801
0.015494416,-0.055259526,0.036509845,0.004386584
0.01559006,-0.048329916,0.045600276,0.004415166
0.015685705,-0.040047485,0.053444352,0.0044601
0.01578135,-0.030613728,0.059879698,0.004522779
0.015876994,-0.020238766,0.064767495,0.004604436
0.015972639,-0.009143305,0.067990474,0.004706305
0.016068283,0.002440701,0.069454707,0.004829913
0.016163928,0.014278453,0.069092169,0.004977602
0.016259572,0.026132315,0.066838704,0.00515031
0.016355217,0.037730303,0.062641718,0.005347561
0.016450861,0.048769943,0.056486443,0.005569226
0.016546506,0.058927853,0.048402045,0.00581525
0.01664215,0.067863971,0.038470477,0.006085496
0.016737795,0.075227074,0.026834561,0.006379206
0.01683344,0.08066573,0.013709386,0.006694907
0.016929084,0.083844252,-0.0006107,0.007030232
0.017024728,0.084462129,-0.015746554,0.007381805
0.017120374,0.08227998,-0.031234194,0.00774557
0.017216018,0.07714536,-0.046533566,0.008116779
0.017311662,0.069018357,-0.061045136,0.008490042
0.017407306,0.057995264,-0.074137703,0.00885985
0.017502952,0.044321843,-0.085183702,0.009220689
0.017598596,0.02839675,-0.093601763,0.009567665
0.01769424,0.010759491,-0.098899014,0.009896782
0.017789884,-0.007933781,-0.10071063,0.010205576
0.01788553,-0.026948353,-0.098828912,0.010493368
0.017981174,-0.045516275,-0.09321928,0.010761565
0.018076818,-0.062882662,-0.084020555,0.011013683
0.018172464,-0.078349933,-0.071531273,0.011255435
0.018268108,-0.091311321,-0.05618415,0.011494416
0.018363752,-0.101275593,-0.038513862,0.011740063
0.018459396,-0.10787797,-0.019122811,0.012003338
0.018555042,-0.110881254,0.001351576,0.012296479
0.018650686,-0.110169657,0.022264386,0.012633056
0.01874633,-0.105735458,0.042984005,0.013027612
0.018841974,-0.097666286,0.06290739,0.013496043
0.01893762,-0.086129822,0.081468359,0.01405544
0.019033264,-0.071361937,0.098142095,0.014724397
0.019128908,-0.053656954,0.112446487,0.015523281
0.019224554,-0.03336082,0.123941429,0.016474422
0.019320198,-0.010867942,0.132229105,0.017602648
0.019415842,0.013381524,0.136954188,0.018935515
0.019511486,0.038901821,0.137806654,0.020504026
0.019607132,0.065164305,0.134523287,0.022342901
0.019702776,0.091593929,0.126886368,0.024489598
0.01979842,0.117557459,0.114731215,0.026983008
0.019894064,0.142357811,0.097969435,0.029863757
0.01998971,0.165243581,0.076611176,0.033174713
0.020085354,0.185422614,0.05078353,0.036960513
0.020180998,0.202078745,0.020747978,0.041266298
0.020276644,0.214394793,-0.01308303,0.046136293
0.020372288,0.221582279,-0.05013321,0.051612045
0.020467932,0.22291854,-0.089656189,0.057730908
0.020563576,0.217786983,-0.130739048,0.064523869
0.020659222,0.205720991,-0.172316849,0.072014223
0.020754866,0.186445117,-0.213200524,0.080216245
0.02085051,0.159909829,-0.252118111,0.089134695
0.020946154,0.126315504,-0.287765443,0.098764557
0.0210418,0.086121559,-0.318866134,0.109092534
0.021137444,0.040039297,-0.344231576,0.120098523
0.021233088,-0.010993716,-0.362818152,0.131757873
0.021328734,-0.065853223,-0.373775452,0.144044736
0.021424378,-0.123278886,-0.376480132,0.156934974
0.021520022,-0.181931257,-0.370553672,0.170409006
0.021615666,-0.240447715,-0.355864197,0.18445443
0.021711312,-0.297493815,-0.332513511,0.199067805
0.021806956,-0.351804942,-0.300812334,0.214254778
0.0219026,-0.402216673,-0.261250198,0.230029918
0.021998244,-0.447678894,-0.214460894,0.246409867
0.02209389,-0.487242103,-0.161192462,0.263387877
0.022189534,-0.520048499,-0.102703705,0.280998492
0.022285178,-0.546254754,-0.039354224,0.299943011
0.022380822,-0.564783871,0.028088681,0.319769795
0.022476468,-0.575186312,0.098654851,0.340572073
0.022572112,-0.577101529,0.171404332,0.36242562
0.022667756,-0.570252061,0.245388538,0.385402948
0.022763402,-0.554436982,0.319643557,0.409572371
0.022859046,-0.529530406,0.39318338,0.434995621
0.02295469,-0.495484948,0.464993954,0.461724711
0.023050334,-0.452338964,0.534029126,0.489797646
0.02314598,-0.400228113,0.599206865,0.519231409
0.023241624,-0.339400768,0.659412205,0.550017337
0.023337268,-0.270236164,0.713503003,0.58211412
0.023432912,-0.193264931,0.760324061,0.615444011
0.023528558,-0.109186701,0.798727155,0.649886804
0.023624202,-0.018890079,0.827599227,0.685277316
0.023719846,0.076538816,0.84589982,0.721404696
0.023815492,0.175810575,0.852702439,0.758010808
0.023911136,0.277441531,0.847243547,0.794795431
0.02400678,0.379773319,0.828969896,0.831418862
0.024102424,0.481008679,0.797588229,0.867516332
0.02419807,0.57926023,0.753102183,0.902705312
0.024293714,0.672612607,0.695841849,0.936603598
0.024389358,0.759193122,0.626474261,0.968844196
0.024485002,0.837246299,0.545996726,0.99909379
0.024580648,0.90520525,0.455708295,1.027066595
0.024676292,0.961755991,0.357163996,1.052540706
0.024771936,1.00588608,0.25211218,1.075367357
0.024867582,1.03691411,0.14242278,1.09547512
0.024963226,1.05450225,0.030012645,1.112875754
0.02505887,1.05864441,-0.083229259,1.127655096
0.025154514,1.04963911,-0.19550316,1.139963747
0.02525016,1.02804828,-0.30515182,1.150000899
0.025345804,0.994645715,-0.410697013,1.157992135
0.025441448,0.950362086,-0.510861754,1.164167826
0.025537092,0.896235526,-0.604575872,1.168750103
0.025632738,0.833365858,-0.690967262,1.17193441
0.025728382,0.762870789,-0.769342303,1.17385942
0.025824026,0.685841322,-0.839164436,1.17457527
0.025919672,0.60330379,-0.900050998,1.174067262
0.026015316,0.51621294,-0.951786876,1.172374057
0.02611096,0.425496846,-0.994320512,1.169720847
0.026206604,0.332091779,-1.02769685,1.166445765
0.02630225,0.236923292,-1.0519948,1.162825706
0.026397894,0.140869617,-1.06731141,1.158997895
0.026493538,0.044753283,-1.07377303,1.154991376
0.026589182,-0.050650187,-1.07154536,1.1507749
0.026684828,-0.144600093,-1.06083798,1.146286407
0.026780472,-0.23638241,-1.04190505,1.141442777
0.026876116,-0.325304627,-1.01505053,1.136150679
0.026971762,-0.410695404,-0.980632842,1.130311486
0.027067406,-0.49190852,-0.939069092,1.123824752
0.02716305,-0.568328559,-0.890840471,1.116594096
0.027258694,-0.639383078,-0.836495817,1.108535972
0.02735434,-0.704553962,-0.776651323,1.099583563
0.027449984,-0.763392627,-0.711986899,1.089693647
0.027545628,-0.815535605,-0.643238842,1.078854531
0.027641272,-0.860716283,-0.571185768,1.067085701
0.027736918,-0.898777962,-0.49663201,1.054445178
0.027832562,-0.929679513,-0.420387596,1.041029728
0.027928206,-0.953495741,-0.343243003,1.026969887
0.028023852,-0.970414996,-0.265948176,1.012433697
0.028119496,-0.980725527,-0.189186215,0.997613983
0.02821514,-0.984802186,-0.113555074,0.9827301
0.028310784,-0.983084321,-0.039544668,0.968018563
0.02840643,-0.976064682,0.032488037,0.953757736
0.028502074,-0.964341819,0.102367312,0.94043421
0.028597718,-0.948790729,0.169723168,0.929009801
0.028693362,-0.929587781,0.234081104,0.918927406
0.028789008,-0.907022595,0.295613587,0.910077381
0.028884652,-0.881533563,0.354435116,0.902725674
0.028980296,-0.853510916,0.410644054,0.897109423
0.02907594,-0.823295593,0.464310646,0.893400009
0.029171586,-0.791149497,0.515394807,0.891549334
0.02926723,-0.757049501,0.563670397,0.890848263
0.029362874,-0.720382452,0.609142423,0.890005369
0.02945852,-0.680723131,0.652649999,0.889336002
0.029554164,-0.638512731,0.694788516,0.89042959
0.029649808,-0.594093025,0.735453546,0.893838441
0.029745452,-0.547460735,0.774403095,0.89941341
0.029841098,-0.498488903,0.811421633,0.906896253
0.029936742,-0.447034836,0.846291006,0.916048611
0.030032386,-0.392976195,0.878759027,0.926647717
0.03012803,-0.33622849,0.908529103,0.938474728
0.030223676,-0.276758224,0.935257912,0.951302477
0.03031932,-0.21459426,0.958562136,0.964892065
0.030414964,-0.149838865,0.978027105,0.978988704
0.03051061,-0.082677759,0.993222654,0.993326852
0.030606254,-0.01338452,1.00371945,1.00763188
0.030701898,0.057676148,1.00910771,1.021624908
0.030797542,0.130050972,1.00901783,1.035030237
0.030893188,0.203204468,1.00313997,1.047581855
0.030988832,0.276531488,0.991243601,1.05903354
0.031084476,0.349373937,0.973191798,1.069164424
0.03118012,0.421040088,0.948953509,1.077787518
0.031275766,0.490828484,0.918608308,1.084753824
0.03137141,0.558050334,0.882347226,1.089956803
0.031467054,0.622051537,0.840465307,1.093330047
0.0315627,0.682231247,0.793350458,1.094844424
0.031658344,0.738051891,0.741465986,1.094492402
0.031753988,0.789036751,0.685339987,1.092269892
0.031849632,0.834765136,0.625582993,1.088186913
0.031945278,0.874947071,0.562926292,1.082418387
0.032040922,0.91707629,0.496213019,1.087256282
0.032136566,0.947846055,0.429977179,1.083292518
0.03223221,0.9733724,0.362398773,1.0787867
0.032327856,0.993837178,0.294040054,1.07417189
0.0324235,1.00957417,0.225461587,1.070072932
0.032519144,1.02114487,0.157415792,1.067516577
0.03261479,1.02909982,0.09179426,1.067472626
0.032710434,1.02926815,0.03122966,1.060368216
0.032806078,1.02012253,-0.032628104,1.041714569
0.032901722,1.0090872,-0.098209761,1.027902134
0.032997368,0.995574772,-0.162488326,1.017571583
0.033093012,0.978982925,-0.22502321,1.009043012
0.033188656,0.959198356,-0.285719484,1.00169711
0.0332843,0.936264575,-0.344514579,0.99528165
0.033379946,0.91027391,-0.401345313,0.989676651
0.03347559,0.881330073,-0.456142634,0.9848088
0.033571236,0.84953624,-0.508831799,0.980621623
0.03366688,0.814993203,-0.559328794,0.977062621
0.033762524,0.777799904,-0.607542157,0.974080163
0.033858168,0.73805511,-0.653369129,0.971616564
0.033953812,0.695862412,-0.696698427,0.969613195
0.034049456,0.651332974,-0.737411618,0.968010537
0.0341451,0.604589641,-0.77538383,0.966748718
0.034240748,0.555768251,-0.810487688,0.965768641
0.034336392,0.505020082,-0.842597961,0.965016607
0.034432036,0.45251289,-0.871593773,0.964443621
0.03452768,0.398429424,-0.897364199,0.964008512
0.034623324,0.342966437,-0.919810176,0.963676737
0.034718968,0.286331683,-0.93884778,0.963420987
0.034814612,0.228742227,-0.954409361,0.963220235
0.03491026,0.17042163,-0.966444552,0.963058604
0.035005904,0.111599155,-0.974919319,0.96292205
0.035101548,0.052510172,-0.979819,0.962802591
0.035197192,-0.00660598,-0.981152236,0.962703349
0.035292836,-0.065514326,-0.978955805,0.962646595
0.03538848,-0.123999059,-0.973285615,0.962660655
0.035484124,-0.181862757,-0.964197934,0.962751718
0.035579768,-0.250990838,-0.959354699,0.983357839
0.035675416,-0.309139788,-0.94515425,0.988883965
0.03577106,-0.366964787,-0.927993834,0.995835711
0.035866704,-0.424856901,-0.908281147,1.005478028
0.035962348,-0.484747708,-0.887795687,1.023161522
0.036057992,-0.519740343,-0.90497607,1.089111711
0.036153636,-0.562835872,-0.836977839,1.017316122
0.03624928,-0.614869237,-0.798338413,1.0154084
0.036344928,-0.664121449,-0.759405017,1.017753279
0.036440572,-0.711023927,-0.718321025,1.02154012
0.036536216,-0.755564511,-0.674647033,1.026026349
0.03663186,-0.797599316,-0.628255546,1.0308697
0.036727504,-0.836927295,-0.579138815,1.035849064
0.036823148,-0.873316586,-0.527356505,1.040786743
0.036918792,-0.906518221,-0.473021597,1.045524716
0.03701444,-0.936275065,-0.416294187,1.049911847
0.037110084,-0.962332487,-0.357381552,1.053805389
0.037205728,-0.984445214,-0.29653728,1.057066738
0.037301372,-1.00239003,-0.234060019,1.059569865
0.037397016,-1.01597309,-0.170290723,1.06120025
0.03749266,-1.02503991,-0.105607487,1.061859758
0.037588304,-1.02948523,-0.040418621,1.061473504
0.037683948,-1.0292573,0.024846459,1.059987936
0.037779596,-1.02436411,0.089747727,1.057376484
0.03787524,-1.01487708,0.15384613,1.053644119
0.037970884,-1.00092673,0.216716141,1.048820205
0.038066528,-0.982702255,0.277957261,1.042963961
0.038162172,-0.960444748,0.337203652,1.036160417
0.038257816,-0.934439182,0.394132823,1.028517267
0.03835346,-0.905003607,0.448472232,1.020158872
0.038449108,-0.872483432,0.500003159,1.011230498
0.038544752,-0.837236464,0.548562586,1.001885807
0.038640396,-0.799624026,0.594045103,0.992288167
0.03873604,-0.759998262,0.636397123,0.982598656
0.038831684,-0.718688428,0.675605297,0.972955574
0.038927328,-0.676001012,0.711675584,0.963459505
0.039022972,-0.632228851,0.744598866,0.954140791
0.039118616,-0.58769995,0.77429086,0.944917567
0.039214264,-0.542967081,0.800454915,0.935541322
0.039309908,-0.499866933,0.8223418,0.926112987
