Frequency (GHz),Re( S31 ),Im( S31 ),S2
0,-0.012616559,-8.08E-06,1.59E-04
0.000101605,-0.010140084,0.00778294,1.63E-04
0.000203211,-0.003480385,0.012755794,1.75E-04
0.000304816,0.005061318,0.012813347,1.90E-04
0.000406421,0.012099847,0.007528325,2.03E-04
0.000508026,0.014401099,-0.001153149,2.09E-04
0.000609632,0.010756621,-0.009411936,2.04E-04
0.000711237,0.002864329,-0.013553364,1.92E-04
0.000812842,-0.005689328,-0.012031222,1.77E-04
0.000914447,-0.011462772,-0.005871965,1.66E-04
0.001016053,-0.012513503,0.002308081,1.62E-04
0.001117658,-0.008713949,0.009597867,1.68E-04
0.001219263,-0.001304629,0.0134053,1.81E-04
0.001320868,0.007196227,0.012155275,2.00E-04
0.001422474,0.013522947,0.005841397,2.17E-04
0.001524079,0.014695779,-0.003380806,2.27E-04
0.001625684,0.009691021,-0.011509055,2.26E-04
0.00172729,0.000621823,-0.014633152,2.15E-04
0.001828895,-0.008228752,-0.011400021,1.98E-04
0.0019305,-0.013034694,-0.003661441,1.83E-04
0.002032105,-0.01230352,0.005065789,1.77E-04
0.002133711,-0.006817535,0.011582306,1.81E-04
0.002235316,0.00132488,0.013813212,1.93E-04
0.002336921,0.00938735,0.011047529,2.10E-04
0.002438526,0.014614184,0.003968044,2.29E-04
0.002540132,0.01475674,-0.005274504,2.46E-04
0.002641737,0.008988949,-0.013192242,2.55E-04
0.002743342,-0.000983589,-0.015940158,2.55E-04
0.002844947,-0.010763561,-0.011504338,2.48E-04
0.002946553,-0.015359886,-0.001724339,2.39E-04
0.003048158,-0.012732899,0.00861336,2.36E-04
0.003149763,-0.004493147,0.014837341,2.40E-04
0.003251369,0.005405019,0.01480026,2.48E-04
0.003352974,0.013118871,0.009198912,2.57E-04
0.003454579,0.016192919,0.00041573,2.62E-04
0.003556184,0.013812873,-0.008525808,2.63E-04
0.00365779,0.006685143,-0.014690127,2.60E-04
0.003759395,-0.003066373,-0.015754044,2.58E-04
0.003861,-0.012139595,-0.010661692,2.61E-04
0.003962605,-0.016651059,-0.000505668,2.78E-04
0.004064211,-0.013805866,0.011164113,3.15E-04
0.004165816,-0.003594376,0.018843498,3.68E-04
0.004267421,0.009662369,0.018121563,4.22E-04
0.004369027,0.019348802,0.008974729,4.55E-04
0.004470632,0.020989671,-0.003942107,4.56E-04
0.004572237,0.014551442,-0.014686596,4.27E-04
0.004673842,0.003411933,-0.019246627,3.82E-04
0.004775448,-0.007978648,-0.016547525,3.37E-04
0.004877053,-0.01570151,-0.007929426,3.09E-04
0.004978658,-0.017375376,0.003769285,3.16E-04
0.005080263,-0.011989753,0.014875075,3.65E-04
0.005181869,-0.000559613,0.021400176,4.58E-04
0.005283474,0.01351177,0.019987108,5.82E-04
0.005385079,0.024721857,0.009717559,7.06E-04
0.005486684,0.027305344,-0.006219791,7.84E-04
0.00558829,0.018818367,-0.020703796,7.83E-04
0.005689895,0.002742588,-0.026388302,7.04E-04
0.0057915,-0.013216478,-0.02047034,5.94E-04
0.005893105,-0.021835312,-0.006037136,5.13E-04
0.005994711,-0.020128636,0.010688238,5.19E-04
0.006096316,-0.008891166,0.023448965,6.29E-04
0.006197921,0.008047991,0.02773843,8.34E-04
0.006299527,0.025076039,0.021575984,1.09E-03
0.006401132,0.03609423,0.00622215,1.34E-03
0.006502737,0.036109041,-0.013583788,1.49E-03
0.006604342,0.023527516,-0.030137183,1.46E-03
0.006705948,0.002272724,-0.035359319,1.26E-03
0.006807553,-0.018520271,-0.025129726,9.75E-04
0.006909158,-0.028448079,-0.002642062,8.16E-04
0.007010763,-0.021918913,0.022930907,1.01E-03
0.007112369,0.000116524,0.040846333,1.67E-03
0.007213974,0.03034021,0.042994898,2.77E-03
0.007315579,0.05781306,0.027113944,4.08E-03
0.007417184,0.072365493,-0.002264639,5.24E-03
0.00751879,0.067308068,-0.035454061,5.79E-03
0.007620395,0.042355038,-0.059105359,5.29E-03
0.007722,0.006109973,-0.060416825,3.69E-03
0.007823605,-0.024653103,-0.033257436,1.71E-03
0.007925211,-0.030255443,0.016433496,1.19E-03
0.008026816,0.002832529,0.071141616,5.07E-03
0.008128421,0.077333935,0.106321469,1.73E-02
0.008230027,0.179912031,0.097109601,4.18E-02
0.008331632,0.28630805,0.029739855,8.29E-02
0.008433237,0.366942018,-0.097613394,1.44E-01
0.008534842,0.392654657,-0.27299577,2.29E-01
0.008636447,0.339754641,-0.470467776,3.37E-01
0.008738053,0.198472559,-0.65255183,4.65E-01
0.008839658,-0.020768438,-0.778348148,6.06E-01
0.008941263,-0.289790809,-0.813908041,7.46E-01
0.009042868,-0.565934062,-0.746294677,8.77E-01
0.009144474,-0.805275381,-0.582493365,9.88E-01
0.009246079,-0.97482115,-0.347651839,1.07E+00
0.009347684,-1.05759132,-0.076007202,1.12E+00
0.009449289,-1.05270076,0.19773218,1.15E+00
0.009550895,-0.972188413,0.444709659,1.14E+00
0.0096525,-0.836275995,0.64572084,1.12E+00
0.009754105,-0.667310894,0.792515099,1.07E+00
0.00985571,-0.494524986,0.878635943,1.02E+00
0.009957316,-0.32420519,0.931135833,9.72E-01
0.010058921,-0.166673034,0.954067647,9.38E-01
0.010160526,-0.02106919,0.959630072,9.21E-01
0.010262132,0.118608825,0.953975499,9.24E-01
0.010363737,0.258778751,0.936635733,9.44E-01
0.010465342,0.402528733,0.902283013,9.76E-01
0.010566947,0.547708094,0.844028831,1.01E+00
0.010668553,0.68693614,0.756743908,1.04E+00
0.010770158,0.801942229,0.641963542,1.06E+00
0.010871763,0.898331046,0.505733073,1.06E+00
0.010973368,0.962721229,0.354864329,1.05E+00
0.011074974,0.994412422,0.202051148,1.03E+00
0.011176579,0.998941898,0.056714673,1.00E+00
0.011278184,0.984408617,-0.076807007,9.75E-01
0.011379789,0.95815444,-0.199242532,9.58E-01
0.011481395,0.92418915,-0.314679623,9.53E-01
0.011583,0.882745862,-0.428024024,9.62E-01
0.011684605,0.829097867,-0.535584033,9.74E-01
0.01178621,0.763310313,-0.644634128,9.98E-01
0.011887816,0.678622186,-0.749213934,1.02E+00
0.011989421,0.573978245,-0.841244936,1.04E+00
0.012091026,0.453754306,-0.913918853,1.04E+00
0.012192631,0.324717671,-0.963734031,1.03E+00
0.012294237,0.193989784,-0.990804076,1.02E+00
0.012395842,0.067066006,-0.998223007,1.00E+00
0.012497447,-0.053413257,-0.990273356,9.83E-01
0.012599053,-0.165960774,-0.970733941,9.70E-01
0.012700658,-0.273026049,-0.944333613,9.66E-01
0.012802263,-0.37822926,-0.910971701,9.73E-01
0.012903868,-0.483517081,-0.867568314,9.86E-01
0.013005474,-0.587060809,-0.810651004,1.00E+00
0.013107079,-0.685321093,-0.738623619,1.02E+00
0.013208684,-0.774093449,-0.651661336,1.02E+00
0.013310289,-0.849400699,-0.551912367,1.03E+00
0.013411895,-0.908504725,-0.443048924,1.02E+00
0.0135135,-0.950262189,-0.329404593,1.01E+00
0.013615105,-0.975587308,-0.215830758,9.98E-01
0.01371671,-0.988005877,-0.104937874,9.87E-01
0.013818316,-0.990408957,0.003367333,9.81E-01
0.013919921,-0.98373419,0.110300861,9.80E-01
0.014021526,-0.967769802,0.216319174,9.83E-01
0.014123131,-0.941909194,0.321654141,9.91E-01
0.014224737,-0.904814184,0.425918728,1.00E+00
0.014326342,-0.855009615,0.527539968,1.01E+00
0.014427947,-0.791681528,0.623809338,1.02E+00
0.014529553,-0.715366602,0.7112782,1.02E+00
0.014631158,-0.628659427,0.786962271,1.01E+00
0.014732763,-0.534825325,0.849901795,1.01E+00
0.014834368,-0.436374784,0.900342226,1.00E+00
0.014935974,-0.335185945,0.938638628,9.93E-01
0.015037579,-0.233178034,0.965721726,9.87E-01
0.015139184,-0.131177261,0.983228505,9.84E-01
0.015240789,-0.028754428,0.992242038,9.85E-01
0.015342395,0.074939981,0.992618442,9.91E-01
0.015444,0.180213228,0.983029604,9.99E-01
0.015545605,0.2860277,0.961651802,1.01E+00
0.01564721,0.390112907,0.927451372,1.01E+00
0.015748816,0.490060627,0.88041991,1.02E+00
0.015850421,0.583521366,0.821073711,1.01E+00
0.015952026,0.667850673,0.75075382,1.01E+00
0.016053631,0.741214573,0.672339737,1.00E+00
0.016155237,0.803691983,0.588916779,9.93E-01
0.016256842,0.856640697,0.502476871,9.86E-01
0.016358447,0.901643157,0.413556397,9.84E-01
0.016460053,0.939554989,0.321567327,9.86E-01
0.016561658,0.97005558,0.225676209,9.92E-01
0.016663263,0.992040455,0.125532702,1.00E+00
0.016764868,1.00394845,0.021310812,1.01E+00
0.016866474,1.00371194,-0.085956082,1.01E+00
0.016968078,0.989526629,-0.193551525,1.02E+00
0.017069684,0.96149385,-0.297816575,1.01E+00
0.01717129,0.921494126,-0.395876646,1.01E+00
0.017272894,0.872146845,-0.486317068,9.97E-01
0.0173745,0.815854013,-0.569137335,9.90E-01
0.017476106,0.754123509,-0.645216286,9.85E-01
0.01757771,0.687434196,-0.715588808,9.85E-01
0.017679316,0.615417004,-0.781016767,9.89E-01
0.01778092,0.536926091,-0.841545224,9.96E-01
0.017882526,0.450600505,-0.895757437,1.01E+00
0.017984132,0.356399775,-0.940865099,1.01E+00
0.018085736,0.256156355,-0.974362016,1.01E+00
0.018187342,0.152654514,-0.994976759,1.01E+00
0.018288948,0.048792977,-1.0027597,1.01E+00
0.018390552,-0.053061638,-0.998845696,1.00E+00
0.018492158,-0.151466653,-0.984959483,9.93E-01
0.018593764,-0.245981947,-0.9629004,9.88E-01
0.018695368,-0.337142229,-0.934028804,9.86E-01
0.018796974,-0.426073402,-0.898572564,9.89E-01
0.018898578,-0.513332188,-0.855347037,9.95E-01
0.019000184,-0.597932756,-0.802874506,1.00E+00
0.01910179,-0.677935898,-0.740525007,1.01E+00
0.019203394,-0.751168847,-0.668608665,1.01E+00
0.019305,-0.815628588,-0.588318348,1.01E+00
0.019406606,-0.869884133,-0.501558125,1.01E+00
0.01950821,-0.913356364,-0.410588562,1.00E+00
0.019609816,-0.94644177,-0.31755951,9.97E-01
0.01971142,-0.970354557,-0.223880872,9.92E-01
0.019813026,-0.98635757,-0.129761383,9.90E-01
0.019914632,-0.994772315,-0.034703068,9.91E-01
0.020016236,-0.995091736,0.06143361,9.94E-01
0.020117842,-0.986612856,0.158315435,9.98E-01
0.020219448,-0.968529165,0.255213618,1.00E+00
0.020321052,-0.940112948,0.350862622,1.01E+00
0.020422658,-0.901071489,0.443499237,1.01E+00
0.020524264,-0.851848185,0.531152487,1.01E+00
0.020625868,-0.793710589,0.612152636,1.00E+00
0.020727474,-0.728368282,0.685661554,1.00E+00
0.020829078,-0.657212973,0.7516554,9.97E-01
0.020930684,-0.581059694,0.81022501,9.94E-01
0.02103229,-0.500613749,0.861377656,9.93E-01
0.021133894,-0.416376352,0.905279696,9.93E-01
0.0212355,-0.328442454,0.941948116,9.95E-01
0.021337106,-0.236775696,0.970914125,9.99E-01
0.02143871,-0.141646087,0.991236746,1.00E+00
0.021540316,-0.043945372,1.00183201,1.01E+00
0.02164192,0.054840814,1.00197268,1.01E+00
0.021743526,0.15306662,0.991563559,1.01E+00
0.021845132,0.24929674,0.970898986,1.00E+00
0.021946736,0.34212476,0.940466225,1.00E+00
0.022048342,0.430270255,0.901297033,9.97E-01
0.022149948,0.513163388,0.85474515,9.94E-01
0.022251552,0.590915143,0.801823378,9.92E-01
0.022353158,0.66383034,0.742896795,9.93E-01
0.022454762,0.731914461,0.677798152,9.95E-01
0.022556368,0.79462117,0.606219292,9.99E-01
0.022657974,0.850956798,0.528115153,1.00E+00
0.022759578,0.899755597,0.443822742,1.01E+00
0.022861184,0.939734221,0.354032099,1.01E+00
0.02296279,0.969581306,0.260111272,1.01E+00
0.023064394,0.988694429,0.164143831,1.00E+00
0.023166,0.997529149,0.068128541,1.00E+00
0.023267606,0.997163475,-0.026637361,9.95E-01
0.02336921,0.988710165,-0.119654022,9.92E-01
0.023470816,0.972881496,-0.210973099,9.91E-01
0.02357242,0.949830532,-0.300799936,9.93E-01
0.023674026,0.919239938,-0.389171511,9.96E-01
0.023775632,0.880442977,-0.475769967,1.00E+00
0.023877236,0.832572103,-0.559620082,1.01E+00
0.023978842,0.775209725,-0.638852715,1.01E+00
0.024080448,0.709074855,-0.711354375,1.01E+00
0.024182052,0.635780752,-0.775622308,1.01E+00
0.024283658,0.557221949,-0.831037462,1.00E+00
0.024385262,0.47507605,-0.877757311,9.96E-01
0.024486868,0.390491337,-0.916412294,9.92E-01
0.024588474,0.303992033,-0.947740734,9.91E-01
0.024690078,0.215535313,-0.972264767,9.92E-01
0.024791684,0.124674879,-0.989947259,9.96E-01
0.02489329,0.03107414,-0.999876857,1.00E+00
0.024994894,-0.06470333,-1.00060427,1.01E+00
0.0250965,-0.161124185,-0.991043389,1.01E+00
0.025198106,-0.256249934,-0.970898092,1.01E+00
0.02529971,-0.348203301,-0.940636456,1.01E+00
0.025401316,-0.435496807,-0.901319385,1.00E+00
0.02550292,-0.517241359,-0.854325175,9.97E-01
0.025604526,-0.593209803,-0.801010966,9.94E-01
0.025706132,-0.663745284,-0.742340744,9.92E-01
0.025807736,-0.729388595,-0.678535461,9.92E-01
0.025909342,-0.790187478,-0.609124005,9.95E-01
0.026010948,-0.845350266,-0.533657253,9.99E-01
0.026112552,-0.893661261,-0.452239007,1.00E+00
0.026214158,-0.933876991,-0.365520805,1.01E+00
0.026315762,-0.964937985,-0.274635732,1.01E+00
0.026417368,-0.986180961,-0.181092069,1.01E+00
0.026518974,-0.997509122,-0.086547434,1.00E+00
0.026620578,-0.999427497,0.007519818,9.99E-01
0.026722184,-0.992839754,0.100168943,9.96E-01
0.02682379,-0.978546977,0.19113487,9.94E-01
0.026925394,-0.95679611,0.280426741,9.94E-01
0.027027,-0.927460492,0.367806017,9.95E-01
0.027128606,-0.890367389,0.452785671,9.98E-01
0.02723021,-0.845332384,0.534684777,1.00E+00
0.027331816,-0.792249441,0.612548888,1.00E+00
0.02743342,-0.731305957,0.685173571,1.00E+00
0.027535026,-0.663151264,0.751311004,1.00E+00
0.027636632,-0.588883996,0.809985936,1.00E+00
0.027738236,-0.509771645,0.860737801,1.00E+00
0.027839842,-0.42685616,0.903516948,9.99E-01
0.027941448,-0.340912282,0.938314736,9.97E-01
0.028043052,-0.25268665,0.965136409,9.95E-01
0.028144658,-0.162793517,0.984128833,9.95E-01
0.028246262,-0.071587183,0.995377541,9.96E-01
0.028347868,0.020664586,0.998690784,9.98E-01
0.028449474,0.113501921,0.993621588,1.00E+00
0.028551078,0.206104651,0.979687214,1.00E+00
0.028652684,0.297346801,0.956648648,1.00E+00
0.02875429,0.38604036,0.924621284,1.00E+00
0.028855894,0.471083999,0.883940458,1.00E+00
0.0289575,0.551366746,0.835137546,1.00E+00
0.029059106,0.625916302,0.779140353,9.99E-01
0.02916071,0.694262803,0.717084467,9.96E-01
0.029262316,0.756406665,0.649876237,9.94E-01
0.02936392,0.812485337,0.577995479,9.94E-01
0.029465526,0.86245513,0.501586854,9.95E-01
0.029567132,0.905949056,0.420708001,9.98E-01
0.029668736,0.942333043,0.335559428,1.00E+00
0.029770342,0.970837772,0.246568859,1.00E+00
0.029871948,0.990588546,0.154448777,1.01E+00
0.029973552,1.00076306,0.060416382,1.01E+00
0.030075158,1.00108469,-0.033864081,1.00E+00
0.030176762,0.99201417,-0.126828179,1.00E+00
0.030278368,0.974438012,-0.217422351,9.97E-01
0.030379974,0.949259758,-0.305151254,9.94E-01
0.030481578,0.917114079,-0.389901161,9.93E-01
0.030583184,0.878262997,-0.471679598,9.94E-01
0.03068479,0.832632363,-0.550395429,9.96E-01
0.030786394,0.779889882,-0.625686109,1.00E+00
0.030888,0.719617248,-0.696687222,1.00E+00
0.030989606,0.651798904,-0.761958599,1.01E+00
0.03109121,0.577222764,-0.819970727,1.01E+00
0.031192816,0.497285664,-0.869677722,1.00E+00
0.03129442,0.413545549,-0.910691261,1.00E+00
0.031396026,0.327371925,-0.943179429,9.97E-01
0.031497632,0.239736721,-0.967643321,9.94E-01
0.031599236,0.15114738,-0.984654605,9.92E-01
0.031700842,0.061692823,-0.994600177,9.93E-01
0.031802448,-0.028790753,-0.997422993,9.96E-01
0.031904052,-0.120301902,-0.992460847,9.99E-01
0.032005658,-0.212168023,-0.97875762,1.00E+00
0.032107262,-0.303052753,-0.955683231,1.01E+00
0.032208868,-0.391370893,-0.923219085,1.01E+00
0.032310474,-0.475639641,-0.881915331,1.00E+00
0.032412078,-0.554704309,-0.832742274,1.00E+00
0.032513684,-0.627881646,-0.776879549,9.98E-01
0.03261529,-0.694991291,-0.715451896,9.95E-01
0.032716894,-0.756251276,-0.649249911,9.93E-01
0.0328185,-0.81195873,-0.578513384,9.94E-01
0.032920106,-0.862010241,-0.503044605,9.96E-01
0.03302171,-0.905723035,-0.422726512,9.99E-01
0.033123316,-0.942147374,-0.337875187,1.00E+00
0.03322492,-0.970367253,-0.249224022,1.00E+00
0.033326526,-0.989658952,-0.157847717,1.00E+00
0.033428132,-0.999631524,-0.065062814,1.00E+00
0.033529736,-1.00033462,0.027748315,1.00E+00
0.03363134,-0.992254972,0.119389549,9.99E-01
0.033732948,-0.976128042,0.209090263,9.97E-01
0.033834552,-0.952567458,0.296547979,9.95E-01
0.033936156,-0.921793878,0.381609291,9.95E-01
0.034037764,-0.883789539,0.463925034,9.96E-01
0.034139368,-0.838538349,0.542957425,9.98E-01
0.034240972,-0.78606087,0.618038654,1.00E+00
0.03434258,-0.726469576,0.688334048,1.00E+00
0.034444184,-0.660107374,0.752867043,1.00E+00
0.034545788,-0.587657869,0.810678184,1.00E+00
0.034647396,-0.510102093,0.861044586,1.00E+00
0.034749,-0.428504616,0.903619885,1.00E+00
0.034850604,-0.343757987,0.938328087,9.99E-01
0.034952212,-0.256587356,0.965115309,9.97E-01
0.035053816,-0.167714596,0.983951926,9.96E-01
0.03515542,-0.077783801,0.994926393,9.96E-01
0.035257028,0.012736471,0.998114228,9.96E-01
0.035358632,0.103443183,0.99342376,9.98E-01
0.035460236,0.193805188,0.980608523,9.99E-01
0.03556184,0.28305316,0.959423006,1.00E+00
0.035663448,0.370229602,0.929806054,1.00E+00
0.035765052,0.454350501,0.89193815,1.00E+00
0.035866656,0.53448081,0.846150279,1.00E+00
0.035968264,0.60967195,0.792940259,1.00E+00
0.036069868,0.679083884,0.73310864,9.99E-01
0.036171472,0.742249906,0.667629063,9.97E-01
0.03627308,0.799066424,0.597324193,9.95E-01
0.036374684,0.84955138,0.522713542,9.95E-01
0.036476288,0.893609047,0.444075584,9.96E-01
0.036577896,0.9309268,0.361625284,9.97E-01
0.0366795,0.961012006,0.275672168,1.00E+00
0.036781104,0.983267128,0.186686844,1.00E+00
0.036882712,0.997014284,0.095369622,1.00E+00
0.036984316,1.00164282,0.002814219,1.00E+00
0.03708592,0.996972322,-0.089555077,1.00E+00
0.037187528,0.983398318,-0.180390224,1.00E+00
0.037289132,0.961660385,-0.268742085,9.97E-01
0.037390736,0.932520032,-0.354101539,9.95E-01
0.03749234,0.896540105,-0.436261266,9.94E-01
0.037593948,0.854000032,-0.515117943,9.95E-01
0.037695552,0.80491519,-0.590496719,9.97E-01
0.037797156,0.749101102,-0.662001491,9.99E-01
0.037898764,0.686332703,-0.72883153,1.00E+00
0.038000368,0.616728604,-0.789756119,1.00E+00
0.038101972,0.541047692,-0.843493998,1.00E+00
0.03820358,0.460537523,-0.889161408,1.00E+00
0.038305184,0.3765769,-0.92641902,1.00E+00
0.038406788,0.290387243,-0.955387115,9.97E-01
0.038508396,0.202865049,-0.976461649,9.95E-01
0.03861,0.114526823,-0.990099192,9.93E-01
0.038711604,0.025548345,-0.996603966,9.94E-01
0.038813212,-0.064082012,-0.995915473,9.96E-01
0.038914816,-0.154219732,-0.987506211,9.99E-01
0.03901642,-0.244183332,-0.97064507,1.00E+00
0.039118028,-0.332766473,-0.94487685,1.00E+00
0.039219632,-0.418569982,-0.91025883,1.00E+00
0.039321236,-0.500297546,-0.867321551,1.00E+00
0.03942284,-0.576939583,-0.816935599,1.00E+00
0.039524448,-0.647880197,-0.76013124,9.98E-01
0.039626052,-0.712914884,-0.697882652,9.95E-01
0.039727656,-0.77214843,-0.630881906,9.94E-01
0.039829264,-0.825724483,-0.559386015,9.95E-01
0.039930868,-0.873456717,-0.483333796,9.97E-01
0.040032472,-0.914708197,-0.402754128,9.99E-01
0.04013408,-0.948641539,-0.318046421,1.00E+00
0.040235684,-0.974480093,-0.229967996,1.00E+00
0.040337288,-0.991644442,-0.139544919,1.00E+00
0.040438896,-0.999851644,-0.047977008,1.00E+00
0.0405405,-0.99918592,0.043512985,1.00E+00
0.040642104,-0.990075409,0.13387984,9.98E-01
0.040743712,-0.973123491,0.222432122,9.96E-01
0.040845316,-0.948814869,0.308835268,9.96E-01
0.04094692,-0.917323172,0.392849326,9.96E-01
0.041048528,-0.878643215,0.474058419,9.97E-01
0.041150132,-0.832800031,0.551872432,9.98E-01
0.041251736,-0.779894412,0.625598371,1.00E+00
0.04135334,-0.720136523,0.694437563,1.00E+00
0.041454948,-0.653938413,0.757515967,1.00E+00
0.041556552,-0.581979275,0.814009368,1.00E+00
0.041658156,-0.505157292,0.863308609,1.00E+00
0.041759764,-0.42440933,0.905106723,9.99E-01
0.041861368,-0.340526491,0.939296305,9.98E-01
0.041962972,-0.254172355,0.965776086,9.97E-01
0.04206458,-0.166019902,0.984451234,9.97E-01
0.042166184,-0.076714821,0.995317698,9.97E-01
0.042267788,0.013207065,0.998391271,9.97E-01
0.042369396,0.103254922,0.993588448,9.98E-01
0.042471,0.192841798,0.980735719,9.99E-01
0.042572604,0.281209499,0.959685743,1.00E+00
0.042674212,0.367474645,0.93044728,1.00E+00
0.042775816,0.450748295,0.893215239,1.00E+00
0.04287742,0.530180752,0.848300338,1.00E+00
0.042979024,0.604909837,0.796144247,1.00E+00
0.043080632,0.674148798,0.737434208,9.98E-01
0.043182236,0.737393677,0.673015475,9.97E-01
0.04328384,0.794438064,0.603646159,9.96E-01
0.043385448,0.845192671,0.529861391,9.95E-01
0.043487052,0.889500499,0.452016503,9.96E-01
0.043588656,0.927055955,0.370418549,9.97E-01
0.043690264,0.957427561,0.285443246,9.98E-01
0.043791868,0.980109453,0.197586387,1.00E+00
0.043893472,0.9945364,0.107526243,1.00E+00
0.04399508,1.00020278,0.016251734,1.00E+00
0.044096684,0.996946275,-0.074981131,1.00E+00
0.044198288,0.98507601,-0.164966047,9.98E-01
0.044299896,0.965195298,-0.252816588,9.96E-01
0.0444015,0.937936127,-0.338008434,9.94E-01
0.044503104,0.903773785,-0.420265555,9.93E-01
