Frequency (GHz),Re( S21 ),Im( S21 ),S2
0,0.028954865,7.96E-05,8.38E-04
7.37E-05,0.028755123,-0.003253424,8.37E-04
0.000147419,0.028137608,-0.006535391,8.34E-04
0.000221128,0.02711153,-0.009714562,8.29E-04
0.000294837,0.025692806,-0.012740823,8.22E-04
0.000368546,0.023902962,-0.015566253,8.14E-04
0.000442256,0.02176957,-0.018145917,8.03E-04
0.000515965,0.019325411,-0.0204385,7.91E-04
0.000589674,0.016608205,-0.022406988,7.78E-04
0.000663384,0.013659928,-0.024019126,7.64E-04
0.000737093,0.010526379,-0.025248082,7.48E-04
0.000810802,0.007256368,-0.026072675,7.32E-04
0.000884512,0.003901246,-0.026477883,7.16E-04
0.000958221,0.000513672,-0.026455022,7.00E-04
0.00103193,-0.002852571,-0.026001981,6.84E-04
0.001105639,-0.006143617,-0.025123378,6.69E-04
0.001179349,-0.00930665,-0.023830185,6.54E-04
0.001253058,-0.012290154,-0.022140127,6.41E-04
0.001326767,-0.015044974,-0.020077206,6.29E-04
0.001400477,-0.017525084,-0.017671321,6.19E-04
0.001474186,-0.019688208,-0.014958118,6.11E-04
0.001547895,-0.021496819,-0.011978381,6.06E-04
0.001621605,-0.022918342,-0.008777352,6.02E-04
0.001695314,-0.023926001,-0.005404345,6.02E-04
0.001769023,-0.024499042,-0.001912064,6.04E-04
0.001842732,-0.024623513,0.001644655,6.09E-04
0.001916442,-0.024292301,0.00520868,6.17E-04
0.001990151,-0.023505347,0.008722883,6.29E-04
0.00206386,-0.022269825,0.012129434,6.43E-04
0.00213757,-0.020600118,0.015371834,6.61E-04
0.002211279,-0.018517695,0.018395389,6.81E-04
0.002284988,-0.016050946,0.021148108,7.05E-04
0.002358698,-0.0132349,0.023581464,7.31E-04
0.002432407,-0.010110345,0.025651539,7.60E-04
0.002506116,-0.006724141,0.027319472,7.92E-04
0.002579825,-0.003127651,0.028552536,8.25E-04
0.002653535,0.000623361,0.029324045,8.60E-04
0.002727244,0.004469714,0.029614698,8.97E-04
0.002800953,0.008349726,0.029412726,9.35E-04
0.002874663,0.012200259,0.028714245,9.73E-04
0.002948372,0.015957035,0.027523046,1.01E-03
0.003022081,0.019556139,0.025851162,1.05E-03
0.00309579,0.022934018,0.023718678,1.09E-03
0.0031695,0.026027497,0.021151161,1.12E-03
0.003243209,0.028776109,0.01817131,1.16E-03
0.003316918,0.03152217,0.014693527,1.21E-03
0.003390628,0.033433091,0.011146522,1.24E-03
0.003464337,0.03486795,0.007246524,1.27E-03
0.003538046,0.035821598,0.00316456,1.29E-03
0.003611756,0.036252689,-0.001037547,1.32E-03
0.003685465,0.03614061,-0.005291878,1.33E-03
0.003759174,0.035472844,-0.009528165,1.35E-03
0.003832883,0.034271088,-0.013631695,1.36E-03
0.003906593,0.032548819,-0.017617255,1.37E-03
0.003980302,0.030301841,-0.021378541,1.38E-03
0.004054011,0.027560284,-0.024845427,1.38E-03
0.004127721,0.024362072,-0.02795212,1.37E-03
0.00420143,0.020752966,-0.030638021,1.37E-03
0.004275139,0.016786937,-0.032847893,1.36E-03
0.004348849,0.01252505,-0.03453356,1.35E-03
0.004422558,0.008034845,-0.035654668,1.34E-03
0.004496267,0.003389238,-0.036179282,1.32E-03
0.004569976,-0.001334152,-0.036084663,1.30E-03
0.004643686,-0.006054742,-0.035358299,1.29E-03
0.004717395,-0.010689666,-0.033997819,1.27E-03
0.004791104,-0.01515568,-0.032011669,1.25E-03
0.004864814,-0.019369654,-0.029419214,1.24E-03
0.004938523,-0.023251135,-0.026250625,1.23E-03
0.005012232,-0.026722956,-0.022546753,1.22E-03
0.005085941,-0.029712653,-0.018358633,1.22E-03
0.005159651,-0.032154441,-0.013747359,1.22E-03
0.00523336,-0.033989623,-0.008782617,1.23E-03
0.005307069,-0.035168722,-0.00354233,1.25E-03
0.005380779,-0.035652071,0.001888648,1.27E-03
0.005454488,-0.035410836,0.007419857,1.31E-03
0.005528197,-0.034427837,0.012956421,1.35E-03
0.005601907,-0.032698534,0.01840058,1.41E-03
0.005675616,-0.030231142,0.023653613,1.47E-03
0.005749325,-0.02704674,0.02861711,1.55E-03
0.005823034,-0.023179911,0.033194929,1.64E-03
0.005896744,-0.018677929,0.037294973,1.74E-03
0.005970453,-0.013600568,0.040830646,1.85E-03
0.006044162,-0.008019404,0.043722957,1.98E-03
0.006117872,-0.002017235,0.045901753,2.11E-03
0.006191581,0.004313826,0.047307335,2.26E-03
0.00626529,0.010872497,0.047891751,2.41E-03
0.006338999,0.017551104,0.047619749,2.58E-03
0.006412709,0.024236966,0.046469502,2.75E-03
0.006486418,0.030815071,0.04443302,2.92E-03
0.006560127,0.03717475,0.041518979,3.11E-03
0.006633837,0.043633804,0.03776598,3.33E-03
0.006707546,0.049172685,0.0332473,3.52E-03
0.006781255,0.054095142,0.027955001,3.71E-03
0.006854965,0.058354382,0.021951549,3.89E-03
0.006928674,0.061861511,0.015354959,4.06E-03
0.007002383,0.064523526,0.008272564,4.23E-03
0.007076092,0.066264525,0.000816295,4.39E-03
0.007149802,0.06702558,-0.006892197,4.54E-03
0.007223511,0.066763789,-0.014722682,4.67E-03
0.00729722,0.065453507,-0.022538014,4.79E-03
0.00737093,0.063086115,-0.030196881,4.89E-03
0.007444639,0.059688803,-0.037465505,4.97E-03
0.007518348,0.055312686,-0.044388305,5.03E-03
0.007592057,0.049969025,-0.050729014,5.07E-03
0.007665767,0.043728285,-0.056352332,5.09E-03
0.007739476,0.036678527,-0.061128616,5.08E-03
0.007813185,0.028925534,-0.064937733,5.05E-03
0.007886895,0.020591905,-0.06767147,5.00E-03
0.007960604,0.011815632,-0.069236301,4.93E-03
0.008034313,0.002749269,-0.069555007,4.85E-03
0.008108023,-0.006442873,-0.06856934,4.74E-03
0.008181732,-0.015586269,-0.066241071,4.63E-03
0.008255441,-0.024498764,-0.062553912,4.51E-03
0.00832915,-0.032993078,-0.057515115,4.40E-03
0.008402859,-0.040879782,-0.051155809,4.29E-03
0.008476569,-0.047970321,-0.043532129,4.20E-03
0.008550278,-0.054080024,-0.034725241,4.13E-03
0.008623987,-0.059031334,-0.024841674,4.10E-03
0.008697697,-0.062657192,-0.014011966,4.12E-03
0.008771406,-0.064804144,-0.002390724,4.21E-03
0.008845115,-0.065335825,0.009845489,4.37E-03
0.008918825,-0.064135537,0.022499269,4.62E-03
0.008992534,-0.061109498,0.035355326,4.98E-03
0.009066243,-0.056189656,0.048182543,5.48E-03
0.009139952,-0.049335595,0.060736917,6.12E-03
0.009213662,-0.040537026,0.072765552,6.94E-03
0.009287371,-0.029815052,0.08400964,7.95E-03
0.00936108,-0.017223626,0.094208807,9.17E-03
0.00943479,-0.00284995,0.103105031,1.06E-02
0.009508499,0.013184985,0.110446982,1.24E-02
0.009582208,0.030726412,0.115994349,1.44E-02
0.009655917,0.049586229,0.119521312,1.67E-02
0.009729627,0.069542639,0.120818317,1.94E-02
0.009803336,0.090343513,0.119683884,2.25E-02
0.009877045,0.112744018,0.116080329,2.62E-02
0.009950755,0.134425297,0.109715588,3.01E-02
0.010024464,0.156097487,0.10049244,3.45E-02
0.010098173,0.177451491,0.088415228,3.93E-02
0.010171882,0.198135003,0.073478155,4.47E-02
0.010245592,0.217800364,0.05570196,5.05E-02
0.010319301,0.236103043,0.035147842,5.70E-02
0.01039301,0.252703965,0.011917729,6.40E-02
0.01046672,0.26727137,-0.013846048,7.16E-02
0.010540429,0.279175222,-0.041536067,7.97E-02
0.010614138,0.288836867,-0.071747817,8.86E-02
0.010687848,0.295582235,-0.103850916,9.82E-02
0.010761557,0.299158871,-0.137558892,1.08E-01
0.010835266,0.299342901,-0.172556445,1.19E-01
0.010908975,0.295942754,-0.208503157,1.31E-01
0.010982685,0.288804203,-0.245036587,1.43E-01
0.011056394,0.277811527,-0.281775832,1.57E-01
0.011130103,0.262889266,-0.31832552,1.70E-01
0.011203813,0.244003475,-0.354279995,1.85E-01
0.011277522,0.221162573,-0.389228553,2.00E-01
0.011351231,0.194416791,-0.422759086,2.17E-01
0.01142494,0.163858831,-0.454463959,2.33E-01
0.01149865,0.129622653,-0.483942449,2.51E-01
0.011572359,0.09188202,-0.510805547,2.69E-01
0.011646068,0.050850321,-0.534679472,2.88E-01
0.011719778,0.00677916,-0.555208325,3.08E-01
0.011793487,-0.040042982,-0.572059095,3.29E-01
0.011867196,-0.089293115,-0.584924936,3.50E-01
0.011940906,-0.140614808,-0.593529642,3.72E-01
0.012014615,-0.193622321,-0.597630382,3.95E-01
0.012088324,-0.247903273,-0.597021282,4.18E-01
0.012162033,-0.303021669,-0.591536403,4.42E-01
0.012235743,-0.358521819,-0.58105135,4.66E-01
0.012309452,-0.41393131,-0.565486431,4.91E-01
0.012383161,-0.468764275,-0.544806302,5.17E-01
0.012456871,-0.522526205,-0.519019783,5.42E-01
0.01253058,-0.574718416,-0.488178372,5.69E-01
0.012604289,-0.624846816,-0.452373564,5.95E-01
0.012677998,-0.672433555,-0.411738038,6.22E-01
0.012751708,-0.717026174,-0.366454184,6.48E-01
0.012825417,-0.758197069,-0.316761494,6.75E-01
0.012899126,-0.795538247,-0.262956649,7.02E-01
0.012972836,-0.828658879,-0.205384269,7.29E-01
0.013046545,-0.857192338,-0.144427761,7.56E-01
0.013120254,-0.880805731,-0.080504179,7.82E-01
0.013193964,-0.899202526,-0.014060636,8.09E-01
0.013267673,-0.912131548,0.054428056,8.35E-01
0.013341382,-0.919388592,0.124463513,8.61E-01
0.013415091,-0.920819223,0.195527703,8.86E-01
0.013488801,-0.916320682,0.267088115,9.11E-01
0.01356251,-0.90584439,0.33860302,9.35E-01
0.013636219,-0.889395952,0.409527004,9.59E-01
0.013709929,-0.86703527,0.479317069,9.81E-01
0.013783638,-0.838876188,0.547438204,1.00E+00
0.013857347,-0.805086434,0.613369465,1.02E+00
0.013931056,-0.765883327,0.676609695,1.04E+00
0.014004766,-0.721533716,0.736683011,1.06E+00
0.014078475,-0.67234993,0.793143511,1.08E+00
0.014152184,-0.618685305,0.845580816,1.10E+00
0.014225894,-0.560930669,0.893622816,1.11E+00
0.014299603,-0.499509662,0.936942041,1.13E+00
0.014373312,-0.434872597,0.975255072,1.14E+00
0.014447022,-0.36749211,1.00832844,1.15E+00
0.014520731,-0.297856599,1.03597736,1.16E+00
0.01459444,-0.226464391,1.05806839,1.17E+00
0.014668149,-0.153818086,1.07451916,1.18E+00
0.014741859,-0.080418751,1.08529806,1.18E+00
0.014815568,-0.006758511,1.09042275,1.19E+00
0.014889277,0.066684358,1.08995891,1.19E+00
0.014962987,0.13945365,1.08401871,1.19E+00
0.015036696,0.21112141,1.07276452,1.20E+00
0.015110405,0.281289876,1.0564189,1.20E+00
0.015184114,0.349554569,1.03526938,1.19E+00
0.015257824,0.41549024,1.00958872,1.19E+00
0.015331533,0.47875011,0.979618073,1.19E+00
0.015405242,0.539069653,0.945641577,1.18E+00
0.015478952,0.596229017,0.907983541,1.18E+00
0.015552661,0.650053978,0.86698854,1.17E+00
0.01562637,0.700426161,0.823012769,1.17E+00
0.01570008,0.747311413,0.776416183,1.16E+00
0.015773789,0.790833592,0.727550805,1.15E+00
0.015847498,0.831572115,0.676690936,1.15E+00
0.015921207,0.872652888,0.622811973,1.15E+00
0.015994917,0.876494527,0.585424364,1.11E+00
0.016068626,0.909529686,0.525384128,1.10E+00
0.016142335,0.933660865,0.468218267,1.09E+00
0.016216045,0.953361094,0.411782652,1.08E+00
0.016289754,0.969223917,0.355742633,1.07E+00
0.016363463,0.981513977,0.300138831,1.05E+00
0.016437172,0.990431011,0.245102271,1.04E+00
0.016510882,0.996162474,0.190782234,1.03E+00
0.016584591,0.99889344,0.137323409,1.02E+00
0.0166583,0.998809814,0.084853865,1.00E+00
0.01673201,0.996097386,0.033483267,9.93E-01
0.016805718,0.990939856,-0.016699607,9.82E-01
0.016879428,0.983517587,-0.065627553,9.72E-01
0.016953138,0.974003673,-0.113253079,9.62E-01
0.017026846,0.962563515,-0.159548238,9.52E-01
0.017100556,0.949351728,-0.204502225,9.43E-01
0.017174266,0.934511006,-0.248119578,9.35E-01
0.017247974,0.91816932,-0.290417969,9.27E-01
0.017321684,0.90044117,-0.331425965,9.21E-01
0.017395394,0.881425083,-0.371180773,9.15E-01
0.017469102,0.861203492,-0.409724385,9.10E-01
0.017542812,0.839842796,-0.4471035,9.05E-01
0.017616522,0.817393601,-0.483363807,9.02E-01
0.01769023,0.793891668,-0.518550575,8.99E-01
0.01776394,0.769358099,-0.552704394,8.97E-01
0.01783765,0.743800819,-0.585859656,8.96E-01
0.017911358,0.717216432,-0.618042648,8.96E-01
0.017985068,0.689591587,-0.6492697,8.97E-01
0.018058776,0.660904646,-0.679544508,8.99E-01
0.018132486,0.631128848,-0.70885849,9.01E-01
0.018206196,0.600234091,-0.737187207,9.04E-01
0.018279904,0.56819272,-0.764492035,9.07E-01
0.018353614,0.534981787,-0.790717363,9.11E-01
0.018427324,0.500590622,-0.815797567,9.16E-01
0.018501032,0.465021461,-0.839661539,9.21E-01
0.018574742,0.428284377,-0.862240076,9.27E-01
0.018648452,0.390390545,-0.883462608,9.33E-01
0.01872216,0.351354152,-0.903248549,9.39E-01
0.01879587,0.3112005,-0.921505809,9.46E-01
0.01886958,0.269973576,-0.93813467,9.53E-01
0.018943288,0.227744967,-0.953036368,9.60E-01
0.019016998,0.184618056,-0.966126263,9.67E-01
0.019090706,0.140731856,-0.977362216,9.75E-01
0.019164416,0.096236743,-0.98680079,9.83E-01
0.019238126,0.051171519,-0.994655311,9.92E-01
0.019311834,0.005190834,-1.00114334,1.00E+00
0.019385544,-0.042315643,-1.00587773,1.01E+00
0.019459254,-0.091291331,-1.00793111,1.02E+00
0.019532962,-0.141042456,-1.00684857,1.03E+00
0.019606672,-0.191012055,-1.00267935,1.04E+00
0.019680382,-0.240895152,-0.995559394,1.05E+00
0.01975409,-0.290493041,-0.985578597,1.06E+00
0.0198278,-0.339633584,-0.972791255,1.06E+00
0.01990151,-0.388145119,-0.957238197,1.07E+00
0.019975218,-0.435853183,-0.938960373,1.07E+00
0.020048928,-0.482578576,-0.918008447,1.08E+00
0.020122638,-0.528143644,-0.894446135,1.08E+00
0.020196346,-0.572371542,-0.868351519,1.08E+00
0.020270056,-0.615091562,-0.839818656,1.08E+00
0.020343764,-0.656140149,-0.808956146,1.08E+00
0.020417474,-0.695362747,-0.775887907,1.09E+00
0.020491184,-0.732616901,-0.740750551,1.09E+00
0.020564892,-0.767772675,-0.703693509,1.08E+00
0.020638602,-0.800715208,-0.664875984,1.08E+00
0.020712312,-0.831344903,-0.624466658,1.08E+00
0.02078602,-0.859578073,-0.582640111,1.08E+00
0.02085973,-0.885349452,-0.539577127,1.07E+00
0.02093344,-0.908609152,-0.495460272,1.07E+00
0.021007148,-0.929326534,-0.450473249,1.07E+00
0.021080858,-0.947486758,-0.404799461,1.06E+00
0.021154568,-0.963092208,-0.358617961,1.06E+00
0.021228276,-0.976160526,-0.312104374,1.05E+00
0.021301986,-0.986725211,-0.265427321,1.04E+00
0.021375696,-0.994832575,-0.218747884,1.04E+00
0.021449404,-1.00054228,-0.172218204,1.03E+00
0.021523114,-1.00392473,-0.125980467,1.02E+00
0.021596822,-1.00506163,-0.08016663,1.02E+00
0.021670532,-1.00404274,-0.034896404,1.01E+00
0.021744242,-1.00096595,0.009722509,1.00E+00
0.02181795,-0.995935798,0.053595476,9.95E-01
0.02189166,-0.989061236,0.096641682,9.88E-01
0.02196537,-0.980455279,0.138794497,9.81E-01
0.022039078,-0.970230579,0.180001289,9.74E-01
0.022112788,-0.958501756,0.22022222,9.67E-01
0.022186498,-0.945381761,0.259430081,9.61E-01
0.022260206,-0.930985868,0.297610283,9.55E-01
0.022333916,-0.915431023,0.334763408,9.50E-01
0.022407626,-0.898840308,0.370912522,9.45E-01
0.022481334,-0.881335795,0.406118631,9.42E-01
0.022555044,-0.863017321,0.440497458,9.39E-01
0.022628754,-0.843911409,0.474219084,9.37E-01
0.022702462,-0.823916972,0.507444024,9.36E-01
0.022776172,-0.80283767,0.540210783,9.36E-01
0.02284988,-0.780516922,0.572402418,9.37E-01
0.02292359,-0.756923795,0.603848696,9.38E-01
0.0229973,-0.732118666,0.634428084,9.38E-01
0.023071008,-0.706180155,0.664084792,9.40E-01
0.023144718,-0.679166079,0.692801356,9.41E-01
0.023218428,-0.651110709,0.720573783,9.43E-01
0.023292136,-0.622028828,0.74739635,9.46E-01
0.023365846,-0.591922224,0.773255169,9.48E-01
0.023439556,-0.560786963,0.798126757,9.51E-01
0.023513264,-0.528615296,0.821976602,9.55E-01
0.023586974,-0.49540168,0.844761252,9.59E-01
0.023660684,-0.461141646,0.866426706,9.63E-01
0.023734392,-0.425836653,0.886911571,9.68E-01
0.023808102,-0.389494419,0.906146824,9.73E-01
0.023881812,-0.352129638,0.92405802,9.78E-01
0.02395552,-0.31376639,0.94056499,9.83E-01
0.02402923,-0.274437666,0.955584824,9.88E-01
0.024102938,-0.234187022,0.969032109,9.94E-01
0.024176648,-0.193068281,0.980821073,9.99E-01
0.024250358,-0.151146829,0.990866959,1.00E+00
0.024324066,-0.108498007,0.999087989,1.01E+00
0.024397776,-0.065208815,1.00540495,1.02E+00
0.024471486,-0.021375841,1.00974524,1.02E+00
0.024545194,0.022893872,1.01204288,1.02E+00
0.024618904,0.067484446,1.01223993,1.03E+00
0.024692614,0.112271257,1.01028848,1.03E+00
0.024766322,0.157123372,1.00615084,1.04E+00
0.024840032,0.201903179,0.999801338,1.04E+00
0.024913742,0.246468917,0.99122721,1.04E+00
0.02498745,0.290675193,0.980429053,1.05E+00
0.02506116,0.334376305,0.967421651,1.05E+00
0.02513487,0.377426684,0.952234328,1.05E+00
0.025208578,0.419683099,0.934910417,1.05E+00
0.025282288,0.461006463,0.915508866,1.05E+00
0.025355996,0.501264751,0.89410156,1.05E+00
0.025429706,0.540333867,0.870774209,1.05E+00
0.025503416,0.578101277,0.845627189,1.05E+00
0.025577124,0.614467382,0.818771005,1.05E+00
0.025650834,0.649350703,0.790327489,1.05E+00
0.025724544,0.682692945,0.760425091,1.04E+00
0.025798252,0.714462221,0.729189932,1.04E+00
0.025871962,0.744656205,0.6967327,1.04E+00
0.025945672,0.773290813,0.66313082,1.04E+00
0.02601938,0.80037415,0.628416657,1.04E+00
0.02609309,0.825869441,0.59259212,1.03E+00
0.0261668,0.849681497,0.555673599,1.03E+00
0.026240508,0.871684074,0.517734349,1.03E+00
0.026314218,0.891766548,0.478909403,1.02E+00
0.026387928,0.909865499,0.439367771,1.02E+00
0.026461636,0.925964653,0.399280161,1.02E+00
0.026535346,0.940082788,0.358802825,1.01E+00
0.026609054,0.952259421,0.318071276,1.01E+00
0.026682764,0.962543786,0.277201682,1.00E+00
0.026756474,0.97099191,0.236294106,9.99E-01
0.026830182,0.977662265,0.195434883,9.94E-01
0.026903892,0.982613444,0.154697716,9.89E-01
0.026977602,0.985905707,0.114147529,9.85E-01
0.02705131,0.987596989,0.073838383,9.81E-01
0.02712502,0.987744331,0.033816751,9.77E-01
0.02719873,0.986402214,-0.005878848,9.73E-01
0.027272438,0.983622134,-0.04521668,9.70E-01
0.027346148,0.979451776,-0.084171347,9.66E-01
0.027419858,0.973934412,-0.122722656,9.64E-01
0.027493566,0.967108428,-0.160854384,9.61E-01
0.027567276,0.95900768,-0.198554054,9.59E-01
0.027640986,0.949659824,-0.235811591,9.57E-01
0.027714694,0.939088106,-0.272617877,9.56E-01
0.027788404,0.927309394,-0.308964342,9.55E-01
0.027862112,0.914336026,-0.344841689,9.55E-01
0.027935822,0.900175095,-0.38023898,9.55E-01
0.028009532,0.884829342,-0.415143132,9.55E-01
0.02808324,0.868298471,-0.449537069,9.56E-01
0.02815695,0.850578606,-0.483400434,9.57E-01
0.02823066,0.831664383,-0.516708016,9.59E-01
0.028304368,0.811548412,-0.549429774,9.60E-01
0.028378078,0.790223777,-0.581530809,9.63E-01
0.028451788,0.767684877,-0.612970769,9.65E-01
0.028525496,0.743927717,-0.643704772,9.68E-01
0.028599206,0.718951404,-0.673683763,9.71E-01
0.028672916,0.692758799,-0.702854216,9.74E-01
0.028746624,0.66535753,-0.731160283,9.77E-01
0.028820334,0.636761308,-0.758544981,9.81E-01
0.028894044,0.606988549,-0.784950912,9.85E-01
0.028967752,0.576063037,-0.810323834,9.88E-01
0.029041462,0.544011235,-0.834613502,9.93E-01
0.02911517,0.510858953,-0.857776165,9.97E-01
0.02918888,0.476624817,-0.879772663,1.00E+00
0.02926259,0.441314638,-0.900562465,1.01E+00
0.029336298,0.404919326,-0.920092821,1.01E+00
0.029410008,0.367421955,-0.938281775,1.02E+00
0.029483718,0.328818887,-0.955013216,1.02E+00
0.029557426,0.28914085,-0.970143735,1.02E+00
0.029631136,0.248466134,-0.983525574,1.03E+00
0.029704846,0.206913322,-0.995032489,1.03E+00
0.029778554,0.164624184,-1.00456882,1.04E+00
0.029852264,0.121747188,-1.01207006,1.04E+00
0.029925974,0.078429811,-1.01749623,1.04E+00
0.029999682,0.034812827,-1.02082503,1.04E+00
0.030073392,-0.008967754,-1.02204549,1.04E+00
0.030147102,-0.052780416,-1.02115846,1.05E+00
0.03022081,-0.096497007,-1.01817203,1.05E+00
0.03029452,-0.139992684,-1.01310349,1.05E+00
0.030368228,-0.18314524,-1.00597906,1.05E+00
0.030441938,-0.225836501,-0.996831894,1.04E+00
0.030515648,-0.267951548,-0.985704899,1.04E+00
0.030589356,-0.309380502,-0.972648382,1.04E+00
0.030663066,-0.35001862,-0.957720518,1.04E+00
0.030736776,-0.38976723,-0.940986812,1.04E+00
0.030810484,-0.428534448,-0.922518432,1.03E+00
0.030884194,-0.466236174,-0.902393699,1.03E+00
0.030957904,-0.502795994,-0.880695224,1.03E+00
0.031031612,-0.538145065,-0.857509375,1.02E+00
0.031105322,-0.5722242,-0.832926214,1.02E+00
0.031179032,-0.604981959,-0.807037413,1.02E+00
0.03125274,-0.636375844,-0.779935539,1.01E+00
0.03132645,-0.666372776,-0.751714826,1.01E+00
0.03140016,-0.694946349,-0.722466528,1.00E+00
0.031473868,-0.722079635,-0.692282438,1.00E+00
0.031547578,-0.74776262,-0.661250412,9.96E-01
0.031621286,-0.771992564,-0.629456162,9.92E-01
0.031694996,-0.794773519,-0.596981227,9.88E-01
0.031768706,-0.816114604,-0.563902676,9.84E-01
0.031842414,-0.836031616,-0.530293405,9.80E-01
0.031916124,-0.854544103,-0.496220529,9.76E-01
0.031989834,-0.871676028,-0.461746037,9.73E-01
0.032063542,-0.887455344,-0.426925749,9.70E-01
0.032137252,-0.901912987,-0.391809911,9.67E-01
0.032210962,-0.915082991,-0.3564412,9.64E-01
