Frequency (GHz),Re( S21 ),Im( S21 ),S2
0,-0.020179538,-2.50E-05,4.07E-04
0.000112432,-0.019330533,0.007381632,4.28E-04
0.000224864,-0.016820632,0.014408505,4.91E-04
0.000337296,-0.012775985,0.020695621,5.92E-04
0.000449728,-0.00737,0.02597997,7.29E-04
0.000562159,-0.00091922,0.029872941,8.93E-04
0.000674591,0.006272845,0.032226071,1.08E-03
0.000787023,0.013845258,0.032910593,1.27E-03
0.000899455,0.021415992,0.03188042,1.48E-03
0.001011887,0.028602148,0.029175364,1.67E-03
0.001124319,0.035037093,0.024919137,1.85E-03
0.001236751,0.040389799,0.019313928,2.00E-03
0.001349183,0.044380382,0.012631036,2.13E-03
0.001461615,0.046794757,0.005198653,2.22E-03
0.001574047,0.047495164,-0.002614121,2.26E-03
0.001686478,0.046428096,-0.010414396,2.26E-03
0.00179891,0.043627832,-0.017804012,2.22E-03
0.001911342,0.039216135,-0.02439924,2.13E-03
0.002023774,0.033397548,-0.029849239,2.01E-03
0.002136206,0.026451379,-0.033853754,1.85E-03
0.002248638,0.018719103,-0.036178663,1.66E-03
0.00236107,0.010589474,-0.036668412,1.46E-03
0.002473502,0.002480252,-0.035255835,1.25E-03
0.002585934,-0.005180882,-0.031966906,1.05E-03
0.002698366,-0.011977506,-0.026922125,8.68E-04
0.002810797,-0.017524518,-0.020332832,7.21E-04
0.002923229,-0.021488052,-0.012493238,6.18E-04
0.003035661,-0.023602985,-0.003768481,5.71E-04
0.003148093,-0.023687482,0.005421918,5.90E-04
0.003260525,-0.021655275,0.014624422,6.83E-04
0.003372957,-0.017540988,0.023414293,8.56E-04
0.003485389,-0.011427658,0.031233316,1.11E-03
0.003597821,-0.003557927,0.037745245,1.44E-03
0.003710253,0.005674935,0.042380907,1.83E-03
0.003822684,0.016051367,0.045087136,2.29E-03
0.003935116,0.027083634,0.045585059,2.81E-03
0.004047548,0.038113151,0.043693546,3.36E-03
0.00415998,0.048705716,0.039445061,3.93E-03
0.004272412,0.058338653,0.032957513,4.49E-03
0.004384844,0.066518523,0.024463659,5.02E-03
0.004497276,0.072805613,0.014304244,5.51E-03
0.004609708,0.076836444,0.002916321,5.91E-03
0.00472214,0.078344159,-0.009183137,6.22E-03
0.004834572,0.077175446,-0.021418663,6.41E-03
0.004947003,0.073302917,-0.033179238,6.47E-03
0.005059435,0.066833153,-0.043845806,6.39E-03
0.005171867,0.058007907,-0.052818596,6.15E-03
0.005284299,0.047201701,-0.05954608,5.77E-03
0.005396731,0.034911662,-0.063552834,5.26E-03
0.005509163,0.021743059,-0.064465314,4.63E-03
0.005621595,0.00838867,-0.062035274,3.92E-03
0.005734027,-0.004396405,-0.056158941,3.17E-03
0.005846459,-0.01582358,-0.046891179,2.45E-03
0.00595889,-0.025103444,-0.034454256,1.82E-03
0.006071322,-0.03147956,-0.019239457,1.36E-03
0.006183754,-0.034263816,-0.001802443,1.18E-03
0.006296186,-0.032869529,0.017149471,1.37E-03
0.006408618,-0.026843427,0.036777947,2.07E-03
0.00652105,-0.015896389,0.056139123,3.40E-03
0.006633482,0.000197178,0.074348532,5.53E-03
0.006745914,0.021119075,0.090070978,8.56E-03
0.006858346,0.046663981,0.10236986,1.27E-02
0.006970777,0.076322712,0.11023239,1.80E-02
0.007083209,0.109377809,0.11270342,2.47E-02
0.007195641,0.144824937,0.108989552,3.29E-02
0.007308073,0.181674927,0.098517016,4.27E-02
0.007420505,0.218713537,0.080772199,5.44E-02
0.007532937,0.254615515,0.055524599,6.79E-02
0.007645369,0.288012028,0.022782043,8.35E-02
0.007757801,0.317525089,-0.017201999,1.01E-01
0.007870233,0.341811389,-0.063926615,1.21E-01
0.007982665,0.359607637,-0.116648749,1.43E-01
0.008095096,0.369778991,-0.174403057,1.67E-01
0.008207528,0.371352106,-0.23603645,1.94E-01
0.00831996,0.363530457,-0.30022797,2.22E-01
0.008432392,0.345735878,-0.365509331,2.53E-01
0.008544824,0.317636162,-0.430312276,2.86E-01
0.008657256,0.279155701,-0.493013948,3.21E-01
0.008769687,0.230479956,-0.551977038,3.58E-01
0.008882119,0.172056645,-0.605590343,3.96E-01
0.008994551,0.104592286,-0.65230906,4.36E-01
0.009106983,0.02904092,-0.690695584,4.78E-01
0.009219415,-0.053417362,-0.719454825,5.20E-01
0.009331847,-0.14140825,-0.737471104,5.64E-01
0.009444279,-0.233400941,-0.743847132,6.08E-01
0.009556711,-0.327736467,-0.737941682,6.52E-01
0.009669143,-0.422652215,-0.719385505,6.96E-01
0.009781575,-0.516323268,-0.688080609,7.40E-01
0.009894006,-0.606915116,-0.644203842,7.83E-01
0.010006438,-0.692633092,-0.58820641,8.26E-01
0.01011887,-0.771766603,-0.52080822,8.67E-01
0.010231302,-0.84273392,-0.442982733,9.06E-01
0.010343734,-0.904119194,-0.355934232,9.44E-01
0.010456166,-0.954709053,-0.261067539,9.80E-01
0.010568598,-0.993521631,-0.159951761,1.01E+00
0.01068103,-1.01983011,-0.054279767,1.04E+00
0.010793462,-1.0331775,0.054176301,1.07E+00
0.010905893,-1.03338599,0.163611695,1.09E+00
0.011018325,-1.02055299,0.272236317,1.12E+00
0.011130757,-0.995044291,0.378320098,1.13E+00
0.011243189,-0.957474232,0.480236739,1.15E+00
0.011355621,-0.908680677,0.576502085,1.16E+00
0.011468053,-0.84969157,0.665810108,1.17E+00
0.011580485,-0.781682432,0.747062385,1.17E+00
0.011692917,-0.705928683,0.819418728,1.17E+00
0.011805349,-0.623921514,0.882380426,1.17E+00
0.01191778,-0.537246287,0.93532002,1.16E+00
0.012030212,-0.447157562,0.978004396,1.16E+00
0.012142644,-0.354981899,1.01052511,1.15E+00
0.012255076,-0.261964619,1.03318,1.14E+00
0.012367508,-0.169143364,1.0465225,1.12E+00
0.01247994,-0.076762974,1.05154979,1.11E+00
0.012592372,-0.000833051,1.0403285,1.08E+00
0.012704804,0.088129044,1.03074121,1.07E+00
0.012817236,0.170629099,1.0115689,1.05E+00
0.012929667,0.248227403,0.986303031,1.03E+00
0.013042099,0.321069151,0.955850661,1.02E+00
0.013154531,0.3891415,0.920998037,1.00E+00
0.013266963,0.452481359,0.882466257,9.83E-01
0.013379395,0.511204958,0.840899527,9.68E-01
0.013491827,0.565500736,0.796854317,9.55E-01
0.013604259,0.615610182,0.750787854,9.43E-01
0.013716691,0.661807358,0.703056753,9.32E-01
0.013829123,0.704376578,0.653917551,9.24E-01
0.013941554,0.743590653,0.603532135,9.17E-01
0.014053986,0.779691458,0.551977754,9.13E-01
0.014166418,0.81287533,0.4992612,9.10E-01
0.01427885,0.843277574,0.445334554,9.09E-01
0.014391282,0.870965183,0.39011246,9.11E-01
0.014503714,0.895931423,0.333493143,9.14E-01
0.014616146,0.918095529,0.275376827,9.19E-01
0.014728578,0.937304378,0.21568647,9.25E-01
0.01484101,0.953344107,0.154386282,9.33E-01
0.014953441,0.965951324,0.091499269,9.41E-01
0.015065873,0.974833608,0.027117768,9.51E-01
0.015178305,0.979690969,-0.038594153,9.61E-01
0.015290737,0.980228126,-0.105402716,9.72E-01
0.015403169,0.976166964,-0.173001409,9.83E-01
0.015515601,0.967272401,-0.241004512,9.94E-01
0.015628033,0.953395545,-0.308956534,1.00E+00
0.015740465,0.934540629,-0.376395077,1.02E+00
0.015852897,0.910844684,-0.44306764,1.03E+00
0.015965329,0.882071197,-0.509027362,1.04E+00
0.01607776,0.847459316,-0.573674858,1.05E+00
0.016190192,0.806977928,-0.635775268,1.06E+00
0.016302624,0.761145592,-0.694500685,1.06E+00
0.016415056,0.710463464,-0.74932301,1.07E+00
0.016527488,0.655398488,-0.799798787,1.07E+00
0.01663992,0.596437812,-0.845532358,1.07E+00
0.016752352,0.534106791,-0.8861835,1.07E+00
0.016864784,0.468966246,-0.921482325,1.07E+00
0.016977216,0.401601702,-0.95123601,1.07E+00
0.017089648,0.332610458,-0.975334525,1.06E+00
0.01720208,0.262586594,-0.993751824,1.06E+00
0.017314512,0.192105815,-1.00654042,1.05E+00
0.017426944,0.121714137,-1.01382875,1.04E+00
0.017539374,0.05191429,-1.01581073,1.03E+00
0.017651806,-0.016842907,-1.01273572,1.03E+00
0.017764238,-0.084165767,-1.00489688,1.02E+00
0.01787667,-0.14972569,-0.992619336,1.01E+00
0.017989102,-0.21325931,-0.976244628,9.99E-01
0.018101534,-0.274566859,-0.956121385,9.90E-01
0.018213966,-0.333509326,-0.932591856,9.81E-01
0.018326398,-0.390003085,-0.905982435,9.73E-01
0.01843883,-0.44401291,-0.876594782,9.66E-01
0.018551262,-0.495544523,-0.844699681,9.59E-01
0.018663694,-0.544634283,-0.810531497,9.54E-01
0.018776126,-0.591343522,-0.774289668,9.49E-01
0.018888558,-0.635753274,-0.736139059,9.46E-01
0.01900099,-0.677973151,-0.696208298,9.44E-01
0.019113422,-0.718156993,-0.654562831,9.44E-01
0.019225854,-0.756474435,-0.611128628,9.46E-01
0.019338286,-0.792962372,-0.565662801,9.49E-01
0.019450718,-0.827400446,-0.517940283,9.53E-01
0.01956315,-0.85946691,-0.467941016,9.58E-01
0.01967558,-0.888919652,-0.415766805,9.63E-01
0.019788012,-0.915579557,-0.361520231,9.69E-01
0.019900444,-0.939268768,-0.305286199,9.75E-01
0.020012876,-0.959785044,-0.247155577,9.82E-01
0.020125308,-0.976902902,-0.187247187,9.89E-01
0.02023774,-0.990382433,-0.12571989,9.97E-01
0.020350172,-0.999981999,-0.062779665,1.00E+00
0.020462604,-1.00546956,0.001318426,1.01E+00
0.020575036,-1.00663412,0.066271454,1.02E+00
0.020687468,-1.00329721,0.131732196,1.02E+00
0.0207999,-0.995321333,0.197314978,1.03E+00
0.020912332,-0.982618332,0.262603015,1.03E+00
0.021024764,-0.965155482,0.327158481,1.04E+00
0.021137196,-0.942960143,0.390531272,1.04E+00
0.021249628,-0.916121066,0.452270895,1.04E+00
0.02136206,-0.884789109,0.51193738,1.04E+00
0.021474492,-0.849175334,0.569112241,1.04E+00
0.021586924,-0.809545338,0.623408139,1.04E+00
0.021699354,-0.766215086,0.674479961,1.04E+00
0.021811786,-0.719542384,0.722032249,1.04E+00
0.021924218,-0.669916689,0.765826881,1.04E+00
0.02203665,-0.617750108,0.805688679,1.03E+00
0.022149082,-0.563464046,0.841512024,1.03E+00
0.022261514,-0.507472217,0.873265266,1.02E+00
0.022373946,-0.450155467,0.90099144,1.01E+00
0.022486378,-0.391826361,0.92479068,1.01E+00
0.02259881,-0.332707554,0.944766521,1.00E+00
0.022711242,-0.272972584,0.96095854,9.98E-01
0.022823674,-0.212836474,0.973350883,9.93E-01
0.022936106,-0.152582541,0.981960654,9.88E-01
0.023048538,-0.092499144,0.986886561,9.83E-01
0.02316097,-0.03282186,0.988288343,9.78E-01
0.023273402,0.026279336,0.98633945,9.74E-01
0.023385834,0.084686965,0.981203437,9.70E-01
0.023498266,0.142321229,0.973019361,9.67E-01
0.023610698,0.199126303,0.961899102,9.65E-01
0.023723128,0.255060017,0.947924018,9.64E-01
0.02383556,0.310083866,0.93114692,9.63E-01
0.023947992,0.364155442,0.911594689,9.64E-01
0.024060424,0.417220801,0.889269531,9.65E-01
0.024172856,0.469208628,0.864155769,9.67E-01
0.024285288,0.520024657,0.836224675,9.70E-01
0.02439772,0.569548488,0.805440962,9.73E-01
0.024510152,0.617631733,0.771771431,9.77E-01
0.024622584,0.664097667,0.735190749,9.82E-01
0.024735016,0.708742499,0.69569093,9.86E-01
0.024847448,0.751338482,0.653287292,9.91E-01
0.02495988,0.79164046,0.608025432,9.96E-01
0.025072312,0.829390287,0.559986293,1.00E+00
0.025184744,0.864325225,0.509289265,1.01E+00
0.025297176,0.896188676,0.456094563,1.01E+00
0.025409608,0.924738467,0.400601655,1.02E+00
0.02552204,0.949757814,0.343043506,1.02E+00
0.025634472,0.971062005,0.283676416,1.02E+00
0.025746904,0.988500476,0.222763449,1.03E+00
0.025859334,1.00193846,0.160560846,1.03E+00
0.025971766,1.01123261,0.097325414,1.03E+00
0.026084198,1.01621938,0.033352114,1.03E+00
0.02619663,1.01675069,-0.030988554,1.03E+00
0.026309062,1.01275206,-0.095261544,1.03E+00
0.026421494,1.00424731,-0.159017161,1.03E+00
0.026533926,0.991343319,-0.221831515,1.03E+00
0.026646358,0.974204898,-0.283324838,1.03E+00
0.02675879,0.953035891,-0.343162119,1.03E+00
0.026871222,0.928065956,-0.401051342,1.02E+00
0.026983654,0.899544775,-0.456742555,1.02E+00
0.027096086,0.86773473,-0.510026097,1.01E+00
0.027208518,0.832904577,-0.560732126,1.01E+00
0.02732095,0.795324147,-0.608729124,1.00E+00
0.027433382,0.755257368,-0.653921902,9.98E-01
0.027545814,0.712958038,-0.696247756,9.93E-01
0.027658246,0.668664336,-0.735672712,9.88E-01
0.027770678,0.622594953,-0.772185743,9.84E-01
0.027883108,0.574947953,-0.805793881,9.80E-01
0.02799554,0.525898099,-0.836516559,9.76E-01
0.028107972,0.475598007,-0.864379466,9.73E-01
0.028220404,0.4241786,-0.889409959,9.71E-01
0.028332836,0.371752024,-0.911631048,9.69E-01
0.028445268,0.318414718,-0.931059957,9.68E-01
0.0285577,0.264250815,-0.947704017,9.68E-01
0.028670132,0.209335059,-0.961559176,9.68E-01
0.028782564,0.153736815,-0.97261107,9.70E-01
0.028894996,0.097518861,-0.980833709,9.72E-01
0.029007428,0.040738076,-0.986186922,9.74E-01
0.02911986,-0.016555214,-0.988608599,9.78E-01
0.029232292,-0.074309811,-0.98800081,9.82E-01
0.029344724,-0.132450312,-0.984221578,9.86E-01
0.029457156,-0.190844834,-0.977094114,9.91E-01
0.029569588,-0.249287128,-0.966443956,9.96E-01
0.02968202,-0.307508916,-0.952136338,1.00E+00
0.029794452,-0.365209341,-0.934090853,1.01E+00
0.029906882,-0.422078282,-0.912276804,1.01E+00
0.030019314,-0.477804124,-0.886702597,1.01E+00
0.030131746,-0.532076836,-0.857410729,1.02E+00
0.030244178,-0.584587514,-0.824475825,1.02E+00
0.03035661,-0.635029554,-0.788005173,1.02E+00
0.030469042,-0.68310529,-0.748141527,1.03E+00
0.030581474,-0.728527784,-0.705061674,1.03E+00
0.030693906,-0.771028757,-0.658977032,1.03E+00
0.030806338,-0.810363472,-0.610129774,1.03E+00
0.03091877,-0.846315384,-0.558790386,1.03E+00
0.031031202,-0.878701031,-0.505251765,1.03E+00
0.031143634,-0.907373786,-0.449825138,1.03E+00
0.031256066,-0.932224214,-0.392832905,1.02E+00
0.031368498,-0.953184545,-0.334602773,1.02E+00
0.03148093,-0.970225215,-0.27546072,1.02E+00
0.031593362,-0.983355224,-0.215725526,1.01E+00
0.031705794,-0.992619932,-0.155701742,1.01E+00
0.031818226,-0.998098016,-0.095675178,1.01E+00
0.031930658,-0.999895513,-0.035906546,1.00E+00
0.032043088,-0.998142302,0.023372678,9.97E-01
0.03215552,-0.992986381,0.081964813,9.93E-01
0.032267952,-0.98458308,0.139709949,9.89E-01
0.032380384,-0.973085701,0.19648774,9.86E-01
0.032492816,-0.958628476,0.252214313,9.83E-01
0.032605248,-0.941314399,0.306830019,9.80E-01
0.03271768,-0.921208382,0.360276341,9.78E-01
0.032830112,-0.898349822,0.412475288,9.77E-01
0.032942544,-0.872774899,0.463322699,9.76E-01
0.033054976,-0.844533741,0.512699544,9.76E-01
0.033167408,-0.813691735,0.560487986,9.76E-01
0.03327984,-0.780319273,0.606579542,9.77E-01
0.033392272,-0.744484127,0.650872409,9.78E-01
0.033504704,-0.706246138,0.693265378,9.79E-01
0.033617136,-0.665659606,0.733650863,9.81E-01
0.033729568,-0.622775972,0.771909177,9.84E-01
0.033842,-0.577650309,0.807908356,9.86E-01
0.033954432,-0.530346155,0.841500998,9.89E-01
0.034066864,-0.480941951,0.872528672,9.93E-01
0.034179296,-0.42953366,0.900821626,9.96E-01
0.034291728,-0.376240224,0.926204383,9.99E-01
0.03440416,-0.321205676,0.948500574,1.00E+00
0.034516592,-0.264600754,0.967536867,1.01E+00
0.034629024,-0.206623554,0.983148575,1.01E+00
0.034741456,-0.147498772,0.995187402,1.01E+00
0.034853888,-0.087476052,1.00352335,1.01E+00
0.03496632,-0.02682611,1.00805306,1.02E+00
0.035078748,0.034163106,1.00870287,1.02E+00
0.03519118,0.095191851,1.00543189,1.02E+00
0.035303612,0.155955404,0.998235464,1.02E+00
0.035416044,0.216151431,0.987145364,1.02E+00
0.035528476,0.275487661,0.972227752,1.02E+00
0.035640908,0.333689809,0.953578234,1.02E+00
0.03575334,0.390505821,0.931313992,1.02E+00
0.035865772,0.445705473,0.905563176,1.02E+00
0.035978204,0.499072731,0.876456857,1.02E+00
0.036090636,0.550393522,0.844130695,1.02E+00
0.036203068,0.599451303,0.808737159,1.01E+00
0.0363155,0.646030724,0.770458758,1.01E+00
0.036427932,0.689937711,0.729513407,1.01E+00
0.036540364,0.731013954,0.686145306,1.01E+00
0.036652796,0.769142687,0.64060992,1.00E+00
0.036765228,0.804248691,0.593159974,9.99E-01
0.03687766,0.836289048,0.544035435,9.95E-01
0.036990092,0.865247488,0.493459493,9.92E-01
0.037102524,0.891125262,0.441634417,9.89E-01
0.037214956,0.913936079,0.388744146,9.86E-01
0.037327388,0.933700502,0.334952265,9.84E-01
0.03743982,0.950441658,0.280406088,9.82E-01
0.037552252,0.964179993,0.225237206,9.80E-01
0.037664684,0.974932313,0.169565707,9.79E-01
0.037777116,0.982708156,0.113502771,9.79E-01
0.037889548,0.987508714,0.057154279,9.78E-01
0.03800198,0.989327133,0.000625208,9.79E-01
0.038114412,0.988147497,-0.055977654,9.80E-01
0.038226844,0.983947039,-0.112541772,9.81E-01
0.038339276,0.976699293,-0.168945804,9.82E-01
0.038451708,0.96637404,-0.225058466,9.85E-01
0.03856414,0.95294404,-0.280736834,9.87E-01
0.038676572,0.936384797,-0.335826218,9.90E-01
0.038789004,0.91667968,-0.390161753,9.93E-01
0.038901436,0.893819511,-0.443569869,9.96E-01
0.039013868,0.867802858,-0.49586907,9.99E-01
0.0391263,0.838634431,-0.546871006,1.00E+00
0.039238728,0.80632329,-0.596374393,1.01E+00
0.03935116,0.770886779,-0.644159019,1.01E+00
0.039463592,0.732359052,-0.6899786,1.01E+00
0.039576024,0.690809131,-0.733562171,1.02E+00
0.039688456,0.646354735,-0.774628758,1.02E+00
0.039800888,0.599164724,-0.812903464,1.02E+00
0.03991332,0.549454391,-0.848136961,1.02E+00
0.040025752,0.497472763,-0.88011384,1.02E+00
0.040138184,0.443492144,-0.908655405,1.02E+00
0.040250616,0.387798667,-0.933619738,1.02E+00
0.040363048,0.330687076,-0.954900026,1.02E+00
0.04047548,0.272455245,-0.972422957,1.02E+00
0.040587912,0.21340099,-0.986148417,1.02E+00
0.040700344,0.153817385,-0.996067107,1.02E+00
0.040812776,0.093988799,-1.00219846,1.01E+00
0.040925208,0.034188319,-1.00459027,1.01E+00
0.04103764,-0.025326794,-1.00331366,1.01E+00
0.041150072,-0.084316529,-0.99846071,1.00E+00
0.041262504,-0.142560944,-0.990142226,1.00E+00
0.041374936,-0.199862525,-0.978480339,9.97E-01
0.041487368,-0.25604412,-0.96360904,9.94E-01
0.0415998,-0.31095168,-0.945665777,9.91E-01
0.041712232,-0.364452422,-0.924791694,9.88E-01
0.041824664,-0.416433156,-0.901124239,9.85E-01
0.041937096,-0.466799527,-0.874797583,9.83E-01
0.042049528,-0.515473843,-0.845937371,9.81E-01
0.04216196,-0.562392354,-0.814656973,9.80E-01
0.042274392,-0.607501686,-0.781056285,9.79E-01
0.042386824,-0.650755584,-0.745216608,9.79E-01
0.042499256,-0.692105293,-0.707198262,9.79E-01
0.042611688,-0.731491268,-0.667041957,9.80E-01
0.04272412,-0.768831491,-0.624773502,9.81E-01
0.042836552,-0.804015338,-0.580417693,9.83E-01
0.042948984,-0.836903095,-0.534012496,9.86E-01
0.043061416,-0.867336631,-0.485621959,9.88E-01
0.043173848,-0.895150781,-0.435338795,9.91E-01
0.04328628,-0.920184135,-0.383282602,9.94E-01
0.043398708,-0.942283094,-0.329594046,9.97E-01
0.04351114,-0.961303115,-0.274431407,9.99E-01
0.043623572,-0.977109671,-0.217968717,1.00E+00
0.043736004,-0.989577532,-0.160396278,1.00E+00
0.043848436,-0.998592794,-0.101919711,1.01E+00
0.043960868,-1.00405538,-0.042761799,1.01E+00
0.0440733,-1.00588262,0.016838977,1.01E+00
0.044185732,-1.00401247,0.076630279,1.01E+00
0.044298164,-0.998405099,0.136347696,1.02E+00
0.044410596,-0.989047229,0.195717707,1.02E+00
0.044523028,-0.975953817,0.254462749,1.02E+00
0.04463546,-0.959168732,0.31230408,1.02E+00
0.044747892,-0.938765287,0.368967474,1.02E+00
0.044860324,-0.914846122,0.424186975,1.02E+00
0.044972756,-0.887541413,0.477710366,1.02E+00
0.045085188,-0.857006371,0.529303372,1.01E+00
0.04519762,-0.823417544,0.578752816,1.01E+00
0.045310052,-0.786970496,0.625871301,1.01E+00
0.045422484,-0.74787122,0.670499146,1.01E+00
0.045534916,-0.706333458,0.712505639,1.01E+00
0.045647348,-0.662569463,0.751788616,1.00E+00
0.04575978,-0.616783679,0.788271129,1.00E+00
0.045872212,-0.569167674,0.82189548,9.99E-01
0.045984644,-0.519898295,0.852614343,9.97E-01
0.046097076,-0.469139695,0.880382061,9.95E-01
0.046209508,-0.417053401,0.905151606,9.93E-01
0.04632194,-0.363803804,0.926876128,9.91E-01
0.046434372,-0.309562594,0.945514798,9.90E-01
0.046546804,-0.254506081,0.961041093,9.88E-01
0.046659236,-0.198808998,0.973443568,9.87E-01
0.046771668,-0.142637759,0.98272562,9.86E-01
0.0468841,-0.086148173,0.988898814,9.85E-01
0.046996532,-0.029484289,0.991977632,9.85E-01
0.047108964,0.027218422,0.991976738,9.85E-01
0.047221396,0.083830357,0.988906026,9.85E-01
0.047333828,0.140223786,0.982771039,9.86E-01
0.047446256,0.196268827,0.973573446,9.86E-01
0.047558688,0.251831025,0.961310029,9.88E-01
0.04767112,0.306767911,0.945978761,9.89E-01
0.047783552,0.360928178,0.927576482,9.91E-01
0.047895984,0.414149821,0.906106949,9.93E-01
0.048008416,0.466260076,0.881580293,9.95E-01
0.048120848,0.517076015,0.85401845,9.97E-01
0.04823328,0.56640631,0.823457003,9.99E-01
0.048345712,0.614052832,0.789949059,1.00E+00
0.048458144,0.659814358,0.753566086,1.00E+00
0.048570576,0.703489423,0.714400351,1.01E+00
0.048683008,0.744880676,0.672564685,1.01E+00
0.04879544,0.78379786,0.628191173,1.01E+00
0.048907872,0.820061982,0.581430495,1.01E+00
0.049020304,0.853506267,0.532446742,1.01E+00
0.049132736,0.88397646,0.481415123,1.01E+00
0.049245168,0.91132921,0.428521097,1.01E+00
