Frequency (GHz),Re( S21 ),Im( S21 ),S2
0,-0.020300362,-2.53E-05,4.12E-04
0.000113202,-0.019437522,0.007455726,4.33E-04
0.000226403,-0.016886532,0.014548302,4.97E-04
0.000339605,-0.012777279,0.02088418,5.99E-04
0.000452807,-0.007288883,0.026193939,7.39E-04
0.000566008,-0.000746407,0.030083414,9.06E-04
0.00067921,0.006538092,0.032402106,1.09E-03
0.000792412,0.014194207,0.033020895,1.29E-03
0.000905613,0.021830954,0.031896673,1.49E-03
0.001018815,0.029056406,0.029074261,1.69E-03
0.001132016,0.035497464,0.024684979,1.87E-03
0.001245218,0.040818028,0.018940346,2.02E-03
0.00135842,0.044736054,0.012122551,2.15E-03
0.001471621,0.047037866,0.004570845,2.23E-03
0.001584823,0.047589362,-0.00333427,2.28E-03
0.001698025,0.046343844,-0.011189548,2.27E-03
0.001811226,0.043344852,-0.018588228,2.22E-03
0.001924428,0.038726036,-0.025140489,2.13E-03
0.00203763,0.03270521,-0.030491771,2.00E-03
0.002150831,0.0255762,-0.034342453,1.83E-03
0.002264033,0.017695054,-0.036461655,1.64E-03
0.002377235,0.009464381,-0.036701866,1.44E-03
0.002490436,0.00131415,-0.035006702,1.23E-03
0.002603638,-0.006318673,-0.031416927,1.03E-03
0.00271684,-0.013011458,-0.026069235,8.49E-04
0.002830041,-0.018377191,-0.019194014,7.06E-04
0.002943243,-0.022084588,-0.011104809,6.11E-04
0.003056444,-0.023875976,-0.002185567,5.75E-04
0.003169646,-0.023581564,0.007126739,6.07E-04
0.003282848,-0.021132778,0.016365398,7.14E-04
0.003396049,-0.0165827,0.025085541,9.04E-04
0.003509251,-0.010040027,0.032745902,1.17E-03
0.003622453,-0.001752557,0.039024297,1.53E-03
0.003735654,0.007813912,0.043246891,1.93E-03
0.003848856,0.018447287,0.045492292,2.41E-03
0.003962058,0.02964009,0.045463331,2.95E-03
0.004075259,0.040711097,0.042996563,3.51E-03
0.004188461,0.051210705,0.03815379,4.08E-03
0.004301663,0.060609773,0.031084389,4.64E-03
0.004414864,0.06841521,0.022054913,5.17E-03
0.004528066,0.074195184,0.011439856,5.64E-03
0.004641268,0.077602342,-0.000290872,6.02E-03
0.004754469,0.078393549,-0.012590553,6.30E-03
0.004867671,0.076446518,-0.024858156,6.46E-03
0.004980873,0.071771376,-0.036464557,6.48E-03
0.005094074,0.064516835,-0.046779446,6.35E-03
0.005207276,0.054971147,-0.055201758,6.07E-03
0.005320477,0.043555703,-0.061188351,5.64E-03
0.005433679,0.030814806,-0.064282954,5.08E-03
0.005546881,0.017397437,-0.064141907,4.42E-03
0.005660082,0.004035186,-0.06055744,3.68E-03
0.005773284,-0.008485679,-0.053475536,2.93E-03
0.005886486,-0.019355469,-0.043009248,2.22E-03
0.005999687,-0.027775349,-0.029444935,1.64E-03
0.006112889,-0.032993093,-0.013242192,1.26E-03
0.006226091,-0.034338668,0.004974181,1.20E-03
0.006339292,-0.031258915,0.024430051,1.57E-03
0.006452494,-0.023349494,0.04422592,2.50E-03
0.006565695,-0.010385837,0.063364834,4.12E-03
0.006678897,0.007794357,0.080920264,6.61E-03
0.006792099,0.030766869,0.095521465,1.01E-02
0.0069053,0.058248065,0.106230453,1.47E-02
0.007018502,0.089631654,0.112039313,2.06E-02
0.007131704,0.1240694,0.111998588,2.79E-02
0.007244905,0.160503238,0.105453163,3.69E-02
0.007358107,0.197865397,0.091792241,4.76E-02
0.007471309,0.234839946,0.07062386,6.01E-02
0.00758451,0.270051509,0.041820008,7.47E-02
0.007697712,0.302093208,0.005499887,9.13E-02
0.007810914,0.329568446,-0.03796269,1.10E-01
0.007924115,0.351137042,-0.087941304,1.31E-01
0.008037317,0.365565091,-0.143567681,1.54E-01
0.008150518,0.371769994,-0.203760341,1.80E-01
0.00826372,0.368841618,-0.267259657,2.07E-01
0.008376922,0.356070131,-0.332638264,2.37E-01
0.008490123,0.332987636,-0.398341089,2.70E-01
0.008603325,0.299385339,-0.462733448,3.04E-01
0.008716526,0.255321056,-0.524146616,3.40E-01
0.008829728,0.20112212,-0.580917895,3.78E-01
0.00894293,0.13738434,-0.631432891,4.18E-01
0.009056131,0.064964317,-0.674167037,4.59E-01
0.009169333,-0.015037053,-0.707726479,5.01E-01
0.009282535,-0.101302996,-0.730884194,5.44E-01
0.009395736,-0.192338988,-0.742618382,5.88E-01
0.009508938,-0.28650704,-0.742154837,6.33E-01
0.00962214,-0.382050127,-0.728995442,6.77E-01
0.009735341,-0.47712636,-0.702920794,7.22E-01
0.009848543,-0.569861114,-0.663992167,7.66E-01
0.009961745,-0.658399761,-0.612553775,8.09E-01
0.010074946,-0.740956008,-0.549229205,8.51E-01
0.010188148,-0.81585747,-0.474910051,8.91E-01
0.010301349,-0.881587684,-0.390735954,9.30E-01
0.010414551,-0.936823308,-0.298064619,9.66E-01
0.010527753,-0.980469644,-0.198438376,1.00E+00
0.010640954,-1.01168478,-0.093542889,1.03E+00
0.010754156,-1.02989948,0.01483797,1.06E+00
0.010867358,-1.03482914,0.124868989,1.09E+00
0.010980559,-1.026474,0.234712377,1.11E+00
0.011093761,-1.0051142,0.342576295,1.13E+00
0.011206963,-0.971293151,0.446760654,1.14E+00
0.011320164,-0.9257918,0.545698524,1.15E+00
0.011433366,-0.869600475,0.637994111,1.16E+00
0.011546568,-0.803876221,0.722455204,1.17E+00
0.011659769,-0.729891419,0.798133135,1.17E+00
0.011772971,-0.649062872,0.864430845,1.17E+00
0.011886172,-0.563084722,0.92076093,1.16E+00
0.011999374,-0.47326377,0.966714621,1.16E+00
0.012112576,-0.380948126,1.00232446,1.15E+00
0.012225777,-0.287442118,1.02783322,1.14E+00
0.012338979,-0.193879962,1.04372656,1.13E+00
0.012452181,-0.100876987,1.05087447,1.11E+00
0.012565382,-0.022637129,1.03893971,1.08E+00
0.012678584,0.066847429,1.03426337,1.07E+00
0.012791786,0.151184171,1.0166719,1.06E+00
0.012904987,0.230415314,0.9926157,1.04E+00
0.013018189,0.304831237,0.963109851,1.02E+00
0.01313139,0.374420166,0.928972185,1.00E+00
0.013244592,0.439203113,0.890952766,9.87E-01
0.013357794,0.499281347,0.849726617,9.71E-01
0.013470995,0.554832876,0.805879414,9.57E-01
0.013584197,0.606094718,0.759898186,9.45E-01
0.013697399,0.653341532,0.71216619,9.34E-01
0.0138106,0.696862221,0.662962675,9.25E-01
0.013923802,0.736937761,0.612469494,9.18E-01
0.014037004,0.773821831,0.560779035,9.13E-01
0.014150205,0.807722092,0.507909238,9.10E-01
0.014263407,0.838786483,0.453818142,9.10E-01
0.014376609,0.867093682,0.398424268,9.11E-01
0.01448981,0.892647147,0.34162432,9.14E-01
0.014603012,0.915373743,0.283316165,9.18E-01
0.014716213,0.93512696,0.223417088,9.24E-01
0.014829415,0.95169431,0.161885053,9.32E-01
0.014942617,0.96481216,0.098736554,9.41E-01
0.015055818,0.974184334,0.034058448,9.50E-01
0.01516902,0.979504943,-0.031988766,9.60E-01
0.015282222,0.980471849,-0.099172905,9.71E-01
0.015395423,0.976799488,-0.16718787,9.82E-01
0.015508625,0.968242943,-0.235645697,9.93E-01
0.015621827,0.954643548,-0.304086208,1.00E+00
0.015735028,0.935994625,-0.372034758,1.01E+00
0.01584823,0.912434757,-0.439216435,1.03E+00
0.015961432,0.883752346,-0.505683243,1.04E+00
0.016074633,0.849171102,-0.570863366,1.05E+00
0.016187835,0.808630288,-0.633499086,1.06E+00
0.016301036,0.762652099,-0.692733943,1.06E+00
0.016414238,0.711749077,-0.748026192,1.07E+00
0.01652744,0.656396508,-0.798922539,1.07E+00
0.016640641,0.597090602,-0.845018506,1.07E+00
0.016753843,0.534366608,-0.885966599,1.07E+00
0.016867044,0.468797028,-0.921491623,1.07E+00
0.016980246,0.400978953,-0.951397657,1.07E+00
0.017093448,0.33152166,-0.975573897,1.06E+00
0.01720665,0.261030138,-0.993995368,1.06E+00
0.017319852,0.190091446,-1.0067184,1.05E+00
0.017433052,0.119260326,-1.01387584,1.04E+00
0.017546254,0.049047232,-1.01566768,1.03E+00
0.017659456,-0.020090839,-1.01235092,1.03E+00
0.017772658,-0.08775796,-1.0042268,1.02E+00
0.01788586,-0.153623596,-0.991627038,1.01E+00
0.017999062,-0.217423409,-0.974901557,9.98E-01
0.018112262,-0.278959155,-0.954404712,9.89E-01
0.018225464,-0.338093519,-0.930484653,9.80E-01
0.018338666,-0.394746065,-0.903471231,9.72E-01
0.018451868,-0.448885053,-0.873669326,9.65E-01
0.01856507,-0.500519395,-0.841350734,9.58E-01
0.01867827,-0.549689829,-0.806750834,9.53E-01
0.018791472,-0.596460462,-0.770067811,9.49E-01
0.018904674,-0.640916646,-0.73146534,9.46E-01
0.019017876,-0.683175802,-0.691069245,9.44E-01
0.019131078,-0.723401129,-0.648930073,9.44E-01
0.01924428,-0.761756837,-0.604943573,9.46E-01
0.01935748,-0.798240364,-0.558846891,9.49E-01
0.019470682,-0.832591474,-0.510439277,9.54E-01
0.019583884,-0.864489257,-0.459734589,9.59E-01
0.019697086,-0.893703699,-0.406842262,9.64E-01
0.019810288,-0.92005533,-0.35186249,9.70E-01
0.01992349,-0.94335866,-0.294880927,9.77E-01
0.02003669,-0.963401973,-0.235994801,9.84E-01
0.020149892,-0.979951382,-0.175333008,9.91E-01
0.020263094,-0.992760003,-0.113067351,9.98E-01
0.020376296,-1.00158286,-0.049419213,1.01E+00
0.020489498,-1.00618672,0.015339926,1.01E+00
0.020602698,-1.00636303,0.080890015,1.02E+00
0.0207159,-1.00193882,0.146866888,1.03E+00
0.020829102,-0.992785454,0.212868333,1.03E+00
0.020942304,-0.97882688,0.278463036,1.04E+00
0.021055506,-0.960044861,0.343199551,1.04E+00
0.021168708,-0.936484158,0.406618148,1.04E+00
0.021281908,-0.908252239,0.468260795,1.04E+00
0.02139511,-0.875520527,0.527683794,1.04E+00
0.021508312,-0.83852005,0.584467828,1.04E+00
0.021621514,-0.797538638,0.638230681,1.04E+00
0.021734716,-0.752910793,0.688633561,1.04E+00
0.021847916,-0.70501256,0.73539269,1.04E+00
0.021961118,-0.654249668,0.778284431,1.03E+00
0.02207432,-0.601046622,0.81715256,1.03E+00
0.022187522,-0.545832455,0.851913154,1.02E+00
0.022300724,-0.489021301,0.882560253,1.02E+00
0.022413926,-0.430981189,0.909161091,1.01E+00
0.022527126,-0.371998519,0.931826711,1.01E+00
0.022640328,-0.312272787,0.950643301,1.00E+00
0.02275353,-0.25198701,0.965624213,9.96E-01
0.022866732,-0.191389784,0.976753771,9.91E-01
0.022979934,-0.130781248,0.984079361,9.86E-01
0.023093136,-0.070439123,0.987730443,9.81E-01
0.023206336,-0.010576825,0.987879217,9.76E-01
0.023319538,0.048655354,0.984700799,9.72E-01
0.02343274,0.107155018,0.978351772,9.69E-01
0.023545942,0.164851889,0.968962491,9.66E-01
0.023659144,0.22169587,0.956633389,9.64E-01
0.023772344,0.277646273,0.941435039,9.63E-01
0.023885546,0.332662493,0.923408628,9.63E-01
0.023998748,0.386696845,0.902569771,9.64E-01
0.02411195,0.439686358,0.878911555,9.66E-01
0.024225152,0.491547853,0.852411091,9.68E-01
0.024338354,0.542173028,0.823034763,9.71E-01
0.024451554,0.591425061,0.79074645,9.75E-01
0.024564756,0.639138997,0.755515456,9.79E-01
0.024677958,0.685120404,0.717323303,9.84E-01
0.02479116,0.729148269,0.676172435,9.89E-01
0.024904362,0.770981193,0.632093132,9.94E-01
0.025017562,0.81036061,0.585149229,9.99E-01
0.025130764,0.847019494,0.535443008,1.00E+00
0.025243966,0.880692124,0.483117819,1.01E+00
0.025357168,0.911122739,0.428358197,1.01E+00
0.02547037,0.938076794,0.371387005,1.02E+00
0.025583572,0.961349666,0.312455893,1.02E+00
0.025696772,0.980773091,0.251832247,1.03E+00
0.025809974,0.996204197,0.18978104,1.03E+00
0.025923176,1.00750458,0.126560822,1.03E+00
0.026036378,1.01451397,0.062449429,1.03E+00
0.02614958,1.0170666,-0.002210467,1.03E+00
0.02626278,1.01504922,-0.066998109,1.03E+00
0.026375982,1.00844371,-0.131454229,1.03E+00
0.026489184,0.997327983,-0.195132822,1.03E+00
0.026602386,0.981848478,-0.257627726,1.03E+00
0.026715588,0.962198019,-0.318579137,1.03E+00
0.02682879,0.93860203,-0.377672821,1.02E+00
0.02694199,0.911306858,-0.434636861,1.02E+00
0.027055192,0.880576015,-0.489242375,1.01E+00
0.027168394,0.846681654,-0.541300893,1.01E+00
0.027281596,0.8098979,-0.590664148,1.00E+00
0.027394798,0.770497203,-0.637221992,1.00E+00
0.027508,0.728741884,-0.680899024,9.95E-01
0.0276212,0.684880137,-0.721649945,9.90E-01
0.027734402,0.639141917,-0.759456873,9.85E-01
0.027847604,0.591735899,-0.794320464,9.81E-01
0.027960806,0.542847931,-0.826256692,9.77E-01
0.028074008,0.492640167,-0.855289936,9.74E-01
0.028187208,0.441252977,-0.881447196,9.72E-01
0.02830041,0.388805717,-0.904753745,9.70E-01
0.028413612,0.335401386,-0.925228298,9.69E-01
0.028526814,0.281128854,-0.94288063,9.68E-01
0.028640016,0.226067111,-0.957709908,9.68E-01
0.028753218,0.170288116,-0.969703615,9.69E-01
0.028866418,0.11385791,-0.978838205,9.71E-01
0.02897962,0.056836363,-0.985076189,9.74E-01
0.029092822,-0.000723838,-0.988360703,9.77E-01
0.029206024,-0.058771972,-0.988602221,9.81E-01
0.029319226,-0.11723993,-0.985665321,9.85E-01
0.029432426,-0.17600821,-0.97937578,9.90E-01
0.029545628,-0.234883562,-0.96955061,9.95E-01
0.02965883,-0.293603003,-0.956041276,1.00E+00
0.029772032,-0.351864606,-0.938753605,1.01E+00
0.029885234,-0.409352243,-0.917646825,1.01E+00
0.029998436,-0.46574825,-0.892722428,1.01E+00
0.030111636,-0.520735979,-0.864016771,1.02E+00
0.030224838,-0.573999286,-0.831599474,1.02E+00
0.03033804,-0.625225186,-0.795573711,1.02E+00
0.030451242,-0.674107552,-0.756079257,1.03E+00
0.030564444,-0.720351458,-0.713290215,1.03E+00
0.030677646,-0.763680041,-0.667416453,1.03E+00
0.030790846,-0.803839386,-0.618700862,1.03E+00
0.030904048,-0.840603352,-0.567414224,1.03E+00
0.03101725,-0.87378031,-0.513853073,1.03E+00
0.031130452,-0.903215289,-0.4583323,1.03E+00
0.031243654,-0.928792179,-0.401179582,1.02E+00
0.031356854,-0.950435221,-0.342728108,1.02E+00
0.031470056,-0.968111038,-0.283311248,1.02E+00
0.031583258,-0.981824219,-0.223254517,1.01E+00
0.03169646,-0.991616845,-0.162870407,1.01E+00
0.031809662,-0.997565687,-0.102451608,1.01E+00
0.031922864,-0.999776781,-0.042266592,1.00E+00
0.032036064,-0.998380661,0.017446358,9.97E-01
0.032149266,-0.993525386,0.076483227,9.93E-01
0.032262468,-0.985370517,0.134678423,9.89E-01
0.03237567,-0.974070489,0.191907436,9.86E-01
0.032488872,-0.959764123,0.248082682,9.83E-01
0.032602072,-0.94255656,0.303142816,9.80E-01
0.032715274,-0.922514677,0.357028037,9.79E-01
0.032828476,-0.899678946,0.409659117,9.77E-01
0.032941678,-0.87408483,0.460929692,9.76E-01
0.03305488,-0.845783234,0.51071763,9.76E-01
0.033168082,-0.814840436,0.558903277,9.76E-01
0.033281282,-0.781328142,0.605374753,9.77E-01
0.033394484,-0.745314419,0.65002811,9.78E-01
0.033507686,-0.706860304,0.692759156,9.80E-01
0.033620888,-0.666020572,0.733457565,9.82E-01
0.033734088,-0.622847855,0.77200079,9.84E-01
0.033847292,-0.577398241,0.808251858,9.87E-01
0.033960492,-0.529737651,0.842060864,9.90E-01
0.034073696,-0.479946107,0.873264134,9.93E-01
0.034186896,-0.428123146,0.901687562,9.96E-01
0.034300096,-0.374391466,0.927152574,1.00E+00
0.0344133,-0.318900317,0.949477732,1.00E+00
0.0345265,-0.26182574,0.968486965,1.01E+00
0.034639704,-0.203372344,0.984013319,1.01E+00
0.034752904,-0.143771872,0.995906115,1.01E+00
0.034866104,-0.083281077,1.00403547,1.02E+00
0.034979308,-0.022178333,1.00829828,1.02E+00
0.035092508,0.0392409,1.00862265,1.02E+00
0.035205712,0.100670189,1.00497127,1.02E+00
0.035318912,0.161798269,0.997343898,1.02E+00
0.035432112,0.222317934,0.985777199,1.02E+00
0.035545316,0.281933546,0.970342517,1.02E+00
0.035658516,0.340368003,0.951141357,1.02E+00
0.03577172,0.397368103,0.928294897,1.02E+00
0.03588492,0.452701926,0.901934505,1.02E+00
0.035998124,0.506150782,0.872193158,1.02E+00
0.036111324,0.557495117,0.839210689,1.02E+00
0.036224524,0.606513143,0.80314678,1.01E+00
0.036337728,0.652988195,0.764194131,1.01E+00
0.036450928,0.696727931,0.722580314,1.01E+00
0.036564132,0.737578452,0.678557694,1.00E+00
0.036677332,0.775430143,0.632386804,1.00E+00
0.036790532,0.810213089,0.584322333,9.98E-01
0.036903736,0.841889799,0.534605265,9.95E-01
0.037016936,0.870447576,0.483457774,9.91E-01
0.03713014,0.895890832,0.43108204,9.88E-01
0.03724334,0.918235123,0.37765947,9.86E-01
0.03735654,0.937501192,0.323352784,9.83E-01
0.037469744,0.953711689,0.268307626,9.82E-01
0.037582944,0.966886163,0.21265474,9.80E-01
0.037696148,0.977039158,0.156513974,9.79E-01
0.037809348,0.984177411,0.099996693,9.79E-01
0.037922552,0.988298655,0.043210622,9.79E-01
0.038035752,0.989393115,-0.013736948,9.79E-01
0.038148952,0.987441182,-0.070735179,9.80E-01
0.038262156,0.982417762,-0.127666607,9.81E-01
0.038375356,0.974294007,-0.184404388,9.83E-01
0.03848856,0.963039458,-0.240810022,9.85E-01
0.03860176,0.948625684,-0.296734065,9.88E-01
0.03871496,0.931030333,-0.352014214,9.91E-01
0.038828164,0.910238504,-0.406478733,9.94E-01
0.038941364,0.886243522,-0.459947586,9.97E-01
0.039054568,0.859045744,-0.512233078,1.00E+00
0.039167768,0.828652084,-0.563138783,1.00E+00
0.039280968,0.795073152,-0.612452865,1.01E+00
0.039394172,0.758330822,-0.6599406,1.01E+00
0.039507372,0.718472183,-0.705340683,1.01E+00
0.039620576,0.675584555,-0.748369694,1.02E+00
0.039733776,0.629808903,-0.788741171,1.02E+00
0.03984698,0.581337214,-0.826183558,1.02E+00
0.03996018,0.530404508,-0.860455155,1.02E+00
0.04007338,0.47727564,-0.891351581,1.02E+00
0.040186584,0.422234535,-0.918705821,1.02E+00
0.040299784,0.365577221,-0.942388177,1.02E+00
0.040412988,0.307606071,-0.962304831,1.02E+00
0.040526188,0.248625353,-0.978395581,1.02E+00
0.040639388,0.188936248,-0.990632474,1.02E+00
0.040752592,0.128834575,-0.999019682,1.01E+00
0.040865792,0.068605125,-1.0035907,1.01E+00
0.040978996,0.008518995,-1.00440371,1.01E+00
0.041092196,-0.051169712,-1.00154281,1.01E+00
0.041205396,-0.110226125,-0.995109916,1.00E+00
0.0413186,-0.168436408,-0.985223532,9.99E-01
0.0414318,-0.225609407,-0.972014546,9.96E-01
0.041545004,-0.281576902,-0.955620527,9.92E-01
0.041658204,-0.336191803,-0.93618381,9.89E-01
0.041771404,-0.389329702,-0.913845956,9.87E-01
0.041884608,-0.440884978,-0.888745368,9.84E-01
0.041997808,-0.490770221,-0.861013353,9.82E-01
0.042111012,-0.538913488,-0.830771685,9.81E-01
0.042224212,-0.585256159,-0.798128188,9.80E-01
0.042337416,-0.629747272,-0.763173819,9.79E-01
0.042450616,-0.672339141,-0.725979745,9.79E-01
0.042563816,-0.712976933,-0.686594844,9.80E-01
0.04267702,-0.751586974,-0.645050704,9.81E-01
0.04279022,-0.788068295,-0.601370394,9.83E-01
0.042903424,-0.822289288,-0.555585325,9.85E-01
0.043016624,-0.854094446,-0.507748663,9.87E-01
0.043129824,-0.883315504,-0.457943171,9.90E-01
0.043243028,-0.909785151,-0.406280458,9.93E-01
0.043356228,-0.933342218,-0.352896482,9.96E-01
0.043469432,-0.953835368,-0.297946006,9.99E-01
0.043582632,-0.971123338,-0.241601005,1.00E+00
0.043695832,-0.985073268,-0.184048846,1.00E+00
0.043809036,-0.995564461,-0.125494346,1.01E+00
0.043922236,-1.00248897,-0.066158608,1.01E+00
0.04403544,-1.00575531,-0.006279341,1.01E+00
0.04414864,-1.00529242,0.053889748,1.01E+00
0.044261844,-1.00105059,0.114082918,1.02E+00
0.044375044,-0.993007541,0.174023584,1.02E+00
0.044488244,-0.981168985,0.233429298,1.02E+00
0.044601448,-0.965569139,0.292015463,1.02E+00
0.044714648,-0.946274102,0.349499792,1.02E+00
0.044827852,-0.923379242,0.405608594,1.02E+00
0.044941052,-0.897008419,0.460079253,1.02E+00
0.045054252,-0.867312908,0.512666821,1.02E+00
0.045167456,-0.834467173,0.563147843,1.01E+00
0.045280656,-0.798664927,0.611323595,1.01E+00
0.04539386,-0.760114133,0.657022715,1.01E+00
0.04550706,-0.719030678,0.700104713,1.01E+00
0.04562026,-0.675631762,0.740457654,1.00E+00
0.045733464,-0.630127847,0.777997315,1.00E+00
0.045846664,-0.58271724,0.812660098,1.00E+00
0.045959868,-0.533582985,0.844395697,9.98E-01
0.046073068,-0.482895136,0.87315768,9.96E-01
0.046186272,-0.430817097,0.898898005,9.94E-01
0.046299472,-0.377515316,0.92156738,9.92E-01
0.046412672,-0.323162585,0.941121817,9.90E-01
0.046525876,-0.267938673,0.957530677,9.89E-01
0.046639076,-0.212021708,0.970778227,9.87E-01
0.04675228,-0.155583367,0.98086524,9.86E-01
0.04686548,-0.098783851,0.987801135,9.86E-01
0.04697868,-0.041772716,0.991600633,9.85E-01
0.047091884,0.015311512,0.992276728,9.85E-01
0.047205084,0.072335653,0.989840567,9.85E-01
0.047318288,0.129169092,0.984297574,9.86E-01
0.047431488,0.185679883,0.975648761,9.86E-01
0.047544688,0.241731375,0.963890851,9.88E-01
0.047657892,0.297179401,0.949020207,9.89E-01
0.047771092,0.351870358,0.93103385,9.91E-01
0.047884296,0.40563947,0.909932971,9.93E-01
0.047997496,0.458311349,0.885727227,9.95E-01
0.048110696,0.509700179,0.858436525,9.97E-01
0.0482239,0.559611022,0.828095496,9.99E-01
0.0483371,0.607841909,0.794755816,1.00E+00
0.048450304,0.654187024,0.758488834,1.00E+00
0.048563504,0.698439837,0.719386101,1.01E+00
0.048676708,0.740398943,0.677561581,1.01E+00
0.048789908,0.779868662,0.633148432,1.01E+00
0.048903108,0.816665649,0.586298823,1.01E+00
0.049016312,0.850617945,0.537179112,1.01E+00
0.049129512,0.881567895,0.485967487,1.01E+00
0.049242716,0.909368277,0.432852238,1.01E+00
0.049355916,0.933878958,0.378031045,1.02E+00
0.049469116,0.954967737,0.32171607,1.02E+00
0.04958232,0.972510397,0.264139622,1.02E+00
