Frequency (GHz),Re( S21 ),Im( S21 ),S2
0,0.021058593,0,0.000443464
0.000110988,0.020573137,-0.004509465,0.000443589
0.000221977,0.019136798,-0.00881639,0.000443946
0.000332965,0.016810739,-0.012725859,0.000444548
0.000443953,0.013694114,-0.016057529,0.000445373
0.000554942,0.009922644,-0.018653972,0.00044643
0.00066593,0.005662896,-0.020386905,0.000447694
0.000776918,0.001107656,-0.021164436,0.00044916
0.000887907,-0.003531968,-0.020936536,0.000450813
0.000998895,-0.008035486,-0.019699564,0.000452642
0.001109883,-0.012183053,-0.017498488,0.000454624
0.001220872,-0.015767025,-0.014427333,0.000456747
0.00133186,-0.018603213,-0.010626059,0.000458993
0.001442848,-0.020541884,-0.006274932,0.000461344
0.001553837,-0.021477196,-0.001585893,0.000463785
0.001664825,-0.021354355,0.003208809,0.000466305
0.001775813,-0.020173524,0.00786925,0.000468896
0.001886802,-0.017990194,0.012161525,0.00047155
0.00199779,-0.014912087,0.01587134,0.00047427
0.002108778,-0.011092608,0.018815102,0.000477054
0.002219767,-0.006721328,0.020850489,0.000479919
0.002330755,-0.002013162,0.021882115,0.00048288
0.002441743,0.002803691,0.021865524,0.000485962
0.002552732,0.00749981,0.020807151,0.000489185
0.00266372,0.011855569,0.018762521,0.000492587
0.002774708,0.015670728,0.015830908,0.000496189
0.002885697,0.018772544,0.012150032,0.000500032
0.002996685,0.021021802,0.007888238,0.00050414
0.003107673,0.022317495,0.003237079,0.000508549
0.003218662,0.022599956,-0.001596318,0.000513306
0.00332965,0.02184803,-0.006380359,0.000518045
0.003440638,0.020079067,-0.010960225,0.000523295
0.003551626,0.017380323,-0.015069748,0.000529173
0.003662615,0.013844915,-0.018538905,0.000535373
0.003773603,0.009618258,-0.021200683,0.00054198
0.003884591,0.004878039,-0.022917783,0.00054902
0.00399558,-0.0001701,-0.023589745,0.000556505
0.004106568,-0.005299532,-0.023159467,0.000564446
0.004217557,-0.010270943,-0.021617962,0.000572829
0.004328545,-0.014842993,-0.019008737,0.000581647
0.004439533,-0.018783994,-0.015428447,0.000590875
0.004550522,-0.021884015,-0.011026168,0.000600486
0.00466151,-0.023967776,-0.005998253,0.000610433
0.004772498,-0.024906589,-0.00058044,0.000620675
0.004883486,-0.024627628,0.004963408,0.000631155
0.004994475,-0.023121111,0.010355813,0.000641829
0.005105463,-0.020442035,0.015321396,0.000652622
0.005216451,-0.016709657,0.019603271,0.000663501
0.00532744,-0.012099984,0.022978449,0.000674419
0.005438428,-0.006836286,0.025270633,0.00068534
0.005549416,-0.00117548,0.02636018,0.000696241
0.005660405,0.004606492,0.026189819,0.000707126
0.005771393,0.010230523,0.024765447,0.000717991
0.005882381,0.015429102,0.022154439,0.000728876
0.00599337,0.019958368,0.018479018,0.000739811
0.006104358,0.023609262,0.013908747,0.00075085
0.006215346,0.026215255,0.008650678,0.000762074
0.006326335,0.027657131,0.002938721,0.000773553
0.006437323,0.027865849,-0.002976297,0.000785364
0.006548311,0.026823465,-0.008836985,0.000797591
0.0066593,0.024561511,-0.014391123,0.000810372
0.006770288,0.021171896,-0.019395175,0.000824422
0.006881276,0.016771577,-0.023614174,0.000838915
0.006992265,0.011529564,-0.026858078,0.000854287
0.007103253,0.005654574,-0.028961798,0.00087076
0.007214241,-0.000613886,-0.029800979,0.000888475
0.00732523,-0.007011184,-0.029298222,0.000907543
0.007436218,-0.013255142,-0.027429935,0.0009281
0.007547206,-0.019056395,-0.024230139,0.000950246
0.007658195,-0.024129814,-0.019794583,0.000974073
0.007769183,-0.028207716,-0.014281379,0.000999633
0.007880171,-0.031054812,-0.007909622,0.001026963
0.00799116,-0.032483053,-0.000952469,0.001056056
0.008102148,-0.032365497,0.00627149,0.001086857
0.008213136,-0.030648727,0.013413759,0.001119273
0.008324125,-0.027360713,0.020113092,0.001153145
0.008435113,-0.022615137,0.026016343,0.001188295
0.008546101,-0.016608099,0.030800235,0.001224483
0.008657089,-0.009610455,0.034192249,0.001261471
0.008768078,-0.001952673,0.03598867,0.001298997
0.008879066,0.005993501,0.036067329,0.001336774
0.008990054,0.013837182,0.03439647,0.001374585
0.009101043,0.021191003,0.031034308,0.001412187
0.009212031,0.02769235,0.026125453,0.001449406
0.009323019,0.033022832,0.019890331,0.001486133
0.009434007,0.036922231,0.012611262,0.001522295
0.009544996,0.039199371,0.004616816,0.001557906
0.009655984,0.039737713,-0.003735615,0.001593041
0.009766972,0.038497627,-0.012076434,0.001627908
0.009877961,0.0355145,-0.020039631,0.001662867
0.009988949,0.030898044,-0.02727768,0.001698761
0.010099937,0.024833512,-0.03346394,0.001736539
0.010210926,0.017541288,-0.038292356,0.001774001
0.010321914,0.009286636,-0.04154259,0.001812028
0.010432902,0.000403897,-0.043039609,0.001852571
0.010543891,-0.008744532,-0.042661674,0.001896485
0.010654879,-0.017775577,-0.040355437,0.001944532
0.010765867,-0.026293241,-0.036142167,0.001997591
0.010876856,-0.03390149,-0.030121768,0.002056632
0.010987844,-0.040218815,-0.022475433,0.002122698
0.011098832,-0.044894747,-0.013465961,0.00219687
0.011209821,-0.04762806,-0.003434461,0.002280228
0.011320809,-0.048185654,0.00720755,0.002373806
0.011431797,-0.046420489,0.017990425,0.002478517
0.011542786,-0.042288519,0.028404262,0.002595121
0.011653774,-0.035860572,0.037923057,0.002724139
0.011764762,-0.027329272,0.046031468,0.002865785
0.011875751,-0.017008646,0.052255627,0.003019945
0.011986739,-0.00532362,0.056193814,0.003186086
0.012097727,0.007206011,0.05754438,0.003363282
0.012208716,0.019993017,0.056129538,0.003550246
0.012319704,0.032413345,0.051909976,0.00374527
0.012430692,0.043841999,0.044991907,0.003946393
0.012541681,0.053687621,0.035623439,0.00415139
0.012652669,0.061426461,0.024181908,0.004357975
0.012763657,0.066628903,0.011153732,0.004563816
0.012874646,0.068980895,-0.002890995,0.004766722
0.012985634,0.068297789,-0.017327676,0.004964836
0.013096622,0.064529985,-0.031505991,0.005156746
0.01320761,0.057764046,-0.044778641,0.005341812
0.013318599,0.04821863,-0.056525394,0.005520157
0.013429587,0.036234271,-0.066169247,0.005691292
0.013540575,0.02224434,-0.073194705,0.005852275
0.013651564,0.006763876,-0.077193886,0.006004646
0.013762552,-0.009594324,-0.077868179,0.006155504
0.01387354,-0.026151072,-0.075020455,0.006311947
0.013984529,-0.042186149,-0.068573415,0.006481984
0.014095517,-0.056956392,-0.058582664,0.006675959
0.014206505,-0.069714196,-0.045245856,0.006907257
0.014317494,-0.079731248,-0.028909067,0.007192806
0.014428482,-0.086326234,-0.010069749,0.007553619
0.01453947,-0.08889503,0.010624591,0.008015208
0.014650459,-0.086944617,0.032383699,0.00860807
0.014761447,-0.080126971,0.054291427,0.009367891
0.014872435,-0.06827344,0.075329609,0.010335813
0.014983424,-0.051423796,0.094413526,0.011558321
0.015094412,-0.029849274,0.110435262,0.013086926
0.0152054,-0.004065714,0.12231648,0.014977851
0.015316389,0.025167299,0.129064932,0.01729115
0.015427377,0.056861859,0.129834205,0.020090192
0.015538365,0.089833327,0.123977043,0.023440334
0.015649354,0.122746073,0.111093767,0.027408424
0.015760342,0.154171303,0.091065064,0.032061637
0.01587133,0.182652459,0.064070597,0.037466962
0.015982319,0.2067727,0.030588972,0.043690635
0.016093307,0.225219414,-0.00861832,0.05079806
0.016204295,0.236841008,-0.052537467,0.058853849
0.016315284,0.240692198,-0.099944517,0.067921641
0.016426272,0.236065507,-0.149454311,0.078063515
0.01653726,0.222511262,-0.199571624,0.089340095
0.016648249,0.1998436,-0.248743877,0.101810981
0.016759237,0.168140277,-0.295407593,0.115536799
0.016870226,0.127734914,-0.338030547,0.130580859
0.016981214,0.07920827,-0.375144839,0.1470076
0.017092202,0.023391329,-0.405376405,0.164877184
0.01720319,-0.038624082,-0.427612305,0.184344103
0.017314178,-0.105931781,-0.44085446,0.205574197
0.017425166,-0.177218154,-0.443977654,0.228522431
0.017536156,-0.250955731,-0.436183006,0.253234394
0.017647144,-0.325502992,-0.416894615,0.279753318
0.017758132,-0.399110258,-0.385768205,0.308106106
0.01786912,-0.469942063,-0.342714012,0.338298437
0.017980108,-0.536108375,-0.287919253,0.370309686
0.018091096,-0.595703959,-0.221869722,0.40408938
0.018202086,-0.646855295,-0.145365164,0.439552804
0.018313074,-0.687775016,-0.059528057,0.476578062
0.018424062,-0.716824234,0.034198172,0.515006497
0.01853505,-0.732575715,0.134065062,0.554640619
0.018646038,-0.73388207,0.238050044,0.595250716
0.018757026,-0.719935358,0.343903512,0.636576545
0.018868014,-0.690322757,0.44921121,0.67833622
0.018979004,-0.645068645,0.551468253,0.720230791
0.019089992,-0.584661543,0.648152947,0.761931363
0.01920098,-0.510043383,0.73677969,0.802988564
0.019311968,-0.422496349,0.814945459,0.842639266
0.019422956,-0.323438764,0.880586326,0.880044912
0.019533944,-0.214665562,0.932318389,0.915298882
0.019644934,-0.098545343,0.969091654,0.948849818
0.019755922,0.022399353,0.990039229,0.980679406
0.01986691,0.145680964,0.994665682,1.010582762
0.019977898,0.2688694,0.982901812,1.038386726
0.020088886,0.389631033,0.955073595,1.063977914
0.020199874,0.505777538,0.911856592,1.087293362
0.020310864,0.615308464,0.854225934,1.108306452
0.020421852,0.716443956,0.783405542,1.127016185
0.02053284,0.807645857,0.700817108,1.143436449
0.020643828,0.887627125,0.608033776,1.157586986
0.020754816,0.955358028,0.50673759,1.169491947
0.020865804,1.0100615,0.398680955,1.179170738
0.020976794,1.05121052,0.285653949,1.186641736
0.021087782,1.07851887,0.169452369,1.191917058
0.02119877,1.09193277,0.05185239,1.195005845
0.021309758,1.09162009,-0.065415844,1.195913654
0.021420746,1.07796478,-0.18069312,1.194658071
0.021531734,1.0515511,-0.292416811,1.191267307
0.021642724,1.01315856,-0.399147183,1.185808741
0.021753712,0.963750899,-0.499589264,1.178405228
0.0218647,0.90446496,-0.592597425,1.169228572
0.021975688,0.836546957,-0.677182019,1.158386298
0.022086676,0.761302769,-0.752574265,1.14594993
0.022197664,0.68009299,-0.818269193,1.132090947
0.022308652,0.594300508,-0.874039829,1.117138716
0.022419642,0.505259216,-0.920002103,1.101690745
0.02253063,0.414059907,-0.956948102,1.087195277
0.022641618,0.318361372,-0.989662647,1.080786118
0.022752606,0.246038035,-0.988935769,1.03852867
0.022863594,0.152995408,-0.997118115,1.01765213
0.022974582,0.065104887,-0.996563435,0.997377326
0.023085572,-0.019062975,-0.988776088,0.978041549
0.02319656,-0.099485591,-0.974647462,0.959835058
0.023307548,-0.176042214,-0.954991281,0.942999208
0.023418536,-0.248685747,-0.930554032,0.927775407
0.023529524,-0.317467928,-0.901998341,0.914386892
0.023640512,-0.382526159,-0.869882882,0.903022491
0.023751502,-0.444060653,-0.83465296,0.893835427
0.02386249,-0.502304912,-0.796634853,0.886937314
0.023973478,-0.557498217,-0.756038189,0.882398005
0.024084466,-0.609857023,-0.712964892,0.880244526
0.024195454,-0.659553051,-0.667421818,0.88046211
0.024306442,-0.706691325,-0.619339526,0.882994077
0.024417432,-0.751294732,-0.568591595,0.887740176
0.02452842,-0.793293476,-0.515020311,0.89456046
0.024639408,-0.832519233,-0.458459258,0.903273165
0.024750396,-0.868701696,-0.398758829,0.91365124
0.024861384,-0.901470065,-0.335809678,0.925416418
0.024972372,-0.930346668,-0.269565642,0.938210558
0.025083362,-0.954705358,-0.20009461,0.951500174
0.02519435,-0.973842382,-0.127878755,0.964721961
0.025305338,-0.987636924,-0.053474806,0.978286249
0.025416326,-1.00051916,0.027459363,1.001792606
0.025527314,-1.00332701,0.107057743,1.018126449
0.025638302,-0.999247611,0.188096583,1.033876113
0.025749292,-0.981422424,0.258580714,1.03005396
0.02586028,-0.963319778,0.336436242,1.04117434
0.025971268,-0.939670026,0.412920892,1.053483421
0.026082256,-0.91029954,0.489788353,1.068537883
0.026193244,-0.871978045,0.565791309,1.080465516
0.026304232,-0.82536602,0.637617469,1.087785104
0.02641522,-0.772027373,0.704299808,1.092064484
0.02652621,-0.712896287,0.765393972,1.094049048
0.026637198,-0.648738265,0.820481598,1.094051389
0.026748186,-0.580313087,0.86919415,1.092261749
0.026859174,-0.508397698,0.911249757,1.088844339
0.026970162,-0.433776915,0.946469605,1.083967125
0.02708115,-0.357224673,0.974780679,1.077806839
0.02719214,-0.279486865,0.99621141,1.070550081
0.027303128,-0.201265737,1.01087892,1.062384088
0.027414116,-0.123208866,1.01898003,1.053500726
0.027525104,-0.045900639,1.02077329,1.044084978
0.027636092,0.030141698,1.01656687,1.034316723
0.02774708,0.104470454,1.00670266,1.024364321
0.02785807,0.176705599,0.99154371,1.014383798
0.027969058,0.246530488,0.971461594,1.00451491
0.028080046,0.31368649,0.946826875,0.994880345
0.028191034,0.377963185,0.918000638,0.985581341
0.028302022,0.439186901,0.885332942,0.976699552
0.02841301,0.497213185,0.849170983,0.96831231
0.028524,0.5519346,0.809871018,0.960522868
0.028634988,0.603308499,0.767788529,0.95348037
0.028745976,0.651349902,0.723235428,0.947326179
0.028856964,0.696092367,0.676475465,0.942163638
0.028967952,0.737571537,0.627756,0.938089368
0.02907894,0.775857866,0.577341974,0.935279183
0.02918993,0.811149955,0.525509834,0.934124835
0.029300918,0.843908131,0.472344518,0.935290277
0.029411906,0.874524713,0.417271197,0.938908725
0.029522894,0.902399957,0.359537899,0.943593183
0.029633882,0.926584661,0.299384594,0.948190269
0.02974487,0.946767747,0.237436891,0.952745444
0.029855858,0.962947488,0.174088299,0.9575746
0.029966848,0.975113451,0.109564506,0.962850623
0.030077836,0.98320055,0.044044029,0.968623198
0.030188824,0.987103045,-0.02228885,0.974869214
0.030299812,0.986694992,-0.089226142,0.981528312
0.0304108,0.981842875,-0.156528816,0.988516701
0.030521788,0.972416878,-0.223923281,0.99573622
0.030632778,0.958299696,-0.291102558,1.003079007
0.030743766,0.939394236,-0.357725292,1.010428915
0.030854754,0.915630579,-0.423418105,1.017662249
0.030965742,0.886973917,-0.487778604,1.024650696
0.03107673,0.853430986,-0.550378919,1.031261402
0.031187718,0.81505692,-0.610770404,1.037358269
0.031298708,0.771960616,-0.668490231,1.042802382
0.031409696,0.724312842,-0.723068655,1.047457373
0.031520684,0.672350109,-0.774038494,1.051190259
0.031631672,0.616380453,-0.820947886,1.053880294
0.03174266,0.556786478,-0.863375604,1.055428616
0.031853648,0.494022638,-0.900951326,1.055771659
0.031964638,0.428602964,-0.933375478,1.054890284
0.032075626,0.361083478,-0.960429847,1.052806769
0.032186614,0.292048603,-0.981984913,1.049586756
0.032297602,0.222099245,-0.998012602,1.045357228
0.03240859,0.15182589,-1.00861049,1.040346221
0.032519578,0.081741437,-1.01402485,1.034928059
0.032630568,0.012149827,-1.01459575,1.029552154
0.032741556,-0.056903329,-1.01050305,1.024354403
0.032852544,-0.12528117,-1.00155592,1.018809632
0.032963532,-0.192409873,-0.987572253,1.012320514
0.03307452,-0.257583827,-0.968771875,1.004868374
0.033185508,-0.320310771,-0.945630968,0.996816918
0.033296498,-0.380322367,-0.918656051,0.988574043
0.033407486,-0.437489808,-0.888306856,0.980486403
0.033518474,-0.491770357,-0.854982972,0.972833966
0.03362946,-0.543177843,-0.819025397,0.96584477
0.033740452,-0.591764688,-0.780718267,0.959706458
0.03385144,-0.63760829,-0.740288675,0.954571654
0.033962428,-0.680796802,-0.697907984,0.95055984
0.034073416,-0.721414626,-0.653693378,0.947754095
0.034184404,-0.759533107,-0.60771507,0.946208147
0.034295392,-0.795196474,-0.560002863,0.945940639
0.03440638,-0.828415036,-0.510555387,0.946938275
0.034517368,-0.859156489,-0.459351093,0.949153299
0.034628356,-0.887343585,-0.406361729,0.952508493
0.034739344,-0.912851989,-0.351565659,0.956897166
0.034850332,-0.935512483,-0.294960946,0.962185566
0.03496132,-0.955117762,-0.236579925,0.96822
0.035072312,-0.971432209,-0.176499516,0.974832616
0.0351833,-0.98420465,-0.114849135,0.981849117
0.035294288,-0.993183255,-0.051814281,0.989097698
0.035405276,-0.998131692,0.012362716,0.996419711
0.035516264,-0.998841763,0.077387661,1.003673718
0.035627252,-0.995154917,0.142923117,1.010760326
0.03573824,-0.986977279,0.208612382,1.017643275
0.035849228,-0.974280059,0.274124503,1.024365877
0.035960216,-0.957044482,0.339203656,1.030993261
0.036071204,-0.935140133,0.40363428,1.0374077
0.036182192,-0.908297539,0.467049986,1.043140109
0.03629318,-0.876328945,0.528800607,1.047582502
0.036404172,-0.839347124,0.588127375,1.050397404
0.03651516,-0.797708511,0.644388556,1.05157548
0.036626148,-0.751865089,0.697107971,1.051260635
0.036737136,-0.702289701,0.745934248,1.049628726
0.036848124,-0.649456441,0.790605903,1.046851363
0.036959112,-0.5938344,0.830932319,1.043087813
0.0370701,-0.535887063,0.866787016,1.038494675
0.037181088,-0.476064146,0.898102283,1.033224782
0.037292076,-0.414796889,0.924865067,1.027431851
0.037403064,-0.352489024,0.947108686,1.021263375
0.037514052,-0.289515138,0.964908123,1.014866701
0.03762504,-0.226213858,0.978369355,1.008379304
0.037736028,-0.162887558,0.987622559,1.001930676
0.03784702,-0.099802703,0.992814839,0.995641884
0.037958008,-0.037190013,0.994100809,0.989619515
0.038068996,0.024751622,0.991638303,0.983959167
0.038179984,0.085851237,0.985581696,0.978741714
0.038290972,0.145962417,0.976081371,0.97403987
0.03840196,0.204958454,0.963278413,0.969913269
0.038512948,0.262728214,0.94730556,0.966413938
0.038623936,0.319174767,0.928288221,0.963591553
0.038734924,0.374212176,0.906344056,0.961494301
0.038845912,0.427765697,0.881583393,0.96017277
0.0389569,0.479774743,0.854112506,0.959691977
0.039067888,0.530201674,0.824030101,0.960139422
0.03917888,0.579045475,0.791410685,0.961624534
0.039289868,0.626338184,0.756262124,0.964231921
0.039400856,0.672089815,0.718476415,0.967913078
0.039511844,0.716173232,0.677852452,0.972388045
0.039622832,0.758271992,0.634239435,0.977236075
0.03973382,0.797986805,0.587656438,0.98212303
0.039844808,0.83496666,0.538265944,0.98689955
0.039955796,0.868947923,0.486284286,0.9915429
0.040066784,0.899723053,0.431929737,0.99606487
0.040177772,0.927111089,0.375415713,1.000471929
0.04028876,0.950941563,0.316956818,1.004751481
0.040399748,0.971051693,0.256777495,1.008876072
0.04051074,0.987288177,0.195117503,1.012808784
0.040621728,0.999508917,0.132234022,1.016503912
0.040732716,1.00758815,0.068402834,1.019912828
0.040843704,1.01141942,0.003918129,1.022984595
0.040954692,1.01091957,-0.060909562,1.025668352
0.04106568,1.0060308,-0.125754312,1.027912118
0.041176668,0.996725142,-0.190277576,1.029666565
0.041287656,0.983006835,-0.254130274,1.030884634
0.041398644,0.964915752,-0.316958219,1.031524921
0.041509632,0.942529559,-0.378404438,1.031551888
0.04162062,0.915966868,-0.438116014,1.030940945
0.041731608,0.885386884,-0.495750099,1.029678095
0.041842596,0.850993216,-0.550981402,1.027769959
0.041953588,0.813028276,-0.603510976,1.025240476
0.042064576,0.771773458,-0.65307498,1.0221412
0.042175564,0.727541745,-0.699454665,1.018553819
0.042286552,0.680667996,-0.742486417,1.014595
0.04239754,0.631494284,-0.782073081,1.010423335
0.042508528,0.580341518,-0.818186343,1.006225169
0.042619516,0.527471781,-0.850855172,1.002181003
0.042730504,0.473062605,-0.880111396,0.998384298
0.042841492,0.417236418,-0.905918837,0.994775168
0.04295248,0.360154063,-0.928158164,0.991188526
0.043063468,0.302077442,-0.946702182,0.987495802
0.043174456,0.243337318,-0.961506248,0.983707315
0.043285448,0.184255645,-0.972624183,0.979947944
0.043396436,0.125099406,-0.980173826,0.976390591
0.043507424,0.066071644,-0.984296262,0.973204594
0.043618412,0.007321715,-0.98513037,0.970535453
0.0437294,-0.051042773,-0.982797742,0.968496766
0.043840388,-0.108941905,-0.977397323,0.967173866
0.043951376,-0.166314125,-0.969000936,0.966623202
0.044062364,-0.223106027,-0.957651854,0.966873373
0.044173352,-0.279263467,-0.943366587,0.967928601
0.04428434,-0.334722579,-0.926136732,0.969768451
0.044395328,-0.389403641,-0.905932307,0.97234854
0.044506316,-0.443204403,-0.882709205,0.975605683
0.044617304,-0.495993793,-0.856413245,0.979453489
0.044728296,-0.547610819,-0.826990664,0.983791167
0.044839284,-0.597862065,-0.794395804,0.988503742
0.044950272,-0.646522284,-0.758599937,0.993464928
0.04506126,-0.693338394,-0.719600976,0.998543693
0.045172248,-0.738035262,-0.67743206,1.003610244
0.045283236,-0.780324101,-0.63216722,1.008541097
0.045394224,-0.819911301,-0.583925605,1.013223654
0.045505212,-0.856513739,-0.532874525,1.017571044
0.0456162,-0.889868736,-0.479223907,1.02152192
