Frequency (GHz),Re( S21 ),Im( S21 ),S2
0,0.068289004,0,0.004663388
7.58E-05,0.06764549,-0.009370418,0.004663717
0.000151686,0.065727018,-0.018565467,0.004664717
0.00022753,0.062568918,-0.027413271,0.004666357
0.000303373,0.058230091,-0.035748236,0.00466868
0.000379216,0.052791018,-0.043414015,0.004671668
0.000455059,0.046352666,-0.050266966,0.004675338
0.000530902,0.039034728,-0.05617816,0.004679696
0.000606745,0.03097331,-0.061036289,0.004684774
0.000682589,0.022318205,-0.064749286,0.004690572
0.000758432,0.013230595,-0.067246221,0.004697103
0.000834275,0.003879753,-0.068478704,0.004704385
0.000910118,-0.005559624,-0.068421729,0.004712442
0.000985961,-0.014911657,-0.067074031,0.004721283
0.001061805,-0.024001198,-0.064458385,0.004730941
0.001137648,-0.032657586,-0.060620844,0.004741405
0.001213491,-0.040718176,-0.055630382,0.004752709
0.001289334,-0.04803079,-0.049577609,0.004764896
0.001365177,-0.054456521,-0.042572483,0.004777929
0.00144102,-0.059872825,-0.034743421,0.00479186
0.001516864,-0.064175353,-0.026234269,0.004806713
0.001592707,-0.067279726,-0.017201923,0.004822468
0.00166855,-0.069123887,-0.007813449,0.004839162
0.001744393,-0.069668531,0.001756589,0.00485679
0.001820236,-0.068898499,0.011329982,0.004875372
0.001896079,-0.066822842,0.020727452,0.004894919
0.001971923,-0.063474834,0.029772181,0.004915437
0.002047766,-0.058911443,0.038293175,0.004936925
0.002123609,-0.053212542,0.04612812,0.004959378
0.002199452,-0.046479538,0.053126995,0.004982825
0.002275295,-0.038833506,0.05915406,0.005007244
0.002351139,-0.030413212,0.064091116,0.005032635
0.002426982,-0.021372611,0.067839742,0.005059019
0.002502825,-0.011878153,0.070322782,0.005086384
0.002578668,-0.00210569,0.071486279,0.005114722
0.002654511,0.007762643,0.071300685,0.005144046
0.002730354,0.017541757,0.069761336,0.005174357
0.002806198,0.027047079,0.066888705,0.005205643
0.002882041,0.036097765,0.06272848,0.005237911
0.002957884,0.044520486,0.057350695,0.005271176
0.003033727,0.052152526,0.050848197,0.005305425
0.00310957,0.05884495,0.04333568,0.005340709
0.003185414,0.064465828,0.034946092,0.005377072
0.003261257,0.068905264,0.025825797,0.005414907
0.0033371,0.072144955,0.016126586,0.005464961
0.003412943,0.073876709,0.006211012,0.005496345
0.003488786,0.074280217,-0.00404538,0.005533916
0.003564629,0.073286802,-0.014283055,0.005574961
0.003640473,0.070893943,-0.024322469,0.005617534
0.003716316,0.067134589,-0.033975665,0.005661399
0.003792159,0.062068615,-0.043058381,0.005706537
0.003868002,0.055780832,-0.051395118,0.005752959
0.003943845,0.048379716,-0.058822826,0.005800722
0.004019688,0.039995484,-0.065193862,0.005849878
0.004095532,0.030777665,-0.070379026,0.005900472
0.004171375,0.020892523,-0.074270293,0.005952574
0.004247218,0.010520543,-0.076782435,0.006006224
0.004323061,-0.000147531,-0.077855721,0.006061535
0.004398904,-0.010913399,-0.077456005,0.006118535
0.004474748,-0.021575177,-0.075576678,0.006177323
0.004550591,-0.031930964,-0.072238386,0.006237971
0.004626434,-0.041782484,-0.067489266,0.006300577
0.004702277,-0.050938726,-0.061403871,0.006365189
0.00477812,-0.059219878,-0.054082751,0.006431938
0.004853964,-0.066459991,-0.045650095,0.006500862
0.004929807,-0.072510876,-0.036252622,0.00657208
0.00500565,-0.07724455,-0.026056308,0.006645652
0.005081493,-0.080556169,-0.015244168,0.006721681
0.005157336,-0.082365997,-0.004013111,0.006800263
0.005233179,-0.082621239,0.007430186,0.006881477
0.005309023,-0.081297256,0.018871933,0.006965394
0.005384866,-0.078398719,0.030095659,0.007052108
0.005460709,-0.073959626,0.040885925,0.007141685
0.005536552,-0.06804353,0.051032402,0.007234228
0.005612395,-0.060742054,0.060334146,0.007329806
0.005688238,-0.052174565,0.068602465,0.007428483
0.005764082,-0.042485654,0.075665861,0.007530353
0.005839925,-0.031843465,0.081372514,0.007635492
0.005915768,-0.020436354,0.085593879,0.007743957
0.005991611,-0.008470147,0.088227496,0.007855834
0.006067454,0.003835725,0.089199074,0.007971188
0.006143298,0.016251739,0.088464759,0.008090133
0.006219141,0.028543048,0.086011939,0.008212759
0.006294984,0.040473249,0.081860445,0.008339216
0.006370827,0.051809743,0.076062419,0.008469741
0.00644667,0.062328145,0.068702042,0.008604768
0.006522513,0.071818717,0.0598954,0.008745387
0.006598357,0.080094039,0.049794085,0.008894506
0.0066742,0.086980321,0.038613588,0.009056585
0.006750043,0.092204101,0.026554205,0.009206722
0.006825886,0.095703244,0.013681485,0.009346294
0.006901729,0.097454622,0.000308759,0.009497499
0.006977572,0.097368136,-0.013291163,0.009657209
0.007053416,0.095402561,-0.026862575,0.009823247
0.007129259,0.091559425,-0.040147509,0.009994951
0.007205102,0.085878015,-0.052888114,0.010172186
0.007280945,0.078381926,-0.064278834,0.010275495
0.007356788,0.069366604,-0.075178057,0.010463466
0.007432632,0.058842499,-0.08482331,0.010657434
0.007508475,0.046982195,-0.093007214,0.010857669
0.007584318,0.033986505,-0.099546216,0.011064532
0.007660161,0.020081267,-0.104283899,0.011278389
0.007736004,0.005513531,-0.107094817,0.011499699
0.007811847,-0.009452857,-0.107886851,0.011728929
0.007887691,-0.02454108,-0.106603742,0.011966622
0.007963534,-0.039466981,-0.103226498,0.012213352
0.008039377,-0.053943284,-0.097774841,0.012469797
0.00811522,-0.067685343,-0.090306699,0.012736606
0.008191063,-0.08041589,-0.080919206,0.013014633
0.008266906,-0.091870025,-0.069746338,0.013304653
0.00834275,-0.101800643,-0.056958612,0.013607654
0.008418593,-0.109982893,-0.042759623,0.013924622
0.008494436,-0.116218537,-0.027383832,0.014256623
0.008570279,-0.120340295,-0.011093415,0.01460485
0.008646122,-0.122215502,0.005826467,0.014970577
0.008721965,-0.121749237,0.023071598,0.015355175
0.008797808,-0.118887,0.040323924,0.015760138
0.008873652,-0.113616832,0.057256207,0.016187058
0.008949495,-0.105970427,0.073538594,0.016637656
0.009025338,-0.096023969,0.088843413,0.017113755
0.009101181,-0.083898388,0.102851413,0.017617353
0.009177024,-0.069757797,0.115258038,0.018150566
0.009252868,-0.053808402,0.125778779,0.018715645
0.009328711,-0.03629588,0.134155482,0.019315084
0.009404554,-0.017502409,0.140160963,0.01995143
0.009480397,0.002257802,0.143605158,0.020627539
0.00955624,0.022642478,0.144339383,0.021346539
0.009632083,0.043287139,0.142260253,0.022111756
0.009707927,0.063811012,0.137313798,0.022926924
0.00978377,0.08382269,0.129497752,0.023795911
0.009859613,0.102926008,0.118864,0.024722414
0.009935456,0.120725714,0.105517849,0.025708714
0.010011299,0.136834189,0.089613318,0.026754142
0.010087142,0.150885552,0.07134904,0.027857135
0.010162986,0.16255115,0.050972488,0.029021071
0.010238829,0.171539158,0.028788041,0.030254434
0.010314672,0.177591994,0.005147936,0.031565418
0.010390515,0.180493131,-0.019558318,0.032960298
0.010466358,0.180074364,-0.044912472,0.034443907
0.010542202,0.176223129,-0.070472755,0.036021
0.010618045,0.168884888,-0.09578114,0.037696132
0.010693888,0.158066481,-0.120370872,0.039474159
0.010769731,0.143837094,-0.143774182,0.041360125
0.010845574,0.126328707,-0.165530771,0.043359378
0.010921417,0.105734244,-0.185196191,0.04547736
0.010997261,0.082305826,-0.202349663,0.047719635
0.011073104,0.056352031,-0.21660243,0.050092164
0.011148947,0.028232846,-0.227604657,0.052600974
0.01122479,-0.001645376,-0.235052302,0.055252292
0.011300633,-0.032835733,-0.23869282,0.058052448
0.011376476,-0.064858005,-0.238330781,0.061008122
0.01145232,-0.097205333,-0.23383157,0.06412608
0.011528163,-0.129353344,-0.225124612,0.067413379
0.011604006,-0.160766825,-0.212205678,0.070877222
0.011679849,-0.19090949,-0.195137516,0.074525084
0.011755692,-0.219251201,-0.174050331,0.078364607
0.011831536,-0.245277226,-0.149140283,0.082403742
0.011907379,-0.268495888,-0.120667733,0.086650744
0.011983222,-0.288446307,-0.088953964,0.09111408
0.012059065,-0.304705918,-0.054377232,0.09580258
0.012134908,-0.316897035,-0.017368119,0.100725382
0.012210751,-0.324692816,0.021596752,0.105891844
0.012286595,-0.327822506,0.06199982,0.111311573
0.012362438,-0.326075345,0.103290014,0.116993958
0.012438281,-0.319304138,0.144888565,0.122947829
0.012514124,-0.307428807,0.18619664,0.12918166
0.012589967,-0.290438116,0.226601735,0.135702646
0.01266581,-0.268391848,0.265486091,0.142517049
0.012741654,-0.241422206,0.302235276,0.149630844
0.012817497,-0.209733158,0.336246699,0.15704984
0.01289334,-0.173600823,0.366938174,0.164780869
0.012969183,-0.133371592,0.39375639,0.172832076
0.013045026,-0.089459874,0.416185141,0.181213141
0.01312087,-0.04234428,0.433751911,0.189933758
0.013196713,0.007437335,0.446035564,0.199003038
0.013272556,0.059293505,0.452673584,0.208429093
0.013348399,0.112586088,0.453368604,0.218218718
0.013424242,0.16663757,0.447894543,0.228377601
0.013500085,0.220737919,0.436101645,0.238909874
0.013575929,0.274154752,0.417921752,0.249819419
0.013651772,0.326140881,0.393370748,0.26110842
0.013727615,0.375945121,0.36255154,0.272778353
0.013803458,0.42282176,0.32565546,0.284829719
0.013879301,0.466040701,0.282962084,0.297261476
0.013955144,0.504899502,0.234838501,0.310072629
0.014030988,0.538731694,0.181736499,0.323259993
0.014106831,0.566918314,0.124189124,0.336819313
0.014182674,0.588897824,0.062806048,0.350745247
0.014258517,0.604176283,-0.001733249,0.365031985
0.01433436,0.612335026,-0.068686716,0.379672049
0.014410204,0.613038719,-0.137258619,0.394656399
0.014486047,0.606043398,-0.206608474,0.409975662
0.01456189,0.591201663,-0.275862932,0.425619764
0.014637733,0.568466187,-0.344126135,0.441576603
0.014713576,0.537894964,-0.410493016,0.457835508
0.014789419,0.499650508,-0.474060625,0.474384106
0.014865263,0.454001456,-0.533942282,0.491211683
0.014941106,0.401320308,-0.589279473,0.508308287
0.015016949,0.342080921,-0.639255643,0.525667134
0.015092792,0.276853889,-0.683107555,0.543284008
0.015168635,0.206301227,-0.720137417,0.561158096
0.015244478,0.131167963,-0.749720752,0.57928624
0.015320322,0.052271094,-0.771316946,0.597662098
0.015396165,-0.029512944,-0.784478664,0.616277788
0.015472008,-0.113260679,-0.788861454,0.635130375
0.015547851,-0.198014855,-0.784234941,0.654234325
0.015623694,-0.282799423,-0.77049017,0.673630616
0.015699538,-0.366639495,-0.747658134,0.693417205
0.015775381,-0.448583812,-0.715953171,0.713816379
0.015851224,-0.527701557,-0.675934911,0.735356937
0.015927067,-0.602465212,-0.629101694,0.758733273
0.01600291,-0.667575479,-0.574124992,0.775276527
0.016078753,-0.728355467,-0.506566584,0.78711139
0.016154597,-0.784620821,-0.432851285,0.802990068
0.01623044,-0.833751619,-0.35359028,0.820167848
0.016306283,-0.874785006,-0.269232839,0.837735128
0.016382126,-0.907088518,-0.180509314,0.855393192
0.016457969,-0.930170119,-0.088292316,0.873011983
0.016533812,-0.943650842,0.006462468,0.890518675
0.016609656,-0.947263658,0.102746308,0.907865242
0.016685499,-0.940853715,0.19951722,0.925012834
0.016761342,-0.92438221,0.295716494,0.941930715
0.016837186,-0.897924602,0.390282065,0.958588681
0.016913028,-0.861671984,0.482163459,0.974960209
0.016988872,-0.815927267,0.57033354,0.991017652
0.017064714,-0.761103988,0.653802037,1.006736384
0.017140558,-0.697719216,0.731627345,1.022090676
0.017216402,-0.626389086,0.802927077,1.037055178
0.017292244,-0.547821283,0.866889477,1.051605523
0.017368088,-0.462806791,0.922781765,1.065716312
0.01744393,-0.372210354,0.969960332,1.079363593
0.017519774,-0.276960999,1.00787663,1.092522696
0.017595616,-0.178040579,1.03608406,1.105168627
0.01767146,-0.076472424,1.05424345,1.117277284
0.017747304,0.026690012,1.06212652,1.128825101
0.017823146,0.130376026,1.05961776,1.139787705
0.01789899,0.233510092,1.04671538,1.15014005
0.017974832,0.335023224,1.0235312,1.159856678
0.018050676,0.433865875,0.990288138,1.168910194
0.01812652,0.529017806,0.947316885,1.17726912
0.018202362,0.619498909,0.895051658,1.184896369
0.018278206,0.704375267,0.834024489,1.191741365
0.018354048,0.782762468,0.76486516,1.197735794
0.018429892,0.853830338,0.688313723,1.202802027
0.018505736,0.916842222,0.605247676,1.206924409
0.018581578,0.97124356,0.516636193,1.210227009
0.018657422,1.01663303,0.423424244,1.212830808
0.018733264,1.05267406,0.326544464,1.214753964
0.018809108,1.08691871,0.222063497,1.230704479
0.01888495,1.10441232,0.119290873,1.233956885
0.018960794,1.11191809,0.015372514,1.236598153
0.019036638,1.10939443,-0.08877296,1.23863664
0.01911248,1.08709085,-0.177840605,1.213393797
0.019188324,1.06569862,-0.275311083,1.211509741
0.019264166,1.03654325,-0.369546115,1.21098624
0.01934001,1.00055575,-0.46144262,1.2140411
0.019415854,0.955826879,-0.551628292,1.217898795
0.019491696,0.901250482,-0.637313187,1.21842053
0.01956754,0.838323534,-0.716516018,1.216181552
0.019643382,0.768434644,-0.788591027,1.21236761
0.019719226,0.692582607,-0.853166401,1.207563575
0.01979507,0.611629069,-0.909913123,1.202032009
0.019870912,0.526404142,-0.958541036,1.195902238
0.019946756,0.437736243,-0.998818398,1.189251211
0.020022598,0.346455038,-1.03058112,1.182128538
0.020098442,0.253388852,-1.0537405,1.174574952
0.020174284,0.15935789,-1.06828475,1.166627244
0.020250128,0.065165512,-1.07427657,1.158316693
0.020325972,-0.028407678,-1.07185221,1.149674156
0.020401814,-0.120611303,-1.06121886,1.140732555
0.020477658,-0.21073167,-1.04264784,1.131522355
0.0205535,-0.298096955,-1.01647115,1.122075393
0.020629344,-0.38208282,-0.983073473,1.112420735
0.020705188,-0.46211493,-0.942889273,1.10259039
0.02078103,-0.537674487,-0.896393657,1.092615442
0.020856874,-0.608297944,-0.844096661,1.082525562
0.020932716,-0.673580885,-0.786537588,1.072352586
0.02100856,-0.733177245,-0.724276066,1.062124692
0.021084404,-0.786800206,-0.657888353,1.051871649
0.021160246,-0.834221363,-0.587959826,1.041622039
0.02123609,-0.875269651,-0.515079081,1.031403422
0.021311932,-0.909828842,-0.439833224,1.021241787
0.021387776,-0.937837064,-0.362803072,1.011164428
0.021463618,-0.959280908,-0.28455767,1.001192928
0.021539462,-0.974196494,-0.205652654,0.991351823
0.021615306,-0.982664943,-0.126625314,0.98166436
0.021691148,-0.984809935,-0.047992107,0.97215385
0.021766992,-0.980796874,0.029754816,0.962847857
0.021842834,-0.970829248,0.10615202,0.95377768
0.021918678,-0.955143869,0.180769101,0.944977278
0.021994522,-0.934007227,0.253211021,0.936485321
0.022070364,-0.907706916,0.323119283,0.928337916
0.022146208,-0.87654978,0.390169889,0.920572059
0.02222205,-0.840860963,0.454073966,0.913230326
0.022297894,-0.80098325,0.514578044,0.90636473
0.022373738,-0.757282436,0.571474135,0.900059375
0.02244958,-0.710141599,0.624616921,0.894447389
0.022525424,-0.659942627,0.673959792,0.889746072
0.022601266,-0.606983304,0.719578385,0.886221783
0.02267711,-0.551345229,0.761589825,0.884000623
0.022752952,-0.492900848,0.799892604,0.882779424
0.022828796,-0.431644082,0.834048867,0.881954126
0.02290464,-0.367917031,0.863581717,0.881136324
0.022980482,-0.302232832,0.888230622,0.880298323
0.023056326,-0.23507449,0.90791738,0.879573985
0.023132168,-0.166847736,0.922637582,0.879098275
0.023208012,-0.097903058,0.932405949,0.878965862
0.023283856,-0.028561415,0.937240899,0.879236257
0.023359698,0.040870406,0.937161207,0.879941518
0.023435542,0.110092066,0.932189405,0.88109735
0.023511384,0.178804412,0.922354937,0.882709648
0.023587228,0.246708125,0.907695472,0.884775969
0.023663072,0.313501984,0.888259411,0.887288275
0.023738914,0.378883123,0.864108264,0.890235513
0.023814758,0.442545861,0.835318327,0.893603547
0.0238906,0.504182816,0.80198139,0.897374462
0.023966444,0.563484848,0.764207304,0.901527977
0.024042286,0.620143354,0.722126126,0.906043921
0.02411813,0.673849165,0.675888777,0.910898336
0.024193974,0.724296331,0.625668228,0.916065907
0.024269816,0.771182775,0.57166177,0.921520052
0.02434566,0.814213574,0.514091432,0.927233745
0.024421502,0.853101254,0.4532049,0.933176431
0.024497346,0.887570858,0.389276028,0.939317854
0.02457319,0.917361498,0.322605908,0.94562669
0.024649032,0.942229927,0.253521293,0.952070281
0.024724876,0.961953163,0.18237555,0.958614729
0.024800718,0.976332903,0.109546699,0.965226417
0.024876562,0.985198855,0.035436992,0.971872564
0.024952406,0.988411486,-0.039530013,0.978519888
0.025028248,0.985865653,-0.11491181,0.98513581
0.025104092,0.977495253,-0.190250129,0.991692081
0.025179934,0.963273525,-0.265075058,0.99816067
0.025255778,0.943217516,-0.338909626,1.004519017
0.02533162,0.917388082,-0.411274284,1.01074743
0.025407464,0.88589257,-0.481693298,1.016834079
0.025483308,0.84888339,-0.549698055,1.022770961
0.02555915,0.806560814,-0.614836693,1.028564506
0.025634994,0.759170294,-0.676680267,1.034235719
0.025710836,0.706999779,-0.734835029,1.039831207
0.02578668,0.650367856,-0.788955092,1.045428485
0.025862524,0.589601994,-0.838751197,1.051134082
0.025938366,0.525001109,-0.883982301,1.057050873
0.02601421,0.456806332,-0.924406826,1.063200005
0.026090052,0.38522619,-0.959705532,1.069433926
0.026165896,0.310541034,-0.989451587,1.075450177
0.02624174,0.233195409,-1.0131911,1.080936304
0.026317582,0.153781831,-1.03056359,1.085710165
0.026393426,0.072955348,-1.04135025,1.089732826
0.026469268,-0.00863457,-1.04545116,1.093042684
0.026545112,-0.090365276,-1.04285133,1.09570478
0.026620954,-0.171643242,-1.03359282,1.09777552
0.026696798,-0.251897246,-1.01776671,1.099301299
0.026772642,-0.330575526,-0.995508134,1.100316623
0.026848484,-0.407146573,-0.966994226,1.100846165
0.026924328,-0.48109898,-0.932444751,1.100909442
0.02700017,-0.55194515,-0.892120063,1.100521655
0.027076014,-0.619224072,-0.846319973,1.099695948
0.027151858,-0.68250531,-0.795381129,1.098444639
0.0272277,-0.741390824,-0.739674389,1.096778556
0.027303544,-0.79551965,-0.679602265,1.094710752
0.027379386,-0.844569325,-0.615594327,1.09225372
0.02745523,-0.888258517,-0.548103511,1.089420652
0.027531074,-0.926348567,-0.477602452,1.08622577
0.027606916,-0.958644688,-0.404578865,1.082683696
0.02768276,-0.984997869,-0.329531193,1.078811609
0.027758602,-1.00530255,-0.252964258,1.074624133
0.027834446,-1.01950026,-0.175385162,1.070140735
0.027910288,-1.02757585,-0.097298764,1.065379177
0.027986132,-1.02955866,-0.019203691,1.060359816
0.028061976,-1.02551961,0.058411431,1.055102366
0.028137818,-1.01557112,0.13507247,1.049629272
0.028213662,-0.999863923,0.210321739,1.043963098
0.028289504,-0.978585184,0.283723652,1.038128073
0.028365348,-0.951956391,0.354865521,1.032150508
0.028441192,-0.920229256,0.423361778,1.026057079
0.028517034,-0.883684337,0.488856107,1.019878301
0.028592878,-0.842627227,0.55102396,1.013648048
0.02866872,-0.797382951,0.60957402,1.007400056
0.028744564,-0.748295605,0.664250731,1.001175346
0.028820408,-0.695721805,0.714834988,0.99501789
0.02889625,-0.640028238,0.761146367,0.988979937
0.028972094,-0.581585109,0.803045332,0.983123044
0.029047936,-0.520759225,0.840433478,0.977518601
0.02912378,-0.457904994,0.873255074,0.972251408
0.029199622,-0.393349439,0.901490152,0.967408275
0.029275466,-0.327380031,0.925141156,0.963063843
0.02935131,-0.26023984,0.944204211,0.959246366
0.029427152,-0.192147776,0.958639205,0.955909893
0.029502996,-0.123341948,0.968360484,0.952935263
0.029578838,-0.054118212,0.973265409,0.950174337
0.029654682,0.015164577,0.973286152,0.947515898
0.029730526,0.084118888,0.968419075,0.944911492
0.029806368,0.152363226,0.958726883,0.942371789
0.029882212,0.219544828,0.944318354,0.939937085
0.029958054,0.285342693,0.925330997,0.937657906
0.030033898,0.349464804,0.901917875,0.935581502
0.030109742,0.411642343,0.874241948,0.933748402
0.030185584,0.471624881,0.84247148,0.932188223
0.030261428,0.52917695,0.806781828,0.930925162
0.03033727,0.584075093,0.767353654,0.929975345
0.030413114,0.636107564,0.72437346,0.929349743
0.030488956,0.685071766,0.67803514,0.929054976
0.0305648,0.730775177,0.628538728,0.929093292
0.030640644,0.773034751,0.57609272,0.929465548
0.030716486,0.811675251,0.520913541,0.93016763
0.03079233,0.846531987,0.463225901,0.93119464
0.030868172,0.877448559,0.403263867,0.93253772
0.030944016,0.904279649,0.341270447,0.934187202
0.03101986,0.926891029,0.277499318,0.936132851
0.031095702,0.945158422,0.212213442,0.938358988
0.031171546,0.958971679,0.145686314,0.940851183
