Frequency (GHz),Re( S21 ),Im( S21 ),S2
0,0.020550631,0,0.000422328
0.000112432,0.02006286,-0.004463964,0.000422445
0.000224864,0.018620536,-0.008721475,0.000422788
0.000337296,0.016286671,-0.012573904,0.000423359
0.000449728,0.013164166,-0.015838444,0.000424152
0.000562159,0.00939276,-0.018355839,0.000425161
0.000674591,0.005144478,-0.019997736,0.000426375
0.000787023,0.000617678,-0.020673934,0.000427793
0.000899455,-0.003971474,-0.020337785,0.000429398
0.001011887,-0.008397616,-0.018990908,0.000431175
0.001124319,-0.012438064,-0.016685734,0.000433119
0.001236751,-0.015883943,-0.013524369,0.000435208
0.001349183,-0.018552339,-0.009656331,0.000437434
0.001461615,-0.020297682,-0.005271054,0.00043978
0.001574047,-0.021021061,-0.000589015,0.000442232
0.001686478,-0.020677367,0.004150687,0.000444782
0.00179891,-0.019278485,0.008704005,0.00044742
0.001911342,-0.016892929,0.012836027,0.000450135
0.002023774,-0.013642147,0.016334796,0.000452934
0.002136206,-0.009692227,0.01902302,0.000455815
0.002248638,-0.005244449,0.02076748,0.000458792
0.00236107,-0.000522631,0.021485105,0.000461883
0.002473502,0.004239075,0.021145338,0.000465095
0.002585934,0.008808603,0.019770762,0.000468475
0.002698366,0.012967162,0.017432142,0.000472027
0.002810797,0.016518937,0.014244977,0.000475795
0.002923229,0.019298887,0.010361269,0.000479803
0.003035661,0.021178538,0.005962254,0.000484079
0.003148093,0.022070158,0.001250228,0.000488655
0.003260525,0.021930508,-0.003558217,0.000493608
0.003372957,0.020735718,-0.008246251,0.000497971
0.003485389,0.01857562,-0.012604795,0.000503934
0.003597821,0.015503733,-0.016418066,0.000509919
0.003710253,0.011652271,-0.019506302,0.000516271
0.003822684,0.007185429,-0.021711743,0.00052303
0.003935116,0.002299115,-0.022911878,0.00053024
0.004047548,-0.002785207,-0.023024658,0.000537892
0.00415998,-0.007828244,-0.022016412,0.000546004
0.004272412,-0.012583386,-0.019905429,0.000554568
0.004384844,-0.0168078,-0.016764972,0.000563566
0.004497276,-0.02027561,-0.012723326,0.000572983
0.004609708,-0.022790441,-0.007960672,0.000582777
0.00472214,-0.024199409,-0.002701615,0.00059291
0.004834572,-0.024403269,0.002794537,0.000603329
0.004947003,-0.023365684,0.008248277,0.000613989
0.005059435,-0.021116976,0.013375323,0.000624826
0.005171867,-0.017755054,0.017903762,0.000635787
0.005284299,-0.013439619,0.021591784,0.000646829
0.005396731,-0.008383606,0.024240896,0.000657906
0.005509163,-0.002839868,0.025708417,0.000668988
0.005621595,0.002913818,0.02591458,0.000680056
0.005734027,0.008591007,0.024845751,0.000691117
0.005846459,0.013912734,0.022552595,0.000702184
0.00595889,0.018620957,0.019145407,0.000713287
0.006071322,0.022491125,0.014785928,0.000724474
0.006183754,0.025340764,0.009677725,0.000735813
0.006296186,0.0270357,0.004055118,0.000747373
0.006408618,0.027493645,-0.001827575,0.000759241
0.00652105,0.026685145,-0.0077067,0.00077149
0.006633482,0.024632732,-0.013320768,0.000784214
0.006745914,0.021418486,-0.018421419,0.0007981
0.006858346,0.017162226,-0.022760263,0.000812572
0.006970777,0.012026433,-0.026137717,0.000827815
0.007083209,0.006221175,-0.028380152,0.000844136
0.007195641,-1.14E-05,-0.029354453,0.000861684
0.007308073,-0.006402237,-0.028975908,0.000880592
0.007420505,-0.012663183,-0.027214518,0.000900986
0.007532937,-0.018497486,-0.024100261,0.00092298
0.007645369,-0.02361198,-0.019727264,0.000946691
0.007757801,-0.02773075,-0.01425389,0.000972168
0.007870233,-0.030610923,-0.007902045,0.000999471
0.007982665,-0.032057632,-0.000950694,0.001028596
0.008095096,-0.031939186,0.006274746,0.001059484
0.008207528,-0.03020012,0.013416248,0.001092043
0.00831996,-0.026869912,0.020103458,0.001126141
0.008432392,-0.022066157,0.025974089,0.001161569
0.008544824,-0.015993133,0.030697331,0.001198106
0.008657256,-0.008931498,0.033995573,0.001235471
0.008769687,-0.001223832,0.035664011,0.001273419
0.008882119,0.006745552,0.0355828,0.001311638
0.008994551,0.014574084,0.033726607,0.001349888
0.009106983,0.021864666,0.030163942,0.001387927
0.009219415,0.028247947,0.025052689,0.001425584
0.009331847,0.033402421,0.018628016,0.001462725
0.009444279,0.037068881,0.011188254,0.001499279
0.009556711,0.039061416,0.003077443,0.001535265
0.009669143,0.039272558,-0.005332561,0.00157077
0.009781575,0.037674993,-0.013659891,0.001605998
0.009894006,0.034320232,-0.021529514,0.001641398
0.010006438,0.029336553,-0.028588094,0.001677912
0.01011887,0.022929106,-0.034502473,0.001716165
0.010231302,0.01533212,-0.038971592,0.001753859
0.010343734,0.006838204,-0.041783948,0.001792659
0.010456166,-0.002198077,-0.042771787,0.001834257
0.010568598,-0.011396132,-0.041828029,0.001879456
0.01068103,-0.020355759,-0.03891959,0.001929091
0.010793462,-0.028667033,-0.034092739,0.001984114
0.010905893,-0.035924889,-0.027476791,0.002045572
0.011018325,-0.041744474,-0.019286336,0.002114564
0.011130757,-0.045779515,-0.00982035,0.002192203
0.011243189,-0.047742389,0.000542991,0.002279631
0.011355621,-0.04742286,0.011355364,0.002377872
0.011468053,-0.044707768,0.022114895,0.002487853
0.011580485,-0.039596342,0.032286212,0.00261027
0.011692917,-0.032211561,0.041327599,0.002745555
0.011805349,-0.022804204,0.048721444,0.002893811
0.01191778,-0.011748238,0.054006659,0.00305474
0.012030212,0.000471974,0.056810409,0.003227645
0.012142644,0.013285284,0.056875836,0.00341136
0.012255076,0.026063237,0.054083869,0.003604357
0.012367508,0.038156334,0.048464946,0.003804757
0.01247994,0.048930865,0.040200844,0.004010337
0.012592372,0.057806466,0.02961682,0.004218743
0.012704804,0.064288095,0.017163949,0.00442756
0.012817236,0.067991845,0.003394343,0.004634413
0.012929667,0.068663284,-0.011067768,0.004837142
0.013042099,0.066188097,-0.025557229,0.005034036
0.013154531,0.060594823,-0.039399035,0.005224017
0.013266963,0.052053109,-0.051936299,0.005406905
0.013379395,0.040866401,-0.062552147,0.005582834
0.013491827,0.027451173,-0.07068374,0.005749758
0.013604259,0.012307866,-0.075860709,0.005906331
0.013716691,-0.003965574,-0.077734344,0.006058354
0.013829123,-0.020685587,-0.076062828,0.006213447
0.013941554,-0.037118156,-0.070722751,0.006379465
0.014053986,-0.052498806,-0.061726123,0.006566239
0.014166418,-0.066052266,-0.049231868,0.006786679
0.01427885,-0.077015765,-0.033551939,0.007057161
0.014391282,-0.08466702,-0.01515666,0.007398229
0.014503714,-0.088355489,0.005324793,0.007835046
0.014616146,-0.087537624,0.027111944,0.008397893
0.014728578,-0.081812702,0.049286362,0.009122464
0.01484101,-0.070959054,0.070815899,0.010050079
0.014953441,-0.054967385,0.090589106,0.0112278
0.015065873,-0.034066174,0.107459798,0.012708112
0.015178305,-0.008738511,0.120300122,0.014548481
0.015290737,0.020275643,0.128060922,0.016810701
0.015403169,0.051992726,0.12983346,0.019559971
0.015515601,0.085215658,0.124909885,0.022864188
0.015628033,0.118579924,0.11283391,0.02679269
0.015740465,0.150613695,0.093439363,0.0314154
0.015852897,0.17980583,0.066872269,0.036802037
0.015965329,0.204677895,0.033594046,0.043021601
0.01607776,0.223853678,-0.005634127,0.050142213
0.016190192,0.236120611,-0.049781617,0.058231152
0.016302624,0.240478978,-0.097592682,0.06735447
0.016415056,0.23617813,-0.14763771,0.077577003
0.016527488,0.222737178,-0.198368028,0.088961725
0.01663992,0.199953124,-0.248171628,0.101570409
0.016752352,0.167900622,-0.295423388,0.115465597
0.016864784,0.126924649,-0.338531345,0.130713338
0.016977216,0.077629961,-0.375970036,0.147379879
0.017089648,0.020883761,-0.40631479,0.16552784
0.01720208,-0.042178799,-0.428415149,0.185318591
0.017314512,-0.110601224,-0.441229135,0.20691578
0.017426944,-0.183003262,-0.443607092,0.230277446
0.017539374,-0.257789612,-0.434736252,0.255451093
0.017651806,-0.33324486,-0.414039105,0.282480517
0.017764238,-0.407542646,-0.381183743,0.311392054
0.01787667,-0.478769869,-0.336108387,0.342189435
0.017989102,-0.54496032,-0.279044867,0.374847788
0.018101534,-0.604138911,-0.210541099,0.409311378
0.018213966,-0.654370904,-0.131476358,0.445487313
0.018326398,-0.693822145,-0.043069087,0.483244115
0.01843883,-0.720824659,0.053127248,0.522410693
0.018551262,-0.73394531,0.155243158,0.562776156
0.018663694,-0.732057035,0.261129141,0.604095931
0.018776126,-0.714401364,0.368409216,0.646094659
0.018888558,-0.680645466,0.474549919,0.688475876
0.01900099,-0.630923271,0.576941133,0.730925245
0.019113422,-0.565858364,0.672970593,0.773085107
0.019225854,-0.48653993,0.76007694,0.814438058
0.019338286,-0.394361794,0.835815609,0.854108957
0.019450718,-0.290861428,0.898211658,0.891384553
0.01956315,-0.178078771,0.945977151,0.926584819
0.01967558,-0.058565915,0.978076577,0.960063757
0.019788012,0.065055043,0.993719995,0.991711587
0.019900444,0.190211266,0.992539227,1.021314443
0.020012876,0.314403147,0.974608064,1.048710217
0.020125308,0.435251266,0.940402925,1.073801326
0.02023774,0.550546467,0.890748858,1.09653494
0.020350172,0.658293188,0.826767862,1.116895019
0.020462604,0.756737947,0.749822497,1.134886097
0.020575036,0.844387829,0.661464334,1.150525871
0.020687468,0.920018852,0.563385367,1.16383776
0.0207999,0.982677996,0.457374483,1.174847462
0.020912332,1.03167713,0.345277339,1.183574141
0.021024764,1.06658876,0.228963986,1.19003609
0.021137196,1.08723438,0.110296726,1.194243965
0.021249628,1.09367681,-0.008897697,1.196208134
0.02136206,1.08620811,-0.126854315,1.195940075
0.021474492,1.06533945,-0.241897509,1.193462549
0.021586924,1.03178966,-0.352468401,1.188823876
0.021699354,0.986475468,-0.457152039,1.182121836
0.021811786,0.930503488,-0.554693282,1.173521378
0.021924218,0.865132987,-0.643992603,1.163181558
0.02203665,0.791699588,-0.724147022,1.151177147
0.022149082,0.711595654,-0.79451865,1.13762826
0.022261514,0.626255155,-0.854754269,1.12280038
0.022373946,0.537097335,-0.904820263,1.107173256
0.022486378,0.445405334,-0.94517386,1.091739537
0.02259881,0.351554871,-0.977999389,1.080073632
0.022711242,0.279299617,-0.982512832,1.043339741
0.022823674,0.180527017,-0.995750189,1.024108443
0.022936106,0.090180539,-0.997551382,1.003241289
0.023048538,0.003837141,-0.991618693,0.983322356
0.02316097,-0.078676343,-0.978936851,0.964507325
0.023273402,-0.157240629,-0.960368812,0.94703287
0.023385834,-0.231785223,-0.936710954,0.931151801
0.023498266,-0.302339435,-0.908675671,0.917100609
0.023610698,-0.369028509,-0.876871467,0.90508561
0.023723128,-0.432048827,-0.84178859,0.895274219
0.02383556,-0.491639227,-0.803793073,0.887792434
0.023947992,-0.54805094,-0.763127685,0.882723696
0.024060424,-0.601516366,-0.719917357,0.880102939
0.024172856,-0.652224898,-0.674186051,0.879924149
0.024285288,-0.700298429,-0.625871956,0.882133595
0.02439772,-0.745776713,-0.57485199,0.886637716
0.024510152,-0.788601458,-0.52096355,0.89329528
0.024622584,-0.828611255,-0.464033246,0.901923465
0.024735016,-0.86553812,-0.403901637,0.91229277
0.024847448,-0.899008691,-0.340449452,0.924122456
0.02495988,-0.928538322,-0.273620874,0.937051798
0.025072312,-0.95349586,-0.203470603,0.950554641
0.025184744,-0.973134577,-0.130441248,0.964005824
0.025297176,-0.987277269,-0.055155657,0.977758552
0.025409608,-1.00030291,0.026659938,1.001316664
0.02552204,-1.00320041,0.107247822,1.017913158
0.025634472,-0.999036252,0.189315662,1.033913853
0.025746904,-0.980964482,0.26087901,1.030349173
0.025859334,-0.962390721,0.339719146,1.041604998
0.025971766,-0.938126981,0.417124599,1.054075164
0.026084198,-0.907963216,0.494921625,1.069344617
0.02619663,-0.868569732,0.571708322,1.081263785
0.026309062,-0.820744812,0.644100726,1.088487792
0.026421494,-0.766093433,0.711155176,1.092640832
0.026533926,-0.705570817,0.772419393,1.094461896
0.026646358,-0.639972806,0.82746464,1.094262923
0.02675879,-0.570092559,0.875917137,1.092236357
0.026871222,-0.496740967,0.917497158,1.088552623
0.026983654,-0.420735478,0.952034891,1.083388776
0.027096086,-0.342879206,0.979471684,1.07693093
0.027208518,-0.263942361,0.999853313,1.069372217
0.02732095,-0.18464756,1.01331973,1.060911597
0.027433382,-0.105657198,1.02008963,1.051746297
0.027545814,-0.027565925,1.0204463,1.042070531
0.027658246,0.049103729,1.01472032,1.032068504
0.027770678,0.123902269,1.00327587,1.021914244
0.027883108,0.19645153,0.986496329,1.011768211
0.02799554,0.266439319,0.964771092,1.001773171
0.028107972,0.333613008,0.938485026,0.992051783
0.028220404,0.397767156,0.908011854,0.982704237
0.028332836,0.458733678,0.873714864,0.973814251
0.028445268,0.516373754,0.835955918,0.965464151
0.0285577,0.570597053,0.795109272,0.957779751
0.028670132,0.621383071,0.751531959,0.950917206
0.028782564,0.66876024,0.705529988,0.945012823
0.028894996,0.712765098,0.657365203,0.940163095
0.029007428,0.75344336,0.607296407,0.936485823
0.02911986,0.790900528,0.555607438,0.93422327
0.029232292,0.8254354,0.502554715,0.933904841
0.029344724,0.85759753,0.448009402,0.936185948
0.029457156,0.887462854,0.391129911,0.940572925
0.029569588,0.914061487,0.331499189,0.945400114
0.02968202,0.936661243,0.269675881,0.950059365
0.029794452,0.955143034,0.206224635,0.954826815
0.029906882,0.969518423,0.141456395,0.959975884
0.030019314,0.979749262,0.075572185,0.965619772
0.030131746,0.985743165,0.008756607,0.971766266
0.030244178,0.987377167,-0.058787726,0.978369667
0.03035661,0.984512806,-0.126827568,0.985350697
0.030469042,0.977011859,-0.19509472,0.992614122
0.030581474,0.964744687,-0.263284624,1.000051104
0.030693906,0.947599351,-0.331056535,1.007542959
0.030806338,0.925490677,-0.39803502,1.01496487
0.03091877,0.898366749,-0.46381259,1.022184934
0.031031202,0.866216838,-0.527953148,1.029066137
0.031143634,0.829078972,-0.589996994,1.035468395
0.031256066,0.787045717,-0.649466276,1.041247404
0.031368498,0.740272522,-0.705874443,1.046262136
0.03148093,0.688981414,-0.758732736,1.050370754
0.031593362,0.633469462,-0.807565153,1.053445036
0.031705794,0.574110389,-0.851921201,1.055372471
0.031818226,0.511355102,-0.891397715,1.056073927
0.031930658,0.445722759,-0.925660729,1.055516563
0.032043088,0.377781898,-0.954458773,1.053710712
0.03215552,0.308134049,-0.977631748,1.050710427
0.032267952,0.237402201,-0.995122969,1.046629528
0.032380384,0.16620782,-1.00699925,1.041672529
0.032492816,0.095114976,-1.01348054,1.036189664
0.032605248,0.024503833,-1.01491606,1.030655047
0.03271768,-0.045533471,-1.01156485,1.025336743
0.032830112,-0.11492417,-1.00330114,1.019820742
0.032942544,-0.183158249,-0.989884734,1.013418731
0.033054976,-0.249489784,-0.971466959,1.005993205
0.033167408,-0.31336236,-0.948518217,0.997882777
0.03327984,-0.374467403,-0.921571374,0.989519633
0.033392272,-0.432657987,-0.8911134,0.981276025
0.033504704,-0.487881184,-0.857567549,0.973450151
0.033617136,-0.54014796,-0.821295738,0.966286508
0.033729568,-0.589511037,-0.782598257,0.959983295
0.033842,-0.636050344,-0.741715908,0.954702528
0.033954432,-0.679858029,-0.69882983,0.950570071
0.034066864,-0.721023858,-0.654064715,0.947676055
0.034179296,-0.759622693,-0.60749507,0.946076896
0.034291728,-0.795702219,-0.559151649,0.945792588
0.03440416,-0.829274058,-0.509032965,0.946810023
0.034516592,-0.86030525,-0.457116336,0.949080468
0.034629024,-0.888714671,-0.403371394,0.952522248
0.034741456,-0.914371789,-0.347775161,0.957023331
0.034853888,-0.937099516,-0.290327042,0.962445294
0.03496632,-0.956679702,-0.231061533,0.968625484
0.035078748,-0.97286576,-0.170061216,0.975388604
0.03519118,-0.985395968,-0.107465252,0.982553994
0.035303612,-0.994008541,-0.043471649,0.989942764
0.035416044,-0.998458505,0.021662301,0.997388641
0.035528476,-0.998534441,0.087624155,1.004749022
0.035640908,-0.994078338,0.154058248,1.011925686
0.03575334,-0.985002697,0.220592797,1.018891495
0.035865772,-0.971285164,0.286891311,1.025701494
0.035978204,-0.952897906,0.352699667,1.032411474
0.036090636,-0.929678977,0.417785257,1.038847521
0.036203068,-0.901338816,0.481715053,1.044461054
0.0363155,-0.867734969,0.543769062,1.048648769
0.036427932,-0.829049349,0.603168428,1.051134976
0.036540364,-0.785688102,0.659283757,1.051960866
0.036652796,-0.738131821,0.711654782,1.051291114
0.036765228,-0.686875463,0.759941936,1.049309648
0.03687766,-0.632412076,0.80389446,1.046191337
0.036990092,-0.575230181,0.843334138,1.042102229
0.037102524,-0.515809059,0.878148079,1.037203034
0.037214956,-0.454612643,0.908285022,1.031654336
0.037327388,-0.392081589,0.933747828,1.025612979
0.03743982,-0.328628004,0.954588711,1.019235972
0.037552252,-0.26462853,0.970897317,1.012669859
0.037664684,-0.200423405,0.982796848,1.006059186
0.037777116,-0.136312842,0.990430713,0.999534188
0.037889548,-0.072560005,0.993957818,0.993217098
0.03800198,-0.009390834,0.993542433,0.987214754
0.038114412,0.053000663,0.989349067,0.981620647
0.038226844,0.114448935,0.981538713,0.976516804
0.038339276,0.174811676,0.970264673,0.971972658
0.038451708,0.233966336,0.955671132,0.968047559
0.03856414,0.291805685,0.937893331,0.964794458
0.038676572,0.348235458,0.917057991,0.962263293
0.038789004,0.403173774,0.893284261,0.960505863
0.038901436,0.4565503,0.866684139,0.959579573
0.039013868,0.508314312,0.837365568,0.959564534
0.0391263,0.558445215,0.805420816,0.960563749
0.039238728,0.606964529,0.770897865,0.962689458
0.03935116,0.653906643,0.733742595,0.965972093
0.039463592,0.699217916,0.693776071,0.970230931
0.039576024,0.742650509,0.650795519,0.975064586
0.039688456,0.783804238,0.604739964,0.980059508
0.039800888,0.822282255,0.55572927,0.984983128
0.03991332,0.857776225,0.503975391,0.989771247
0.040025752,0.890052438,0.44970715,0.994429863
0.040138184,0.918914735,0.393148243,0.998969831
0.040250616,0.944182634,0.334520072,1.003384525
0.040363048,0.965683877,0.274051726,1.007649699
0.04047548,0.983254075,0.21198763,1.011727331
0.040587912,0.99674207,0.14858976,1.015573671
0.040700344,1.00601077,0.08414001,1.019137211
0.040812776,1.01094365,0.018939838,1.022365781
0.040925208,1.01144695,-0.046691474,1.025205026
0.04103764,1.0074538,-0.112417601,1.027600876
0.041150072,0.99892813,-0.1778889,1.02950187
0.041262504,0.985867202,-0.242743,1.030858304
0.041374936,0.968304634,-0.306612194,1.031624902
0.041487368,0.946314752,-0.369124711,1.031764662
0.0415998,0.920013189,-0.429911524,1.031248186
0.041712232,0.889560461,-0.488613963,1.030061419
0.041824664,0.855160356,-0.544890344,1.028204721
0.041937096,0.817062259,-0.598424673,1.025702824
0.042049528,0.775554061,-0.648938537,1.022605326
0.04216196,0.730958164,-0.696197987,1.018991475
0.042274392,0.683623672,-0.740027308,1.014981742
0.042386824,0.633906126,-0.780318558,1.010734029
0.042499256,0.582143962,-0.817038655,1.006443756
0.042611688,0.528616786,-0.850215256,1.002301688
0.04272412,0.473514676,-0.879885912,0.998415367
0.042836552,0.416965693,-0.906020284,0.994733144
0.042948984,0.35913232,-0.928497076,0.991082843
0.043061416,0.300283939,-0.947184384,0.987328701
0.043173848,0.240763515,-0.962034881,0.983478182
0.04328628,0.180905119,-0.973106086,0.979662117
0.043398708,0.120984808,-0.980521262,0.976059269
0.04351114,0.06121118,-0.984428346,0.972845977
0.043623572,0.001736232,-0.984972119,0.97017309
0.043736004,-0.057330832,-0.98227787,0.968156638
0.043848436,-0.115909502,-0.976447046,0.966883846
0.043960868,-0.173938006,-0.967551351,0.966410047
0.0440733,-0.231361359,-0.955633342,0.966763163
0.044185732,-0.288123488,-0.940706134,0.967943175
0.044298164,-0.344156861,-0.922758758,0.96992767
0.044410596,-0.399375826,-0.901756465,0.972665773
0.044523028,-0.453670114,-0.877651036,0.976087913
0.04463546,-0.506899059,-0.850385308,0.980101828
0.044747892,-0.558889091,-0.819904208,0.984599926
0.044860324,-0.609432578,-0.786162078,0.98945888
0.044972756,-0.658289194,-0.749134362,0.994546955
0.045085188,-0.705190063,-0.708825469,0.99972657
0.04519762,-0.74984473,-0.665278733,1.004862912
0.045310052,-0.791949928,-0.618582368,1.009828834
0.045422484,-0.831201851,-0.568872988,1.014512994
0.045534916,-0.867309809,-0.516337752,1.018830979
0.045647348,-0.900010824,-0.461206496,1.022730915
0.04575978,-0.929080725,-0.403739572,1.026196636
0.045872212,-0.954338968,-0.344205022,1.029239963
0.045984644,-0.975630522,-0.282853991,1.031861296
0.046097076,-0.992783844,-0.219920129,1.033984624
0.046209508,-1.00557935,-0.155666411,1.035421861
