Frequency (GHz),Re( S21 ),Im( S21 ),S2
0,-0.02024973,-2.52E-05,4.10E-04
0.000112432,-0.019399429,0.007395174,4.31E-04
0.000224864,-0.016885862,0.014435383,4.94E-04
0.000337296,-0.012834517,0.020734713,5.95E-04
0.000449728,-0.007419731,0.026029972,7.33E-04
0.000562159,-0.000958353,0.029931858,8.97E-04
0.000674591,0.006246015,0.032291733,1.08E-03
0.000787023,0.013831566,0.032980464,1.28E-03
0.000899455,0.021416266,0.031952083,1.48E-03
0.001011887,0.028616501,0.029245928,1.67E-03
0.001124319,0.035065144,0.024985991,1.85E-03
0.001236751,0.040430658,0.019374352,2.01E-03
0.001349183,0.044432733,0.012682659,2.14E-03
0.001461615,0.046856534,0.005239357,2.22E-03
0.001574047,0.047564264,-0.002586158,2.27E-03
0.001686478,0.046502117,-0.010400464,2.27E-03
0.00179891,0.043703742,-0.017804988,2.23E-03
0.001911342,0.039291151,-0.024415493,2.14E-03
0.002023774,0.033468746,-0.029880434,2.01E-03
0.002136206,0.026515704,-0.033899002,1.85E-03
0.002248638,0.018773872,-0.036236424,1.67E-03
0.00236107,0.010632115,-0.036737002,1.46E-03
0.002473502,0.002508816,-0.035332657,1.25E-03
0.002585934,-0.005168094,-0.032049254,1.05E-03
0.002698366,-0.011981447,-0.027006853,8.73E-04
0.002810797,-0.017545663,-0.02041663,7.25E-04
0.002923229,-0.021526204,-0.012572637,6.21E-04
0.003035661,-0.023657193,-0.003840123,5.74E-04
0.003148093,-0.023756286,0.005361312,5.93E-04
0.003260525,-0.021736411,0.014577584,6.85E-04
0.003372957,-0.017632002,0.02338391,8.58E-04
0.003485389,-0.011524919,0.031221123,1.11E-03
0.003597821,-0.003658082,0.037752535,1.44E-03
0.003710253,0.005575726,0.042408221,1.83E-03
0.003822684,0.015957879,0.045134265,2.29E-03
0.003935116,0.026999841,0.045650449,2.81E-03
0.004047548,0.038042419,0.043775968,3.36E-03
0.00415998,0.048651554,0.03954168,3.93E-03
0.004272412,0.058303911,0.033064924,4.49E-03
0.004384844,0.066505663,0.024577949,5.03E-03
0.004497276,0.072816052,0.014420878,5.51E-03
0.004609708,0.07687074,0.003030653,5.92E-03
0.00472214,0.078402013,-0.009076452,6.23E-03
0.004834572,0.077255376,-0.021324357,6.42E-03
0.004947003,0.073402762,-0.033102192,6.48E-03
0.005059435,0.066949219,-0.043790385,6.40E-03
0.005171867,0.058136173,-0.052788492,6.17E-03
0.005284299,0.047336772,-0.059544481,5.79E-03
0.005396731,0.035047945,-0.063581564,5.27E-03
0.005509163,0.021873964,-0.06452515,4.64E-03
0.005621595,0.008507624,-0.062125959,3.93E-03
0.005734027,-0.004296085,-0.056278791,3.19E-03
0.005846459,-0.01574837,-0.047037158,2.46E-03
0.00595889,-0.025059396,-0.034622002,1.83E-03
0.006071322,-0.031472325,-0.019423282,1.37E-03
0.006183754,-0.034297716,-0.001995476,1.18E-03
0.006296186,-0.032947719,0.016955106,1.37E-03
0.006408618,-0.026967824,0.036590844,2.07E-03
0.00652105,-0.016067278,0.055968557,3.39E-03
0.006633482,-1.93E-05,0.074204221,5.51E-03
0.006745914,0.020860883,0.089962192,8.53E-03
0.006858346,0.046369229,0.102305807,1.26E-02
0.006970777,0.075998351,0.110221401,1.79E-02
0.007083209,0.109032996,0.112753071,2.46E-02
0.007195641,0.144468784,0.10910394,3.28E-02
0.007308073,0.181318387,0.09870223,4.26E-02
0.007420505,0.21836938,0.081030369,5.43E-02
0.007532937,0.25429666,0.055855773,6.78E-02
0.007645369,0.287731677,0.02318418,8.33E-02
0.007757801,0.317296267,-0.016733008,1.01E-01
0.007870233,0.341646492,-0.063397221,1.21E-01
0.007982665,0.359518468,-0.116067916,1.43E-01
0.008095096,0.369775623,-0.17378132,1.67E-01
0.008207528,0.37144351,-0.235386074,1.93E-01
0.00831996,0.363723516,-0.299563438,2.22E-01
0.008432392,0.346035272,-0.364845961,2.53E-01
0.008544824,0.318044037,-0.429666281,2.86E-01
0.008657256,0.279671907,-0.492402464,3.21E-01
0.008769687,0.231101438,-0.551417053,3.57E-01
0.008882119,0.172777832,-0.605098546,3.96E-01
0.008994551,0.105404891,-0.651901305,4.36E-01
0.009106983,0.029934084,-0.690386415,4.78E-01
0.009219415,-0.052456524,-0.719257712,5.20E-01
0.009331847,-0.140394911,-0.737397194,5.63E-01
0.009444279,-0.232352152,-0.743905604,6.07E-01
0.009556711,-0.326670468,-0.738139033,6.52E-01
0.009669143,-0.421588272,-0.71972537,6.96E-01
0.009781575,-0.515281498,-0.688564181,7.40E-01
0.009894006,-0.605915368,-0.644829214,7.83E-01
0.010006438,-0.691694915,-0.588968337,8.25E-01
0.01011887,-0.770909131,-0.521698952,8.66E-01
0.010231302,-0.841974974,-0.443991691,9.06E-01
0.010343734,-0.903474867,-0.357048303,9.44E-01
0.010456166,-0.954192877,-0.262271315,9.79E-01
0.010568598,-0.993145585,-0.16122815,1.01E+00
0.01068103,-1.01960266,-0.055609964,1.04E+00
0.010793462,-1.03310525,0.052812059,1.07E+00
0.010905893,-1.03347182,0.162233829,1.09E+00
0.011018325,-1.02079773,0.270864993,1.12E+00
0.011130757,-0.995444775,0.376975685,1.13E+00
0.011243189,-0.958025157,0.478938282,1.15E+00
0.011355621,-0.909373999,0.57526803,1.16E+00
0.011468053,-0.850516677,0.664656401,1.17E+00
0.011580485,-0.782627642,0.746003568,1.17E+00
0.011692917,-0.706979632,0.818467081,1.17E+00
0.011805349,-0.625062406,0.881545603,1.17E+00
0.01191778,-0.538461626,0.934610069,1.16E+00
0.012030212,-0.448431253,0.977424204,1.16E+00
0.012142644,-0.356297851,1.01007712,1.15E+00
0.012255076,-0.263307065,1.03286397,1.14E+00
0.012367508,-0.170498639,1.04633617,1.12E+00
0.01247994,-0.078124732,1.05148721,1.11E+00
0.012592372,-0.002173715,1.04033959,1.08E+00
0.012704804,0.086818442,1.03091359,1.07E+00
0.012817236,0.169360742,1.01185143,1.05E+00
0.012929667,0.247006103,0.986685097,1.03E+00
0.013042099,0.319900751,0.956323087,1.02E+00
0.013154531,0.388030261,0.921551883,1.00E+00
0.013266963,0.451430678,0.883092761,9.84E-01
0.013379395,0.510216773,0.84159106,9.69E-01
0.013491827,0.564575791,0.79760319,9.55E-01
0.013604259,0.614748478,0.751587391,9.43E-01
0.013716691,0.661008358,0.70390147,9.32E-01
0.013829123,0.703638911,0.654802322,9.24E-01
0.013941554,0.742913067,0.604453385,9.17E-01
0.014053986,0.77907306,0.55293256,9.13E-01
0.014166418,0.812314928,0.500247598,9.10E-01
0.01427885,0.842774689,0.446350724,9.09E-01
0.014391282,0.870519817,0.391157657,9.11E-01
0.014503714,0.89554441,0.334566504,9.14E-01
0.014616146,0.917767584,0.276477754,9.19E-01
0.014728578,0.937038362,0.216814205,9.25E-01
0.01484101,0.953142583,0.155539721,9.33E-01
0.014953441,0.965817332,0.092676684,9.41E-01
0.015065873,0.974771082,0.028316788,9.51E-01
0.015178305,0.979703605,-0.037376441,9.61E-01
0.015290737,0.980319679,-0.104170546,9.72E-01
0.015403169,0.976341546,-0.171759382,9.83E-01
0.015515601,0.967532873,-0.239758313,9.94E-01
0.015628033,0.953744829,-0.307712585,1.00E+00
0.015740465,0.934979916,-0.375160336,1.01E+00
0.015852897,0.911375344,-0.441847086,1.03E+00
0.015965329,0.882697582,-0.507826269,1.04E+00
0.01607776,0.848184884,-0.572505057,1.05E+00
0.016190192,0.807800889,-0.634649634,1.06E+00
0.016302624,0.762061477,-0.693428814,1.06E+00
0.016415056,0.711468041,-0.748313785,1.07E+00
0.016527488,0.656486154,-0.798861027,1.07E+00
0.01663992,0.597602427,-0.844673574,1.07E+00
0.016752352,0.535341203,-0.885411024,1.07E+00
0.016864784,0.47026211,-0.920802176,1.07E+00
0.016977216,0.402950704,-0.950653315,1.07E+00
0.017089648,0.33400324,-0.974853814,1.06E+00
0.01720208,0.264013559,-0.993375301,1.06E+00
0.017314512,0.193557695,-1.00627053,1.05E+00
0.017426944,0.123181373,-1.01366603,1.04E+00
0.017539374,0.053387553,-1.01575458,1.03E+00
0.017651806,-0.015372472,-1.01278484,1.03E+00
0.017764238,-0.082706258,-1.00504875,1.02E+00
0.01787667,-0.148284942,-0.992870271,1.01E+00
0.017989102,-0.211843908,-0.976591527,9.99E-01
0.018101534,-0.273183107,-0.956559956,9.90E-01
0.018213966,-0.33216238,-0.933117449,9.81E-01
0.018326398,-0.388697565,-0.906590521,9.73E-01
0.01843883,-0.442752689,-0.877280831,9.66E-01
0.018551262,-0.494332403,-0.845458806,9.59E-01
0.018663694,-0.543473184,-0.811359644,9.54E-01
0.018776126,-0.590235174,-0.775182843,9.49E-01
0.018888558,-0.634699047,-0.737093389,9.46E-01
0.01900099,-0.676974535,-0.697220862,9.44E-01
0.019113422,-0.717214286,-0.655630887,9.44E-01
0.019225854,-0.755588472,-0.612251401,9.46E-01
0.019338286,-0.792135894,-0.566840529,9.49E-01
0.019450718,-0.82663691,-0.519171476,9.53E-01
0.01956315,-0.858770549,-0.46922332,9.58E-01
0.01967558,-0.888294041,-0.41709742,9.63E-01
0.019788012,-0.915028214,-0.362896413,9.69E-01
0.019900444,-0.938794792,-0.306705117,9.75E-01
0.020012876,-0.95939219,-0.248614028,9.82E-01
0.020125308,-0.976595223,-0.188741609,9.89E-01
0.02023774,-0.990163982,-0.127246305,9.97E-01
0.020350172,-0.999857247,-0.06433326,1.00E+00
0.020462604,-1.00544202,-0.000256762,1.01E+00
0.020575036,-1.00670743,0.064680949,1.02E+00
0.020687468,-1.00347447,0.130132988,1.02E+00
0.0207999,-0.995605409,0.195714638,1.03E+00
0.020912332,-0.98301065,0.261009783,1.03E+00
0.021024764,-0.965657234,0.325580418,1.04E+00
0.021137196,-0.943571627,0.388977259,1.04E+00
0.021249628,-0.916841269,0.450750023,1.04E+00
0.02136206,-0.885616183,0.510458767,1.04E+00
0.021474492,-0.850106239,0.567684233,1.04E+00
0.021586924,-0.810576618,0.622039676,1.04E+00
0.021699354,-0.767341912,0.67317909,1.04E+00
0.021811786,-0.720758736,0.720806003,1.04E+00
0.021924218,-0.671216488,0.764682055,1.04E+00
0.02203665,-0.619126081,0.804631174,1.03E+00
0.022149082,-0.564908922,0.84054637,1.03E+00
0.022261514,-0.508978546,0.872395694,1.02E+00
0.022373946,-0.451715857,0.900220752,1.01E+00
0.022486378,-0.393433541,0.924120784,1.01E+00
0.02259881,-0.334355295,0.944199443,1.00E+00
0.022711242,-0.27465409,0.960496545,9.98E-01
0.022823674,-0.214544624,0.97299552,9.93E-01
0.022936106,-0.154309705,0.981712997,9.88E-01
0.023048538,-0.094237872,0.98674643,9.83E-01
0.02316097,-0.034565225,0.988254309,9.78E-01
0.023273402,0.024537502,0.98641032,9.74E-01
0.023385834,0.082952201,0.981377482,9.70E-01
0.023498266,0.140598685,0.973294854,9.67E-01
0.023610698,0.197420701,0.962274253,9.65E-01
0.023723128,0.253375918,0.948397517,9.64E-01
0.02383556,0.308425665,0.931717694,9.63E-01
0.023947992,0.3625274,0.91226083,9.64E-01
0.024060424,0.415627182,0.890030265,9.65E-01
0.024172856,0.467653781,0.865009904,9.67E-01
0.024285288,0.518513083,0.837170899,9.70E-01
0.02439772,0.568085015,0.806478381,9.73E-01
0.024510152,0.616221428,0.772898555,9.77E-01
0.024622584,0.662745476,0.736406267,9.82E-01
0.024735016,0.707454383,0.696992874,9.86E-01
0.024847448,0.750120401,0.654673696,9.91E-01
0.02495988,0.790498316,0.609493434,9.96E-01
0.025072312,0.82833004,0.561532438,1.00E+00
0.025184744,0.863352835,0.510909557,1.01E+00
0.025297176,0.895310462,0.457784623,1.01E+00
0.025409608,0.92396009,0.402356029,1.02E+00
0.02552204,0.949084342,0.344856381,1.02E+00
0.025634472,0.970498919,0.285541236,1.02E+00
0.025746904,0.988051951,0.224673614,1.03E+00
0.025859334,1.00160885,0.162509397,1.03E+00
0.025971766,1.01102626,0.099304706,1.03E+00
0.026084198,1.01613986,0.035353951,1.03E+00
0.02619663,1.01680136,-0.028973924,1.03E+00
0.026309062,1.0129348,-0.093244396,1.03E+00
0.026421494,1.00456238,-0.15700765,1.03E+00
0.026533926,0.991789997,-0.219840154,1.03E+00
0.026646358,0.974780977,-0.281361192,1.03E+00
0.02675879,0.953738689,-0.341235667,1.03E+00
0.026871222,0.928891957,-0.399171025,1.02E+00
0.026983654,0.900489867,-0.454916447,1.02E+00
0.027096086,0.868793726,-0.508261919,1.01E+00
0.027208518,0.834072232,-0.55903703,1.01E+00
0.02732095,0.796594799,-0.607109606,1.00E+00
0.027433382,0.756624937,-0.652383566,9.98E-01
0.027545814,0.714416206,-0.694795668,9.93E-01
0.027658246,0.670207083,-0.734311342,9.88E-01
0.027770678,0.624215841,-0.770918608,9.84E-01
0.027883108,0.576640964,-0.804624557,9.80E-01
0.02799554,0.527656972,-0.835447967,9.76E-01
0.028107972,0.477416903,-0.863414168,9.73E-01
0.028220404,0.426051706,-0.888549626,9.71E-01
0.028332836,0.373673648,-0.910878062,9.69E-01
0.028445268,0.320379674,-0.930415928,9.68E-01
0.0285577,0.266253442,-0.947170138,9.68E-01
0.028670132,0.211370692,-0.961137772,9.68E-01
0.028782564,0.155799985,-0.972303391,9.70E-01
0.028894996,0.0996048,-0.980641305,9.72E-01
0.029007428,0.042841878,-0.986111164,9.74E-01
0.02911986,-0.014438706,-0.988651276,9.78E-01
0.029232292,-0.072185569,-0.988164008,9.82E-01
0.029344724,-0.130324066,-0.984507918,9.86E-01
0.029457156,-0.188723236,-0.97750622,9.91E-01
0.029569588,-0.247177735,-0.966984272,9.96E-01
0.02968202,-0.305419654,-0.952805936,1.00E+00
0.029794452,-0.363149196,-0.934890628,1.01E+00
0.029906882,-0.420056015,-0.91320622,1.01E+00
0.030019314,-0.475828767,-0.887760758,1.01E+00
0.030131746,-0.530157447,-0.858595848,1.02E+00
0.030244178,-0.582732975,-0.825785339,1.02E+00
0.03035661,-0.633249223,-0.789435625,1.02E+00
0.030469042,-0.68140775,-0.749688745,1.03E+00
0.030581474,-0.726922035,-0.706721187,1.03E+00
0.030693906,-0.769523144,-0.660742283,1.03E+00
0.030806338,-0.8089661,-0.611994684,1.03E+00
0.03091877,-0.84503293,-0.560746789,1.03E+00
0.031031202,-0.877540588,-0.507292092,1.03E+00
0.031143634,-0.906340659,-0.451940447,1.03E+00
0.031256066,-0.931324124,-0.395014137,1.02E+00
0.031368498,-0.952421188,-0.336840183,1.02E+00
0.03148093,-0.969601691,-0.277744889,1.02E+00
0.031593362,-0.982874155,-0.218046278,1.01E+00
0.031705794,-0.992282689,-0.158049494,1.01E+00
0.031818226,-0.997904658,-0.098040007,1.01E+00
0.031930658,-0.999845564,-0.038279042,1.00E+00
0.032043088,-0.998235047,0.021001585,9.97E-01
0.03215552,-0.993219912,0.079603434,9.93E-01
0.032267952,-0.984955311,0.137366369,9.89E-01
0.032380384,-0.973593831,0.194169089,9.86E-01
0.032492816,-0.959270179,0.249927521,9.83E-01
0.032605248,-0.942087233,0.304581612,9.80E-01
0.03271768,-0.92211014,0.358072609,9.79E-01
0.032830112,-0.899378061,0.410322934,9.77E-01
0.032942544,-0.87392664,0.461228251,9.76E-01
0.033054976,-0.845806122,0.51066947,9.76E-01
0.033167408,-0.815080941,0.558528721,9.76E-01
0.03327984,-0.781821668,0.604697108,9.77E-01
0.033392272,-0.746095657,0.649072468,9.78E-01
0.033504704,-0.707963169,0.691553652,9.79E-01
0.033617136,-0.667477608,0.732032716,9.81E-01
0.033729568,-0.62469095,0.770390451,9.84E-01
0.033842,-0.579657793,0.806494415,9.86E-01
0.033954432,-0.532441914,0.840197742,9.89E-01
0.034066864,-0.483120412,0.871341288,9.93E-01
0.034179296,-0.431789368,0.899756193,9.96E-01
0.034291728,-0.378567278,0.925266802,9.99E-01
0.03440416,-0.323597282,0.947695792,1.00E+00
0.034516592,-0.26704976,0.966870308,1.01E+00
0.034629024,-0.209122151,0.982625544,1.01E+00
0.034741456,-0.150038794,0.994811893,1.01E+00
0.034853888,-0.090048149,1.00329947,1.01E+00
0.03496632,-0.02942081,1.0079844,1.02E+00
0.035078748,0.031555586,1.00879145,1.02E+00
0.03519118,0.092581958,1.00567997,1.02E+00
0.035303612,0.153353736,0.998644054,1.02E+00
0.035416044,0.213568583,0.987714171,1.02E+00
0.035528476,0.272934139,0.972955823,1.02E+00
0.035640908,0.331176281,0.954464197,1.02E+00
0.03575334,0.388042152,0.932355225,1.02E+00
0.035865772,0.443302125,0.906756759,1.02E+00
0.035978204,0.496739149,0.877799034,1.02E+00
0.036090636,0.548140049,0.845617354,1.02E+00
0.036203068,0.597287178,0.810363352,1.01E+00
0.0363155,0.643965781,0.772218347,1.01E+00
0.036427932,0.687980592,0.731399119,1.01E+00
0.036540364,0.729172349,0.688149393,1.01E+00
0.036652796,0.767424226,0.642724156,1.00E+00
0.036765228,0.802659094,0.595375478,9.99E-01
0.03687766,0.834833384,0.546343505,9.95E-01
0.036990092,0.863930583,0.495851129,9.92E-01
0.037102524,0.889950573,0.444100976,9.89E-01
0.037214956,0.912907004,0.391276658,9.86E-01
0.037327388,0.932819605,0.337542385,9.84E-01
0.03743982,0.949711084,0.283045471,9.82E-01
0.037552252,0.963601351,0.227917328,9.80E-01
0.037664684,0.974507272,0.172278479,9.79E-01
0.037777116,0.982437789,0.116239905,9.79E-01
0.037889548,0.987394273,0.059908181,9.79E-01
0.03800198,0.989368677,0.003387802,9.79E-01
0.038114412,0.988345921,-0.053214546,9.80E-01
0.038226844,0.984302998,-0.109785877,9.81E-01
0.038339276,0.977212131,-0.166205198,9.83E-01
0.038451708,0.967044055,-0.222341374,9.85E-01
0.03856414,0.953770876,-0.278051704,9.87E-01
0.038676572,0.93736732,-0.333181381,9.90E-01
0.038789004,0.917817235,-0.387565702,9.93E-01
0.038901436,0.895109773,-0.441030979,9.96E-01
0.039013868,0.869244576,-0.49339655,9.99E-01
0.0391263,0.840225041,-0.544473469,1.00E+00
0.039238728,0.808060706,-0.594061017,1.01E+00
0.03935116,0.772767246,-0.641939163,1.01E+00
0.039463592,0.734378994,-0.687861919,1.01E+00
0.039576024,0.692963898,-0.731559217,1.02E+00
0.039688456,0.64863807,-0.772749484,1.02E+00
0.039800888,0.601569355,-0.811157525,1.02E+00
0.03991332,0.551971972,-0.846533477,1.02E+00
0.040025752,0.500094354,-0.878661275,1.02E+00
0.040138184,0.446207583,-0.907360911,1.02E+00
0.040250616,0.390597343,-0.932490051,1.02E+00
0.040363048,0.333557814,-0.953940511,1.02E+00
0.04047548,0.275386602,-0.97163862,1.02E+00
0.040587912,0.216381431,-0.985543132,1.02E+00
0.040700344,0.156834796,-0.995643497,1.02E+00
0.040812776,0.09703134,-1.00195825,1.01E+00
0.040925208,0.037244078,-1.0045346,1.01E+00
0.04103764,-0.022269774,-1.00344169,1.01E+00
0.041150072,-0.08126989,-0.998772562,1.00E+00
0.041262504,-0.139536127,-0.990635395,1.00E+00
0.041374936,-0.196870238,-0.979152858,9.97E-01
0.041487368,-0.253095239,-0.964457393,9.94E-01
0.0415998,-0.308056146,-0.946686327,9.91E-01
0.041712232,-0.3616198,-0.925979793,9.88E-01
0.041824664,-0.413672566,-0.902475834,9.86E-01
0.041937096,-0.464119613,-0.87630707,9.83E-01
0.042049528,-0.51288265,-0.847599566,9.81E-01
0.04216196,-0.559897304,-0.816466331,9.80E-01
0.042274392,-0.605110228,-0.783007145,9.79E-01
0.042386824,-0.648474157,-0.747303486,9.79E-01
0.042499256,-0.68994087,-0.709415674,9.79E-01
0.042611688,-0.729450107,-0.669384062,9.80E-01
0.04272412,-0.766920328,-0.627234817,9.82E-01
0.042836552,-0.802241325,-0.582992196,9.83E-01
0.042948984,-0.835273147,-0.536693752,9.86E-01
0.043061416,-0.865857899,-0.488402605,9.88E-01
0.043173848,-0.893829525,-0.438210756,9.91E-01
0.04328628,-0.919026852,-0.386237323,9.94E-01
0.043398708,-0.941295147,-0.332622319,9.97E-01
0.04351114,-0.960490167,-0.277523816,1.00E+00
0.043623572,-0.976475954,-0.221115202,1.00E+00
0.043736004,-0.989127159,-0.163586363,1.01E+00
0.043848436,-0.998329401,-0.105142727,1.01E+00
0.043960868,-1.00398183,-0.046006531,1.01E+00
0.0440733,-1.00600123,0.013584004,1.01E+00
0.044185732,-1.00432444,0.073376887,1.01E+00
0.044298164,-0.998910785,0.133107767,1.02E+00
0.044410596,-0.989746571,0.192503512,1.02E+00
0.044523028,-0.976845443,0.251286596,1.02E+00
0.04463546,-0.960250556,0.309177995,1.02E+00
0.044747892,-0.94003427,0.365903586,1.02E+00
0.044860324,-0.916298449,0.421197236,1.02E+00
0.044972756,-0.889171958,0.4748061,1.02E+00
0.045085188,-0.858809233,0.526495397,1.01E+00
0.04519762,-0.825386763,0.576051712,1.01E+00
0.045310052,-0.789098322,0.623286963,1.01E+00
0.045422484,-0.750150323,0.668040454,1.01E+00
0.045534916,-0.708755791,0.710180998,1.01E+00
0.045647348,-0.665126383,0.749605536,1.00E+00
0.04575978,-0.619466543,0.786236644,1.00E+00
0.045872212,-0.571968198,0.820015967,1.00E+00
0.045984644,-0.522807181,0.850895584,9.97E-01
0.046097076,-0.472148716,0.878830433,9.95E-01
0.046209508,-0.42015332,0.903772593,9.93E-01
0.04632194,-0.366984814,0.925674438,9.92E-01
0.046434372,-0.312814742,0.94449544,9.90E-01
0.046546804,-0.257819176,0.96020782,9.88E-01
0.046659236,-0.202172354,0.972800136,9.87E-01
0.046771668,-0.146041155,0.982274413,9.86E-01
0.0468841,-0.08958102,0.988641798,9.85E-01
0.046996532,-0.03293623,0.991916656,9.85E-01
0.047108964,0.023757858,0.992113113,9.85E-01
0.047221396,0.080371872,0.989240527,9.85E-01
0.047333828,0.136777744,0.98330456,9.86E-01
0.047446256,0.192846164,0.974305809,9.86E-01
0.047558688,0.248442575,0.962241828,9.88E-01
0.04767112,0.303424865,0.947108328,9.89E-01
0.047783552,0.357642114,0.928902984,9.91E-01
0.047895984,0.410932392,0.907628477,9.93E-01
0.048008416,0.463122725,0.883294284,9.95E-01
0.048120848,0.514030993,0.855921507,9.97E-01
0.04823328,0.563465238,0.825545132,9.99E-01
0.048345712,0.61122793,0.792216957,1.00E+00
0.048458144,0.657117367,0.756007671,1.00E+00
0.048570576,0.700932145,0.717009127,1.01E+00
0.048683008,0.742473781,0.675332308,1.01E+00
0.04879544,0.781552672,0.631109357,1.01E+00
0.048907872,0.817988157,0.584489226,1.01E+00
0.049020304,0.851613104,0.53563565,1.01E+00
0.049132736,0.882273376,0.484723717,1.01E+00
0.049245168,0.909824431,0.431937277,1.01E+00
