Frequency (GHz),Re( S21 ),Im( S21 ),S2
0,0.021111582,0,0.000445699
0.000110867,0.020626199,-0.004514934,0.000445825
0.000221734,0.019190084,-0.008827576,0.000446185
0.000332601,0.016864114,-0.012743293,0.00044679
0.000443468,0.013747491,-0.016082205,0.000447631
0.000554334,0.009974826,-0.018686755,0.000448692
0.000665201,0.005712892,-0.020428702,0.000449969
0.000776068,0.001153887,-0.021216037,0.000451452
0.000886935,-0.003491895,-0.020998072,0.000453112
0.000997802,-0.008003823,-0.019770932,0.000454951
0.001108669,-0.012162552,-0.017578866,0.000456944
0.001219536,-0.01576025,-0.014515082,0.000459073
0.001330403,-0.018612728,-0.010718869,0.000461328
0.00144127,-0.020569537,-0.006369642,0.000463678
0.001552136,-0.021524496,-0.001678625,0.000466122
0.001663003,-0.021421736,0.003122375,0.00046864
0.00177387,-0.020260349,0.007793616,0.000471222
0.001884737,-0.018094853,0.012101287,0.000473865
0.001995604,-0.015031738,0.015830873,0.00047657
0.002106471,-0.011223247,0.018798161,0.000479332
0.002217338,-0.006858336,0.020860005,0.000482177
0.002328205,-0.002151005,0.021919904,0.000485109
0.002439072,0.002671029,0.02193222,0.000488157
0.002549938,0.007378566,0.020902196,0.000491345
0.002660805,0.011751904,0.018883871,0.000494708
0.002771672,0.015590419,0.01597506,0.000498264
0.002882539,0.018720698,0.012312637,0.000502066
0.002993406,0.021002842,0.00806334,0.000506137
0.003104273,0.022334695,0.003418115,0.000510522
0.00321514,0.022655249,-0.001417015,0.000515268
0.003326007,0.021944234,-0.006211896,0.000520137
0.003436873,0.020210119,-0.010807394,0.000525249
0.00354774,0.017545771,-0.014942518,0.000531133
0.003658607,0.014039905,-0.01844492,0.000537334
0.003769474,0.009836204,-0.021146886,0.000543942
0.003880341,0.005110674,-0.02290998,0.000550986
0.003991208,6.76E-05,-0.023631794,0.000558466
0.004102075,-0.005067421,-0.023253502,0.000566404
0.004212942,-0.010056117,-0.021763751,0.000574786
0.004323809,-0.01465734,-0.01920313,0.000583598
0.004434676,-0.018638864,-0.015665852,0.000592826
0.004545542,-0.021789594,-0.01129793,0.00060243
0.004656409,-0.023932448,-0.006293389,0.000612369
0.004767276,-0.024936238,-0.000885667,0.0006226
0.004878143,-0.024725005,0.004662781,0.000633067
0.00498901,-0.023285354,0.010075288,0.000643719
0.005099877,-0.020668937,0.015076274,0.000654499
0.005210744,-0.016991092,0.019407669,0.000665355
0.005321611,-0.012424691,0.022844564,0.000676247
0.005432477,-0.007190108,0.025207778,0.00068713
0.005543344,-0.001542733,0.026374606,0.000698
0.005654211,0.004242976,0.026283864,0.000708844
0.005765078,0.009888239,0.024937738,0.000719668
0.005875945,0.015124575,0.022399746,0.000730501
0.005986812,0.019707082,0.01878879,0.000741388
0.006097679,0.023424508,0.014271319,0.000752378
0.006208546,0.026107762,0.009051657,0.000763548
0.006319413,0.027634466,0.003361993,0.000774967
0.006430279,0.027932607,-0.002548418,0.000786725
0.006541146,0.026980598,-0.00842294,0.000798899
0.006652013,0.024806105,-0.014009055,0.000811596
0.00676288,0.021497108,-0.019064346,0.000825575
0.006873747,0.01716846,-0.023350898,0.00084002
0.006984614,0.011984416,-0.026677586,0.00085532
0.007095481,0.006150743,-0.028876992,0.000871712
0.007206348,-9.63E-05,-0.029821621,0.000889338
0.007317214,-0.006493998,-0.029430246,0.000908311
0.007428081,-0.012762514,-0.027674491,0.000928759
0.007538948,-0.018612914,-0.02458366,0.000950797
0.007649815,-0.023759827,-0.020247718,0.000974499
0.007760682,-0.027934225,-0.014819379,0.000999935
0.007871549,-0.030897953,-0.008511866,0.001027135
0.007982416,-0.032458589,-0.001593491,0.001056099
0.008093283,-0.032483388,0.005621456,0.001086771
0.00820415,-0.030911926,0.012786817,0.00111905
0.008315016,-0.027764693,0.019542957,0.001152805
0.008425883,-0.023147162,0.025535179,0.001187836
0.00853675,-0.017247777,0.030437587,0.001223933
0.008647617,-0.010330414,0.033972319,0.001260836
0.008758484,-0.002720003,0.035928946,0.001298288
0.008869351,0.005215438,0.036177442,0.001336008
0.008980217,0.013086563,0.034677222,0.001373768
0.009091084,0.020505505,0.031477932,0.001411336
0.009201951,0.027107198,0.026715873,0.001448538
0.009312818,0.032568708,0.020603832,0.001485239
0.009423685,0.036624193,0.013418408,0.001521385
0.009534552,0.039075598,0.005483205,0.001556968
0.009645419,0.039799105,-0.002847024,0.001592074
0.009756286,0.038747117,-0.011204459,0.001626879
0.009867153,0.035947457,-0.019222738,0.001661733
0.009978019,0.031501632,-0.026552988,0.001697414
0.010088886,0.025587153,-0.032867927,0.001735003
0.010199753,0.018422311,-0.037856851,0.001772523
0.01031062,0.010262677,-0.041291352,0.001810298
0.010421487,0.001437159,-0.042993132,0.001850475
0.010532354,-0.007695912,-0.04283357,0.001893942
0.010643221,-0.016756199,-0.040751278,0.001941437
0.010754088,-0.025350191,-0.036758695,0.001993834
0.010864954,-0.033082053,-0.030946337,0.002052098
0.010975821,-0.039568871,-0.02348507,0.002117244
0.011086688,-0.044456743,-0.01462738,0.002190362
0.011197555,-0.047438256,-0.004704229,0.002272518
0.011308422,-0.048271723,0.005881807,0.002364755
0.011419289,-0.04679919,0.016668733,0.002468011
0.011530156,-0.042962913,0.027151756,0.00258303
0.011641023,-0.03681916,0.03680693,0.002710401
0.01175189,-0.02854446,0.045117363,0.002850363
0.011862756,-0.018436778,0.051603444,0.00300283
0.011973623,-0.006906932,0.055853743,0.003167346
0.01208449,0.005537818,0.057553183,0.003343036
0.012195357,0.018318834,0.056507189,0.003528642
0.012306224,0.030816445,0.052658014,0.00372252
0.012417091,0.042405408,0.046092536,0.003922741
0.012527958,0.05248997,0.037039924,0.004127153
0.012638825,0.060536597,0.025860155,0.004333427
0.012749691,0.066103168,0.013025092,0.004539282
0.012860558,0.068859823,-0.000906465,0.004742497
0.012971425,0.068604305,-0.015317375,0.004941173
0.013082292,0.065268427,-0.029561201,0.005133832
0.013193159,0.058919698,-0.042990353,0.005319701
0.013304026,0.049758129,-0.054981716,0.00549886
0.013414893,0.038107559,-0.064952962,0.005671073
0.01352576,0.024388406,-0.072378695,0.00583347
0.013636627,0.009100755,-0.076835699,0.005986548
0.013747493,-0.007157356,-0.078011841,0.006137075
0.01385836,-0.023716187,-0.075694859,0.006292169
0.013969227,-0.039862964,-0.069788739,0.006459524
0.014080094,-0.054858897,-0.060328879,0.006649072
0.014190961,-0.067957901,-0.047490355,0.00687361
0.014301828,-0.078429535,-0.031595577,0.007149472
0.014412695,-0.085585676,-0.013117485,0.007496976
0.014523562,-0.088809893,0.007320838,0.007940792
0.014634428,-0.08759141,0.02895299,0.008510531
0.014745295,-0.081558518,0.050883595,0.009240932
0.014856162,-0.070513018,0.072111331,0.01017213
0.014967029,-0.054459978,0.091562651,0.011349608
0.015077896,-0.033632495,0.108133413,0.01282398
0.015188763,-0.008505447,0.120739929,0.014650473
0.01529963,0.020202447,0.128375679,0.016888454
0.015410497,0.051541057,0.130169287,0.019600524
0.015521364,0.0843587,0.125439972,0.022851577
0.01563223,0.117344789,0.113746159,0.026707988
0.015743097,0.149086028,0.094921455,0.031236726
0.015853964,0.178130358,0.069094971,0.036504539
0.015964831,0.203054473,0.036694888,0.042577634
0.016075698,0.222528294,-0.001565199,0.049521291
0.016186565,0.235373542,-0.044714466,0.057400088
0.016297432,0.240610421,-0.091565505,0.066277616
0.016408299,0.237491816,-0.140761435,0.076216144
0.016519165,0.22552444,-0.190827295,0.08727633
0.016630032,0.204477265,-0.240221784,0.099517457
0.016740899,0.174382254,-0.287385762,0.112999747
0.016851766,0.13552773,-0.330783933,0.127785776
0.016962632,0.088449553,-0.368940085,0.14394011
0.0170735,0.033928782,-0.400465131,0.161523483
0.017184366,-0.02697154,-0.424176127,0.180652851
0.017295234,-0.093325764,-0.439130366,0.201545177
0.0174061,-0.163916439,-0.444161713,0.224148226
0.017516968,-0.237240329,-0.438428313,0.248502359
0.017627834,-0.311682791,-0.421315014,0.274652503
0.017738702,-0.385518253,-0.392434686,0.302629306
0.017849568,-0.456930786,-0.35164851,0.332442418
0.017960434,-0.524043918,-0.29908976,0.364076713
0.018071302,-0.584957182,-0.235185295,0.397487028
0.018182168,-0.637793362,-0.160672322,0.432595968
0.018293036,-0.680750191,-0.076608576,0.469289696
0.018403902,-0.712160349,0.015627263,0.507416574
0.01851477,-0.730555415,0.11434865,0.546786828
0.018625636,-0.734732985,0.217588797,0.587177444
0.018736504,-0.723817885,0.323144436,0.628334657
0.01884737,-0.697318196,0.42863518,0.669980784
0.018958236,-0.655171156,0.531576157,0.711822454
0.019069104,-0.597771406,0.629451036,0.753539261
0.01917997,-0.525973558,0.719771624,0.794719374
0.019290838,-0.441002697,0.800115883,0.834668805
0.019401704,-0.344244719,0.868325531,0.872493654
0.019512572,-0.237377122,0.922897816,0.908088277
0.019623438,-0.122677103,0.962750375,0.941937956
0.019734306,-0.002653985,0.986963034,0.974103074
0.019845172,0.120205075,0.994958103,1.004390887
0.019956038,0.243465498,0.986579597,1.03261475
0.020066906,0.364777476,0.962074697,1.05865033
0.020177772,0.481926709,0.922049224,1.082428124
0.02028864,0.592877328,0.867416024,1.103914085
0.020399506,0.695807576,0.799346507,1.123103021
0.020510374,0.78913182,0.719219446,1.140005641
0.02062124,0.871513128,0.628573537,1.154639824
0.020732106,0.941870332,0.529065371,1.167029889
0.020842974,0.999374866,0.422429115,1.17719648
0.02095384,1.04344738,0.310443223,1.18515743
0.021064708,1.07375014,0.194898605,1.190924829
0.021175574,1.09017932,0.077572517,1.194508445
0.021286442,1.0928545,-0.039798245,1.195914858
0.021397308,1.0821104,-0.155541405,1.195156046
0.021508176,1.0584861,-0.268075645,1.192257375
0.021619042,1.02271557,-0.375935316,1.187274499
0.021729908,0.975719392,-0.477795392,1.180316769
0.021840776,0.918596327,-0.572479844,1.171552384
0.021951642,0.852569163,-0.658961892,1.161104953
0.02206251,0.778928339,-0.736419737,1.149043386
0.022173376,0.699018776,-0.804289103,1.13550821
0.022284244,0.614219487,-0.862278223,1.120789312
0.02239511,0.52588141,-0.910415769,1.10540813
0.022505978,0.435182005,-0.949274182,1.09050485
0.022616844,0.341807425,-0.981794477,1.080752711
0.02272771,0.269175231,-0.985095382,1.042868217
0.022838578,0.17397061,-0.99615413,1.022588824
0.022949444,0.085239492,-0.997430205,1.002132785
0.023060312,0.000288069,-0.991248727,0.982574122
0.023171178,-0.080954865,-0.978535712,0.96408583
0.023282046,-0.158362165,-0.960117638,0.946904454
0.023392912,-0.231863931,-0.936756968,0.9312745
0.02350378,-0.301487774,-0.909136117,0.917423357
0.023614646,-0.367352426,-0.877839327,0.905549689
0.023725512,-0.429644376,-0.843338549,0.895814198
0.02383638,-0.488591582,-0.805988431,0.888339085
0.023947246,-0.544433534,-0.766026378,0.883204285
0.024058114,-0.597394764,-0.723579764,0.880448179
0.02416898,-0.647659361,-0.67867744,0.880065715
0.024279848,-0.695350289,-0.631266892,0.882009913
0.024390714,-0.74051255,-0.581234753,0.886192675
0.02450158,-0.783100784,-0.528429568,0.892484646
0.024612448,-0.822972357,-0.472685009,0.900714618
0.024723314,-0.859883249,-0.413845569,0.910667357
0.024834182,-0.893490195,-0.351790309,0.92208115
0.024945048,-0.923345208,-0.286454231,0.9346224
0.025055916,-0.948867977,-0.217864409,0.947815338
0.025166782,-0.969322801,-0.146363527,0.961008975
0.02527765,-0.984461129,-0.072610974,0.974436068
0.025388516,-0.998581707,0.007403979,0.997220244
0.025499382,-1.00307882,0.086435266,1.013638174
0.02561025,-1.00081694,0.167054683,1.029541815
0.025721116,-0.99136132,0.248674616,1.044636331
0.025831984,-0.968469858,0.316218466,1.037927984
0.02594285,-0.94619596,0.392885178,1.049645558
0.026053718,-0.918683827,0.46943596,1.064350095
0.026164584,-0.882851541,0.546000063,1.077542912
0.026275452,-0.838295698,0.618982196,1.085878636
0.026386318,-0.786707222,0.686987042,1.090859449
0.026497184,-0.729123712,0.749536514,1.093426373
0.026608052,-0.666323602,0.806206465,1.093956007
0.026718918,-0.599059403,0.856610835,1.092654291
0.026829786,-0.528100491,0.900441945,1.089685825
0.026940652,-0.454227865,0.937492371,1.085214899
0.02705152,-0.378217846,0.967661262,1.079417057
0.027162386,-0.300822318,0.990948379,1.072472757
0.027273254,-0.222754583,1.00744772,1.064570513
0.02738412,-0.144675523,1.01733363,1.055898722
0.027494986,-0.067186087,1.02084792,1.046644446
0.027605854,0.009179367,1.01828432,1.036987217
0.02771672,0.083954774,1.00997531,1.027098531
0.027827588,0.15674217,0.996277273,1.017136513
0.027938454,0.227207974,0.977559268,1.007245586
0.028049322,0.295078427,0.954191744,0.997553162
0.028160188,0.360130131,0.926536977,0.988164481
0.028271054,0.422180086,0.89494729,0.979166677
0.028381922,0.481074333,0.859768808,0.970634917
0.028492788,0.536692679,0.821354449,0.962662163
0.028603656,0.588972628,0.780063629,0.955388022
0.028714522,0.637915611,0.736222863,0.948960431
0.02882539,0.683553278,0.690107644,0.943493644
0.028936256,0.725919783,0.641966522,0.939080547
0.029047124,0.765069425,0.592057288,0.935863057
0.02915799,0.801151156,0.540660679,0.934157145
0.029268856,0.834547997,0.487957269,0.934572656
0.029379724,0.865761817,0.433586508,0.937540784
0.02949059,0.894511163,0.376701415,0.942054177
0.029601458,0.919791698,0.317248762,0.946663545
0.029712324,0.941114962,0.255847752,0.951155444
0.029823192,0.958440602,0.192963332,0.955843235
0.029934058,0.971773624,0.128852382,0.960946913
0.030044926,0.98106426,0.063697912,0.966544506
0.030155792,0.986217439,-0.002321822,0.972630228
0.030266658,0.987111807,-0.069008246,0.979151858
0.030377526,0.983616114,-0.136133596,0.986033016
0.030488392,0.975598693,-0.203436524,0.993179229
0.03059926,0.96293819,-0.270621687,1.000486055
0.030710126,0.945529997,-0.337360233,1.007838902
0.030820994,0.923295557,-0.403289914,1.01511744
0.03093186,0.896187961,-0.468018979,1.022194626
0.031042728,0.864200234,-0.531128645,1.028939682
0.031153594,0.827370286,-0.592177689,1.035216006
0.03126446,0.785789609,-0.650708556,1.040886934
0.031375328,0.739607096,-0.706254363,1.045813882
0.031486194,0.689037085,-0.758347332,1.04986278
0.031597062,0.634363651,-0.806530356,1.052908457
0.031707928,0.575943828,-0.850371361,1.054842745
0.031818796,0.51420939,-0.889483333,1.055591896
0.031929662,0.449654758,-0.923542798,1.055120701
0.032040528,0.382822365,-0.952305496,1.053438721
0.032151396,0.314287215,-0.975612581,1.050596362
0.032262262,0.244644433,-0.993401766,1.046697967
0.03237313,0.174490795,-1.00572681,1.041933454
0.032483996,0.104373001,-1.01278591,1.036629023
0.032594864,0.034674693,-1.0149039,1.031232261
0.03270573,-0.034492493,-1.01234555,1.026033245
0.032816598,-0.103076763,-1.00502539,1.020700854
0.032927464,-0.170637742,-0.992694378,1.014559367
0.03303833,-0.236459896,-0.975440741,1.007397922
0.033149198,-0.299970686,-0.953688204,0.999503603
0.033260064,-0.360840082,-0.927946627,0.991290507
0.033370932,-0.418901533,-0.898691654,0.983125183
0.033481798,-0.474088252,-0.866341293,0.975306907
0.033592664,-0.526396632,-0.83125484,0.968078023
0.033703532,-0.57586813,-0.793735206,0.96163968
0.0338144,-0.62257278,-0.75402683,0.956153327
0.033925264,-0.666596115,-0.71231997,0.95175012
0.034036132,-0.708025277,-0.66874969,0.948525941
0.034147,-0.7469365,-0.623400986,0.946542924
0.034257868,-0.783385098,-0.576316655,0.945833099
0.034368732,-0.817393422,-0.5275051,0.946393637
0.0344796,-0.848944008,-0.476950169,0.948187392
0.034590468,-0.877976775,-0.424625307,0.951149869
0.034701336,-0.904383004,-0.370504647,0.955182311
0.0348122,-0.928009868,-0.314578682,0.960162062
0.034923068,-0.948663056,-0.256866246,0.965941862
0.035033936,-0.966115952,-0.197427332,0.972357584
0.0351448,-0.980122924,-0.136372402,0.979238378
0.035255668,-0.990432143,-0.073866807,0.986412135
0.035366536,-0.996800423,-0.010131983,0.99371374
0.035477404,-0.999009073,0.054556467,1.000995536
0.035588268,-0.996881127,0.119875774,1.008142183
0.035699136,-0.990298986,0.185474157,1.015092745
0.035810004,-0.979213715,0.251007348,1.021864188
0.035920868,-0.963612914,0.31619212,1.028527305
0.036031736,-0.943418324,0.380814672,1.035057948
0.036142604,-0.918394506,0.44458726,1.0411063
0.036253472,-0.888291121,0.506955087,1.046064576
0.036364336,-0.853109181,0.567168117,1.049474948
0.036475204,-0.813135922,0.624531567,1.051229706
0.036586072,-0.768801153,0.678515553,1.051438569
0.03669694,-0.72057116,0.728730261,1.05027059
0.036807804,-0.668917894,0.774885893,1.047899296
0.036918672,-0.614311397,0.816767454,1.044487566
0.03702954,-0.557215869,0.854225636,1.040190962
0.037140404,-0.49808526,0.887171984,1.035163055
0.037251272,-0.437356651,0.91557312,1.029554978
0.03736214,-0.375444084,0.939446509,1.023518003
0.037473008,-0.312731802,0.958851337,1.017197066
0.037583872,-0.249571174,0.973882854,1.010733584
0.03769474,-0.186277881,0.984662771,1.004260222
0.037805608,-0.123131119,0.991331697,0.997899806
0.037916472,-0.060374249,0.994041622,0.991763796
0.03802734,0.001782295,0.992949724,0.985952331
0.038138208,0.063157305,0.988211691,0.980551191
0.038249076,0.12359605,0.979979932,0.975636651
0.03835994,0.182964414,0.968398511,0.971271653
0.038470808,0.241146043,0.953604221,0.967512424
0.038581676,0.298038691,0.935725093,0.964408511
0.03869254,0.353552699,0.914882183,0.96200892
0.038803408,0.407609493,0.891188562,0.960362552
0.038914276,0.460142672,0.864752769,0.95952863
0.039025144,0.511105418,0.835677326,0.959585341
0.039136008,0.560482204,0.80404973,0.960636269
0.039246876,0.608296156,0.769909978,0.962785588
0.039357744,0.654577315,0.733197033,0.966049351
0.039468612,0.699264884,0.693735063,0.970239716
0.039579476,0.742110729,0.651334882,0.974965463
0.039690344,0.782730639,0.605946362,0.979838247
0.039801212,0.820747614,0.557687461,0.98464195
0.039912076,0.855868518,0.506761491,0.989318129
0.040022944,0.887870014,0.453387201,0.993873116
0.040133812,0.916564822,0.397777617,0.998318106
0.04024468,0.941779852,0.340144187,1.002647358
0.040355544,0.963349998,0.280704588,1.006838284
0.040466412,0.98111856,0.219690949,1.010857742
0.04057728,0.994938791,0.157351241,1.014662611
0.040688144,1.00467753,0.093952648,1.018204039
0.040799012,1.01022136,0.029780338,1.021434065
0.04090988,1.0114758,-0.034863353,1.024298747
0.041020748,1.00837243,-0.099659547,1.026746983
0.041131612,1.00087011,-0.164275706,1.028727485
0.04124248,0.988959849,-0.228368059,1.030193553
0.041353348,0.972664833,-0.291585147,1.031098775
0.041464212,0.952046335,-0.353570998,1.031404675
0.04157508,0.927205622,-0.413971812,1.031082927
0.041685948,0.89828366,-0.472439319,1.030112444
0.041796816,0.865465105,-0.528641403,1.028491581
0.04190768,0.828975558,-0.582267284,1.026235666
0.042018548,0.78908062,-0.633037686,1.023384937
0.042129416,0.746079206,-0.680714071,1.020005828
0.042240284,0.700298667,-0.7251091,1.01620143
0.042351148,0.652079463,-0.766096652,1.012111706
0.042462016,0.601754487,-0.8036201,1.007913728
0.042572884,0.549613714,-0.83768791,1.003796269
0.042683748,0.495870143,-0.868338883,0.999899614
0.042794616,0.440660387,-0.895570219,0.996227594
0.042905484,0.384118021,-0.919292033,0.992644496
0.043016352,0.326462507,-0.939367831,0.98898969
0.043127216,0.26800555,-0.955712974,0.985214264
0.043238084,0.209080696,-0.968343318,0.981403519
0.043348952,0.149980426,-0.977356195,0.97771926
0.043459816,0.090933576,-0.982886314,0.974334422
0.043570684,0.032109987,-0.98507601,0.971405797
0.043681552,-0.026366621,-0.98405683,0.969063043
0.04379242,-0.084405795,-0.979937077,0.967401013
0.043903284,-0.141940296,-0.972801685,0.966490166
0.044014152,-0.198914632,-0.962706029,0.966369929
0.04412502,-0.255276382,-0.949678719,0.967055701
0.044235888,-0.310967565,-0.933722019,0.968537635
0.044346752,-0.365917385,-0.914815605,0.970783124
0.04445762,-0.420034021,-0.892920315,0.973735268
0.044568488,-0.473201126,-0.867986321,0.977319559
0.044679352,-0.525272071,-0.839958966,0.981441813
0.04479022,-0.57606858,-0.808787286,0.985991883
0.044901088,-0.625380278,-0.774434447,0.990849205
0.045011956,-0.672967374,-0.736885786,0.995885748
0.04512282,-0.718564451,-0.696156919,1.000969326
0.045233688,-0.761888981,-0.652302682,1.005973608
0.045344556,-0.802649677,-0.605421126,1.010781244
0.04545542,-0.840557635,-0.555657327,1.015292203
0.045566288,-0.875340939,-0.503201962,1.019433974
