Frequency (GHz),Re( S21 ),Im( S21 ),S2
0,0.061739113,0,0.003811718
0.000114206,0.060431447,-0.012667037,0.003812414
0.000228411,0.056562807,-0.024802109,0.003814496
0.000342617,0.050294075,-0.035895348,0.00381797
0.000456823,0.041886486,-0.045479693,0.00382288
0.000571029,0.031690098,-0.053150404,0.003829228
0.000685234,0.020130198,-0.058581833,0.003837056
0.00079944,0.007689497,-0.061540876,0.003846408
0.000913646,-0.005111377,-0.061896674,0.003857324
0.001027851,-0.017735485,-0.059626356,0.00386985
0.001142057,-0.029651674,-0.054815967,0.003884012
0.001256263,-0.040355872,-0.047658131,0.003899894
0.001370469,-0.049392626,-0.038443327,0.003917521
0.001484674,-0.056373604,-0.027549464,0.003936956
0.00159888,-0.060993981,-0.015426032,0.003958228
0.001713086,-0.063045524,-0.002576124,0.003981375
0.001827291,-0.062425781,0.010462948,0.004006451
0.001941497,-0.059142724,0.023143368,0.004033477
0.002055703,-0.053315707,0.034927253,0.004062478
0.002169909,-0.045171116,0.045310449,0.004093466
0.002284114,-0.035034303,0.053843144,0.004126487
0.00239832,-0.023316648,0.060148798,0.004161544
0.002512526,-0.010499616,0.063940533,0.004198634
0.002626731,0.002884482,0.065034524,0.004237809
0.002740937,0.016274277,0.063357644,0.004279043
0.002855143,0.029102169,0.058952913,0.004322382
0.002969348,0.040818103,0.051978085,0.004367839
0.003083554,0.050912801,0.042700544,0.00441545
0.00319776,0.05894012,0.031486031,0.004465308
0.003311966,0.064556733,0.018771676,0.004519948
0.003426171,0.067425832,0.005187563,0.004573154
0.003540377,0.067454666,-0.008863483,0.004628693
0.003654583,0.064592898,-0.022701999,0.004687623
0.003768788,0.058919814,-0.03574454,0.004749217
0.003882994,0.05063846,-0.04742647,0.004813524
0.0039972,0.040064618,-0.057231851,0.004880658
0.004111405,0.027615529,-0.064715989,0.004950777
0.004225611,0.0137932,-0.069525488,0.005024046
0.004339817,-0.000834471,-0.071414106,0.005100671
0.004454023,-0.015656948,-0.070254587,0.005180847
0.004568228,-0.030045336,-0.066046044,0.005264802
0.004682434,-0.043378539,-0.058916029,0.005352796
0.00479664,-0.05506881,-0.049117092,0.005445063
0.004910846,-0.064586788,-0.037018914,0.005541853
0.005025051,-0.071484759,-0.023095459,0.005643471
0.005139257,-0.075416498,-0.007906791,0.005750165
0.005253463,-0.076154284,0.0079225,0.005862241
0.005367668,-0.073600285,0.023726791,0.005979963
0.005481874,-0.06779407,0.038827635,0.006103621
0.00559608,-0.058913931,0.05256081,0.00623349
0.005710285,-0.047272842,0.064305246,0.006369886
0.005824491,-0.033308566,0.073509038,0.006513039
0.005938697,-0.017568518,0.079715788,0.00666326
0.006052903,-0.000689202,0.082585394,0.006820822
0.006167108,0.016627997,0.081911959,0.006986059
0.006281314,0.033645742,0.077635489,0.007159305
0.00639552,0.049621191,0.069849066,0.007341155
0.006509725,0.063840531,0.058799334,0.007532975
0.006623931,0.075658619,0.04489569,0.00773985
0.006738137,0.084423289,0.02872273,0.007952287
0.006852343,0.089681968,0.010761278,0.008158661
0.006966548,0.091187358,-0.00817263,0.008381926
0.007080754,0.088736422,-0.027271215,0.008617872
0.00719496,0.082216345,-0.045360103,0.008817066
0.007309165,0.072066933,-0.062310301,0.009076216
0.007423371,0.058442198,-0.077022903,0.009348018
0.007537577,0.041827526,-0.08879102,0.009633387
0.007651782,0.022850759,-0.097011514,0.009933391
0.007765988,0.002259909,-0.101213716,0.010249323
0.007880194,-0.019104406,-0.101082794,0.01058271
0.0079944,-0.040341318,-0.096477643,0.010935357
0.008108605,-0.060524695,-0.087441579,0.011309268
0.008222811,-0.078740954,-0.074207082,0.011706829
0.008337017,-0.0941265,-0.057192501,0.01213078
0.008451222,-0.105905257,-0.036990885,0.012584249
0.008565428,-0.113423146,-0.014352584,0.013070807
0.008679634,-0.116179459,0.009839854,0.013594489
0.008793839,-0.113853246,0.034602135,0.014159869
0.008908045,-0.106323652,0.058884308,0.014772081
0.009022251,-0.093683533,0.081610918,0.015436946
0.009136456,-0.076244347,0.101723514,0.016160874
0.009250662,-0.054533981,0.118225031,0.016951113
0.009364868,-0.029284332,0.130223438,0.017815716
0.009479073,-0.001411149,0.136973262,0.018763666
0.009593279,0.028015049,0.137913689,0.019805029
0.009707485,0.057805542,0.13270165,0.020951209
0.009821691,0.0866955,0.121237233,0.022214576
0.009935896,0.113387488,0.103678554,0.023605965
0.010050102,0.136603102,0.080435202,0.025130229
0.010164308,0.155161172,0.052161627,0.026795825
0.010278513,0.168027878,0.019773431,0.028624356
0.010392719,0.174339354,-0.015586237,0.030637141
0.010506925,0.173450455,-0.052599818,0.032851801
0.010621131,0.164978668,-0.089820333,0.035285653
0.010735336,0.148831293,-0.125721976,0.037956769
0.010849542,0.125221387,-0.158757657,0.040884389
0.010963748,0.094670072,-0.187420011,0.044088683
0.011077953,0.05799846,-0.210302517,0.04759097
0.011192159,0.01630537,-0.226158321,0.051413451
0.011306365,-0.029064998,-0.233953968,0.055579233
0.01142057,-0.076565854,-0.23291634,0.060112351
0.011534776,-0.124499798,-0.222570598,0.065037871
0.011648982,-0.171076894,-0.202767044,0.070381778
0.011763188,-0.21447663,-0.173696816,0.076170809
0.011877393,-0.252913296,-0.135895997,0.082432857
0.011991599,-0.284699976,-0.090237007,0.089196794
0.012105805,-0.308310777,-0.037907839,0.096492539
0.01222001,-0.322437555,0.019618973,0.104350881
0.012334216,-0.326040208,0.080628552,0.112803181
0.012448422,-0.318387151,0.143211573,0.121879933
0.012562628,-0.299088269,0.205318198,0.131609355
0.012676833,-0.268119544,0.264817059,0.142016165
0.012791039,-0.225839451,0.319561779,0.153123188
0.012905245,-0.172993541,0.36746037,0.164953889
0.01301945,-0.110709116,0.406544387,0.177534847
0.013133656,-0.040475521,0.435036212,0.190894774
0.013247862,0.035888411,0.451410264,0.205059204
0.013362067,0.116280064,0.45445475,0.220050173
0.013476273,0.198366702,0.443322301,0.235884011
0.013590479,0.279650062,0.417574883,0.25257294
0.013704685,0.35753727,0.377214879,0.270123964
0.01381889,0.4294191,0.322705954,0.288539896
0.013933096,0.492752075,0.254977673,0.307818221
0.014047302,0.545142472,0.175416321,0.3279512
0.014161507,0.584428549,0.085840978,0.348925402
0.014275713,0.608760595,-0.011537381,0.370722573
0.014389919,0.616671324,-0.114170194,0.393318355
0.014504124,0.607138455,-0.21924004,0.416683299
0.01461833,0.579633832,-0.323740721,0.440783434
0.014732536,0.534157932,-0.424566656,0.465581542
0.014846742,0.471256375,-0.518609405,0.491038286
0.014960947,0.392021298,-0.602856874,0.517117109
0.015075153,0.298073292,-0.6744923,0.54378755
0.015189359,0.1915261,-0.730986476,0.571023475
0.015303564,0.074930102,-0.770180821,0.598793017
0.01541777,-0.04880479,-0.790367067,0.627062008
0.015531976,-0.176497832,-0.790361345,0.65582254
0.015646182,-0.304794759,-0.769581079,0.685154882
0.015760387,-0.430264622,-0.728180528,0.715374526
0.015874593,-0.549034834,-0.667556524,0.747070962
0.015988799,-0.654772937,-0.586888254,0.773165422
0.016103004,-0.749486744,-0.486061305,0.797985972
0.01621721,-0.829211056,-0.370579332,0.824920017
0.016331416,-0.890680194,-0.242673457,0.852201615
0.016445621,-0.931816816,-0.10519366,0.879348285
0.016559827,-0.95113939,0.038581871,0.9061547
0.016674033,-0.947744787,0.185122997,0.932490705
0.016788238,-0.921324909,0.330770224,0.958248529
0.016902444,-0.87217766,0.471844226,0.983330844
0.01701665,-0.801201165,0.604750276,1.007646203
0.017130856,-0.709868729,0.726078689,1.031103875
0.017245062,-0.60019207,0.832698703,1.053617651
0.017359268,-0.474665135,0.921842575,1.075100723
0.017473472,-0.336197674,0.991181314,1.095469273
0.017587678,-0.188036442,1.03888631,1.114642469
0.017701884,-0.033676587,1.0636754,1.132539469
0.01781609,0.123231761,1.06484592,1.1490829
0.017930296,0.278981447,1.04228806,1.164195048
0.018044502,0.429905057,0.99648273,1.177796189
0.018158708,0.572466493,0.928479373,1.189791832
0.018272912,0.703337312,0.839862883,1.200053037
0.018387118,0.81943506,0.732733786,1.208372619
0.018501324,0.918049157,0.609813511,1.214686773
0.01861553,0.997223556,0.474219859,1.219339295
0.018729736,1.06074488,0.326650828,1.231880464
0.018843942,1.09815621,0.173896015,1.236186886
0.018958146,1.11299455,0.017624997,1.239067509
0.019072352,1.10507619,-0.139021546,1.240520376
0.019186558,1.06845796,-0.277815253,1.218783727
0.019300764,1.021896,-0.420639426,1.221208962
0.01941497,0.954496741,-0.558073282,1.222509817
0.019529176,0.866988361,-0.682877183,1.217990065
0.019643382,0.763483942,-0.792424202,1.210843846
0.019757586,0.646877229,-0.885250628,1.202118824
0.019871792,0.519907832,-0.960122824,1.192139991
0.019985998,0.385369718,-1.01615047,1.181071597
0.020100204,0.246087953,-1.05284107,1.169033599
0.02021441,0.104860663,-1.07011282,1.156137206
0.020328616,-0.035603978,-1.06828058,1.142491041
0.020442822,-0.172744542,-1.04802775,1.128202842
0.020557026,-0.304196209,-1.01037145,1.113385801
0.020671232,-0.427831203,-0.956614733,1.098151286
0.020785438,-0.541790009,-0.888298213,1.082610129
0.020899644,-0.644503415,-0.807150602,1.066876746
0.02101385,-0.734703362,-0.715033472,1.051061896
0.021128056,-0.811424971,-0.613890946,1.035272577
0.021242262,-0.874001205,-0.50570333,1.019613964
0.021356466,-0.922049105,-0.392442614,1.004185757
0.021470672,-0.955450296,-0.276035786,0.989081023
0.021584878,-0.974330723,-0.158334687,0.974390231
0.021699084,-0.979038239,-0.041090004,0.960204262
0.02181329,-0.970123053,0.07407523,0.946625878
0.021927496,-0.948307395,0.185692757,0.933768715
0.0220417,-0.914446414,0.292465001,0.921748021
0.022155906,-0.869494379,0.39326179,0.910675311
0.022270112,-0.814496636,0.487116277,0.900687037
0.022384318,-0.750599682,0.573260665,0.892027673
0.022498524,-0.679017305,0.651265681,0.885211488
0.02261273,-0.600633085,0.721186817,0.880870528
0.022726936,-0.515488744,0.782786191,0.878482866
0.02284114,-0.424024045,0.834783494,0.876659873
0.022955346,-0.327656001,0.87625587,0.875182805
0.023069552,-0.227758944,0.906941354,0.874416756
0.023183758,-0.125464931,0.926753759,0.874613979
0.023297964,-0.021802871,0.935631692,0.875882028
0.02341217,0.082223319,0.933537304,0.878252572
0.023526376,0.185604885,0.920468628,0.881711668
0.02364058,0.287315786,0.896478891,0.886224763
0.023754786,0.386307865,0.861687541,0.891739185
0.023868992,0.481510609,0.816295207,0.898190332
0.023983198,0.571835458,0.760596931,0.905503482
0.024097404,0.656182647,0.694996119,0.913595272
0.02421161,0.733452976,0.620016098,0.92237323
0.024325816,0.802563727,0.536312521,0.931739656
0.02444002,0.862466156,0.444680542,0.941588655
0.024554226,0.912169635,0.34606111,0.951811735
0.024668432,0.950763881,0.241541058,0.96229404
0.024782638,0.977447093,0.132350653,0.972919515
0.024896844,0.991553485,0.019853888,0.98357249
0.02501105,0.99258101,-0.094467245,0.994141122
0.025125256,0.980217636,-0.209034786,1.004522156
0.02523946,0.954363048,-0.322205722,1.014625355
0.025353666,0.915145218,-0.432305783,1.02437906
0.025467872,0.862930655,-0.537668407,1.033736631
0.025582078,0.798332393,-0.636683643,1.042700671
0.025696284,0.722202003,-0.727867186,1.051366374
0.02581049,0.635562778,-0.809945703,1.059952087
0.025924694,0.539428592,-0.881871819,1.068681111
0.0260389,0.434670419,-0.942547619,1.077334387
0.026153106,0.322396368,-0.990550816,1.085130337
0.026267312,0.204354301,-1.02455556,1.091474776
0.026381518,0.08263161,-1.04377997,1.096304609
0.026495724,-0.040694855,-1.04790747,1.099766137
0.02660993,-0.163626835,-1.03692961,1.101996757
0.026724134,-0.284233987,-1.01108754,1.103086973
0.02683834,-0.400657833,-0.970860243,1.103096311
0.026952546,-0.511133075,-0.916956842,1.10206687
0.027066752,-0.614016354,-0.850307107,1.100038259
0.027180958,-0.707814634,-0.772041857,1.097050185
0.027295164,-0.791212142,-0.68346858,1.093145953
0.02740937,-0.863091409,-0.586043119,1.088373318
0.027523574,-0.922551692,-0.481338918,1.082788778
0.02763778,-0.968917608,-0.371011019,1.076450507
0.027751986,-1.00174773,-0.256763399,1.069425958
0.027866192,-1.02083135,-0.140313536,1.061784534
0.027980398,-1.02618575,-0.023359727,1.05360287
0.028094604,-1.01804447,0.09244962,1.044961475
0.02820881,-0.996843815,0.205545098,1.035946379
0.028323014,-0.963205159,0.31446147,1.026650194
0.02843722,-0.917912841,0.41786018,1.017171114
0.028551426,-0.861892402,0.514548659,1.007618835
0.028665632,-0.796181798,0.603493869,0.998110305
0.028779838,-0.72190702,0.683835864,0.988781234
0.028894044,-0.640252173,0.754898071,0.979793943
0.029008248,-0.55242002,0.816198707,0.971348208
0.029122454,-0.459572554,0.867453992,0.963683361
0.02923666,-0.362744778,0.908529699,0.957009988
0.029350866,-0.262811601,0.939294755,0.951344574
0.029465072,-0.160642534,0.95948863,0.946424455
0.029579278,-0.05730892,0.968839765,0.941934803
0.029693484,0.045969095,0.96729511,0.937772988
0.029807688,0.14801009,0.95504719,0.934022122
0.029921894,0.247751832,0.93243593,0.930817734
0.0300361,0.344238997,0.899873614,0.928273008
0.030150306,0.436596334,0.857816458,0.926465434
0.030264512,0.524005115,0.806759298,0.925441925
0.030378718,0.605693936,0.747234643,0.925224756
0.030492924,0.680931807,0.679816723,0.925818903
0.030607128,0.749024272,0.605124414,0.927212916
0.030721334,0.809315562,0.523826063,0.929385423
0.03083554,0.861187875,0.436643332,0.932301955
0.030949746,0.904067993,0.344355166,0.935919416
0.031063952,0.937433064,0.2478026,0.940186878
0.031178158,0.960818708,0.147889286,0.945043831
0.031292364,0.973831713,0.045583528,0.950426063
0.031406568,0.976160169,-0.058084205,0.95626245
0.031520774,0.967587411,-0.162026033,0.962477833
0.03163498,0.948008001,-0.265104026,0.968999315
0.031749186,0.917437077,-0.366143167,0.975751609
0.031863392,0.876025915,-0.463945895,0.982667197
0.031977598,0.824069023,-0.557312191,0.989686633
0.032091804,0.76201123,-0.645063639,0.996768213
0.032206008,0.690444887,-0.726070523,1.003892546
0.032320214,0.610099792,-0.799283445,1.011075782
0.03243442,0.521810174,-0.863757551,1.018362965
0.032548626,0.426466227,-0.918649733,1.025790775
0.032662832,0.324985743,-0.963159502,1.033291959
0.032777038,0.218377203,-0.996454954,1.040611078
0.032891242,0.107877746,-1.01771641,1.047384299
0.033005448,-0.005016278,-1.02630758,1.053332412
0.033119654,-0.118667819,-1.02189016,1.05834155
0.03323386,-0.231424287,-1.00441718,1.062411072
0.033348066,-0.341677427,-0.974080801,1.065576871
0.033462272,-0.447881728,-0.931277275,1.067875405
0.033576476,-0.54856813,-0.876589239,1.069335687
0.033690684,-0.642358005,-0.810773432,1.069977365
0.033804888,-0.72798413,-0.734750271,1.069818854
0.033919096,-0.804309845,-0.649589002,1.068880198
0.0340333,-0.870346487,-0.556488454,1.067182407
0.034147504,-0.925271332,-0.456755608,1.064752723
0.034261712,-0.968437731,-0.351781815,1.061622084
0.034375916,-0.999385655,-0.243016601,1.057828756
0.034490124,-1.01784432,-0.131941035,1.053415496
0.034604328,-1.02373433,-0.020041153,1.048433626
0.034718536,-1.01716125,0.091218345,1.042937795
0.03483274,-0.998410463,0.200419322,1.036991357
0.034946944,-0.96793437,0.306213588,1.030663706
0.035061152,-0.926338196,0.407343179,1.024030919
0.035175356,-0.87436384,0.502659917,1.017179117
0.035289564,-0.812869549,0.591141045,1.010204639
0.035403768,-0.742806971,0.671902239,1.003214815
0.035517976,-0.665198505,0.744209528,0.996336873
0.03563218,-0.581103742,0.80748558,0.989714521
0.035746384,-0.491583675,0.861307025,0.983504301
0.035860592,-0.397657424,0.90538311,0.977850003
0.035974796,-0.300277412,0.939499676,0.972826165
0.036089004,-0.200358152,0.963454366,0.968387704
0.036203208,-0.098858945,0.977044463,0.964388974
0.036317416,0.003165393,0.980143487,0.960691275
0.03643162,0.104606368,0.972782731,0.957248734
0.036545824,0.204382509,0.955159783,0.954102421
0.036660032,0.30148685,0.927598834,0.951333918
0.036774236,0.394993156,0.890509188,0.949026207
0.036888444,0.484048724,0.844360709,0.947248174
0.037002648,0.567861557,0.78967005,0.946045536
0.037116856,0.6456936,0.727000654,0.945450176
0.03723106,0.716855466,0.656957448,0.945474848
0.037345264,0.780704856,0.580191016,0.946121687
0.037459472,0.83664614,0.497396886,0.947380426
0.037573676,0.884132206,0.409317732,0.949230763
0.037687884,0.922668576,0.31674549,0.951645007
0.037802088,0.951817811,0.220520943,0.954586632
0.037916292,0.971206427,0.121535212,0.958012732
0.0380305,0.980534196,0.020727392,0.961876934
0.038144704,0.97958076,-0.080918782,0.966126315
0.038258912,0.968218267,-0.18237935,0.97070884
0.038373116,0.946418107,-0.28259936,0.975569632
0.038487324,0.914262414,-0.380502999,0.980658294
0.038601528,0.87195009,-0.475006938,0.985928551
0.038715732,0.819802582,-0.565038145,0.991344379
0.03882994,0.758264184,-0.649552166,0.996882589
0.038944144,0.687896848,-0.72755444,1.002537537
0.039058352,0.609365225,-0.798118114,1.008318501
0.039172556,0.523412168,-0.86038965,1.014230647
0.039286764,0.430839509,-0.913572729,1.020237814
0.039400968,0.332517952,-0.956898868,1.026223632
0.039515172,0.229436889,-0.989615023,1.03197918
0.03962938,0.122760884,-1.01103854,1.037269164
0.039743584,0.013823833,-1.02064788,1.041913193
0.039857792,-0.095938161,-1.01814294,1.045819177
0.039971996,-0.205058753,-1.00345182,1.048964647
0.040086204,-0.312089741,-0.976709068,1.05136061
0.040200408,-0.415627569,-0.938234389,1.053030045
0.040314612,-0.514329016,-0.888515234,1.053993658
0.04042882,-0.606928408,-0.828197658,1.054273453
0.040543024,-0.692252576,-0.758072197,1.053887085
0.040657232,-0.76923877,-0.67906338,1.052855359
0.040771436,-0.83694917,-0.59221375,1.051201039
0.040885644,-0.894585133,-0.498665541,1.048949882
0.040999848,-0.941498101,-0.399642259,1.046132609
0.041114052,-0.977198064,-0.296426117,1.042784499
0.04122826,-1.00135803,-0.190337285,1.038946186
0.041342464,-1.01381588,-0.082710236,1.034663622
0.041456672,-1.0145725,0.025127091,1.029988728
0.041570876,-1.0037868,0.131876558,1.024979366
0.041685084,-0.981767237,0.236288503,1.019699164
0.041799288,-0.948961377,0.337180972,1.014218703
0.041913492,-0.905943692,0.433457136,1.008619062
0.0420277,-0.853396773,0.524120271,1.002988111
0.042141904,-0.792095006,0.608286023,0.997426384
0.042256112,-0.722880423,0.68519187,0.992044005
0.042370316,-0.646637201,0.754201949,0.98696025
0.042484524,-0.564260066,0.814798951,0.982286753
0.042598728,-0.476629287,0.866562128,0.978105399
0.042712932,-0.384605169,0.90912801,0.974434875
0.04282714,-0.289055318,0.942160904,0.971220146
0.042941344,-0.190900683,0.965359986,0.968362973
0.043055552,-0.091132306,0.978506207,0.965779494
0.043169756,0.009213667,0.981507182,0.96344124
0.043283964,0.109103754,0.974406362,0.961371387
0.043398168,0.207541659,0.957365334,0.959621923
0.043512372,0.303581029,0.930638671,0.958249777
0.04362658,0.396326482,0.894555211,0.957303706
0.043740784,0.48492977,0.849507213,0.956819387
0.043854992,0.568586349,0.795945048,0.956818956
0.043969196,0.646533251,0.734375834,0.95731311
0.0440834,0.718047559,0.665361345,0.958298016
0.044197608,0.782450438,0.589520574,0.959763195
0.044311812,0.83910805,0.507529676,0.961688692
0.04442602,0.887437046,0.420122474,0.964047404
0.044540224,0.926910222,0.32809037,0.966805851
0.044654432,0.957064092,0.232282057,0.96992663
0.044768636,0.977506459,0.133600399,0.973367944
0.04488284,0.987925947,0.032998409,0.977086572
0.044997048,0.988100469,-0.068526141,0.981038369
0.045111252,0.977906406,-0.169939265,0.985180293
0.04522546,0.957327545,-0.270182014,0.989474349
0.045339664,0.926460087,-0.368183464,0.993887356
0.045453872,0.885518014,-0.46287626,0.998396585
0.045568076,0.834831417,-0.553214431,1.002989701
0.04568228,0.774840057,-0.638189733,1.007663249
0.045796488,0.706080616,-0.716843665,1.012414676
0.045910692,0.629171729,-0.788269103,1.017225243
0.0460249,0.54480654,-0.851598203,1.022033665
0.046139104,0.453766376,-0.905986667,1.026715765
0.046253312,0.356958836,-0.950623572,1.031104786
0.046367516,0.255444437,-0.984772444,1.035028627
0.04648172,0.150429964,-1.00783455,1.038359654
0.046595928,0.043222435,-1.01939297,1.041030206
0.046710132,-0.064819723,-1.01922476,1.043020708
0.04682434,-0.172328964,-1.00729561,1.044341718
0.046938544,-0.277956337,-0.983745396,1.045014729
0.047052752,-0.380391091,-0.948877811,1.045066482
