Frequency (GHz),Re( S21 ),Im( S21 ),S2
0,0.027211269,0,0.000740453
7.62E-05,0.026621295,-0.005682835,0.000740988
0.000152487,0.024873633,-0.011130344,0.000742582
0.00022873,0.022034582,-0.016114442,0.000745198
0.000304973,0.018213159,-0.020421481,0.000748756
0.000381217,0.013559571,-0.023860114,0.000753167
0.00045746,0.008261733,-0.026268775,0.000758305
0.000533704,0.002540455,-0.027524162,0.000764033
0.000609947,-0.003357767,-0.027548239,0.00077018
0.00068619,-0.009169034,-0.026315495,0.000776576
0.000762434,-0.014623877,-0.023857389,0.000783033
0.000838677,-0.019460075,-0.020265091,0.000789368
0.00091492,-0.02343636,-0.01568839,0.000795389
0.000991164,-0.026347823,-0.01033139,0.000800945
0.001067407,-0.028038574,-0.004443278,0.000805904
0.00114365,-0.02841272,0.001694157,0.000810153
0.001219894,-0.027442215,0.007781975,0.000813634
0.001296137,-0.025169363,0.01352186,0.000816338
0.001372381,-0.021704385,0.018633595,0.000818291
0.001448624,-0.01721872,0.022871148,0.000819574
0.001524867,-0.011933619,0.026036393,0.000820305
0.001601111,-0.006106282,0.027988529,0.000820644
0.001677354,-1.45E-05,0.028649095,0.000820771
0.001753597,0.006058834,0.028002894,0.000820872
0.001829841,0.011839937,0.026095385,0.000821153
0.001906084,0.017075975,0.023027036,0.000821833
0.001982327,0.021545056,0.018944683,0.00082309
0.002058571,0.025063457,0.014033697,0.000825122
0.002134814,0.027490066,0.008507981,0.000828089
0.002211058,0.028729131,0.002601167,0.000832129
0.002287301,0.028731408,-0.003440725,0.000837332
0.002363544,0.027487775,-0.009383939,0.000843636
0.002439788,0.025062671,-0.014958687,0.0008519
0.002516031,0.02152317,-0.01994969,0.000861237
0.002592274,0.017005378,-0.02414076,0.000871959
0.002668518,0.011679863,-0.02734275,0.000884045
0.002744761,0.005753044,-0.029399175,0.000897409
0.002821004,-0.000536975,-0.030193755,0.000911951
0.002897248,-0.006926975,-0.029656977,0.000927519
0.002973491,-0.013137137,-0.027773207,0.000943935
0.003049735,-0.018881742,-0.024585711,0.000960977
0.003125978,-0.023882331,-0.020200232,0.000978415
0.003202221,-0.027881688,-0.014784614,0.000995973
0.003278465,-0.030659683,-0.008565924,0.001013391
0.003354708,-0.032048039,-0.001821849,0.001030396
0.003430951,-0.031943847,0.005131369,0.00104674
0.003507195,-0.030319445,0.011955885,0.001062212
0.003583438,-0.02722734,0.018311424,0.001076636
0.003659681,-0.022800209,0.023876444,0.001089934
0.003735925,-0.017243242,0.028367603,0.00110205
0.003812168,-0.010822485,0.03155794,0.00111303
0.003888411,-0.003848664,0.033289194,0.001122983
0.003964655,0.003342965,0.033479985,0.001132085
0.004040898,0.010411516,0.032127373,0.001140568
0.004117142,0.017029649,0.029303523,0.001148705
0.004193385,0.022899278,0.025148273,0.001156813
0.004269628,0.027764784,0.01985744,0.001165201
0.004345872,0.031421471,0.013671168,0.00117421
0.004422115,0.03372078,0.006860404,0.001184156
0.004498358,0.034572195,-0.000285678,0.001195318
0.004574602,0.033943016,-0.0074715,0.001207952
0.004650845,0.031853758,-0.014408906,0.001222278
0.004727089,0.028405055,-0.020832686,0.001240848
0.004803332,0.023713294,-0.026427588,0.001260738
0.004879575,0.017925078,-0.030998291,0.001282202
0.004955819,0.011267339,-0.03434328,0.001306414
0.005032062,0.003988972,-0.036297608,0.001333428
0.005108305,-0.00363143,-0.036743112,0.001363244
0.005184549,-0.011291103,-0.035613433,0.001395806
0.005260792,-0.018670496,-0.032900363,0.001431021
0.005337035,-0.025444049,-0.02865902,0.001468739
0.005413279,-0.031291973,-0.023011752,0.001508728
0.005489522,-0.035914715,-0.016150389,0.001550702
0.005565766,-0.039049346,-0.008334178,0.00159431
0.005642009,-0.040485974,0.000115138,0.001639127
0.005718252,-0.04008517,0.008824753,0.001684697
0.005794496,-0.037792176,0.017386574,0.001730542
0.005870739,-0.033647243,0.025377402,0.001776149
0.005946982,-0.027791251,0.032383885,0.00182107
0.006023226,-0.020462461,0.038028568,0.001864884
0.006099469,-0.01198716,0.04199503,0.001907275
0.006175712,-0.002761449,0.044049833,0.001948013
0.006251956,0.006771302,0.044058628,0.001987013
0.006328199,0.016148148,0.041994732,0.00202432
0.006404442,0.024914054,0.037939444,0.002060112
0.006480686,0.032648042,0.032074757,0.002094685
0.006556929,0.038985618,0.024669735,0.002128474
0.006633173,0.043634854,0.016062204,0.002161995
0.006709416,0.046386872,0.006638136,0.002195807
0.006785659,0.047120988,-0.003188683,0.002230555
0.006861903,0.045803774,-0.012997233,0.002266914
0.006938146,0.042485859,-0.02237721,0.002305788
0.007014389,0.037297651,-0.030947773,0.002348879
0.007090633,0.030462503,-0.038360942,0.002399526
0.007166876,0.022241138,-0.044248126,0.002452565
0.007243119,0.012878038,-0.048378035,0.002506278
0.007319363,0.002746551,-0.0505808,0.002565961
0.007395606,-0.007761363,-0.05071668,0.00263242
0.00747185,-0.01823863,-0.048716679,0.002705962
0.007548093,-0.028265469,-0.044586651,0.002786906
0.007624336,-0.037418775,-0.0384111,0.002875577
0.00770058,-0.045284871,-0.030356072,0.002972211
0.007776823,-0.05147513,-0.02067158,0.003077003
0.007853066,-0.055643138,-0.00969018,0.003190058
0.00792931,-0.057502858,0.002177151,0.003311319
0.008005553,-0.056849252,0.014450189,0.003440645
0.008081796,-0.053576794,0.026595132,0.003577774
0.00815804,-0.047695424,0.038044225,0.003722217
0.008234283,-0.039343528,0.048223823,0.00387345
0.008310526,-0.028792357,0.056584247,0.004030777
0.00838677,-0.01644256,0.062634319,0.004193416
0.008463013,-0.002811518,0.065975033,0.00436061
0.008539256,0.011490732,0.066328861,0.004531555
0.0086155,0.025792297,0.063563041,0.004705503
0.008691743,0.039397448,0.057703849,0.004881893
0.008767986,0.051627025,0.048938274,0.005060304
0.00884423,0.061857801,0.037605632,0.005240571
0.008920473,0.069557078,0.024178419,0.005422783
0.008996716,0.074310347,0.009234945,0.005607312
0.00907296,0.075840123,-0.006572065,0.005794916
0.009149203,0.074015319,-0.022549994,0.00598677
0.009225447,0.068852738,-0.037999634,0.006184672
0.00930169,0.06051258,-0.052246243,0.006391442
0.009377933,0.049293425,-0.064663671,0.006611232
0.009454177,0.035622485,-0.074674428,0.006845232
0.00953042,0.019976968,-0.081755638,0.007083064
0.009606663,0.00289149,-0.085560903,0.007329029
0.009682907,-0.014971294,-0.085852146,0.007594731
0.00975915,-0.032906395,-0.082477808,0.00788542
0.009835393,-0.050190423,-0.075407162,0.008205319
0.009911637,-0.066092178,-0.06473992,0.008559433
0.00998788,-0.079888851,-0.050710313,0.008953764
0.010064124,-0.090886541,-0.033690475,0.009395411
0.010140367,-0.098444149,-0.014191382,0.009892646
0.01021661,-0.102001518,0.007139068,0.010455276
0.010292854,-0.101108119,0.029524468,0.011094546
0.010369097,-0.0954552,0.05207473,0.011823473
0.01044534,-0.084906213,0.073809594,0.012656921
0.010521584,-0.069524296,0.093691021,0.013611635
0.010597827,-0.04959337,0.110665135,0.014706274
0.01067407,-0.025631363,0.123711705,0.015961553
0.010750314,0.001611332,0.131899193,0.017399994
0.010826557,0.031165764,0.134442046,0.019045969
0.0109028,0.061875984,0.130754933,0.02092549
0.010979044,0.092444539,0.120499805,0.023066196
0.011055287,0.121491514,0.103619859,0.025497263
0.011131531,0.147621289,0.080357306,0.028249342
0.011207774,0.169493064,0.051252861,0.031354754
0.011284017,0.185887307,0.017127464,0.034847441
0.011360261,0.195766151,-0.020953234,0.038763424
0.011436504,0.198320076,-0.061725806,0.043140928
0.011512747,0.192999974,-0.103784062,0.048020121
0.011588991,0.179534703,-0.145636931,0.053442825
0.011665234,0.157932714,-0.185764953,0.05945136
0.011741477,0.128472731,-0.222674221,0.066089051
0.011817721,0.091688208,-0.25494495,0.073403655
0.011893964,0.048348077,-0.281269372,0.081449996
0.011970208,-0.000566251,-0.300480425,0.090288806
0.012046451,-0.053886011,-0.311576188,0.099983423
0.012122694,-0.110270865,-0.313748002,0.110597472
0.012198938,-0.168260276,-0.30649212,0.12224894
0.012275181,-0.226541281,-0.289412737,0.135080684
0.012351424,-0.283483207,-0.262162,0.149091643
0.012427668,-0.337369233,-0.224770784,0.164339905
0.012503911,-0.386483103,-0.177541748,0.180890261
0.012580154,-0.429124832,-0.121049225,0.198801036
0.012656398,-0.463647187,-0.056150571,0.218121601
0.012732641,-0.48849985,0.016010076,0.238888426
0.012808884,-0.502281547,0.094003297,0.261123372
0.012885128,-0.503794193,0.176128253,0.28482975
0.012961371,-0.492101848,0.260436386,0.30999134
0.013037615,-0.466586828,0.344772577,0.336571398
0.013113858,-0.427001268,0.426827371,0.364511688
0.013190101,-0.373509765,0.50420779,0.39373504
0.013266345,-0.306717038,0.574516237,0.424144248
0.013342588,-0.227683142,0.635438025,0.455621097
0.013418831,-0.137919798,0.684821606,0.488002503
0.013495075,-0.039353084,0.720729232,0.520999291
0.013571318,0.065816358,0.741471112,0.554111203
0.013647561,0.17531237,0.745820999,0.58698339
0.013723805,0.286642373,0.733244836,0.61981184
0.013800048,0.397021353,0.703671753,0.652779891
0.013876292,0.503650427,0.657378793,0.68581063
0.013952535,0.603873789,0.595054805,0.718753774
0.014028778,0.6952402,0.517803073,0.751478958
0.014105022,0.775547683,0.427094966,0.783884319
0.014181265,0.842885017,0.324711412,0.815892653
0.014257508,0.895661891,0.212678924,0.847442548
0.014333752,0.932628155,0.093208626,0.878483123
0.014409995,0.952881098,-0.031361464,0.908965928
0.014486238,0.955866873,-0.158619374,0.938841585
0.014562482,0.941373527,-0.286125541,0.968051943
0.014638725,0.909522951,-0.41145584,0.996527907
0.014714968,0.860760212,-0.532239437,1.024186961
0.014791212,0.795838654,-0.646194935,1.050927057
0.014867455,0.715808332,-0.751163602,1.076628325
0.014943699,0.621999323,-0.845144391,1.101152199
0.015019942,0.516004682,-0.926328957,1.124346168
0.015096185,0.399658293,-0.993137836,1.146049512
0.015172429,0.275009453,-1.04426026,1.16610969
0.015248672,0.144291461,-1.07868993,1.184391991
0.015324915,0.009888672,-1.09575474,1.200776236
0.015401159,-0.125719309,-1.09512997,1.215114996
0.015477402,-0.260037988,-1.07685232,1.227230674
0.015553645,-0.390639544,-1.04134774,1.237004369
0.015629889,-0.515245914,-0.989428401,1.244446913
0.015706132,-0.631866992,-0.922257721,1.2498152
0.015782376,-0.739150822,-0.841214299,1.253985435
0.015858619,-0.838191569,-0.746177435,1.259345871
0.015934862,-0.893222809,-0.656066239,1.228269896
0.016011106,-0.964414775,-0.542548001,1.224454192
0.016087349,-1.01621556,-0.42516169,1.213456527
0.016163592,-1.05209577,-0.305215627,1.200062088
0.016239836,-1.07272553,-0.184437424,1.184757226
0.016316079,-1.07873309,-0.064670295,1.167847326
0.016392322,-1.07093203,0.052350178,1.149635954
0.016468566,-1.05032527,0.165084064,1.130435921
0.016544809,-1.01806474,0.272223979,1.11056171
0.016621052,-0.975400865,0.372712195,1.090321228
0.016697296,-0.923632205,0.465737253,1.070007639
0.016773539,-0.864059329,0.550722599,1.049893905
0.016849782,-0.797948182,0.627305508,1.030233502
0.016926026,-0.726496458,0.695308864,1.01125152
0.01700227,-0.650812626,0.75471282,0.993148515
0.017078512,-0.571898997,0.805622399,0.976095913
0.017154756,-0.49064517,0.848237216,0.960239057
0.017231,-0.40782547,0.882820845,0.945694258
0.017307242,-0.32410115,0.909674644,0.932549513
0.017383486,-0.24002789,0.929110348,0.920859427
0.01745973,-0.156064734,0.94142276,0.910633014
0.017535972,-0.072583892,0.946845889,0.901785559
0.017612216,0.010038181,0.945393324,0.893869302
0.01768846,0.090741664,0.937348187,0.886855673
0.017764702,0.173631907,0.927069664,0.889606201
0.017840946,0.252166241,0.908538342,0.889029732
0.01791719,0.328942984,0.884141505,0.889909688
0.017993432,0.403759092,0.853929758,0.892217436
0.018069676,0.463549346,0.814869583,0.878890433
0.01814592,0.530300796,0.77534169,0.88237367
0.018222164,0.594681323,0.731938541,0.889379904
0.018298406,0.657818198,0.683470428,0.899856608
0.01837465,0.718009233,0.628182769,0.91015085
0.018450894,0.77338171,0.566923916,0.919521996
0.018527136,0.823457837,0.50067091,0.928754169
0.01860338,0.867973745,0.429956287,0.938240831
0.018679624,0.906602561,0.355190963,0.948088824
0.018755866,0.938971758,0.276795059,0.958283467
0.01883211,0.964701951,0.195235774,0.968766862
0.018908354,0.983429193,0.111036159,0.979462006
0.018984596,0.99482131,0.024775576,0.990283268
0.01906084,0.998589873,-0.062912978,1.001139777
0.019137084,0.994500279,-0.151347354,1.011936826
0.019213326,0.982379258,-0.239801183,1.022573614
0.01928957,0.962123811,-0.327509701,1.032944832
0.019365814,0.933708489,-0.413676322,1.042939642
0.019442056,0.897191226,-0.497479945,1.052438392
0.0195183,0.852721035,-0.578083873,1.061314128
0.019594544,0.800542951,-0.654644728,1.069428736
0.019670786,0.741006494,-0.726323783,1.076636862
0.01974703,0.674568713,-0.7922979,1.082778911
0.019823274,0.601805747,-0.851772726,1.087686934
0.019899516,0.523425937,-0.904003561,1.09119715
0.01997576,0.440283179,-0.948340595,1.093199162
0.020052004,0.353344232,-0.984297693,1.093694095
0.020128248,0.263605118,-1.01155996,1.092741211
0.02020449,0.172070071,-1.02993989,1.090384286
0.020280734,0.079770207,-1.03938019,1.086674465
0.020356978,-0.012248128,-1.04000211,1.081754405
0.02043322,-0.103000559,-1.03216124,1.075965941
0.020509464,-0.19175157,-1.01644158,1.06992215
0.020585708,-0.278218359,-0.993332267,1.064114448
0.02066195,-0.362138599,-0.962711632,1.057958051
0.020738194,-0.442483276,-0.9243837,1.050276674
0.020814438,-0.517995715,-0.878919005,1.040818178
0.02089068,-0.58787477,-0.82731235,1.03004247
0.020966924,-0.651709735,-0.770553827,1.018478779
0.021043168,-0.709302306,-0.709536433,1.006551711
0.02111941,-0.760586679,-0.645066023,0.99460227
0.021195654,-0.805594981,-0.577866912,0.982913441
0.021271898,-0.844437778,-0.508585036,0.9717339
0.02134814,-0.877282917,-0.437782109,0.961278491
0.021424384,-0.904338062,-0.365937024,0.951737236
0.021500628,-0.92582953,-0.293446243,0.943271016
0.02157687,-0.941984236,-0.220630273,0.936012018
0.021653114,-0.953013659,-0.147741497,0.930062584
0.021729358,-0.959101439,-0.074978061,0.92549728
0.0218056,-0.960391939,-0.002497018,0.922358912
0.021881844,-0.956983685,0.06957002,0.920657761
0.021958088,-0.948928952,0.141098186,0.920374854
0.022034332,-0.936235189,0.211954251,0.921460934
0.022110574,-0.918870986,0.281978786,0.923835925
0.022186818,-0.896780431,0.350973457,0.927397509
0.022263062,-0.869900525,0.418692201,0.932030083
0.022339304,-0.838178515,0.484842777,0.937615741
0.022415548,-0.801584303,0.549093723,0.944041311
0.022491792,-0.760118246,0.611080706,0.951199377
0.022568034,-0.713819563,0.670407236,0.958984231
0.022644278,-0.662783444,0.726657569,0.967313116
0.022720522,-0.607170522,0.779427946,0.976163966
0.022796764,-0.54717958,0.828373134,0.985607542
0.022873008,-0.482948929,0.873214841,0.995743827
0.022949252,-0.414459288,0.913593411,1.006429422
0.023025494,-0.341700584,0.948826969,1.017031906
0.023101738,-0.265043586,0.978023589,1.026778243
0.023177982,-0.185248569,1.00047421,1.035265677
0.023254224,-0.103187919,1.01577675,1.042450152
0.023330468,-0.019698648,1.02372801,1.048407075
0.023406712,0.064426892,1.02424133,1.053221126
0.023482954,0.148425579,1.01731229,1.056954448
0.023559198,0.231556371,1.00301564,1.059658727
0.023635442,0.313102633,0.981502891,1.061381184
0.023711684,0.392378986,0.952998936,1.062168241
0.023787928,0.468740016,0.917797685,1.062069793
0.023864172,0.541585863,0.876255453,1.061138866
0.023940416,0.610367894,0.828781068,1.059427025
0.024016658,0.674592733,0.775830686,1.056988609
0.024092902,0.73382479,0.717898369,1.053876891
0.024169146,0.787686706,0.655508459,1.050141687
0.024245388,0.835860193,0.589209974,1.045830656
0.024321632,0.878086627,0.519571245,1.040990403
0.024397876,0.914166689,0.447173417,1.0356648
0.024474118,0.943961203,0.37260747,1.029899079
0.024550362,0.967393935,0.296468079,1.023744347
0.024626606,0.984453917,0.219347596,1.017262883
0.024702848,0.995196998,0.141825572,1.010531558
0.024779092,0.999745727,0.064458303,1.003646392
0.024855336,0.998285174,-0.012233612,0.99672295
0.024931578,0.991056919,-0.087775365,0.989898331
0.025007822,0.978357792,-0.161752075,0.983347703
0.025084066,0.960525632,-0.233833179,0.977287445
0.025160308,0.937905371,-0.303802431,0.971962402
0.025236552,0.910765171,-0.371561021,0.967550789
0.025312796,0.879213989,-0.437033951,0.964015913
0.025389038,0.843249321,-0.500006378,0.961075795
0.025465282,0.802948356,-0.560095251,0.958432753
0.025541526,0.758565068,-0.616903424,0.955990797
0.025617768,0.710454941,-0.67014271,0.953837475
0.025694012,0.658975899,-0.719636023,0.952125241
0.025770256,0.604445577,-0.765273631,0.950998186
0.0258465,0.54713577,-0.806975722,0.950567367
0.025922742,0.487281084,-0.844668746,0.950908145
0.025998986,0.425088972,-0.878274083,0.952065999
0.02607523,0.360749096,-0.907699943,0.954059097
0.026151472,0.294443578,-0.932837665,0.95688313
0.026227716,0.226355687,-0.953558624,0.960510946
0.02630396,0.156678811,-0.96971488,0.964895198
0.026380202,0.085626155,-0.98114121,0.969969912
0.026456446,0.013438065,-0.987658501,0.975649896
0.02653269,-0.059609611,-0.989080369,0.981833282
0.026608932,-0.13319917,-0.985221565,0.988403551
0.026685176,-0.206967458,-0.975906551,0.995229125
0.02676142,-0.280501813,-0.960983574,1.002170697
0.026837662,-0.353343248,-0.940335333,1.009081989
0.026913906,-0.42498818,-0.913894057,1.015817301
0.02699015,-0.494898856,-0.881652176,1.022235437
0.027066392,-0.56251514,-0.843675673,1.028211924
0.027142636,-0.62726903,-0.800107956,1.033639177
0.02721888,-0.688603163,-0.751175404,1.038438804
0.027295122,-0.74599123,-0.69718504,1.042569895
0.027371366,-0.798960268,-0.638513803,1.046037386
0.02744761,-0.847110271,-0.575583756,1.048892471
0.027523852,-0.890114069,-0.508819222,1.051200057
0.027600096,-0.927671909,-0.438609481,1.052953448
0.02767634,-0.959435821,-0.36533457,1.053986443
0.027752584,-0.984992206,-0.289472222,1.054003813
0.027828826,-1.00396502,-0.211674795,1.05275198
0.02790507,-1.0161382,-0.132723004,1.050152237
0.027981314,-1.02148962,-0.053415243,1.046294232
0.028057556,-1.02014875,0.025504855,1.04135397
0.0281338,-1.01234794,0.103375219,1.035534788
0.028210044,-0.99838841,0.179615408,1.029041112
0.028286286,-0.978617847,0.253724962,1.022069247
0.02836253,-0.953413785,0.325278431,1.014803903
0.028438774,-0.923171222,0.39392212,1.007419742
0.028515016,-0.88828963,0.459369093,1.00007843
0.02859126,-0.849163473,0.52139312,0.992929389
0.028667504,-0.806171715,0.579821169,0.986105422
0.028743746,-0.759673893,0.634525001,0.979726401
0.02881999,-0.710003436,0.68541187,0.973894311
0.028896234,-0.657465935,0.732414901,0.968693043
0.028972476,-0.602339149,0.775484562,0.964188756
0.02904872,-0.544876397,0.81458056,0.960431777
0.029124964,-0.485308588,0.849665105,0.957455216
0.029201206,-0.42385003,0.880696952,0.955275969
0.02927745,-0.360704452,0.907629907,0.95389975
0.029353694,-0.296070248,0.930411279,0.95332274
0.029429936,-0.230145469,0.948983014,0.953535698
0.02950618,-0.163131893,0.9632833,0.954526731
0.029582424,-0.095235527,0.973252535,0.956290302
0.029658668,-0.026666267,0.978834391,0.958827855
0.02973491,0.042370923,0.979977906,0.962151991
0.029811154,0.111684874,0.976631343,0.966282291
0.029887398,0.181102484,0.96871382,0.971204575
0.02996364,0.250443459,0.956084013,0.976818566
0.030039884,0.319455177,0.938532293,0.982894475
0.030116128,0.387753993,0.915840626,0.989117211
0.03019237,0.45483461,0.887875557,0.995197527
0.030268614,0.520143688,0.854635179,1.000950745
0.030344858,0.583145738,0.816231906,1.006293476
0.0304211,0.643348396,0.772855461,1.011202722
0.030497344,0.700302839,0.724743664,1.015677445
0.030573588,0.753595471,0.672171295,1.019720384
0.03064983,0.802843571,0.615445018,1.02333037
0.030726074,0.847695589,0.554903626,1.026505846
0.030802318,0.887830198,0.490913719,1.02923874
0.03087856,0.922960401,0.423871309,1.031522788
0.030954804,0.952834427,0.354196519,1.033348619
0.031031048,0.977238894,0.282332033,1.034707233
0.03110729,0.996000528,0.208739802,1.035589357
0.031183534,1.00898862,0.133897185,1.035986491
0.031259778,1.01611459,0.058293223,1.03588696
0.03133602,1.01733804,-0.017573468,1.035285514
0.031412264,1.01266479,-0.093201459,1.034176489
