Frequency (GHz),Re( S21 ),Im( S21 ),S2
0,0.038209703,0,0.001459981
8.83E-05,0.03759395,-0.006628864,0.001457247
0.000176642,0.035776578,-0.013007704,0.001449164
0.000264962,0.032845158,-0.018903349,0.001436141
0.000353283,0.028935541,-0.024114251,0.001418763
0.000441604,0.024220778,-0.028481318,0.001397832
0.000529925,0.018895809,-0.031892907,0.001374209
0.000618245,0.013163793,-0.034285925,0.00134881
0.000706566,0.007224104,-0.035641912,0.001322534
0.000794887,0.001262659,-0.035980873,0.001296218
0.000883208,-0.004554929,-0.035353404,0.001270611
0.000971529,-0.010085518,-0.033832718,0.00124637
0.001059849,-0.015209965,-0.031507202,0.001224047
0.00114817,-0.019831972,-0.028474132,0.001204083
0.001236491,-0.023876362,-0.024834758,0.001186846
0.001324812,-0.027285541,-0.020691535,0.00117264
0.001413133,-0.030017169,-0.01614468,0.001161681
0.001501453,-0.032041505,-0.011292292,0.001154174
0.001589774,-0.03333902,-0.006228934,0.00115029
0.001678095,-0.033897452,-0.001045937,0.001150131
0.001766416,-0.033710726,0.004167442,0.001153781
0.001854736,-0.032777235,0.00932174,0.001161242
0.001943057,-0.031100662,0.014324723,0.001172449
0.002031378,-0.028691873,0.019080862,0.001187303
0.002119699,-0.025571408,0.023490435,0.001205697
0.00220802,-0.021771321,0.027449101,0.001227444
0.00229634,-0.017338228,0.030849787,0.001252323
0.002384661,-0.012336664,0.033583235,0.001280027
0.002472982,-0.006852018,0.035541207,0.001310128
0.002561303,-0.000993885,0.0366209,0.001342078
0.002649624,0.005101686,0.036731374,0.001375221
0.002737944,0.01127138,0.03580061,0.001408728
0.002826265,0.017327011,0.033785097,0.001441658
0.002914586,0.023059724,0.030678887,0.001472945
0.003002907,0.028249139,0.026522188,0.00150144
0.003091227,0.032675855,0.021407297,0.001525984
0.003179548,0.036134977,0.015477771,0.001545298
0.003267869,0.038440686,0.008912693,0.001557122
0.00335619,0.039215371,0.002342448,0.001543332
0.003444511,0.039311934,-0.004712685,0.001567638
0.003532831,0.037813395,-0.011555664,0.001563386
0.003621152,0.035075996,-0.017922618,0.001551546
0.003709473,0.031251449,-0.023605317,0.001533864
0.003797794,0.026522921,-0.028423498,0.001511361
0.003886114,0.021100503,-0.032247625,0.001485141
0.003974435,0.015205404,-0.035001788,0.001456329
0.004062756,0.00905579,-0.036661509,0.001426074
0.004151077,0.002854871,-0.037245974,0.001395413
0.004239398,-0.003217401,-0.03681,0.001365328
0.004327718,-0.009007172,-0.035432819,0.001336614
0.004416039,-0.014388536,-0.03321074,0.001309983
0.00450436,-0.019261867,-0.030248597,0.001285997
0.004592681,-0.023550855,-0.026654521,0.001265106
0.004681002,-0.027199458,-0.022535756,0.001247671
0.004769322,-0.030167924,-0.01799649,0.001233977
0.004857643,-0.032430116,-0.013136462,0.001224279
0.004945964,-0.033970691,-0.008050749,0.001218822
0.005034285,-0.034784213,-0.002828852,0.001217944
0.005122606,-0.034871336,0.002447965,0.001222003
0.005210926,-0.034230903,0.007703943,0.001231105
0.005299247,-0.032860179,0.01285913,0.001245149
0.005387568,-0.030761227,0.017827103,0.001264059
0.005475889,-0.027943606,0.022516688,0.001287846
0.005564209,-0.024424927,0.026831694,0.001316517
0.00565253,-0.020233197,0.03067049,0.001350061
0.005740851,-0.015409775,0.033925533,0.001388403
0.005829172,-0.010012673,0.036484398,0.001431365
0.005917493,-0.004121806,0.038231615,0.001478646
0.006005813,0.002156835,0.039052792,0.001529772
0.006094134,0.008687652,0.038840644,0.001584071
0.006182455,0.015301947,0.037502777,0.001640608
0.006270776,0.021797994,0.034971342,0.001698147
0.006359096,0.027942633,0.031211263,0.001754934
0.006447417,0.033468131,0.026222618,0.001807742
0.006535738,0.038023233,0.020066727,0.00184844
0.006624059,0.040751509,0.013575005,0.001844966
0.00671238,0.043117356,0.006097856,0.00189629
0.0068007,0.043925613,-0.001797518,0.001932691
0.006889021,0.043101955,-0.009741142,0.001952668
0.006977342,0.040704329,-0.017377237,0.001958811
0.007065663,0.036862698,-0.024367372,0.001952627
0.007153983,0.031779233,-0.030422565,0.001935452
0.007242304,0.025713444,-0.03532223,0.001908841
0.007330625,0.018957574,-0.03892627,0.001874644
0.007418946,0.011810961,-0.041174408,0.001834831
0.007507267,0.004557083,-0.042078454,0.001791363
0.007595587,-0.002551598,-0.041708488,0.001746109
0.007683908,-0.009304067,-0.040176913,0.00170075
0.007772229,-0.01553327,-0.037621778,0.001656681
0.00786055,-0.021114666,-0.034194086,0.001615065
0.00794887,-0.025961353,-0.030046724,0.001576797
0.008037191,-0.030018007,-0.025328165,0.001542597
0.008125512,-0.033254392,-0.020177033,0.001512967
0.008213833,-0.035659064,-0.014720555,0.001488264
0.008302154,-0.037234534,-0.009074724,0.001468761
0.008390474,-0.037992392,-0.00334435,0.001454607
0.008478795,-0.037950344,0.002374535,0.001445867
0.008567116,-0.037129562,0.007991806,0.001442473
0.008655436,-0.03551463,0.01330528,0.001438319
0.008743757,-0.033346325,0.018521989,0.001455041
0.008832078,-0.030446541,0.023411539,0.001475092
0.008920399,-0.026866809,0.027916132,0.001501136
0.00900872,-0.02264463,0.031952929,0.001533769
0.00909704,-0.017820885,0.035436906,0.001573358
0.009185361,-0.012444188,0.038279615,0.001620187
0.009273682,-0.006576229,0.040389571,0.001674564
0.009362003,-0.000295356,0.041673679,0.001736783
0.009450324,0.00629567,0.042041119,0.001807091
0.009538644,0.013052318,0.041410722,0.001885211
0.009626965,0.019724272,0.03966856,0.001962642
0.009715286,0.026260611,0.036447372,0.002018031
0.009803607,0.03270654,0.03208454,0.002099135
0.009891927,0.038538788,0.026606055,0.00219312
0.009980248,0.043484476,0.019990711,0.002290528
0.010068569,0.047283549,0.012349967,0.002388256
0.01015689,0.049676351,0.003891465,0.002482883
0.010245211,0.05043336,-0.005105791,0.002569593
0.010333531,0.049402259,-0.014293894,0.002644899
0.010421852,0.046526752,-0.023268716,0.002706172
0.010510173,0.041862559,-0.031605683,0.002751393
0.010598494,0.035581615,-0.038899496,0.002779222
0.010686814,0.027962925,-0.044804666,0.002789383
0.010775135,0.01936526,-0.049066562,0.002782541
0.010863456,0.010193078,-0.051540647,0.002760337
0.010951777,0.000857187,-0.052196115,0.002725169
0.011040098,-0.008259403,-0.05110402,0.002679839
0.011128418,-0.016827209,-0.048417062,0.002627367
0.011216739,-0.024582755,-0.044343561,0.002570663
0.01130506,-0.031334497,-0.039122433,0.002512415
0.011393381,-0.036957085,-0.033001848,0.002454948
0.011481701,-0.041382778,-0.026223706,0.002400217
0.011570022,-0.044590168,-0.019012073,0.002349742
0.011658343,-0.046593037,-0.011569058,0.002304754
0.011746664,-0.047429543,-0.004072538,0.002266147
0.011834985,-0.047154311,0.003323338,0.002234574
0.011923305,-0.045832478,0.010484931,0.00221055
0.012011626,-0.043534368,0.017296458,0.002194409
0.012099947,-0.04033317,0.023656488,0.002186394
0.012188268,-0.036303632,0.029473832,0.00218666
0.012276588,-0.031521257,0.034664985,0.002195251
0.012364909,-0.026062081,0.039149456,0.002211912
0.01245323,-0.020101769,0.042764165,0.002232855
0.012541551,-0.013608402,0.045724843,0.00227595
0.012629872,-0.006666147,0.047774181,0.00232681
0.012718192,0.000620665,0.048852082,0.002386911
0.012806513,0.0081387,0.048891801,0.002456647
0.012894834,0.015760614,0.047830213,0.002536126
0.012983155,0.023343124,0.045612011,0.002625357
0.013071476,0.030723665,0.042195622,0.002724414
0.013159796,0.037719477,0.037559498,0.002833475
0.013248117,0.044125732,0.03171077,0.002952653
0.013336438,0.04971927,0.024692312,0.003081716
0.013424759,0.054262087,0.016592721,0.003219692
0.013513079,0.057511289,0.00755325,0.0033646
0.0136014,0.059067719,-0.00204609,0.003493182
0.013689721,0.059093367,-0.012271374,0.003642613
0.013778042,0.057243276,-0.022651725,0.003789893
0.013866363,0.05343467,-0.03280903,0.003931696
0.013954683,0.047674324,-0.042328678,0.004064558
0.014043004,0.040072464,-0.050787401,0.004185162
0.014131325,0.030848144,-0.057784315,0.004290635
0.014219646,0.020321265,-0.062974654,0.004378761
0.014307966,0.008894929,-0.066098981,0.004448195
0.014396287,-0.002975161,-0.067005888,0.004498641
0.014484608,-0.014813925,-0.065660507,0.004530754
0.014572929,-0.026162021,-0.062143307,0.004546242
0.01466125,-0.036606409,-0.056634311,0.004547474
0.01474957,-0.045802008,-0.049391978,0.004537391
0.014837891,-0.053483795,-0.040727522,0.004519247
0.014926212,-0.059469651,-0.030979153,0.004496347
0.015014533,-0.063655727,-0.020490522,0.004471913
0.015102853,-0.06600672,-0.00959288,0.00444891
0.015191174,-0.0665439,0.001404398,0.004430063
0.015279495,-0.065332927,0.012222343,0.004417777
0.015367816,-0.062471841,0.022613624,0.004414107
0.015456137,-0.058082368,0.032362156,0.004420871
0.015544457,-0.052301977,0.041280743,0.004439596
0.015632778,-0.045278959,0.049208239,0.004471635
0.015721099,-0.037169792,0.056005281,0.004518185
0.01580942,-0.028136998,0.061551321,0.004580256
0.01589774,-0.018349923,0.065742761,0.00465883
0.015986061,-0.007985218,0.068491675,0.004754873
0.016074382,0.002772221,0.069727682,0.004869635
0.016162703,0.013736319,0.069399893,0.005005032
0.016251024,0.024720358,0.067459934,0.005161939
0.016339344,0.035513885,0.063864999,0.005339974
0.016427665,0.045881998,0.058598355,0.005538925
0.016515986,0.05557448,0.051674806,0.005758808
0.016604307,0.064327486,0.043145113,0.005999526
0.016692628,0.071868166,0.033102017,0.006260777
0.016780948,0.077919088,0.021686625,0.006541694
0.01686927,0.082207799,0.009095354,0.006840848
0.01695759,0.08447843,-0.004416169,0.007156108
0.01704591,0.084506445,-0.018530062,0.007484702
0.017134232,0.082115732,-0.032868072,0.007823304
0.017222552,0.077196211,-0.046997938,0.008168061
0.017310872,0.069721997,-0.06044538,0.008514801
0.017399194,0.059765484,-0.072713062,0.008859103
0.017487514,0.047507793,-0.083304383,0.009196611
0.017575836,0.033241611,-0.091751121,0.009523273
0.017664156,0.017365705,-0.097642854,0.009835695
0.017752476,0.000370105,-0.100654453,0.010131456
0.017840798,-0.017186223,-0.100568146,0.010409318
0.017929118,-0.034704097,-0.09728881,0.010669487
0.01801744,-0.051576171,-0.090849705,0.01091377
0.01810576,-0.067218058,-0.081407949,0.011145522
0.01819408,-0.081095286,-0.069232442,0.011369576
0.018282402,-0.092746079,-0.054685012,0.011592286
0.018370722,-0.101794302,-0.038198277,0.011821188
0.018459044,-0.107957691,-0.020251796,0.012064998
0.018547364,-0.11104738,-0.001350452,0.012333344
0.018635684,-0.11096397,0.017994465,0.012636803
0.018724006,-0.107688874,0.037280213,0.012986708
0.018812326,-0.101275757,0.056023121,0.013395369
0.018900648,-0.091839463,0.073765785,0.013875878
0.018988968,-0.079547793,0.090080462,0.014442341
0.019077288,-0.064614222,0.104571424,0.01511018
0.01916561,-0.047291569,0.116873719,0.015895959
0.01925393,-0.02786896,0.126654342,0.016818001
0.01934225,-0.006669526,0.133610591,0.017896273
0.019430572,0.015950484,0.137472048,0.019152982
0.019518892,0.039602533,0.138001844,0.02061287
0.019607214,0.063867457,0.1349971,0.022303269
0.019695534,0.088293508,0.128289178,0.024253857
0.019783854,0.112387456,0.117745839,0.026495023
0.019872176,0.135610193,0.103287525,0.029058437
0.019960496,0.15738149,0.084903039,0.031977459
0.020048818,0.177088365,0.062661924,0.035286806
0.020137138,0.19409582,0.036726195,0.039022001
0.020225458,0.207759976,0.007362344,0.043218412
0.02031378,0.217446119,-0.025049418,0.047910288
0.0204021,0.222550154,-0.060007431,0.053129463
0.020490422,0.222524509,-0.09688659,0.058904168
0.020578742,0.216906443,-0.134942785,0.06525796
0.020667062,0.205346718,-0.17332381,0.072208418
0.020755384,0.187637419,-0.21108973,0.079766675
0.020843704,0.16373463,-0.247239828,0.087936562
0.020932024,0.133775905,-0.280747503,0.096715153
0.021020346,0.098087013,-0.310599357,0.106093023
0.021108666,0.057179648,-0.335835963,0.116055306
0.021196988,0.011737051,-0.355591506,0.126583078
0.021285308,-0.037409056,-0.369129419,0.137655965
0.021373628,-0.089309856,-0.37586838,0.14925329
0.02146195,-0.1429369,-0.375400633,0.161356593
0.02155027,-0.197219774,-0.367499769,0.173951719
0.021638592,-0.251084149,-0.352117628,0.187030074
0.021726912,-0.303484857,-0.329372913,0.200589574
0.021815232,-0.353432208,-0.299534589,0.214635296
0.021903554,-0.400012106,-0.262999386,0.229178362
0.021991874,-0.442395598,-0.220269755,0.24423263
0.022080196,-0.479833424,-0.17193158,0.259800583
0.022168516,-0.511356115,-0.118786424,0.275595291
0.022256836,-0.537653506,-0.061729319,0.292881801
0.022345158,-0.557495713,-0.000793396,0.310802099
0.022433478,-0.570550978,0.063136689,0.32951466
0.0225218,-0.576507747,0.129313782,0.349083237
0.02261012,-0.575117707,0.196993008,0.369566622
0.02269844,-0.566190302,0.265422225,0.391020416
0.022786762,-0.549590945,0.333837897,0.413497948
0.022875082,-0.525239229,0.401460588,0.437046851
0.022963402,-0.493112475,0.467490822,0.461707582
0.023051724,-0.45325014,0.531106353,0.487509648
0.023140044,-0.405762196,0.591461003,0.514469078
0.023228366,-0.350839049,0.647683501,0.542581956
0.023316686,-0.288763434,0.698884368,0.571823681
0.023405006,-0.219922706,0.744161069,0.602141693
0.023493328,-0.144823506,0.782611728,0.633454965
0.023581648,-0.064102717,0.813352346,0.665651197
0.02366997,0.021462055,0.835537732,0.698583921
0.02375829,0.110948287,0.848389089,0.732073569
0.02384661,0.20328778,0.851222694,0.765905996
0.023934932,0.297275096,0.843483746,0.799837312
0.024023252,0.391583383,0.824778795,0.833597607
0.024111574,0.484790266,0.794906795,0.866898415
0.024199894,0.575410903,0.753883004,0.899437291
0.024288214,0.661939561,0.701960683,0.930912783
0.024376536,0.742898405,0.63963747,0.961034133
0.024464856,0.816884279,0.567651391,0.989528027
0.024553176,0.882621825,0.486967832,1.016158955
0.024641498,0.939004302,0.398748726,1.040729626
0.024729818,0.985132515,0.304315597,1.063094055
0.02481814,1.02034092,0.205103844,1.08316318
0.02490646,1.04421055,0.102611654,1.100904824
0.02499478,1.05657184,-0.001650086,1.116346776
0.025083102,1.0574919,-0.106205076,1.129568637
0.025171422,1.0472548,-0.209653586,1.140697242
0.025259744,1.02633095,-0.310704023,1.149892209
0.025348064,0.995341897,-0.408198506,1.157331512
0.025436384,0.955023468,-0.501125813,1.163196905
0.025524706,0.906193614,-0.588627458,1.16766915
0.025613026,0.849718153,-0.669991612,1.1709097
0.025701348,0.786483705,-0.744641006,1.173046846
0.025789668,0.717368186,-0.812117636,1.174152169
0.025877988,0.643211305,-0.872072875,1.174231882
0.02596631,0.564797342,-0.924273014,1.173276642
0.02605463,0.482863009,-0.968607605,1.171357378
0.026142952,0.398137391,-1.00507593,1.168691007
0.026231272,0.311355472,-1.03373361,1.165547406
0.026319592,0.223239571,-1.05465484,1.162132738
0.026407914,0.134475976,-1.06792665,1.158551118
0.026496234,0.045709215,-1.07365572,1.154825937
0.026584554,-0.042451005,-1.07197738,1.150937591
0.026672876,-0.129421934,-1.06305707,1.146840371
0.026761196,-0.214641854,-1.04709136,1.142471442
0.026849518,-0.297564894,-1.02431214,1.137760226
0.026937838,-0.377661407,-0.994988263,1.132629782
0.027026158,-0.454418302,-0.959429741,1.127001421
0.02711448,-0.527342737,-0.917990029,1.120796056
0.0272028,-0.595967412,-0.871071041,1.113941915
0.027291122,-0.659859002,-0.819121778,1.10637439
0.027379442,-0.71862632,-0.762640297,1.09804401
0.027467762,-0.771931112,-0.702169597,1.088919785
0.027556084,-0.819496691,-0.638291419,1.078990762
0.027644404,-0.861118138,-0.571618736,1.068272427
0.027732726,-0.896669209,-0.502782702,1.056806116
0.027821046,-0.92610687,-0.432419956,1.044660953
0.027909366,-0.949472129,-0.361156851,1.031931595
0.027997688,-0.966889799,-0.289593846,1.018740479
0.028086008,-0.97856003,-0.218289703,1.005230127
0.028174328,-0.984750926,-0.147746369,0.991563376
0.02826265,-0.985784411,-0.078396179,0.977916866
0.02835097,-0.982024252,-0.0105874,0.964483725
0.028439292,-0.973869324,0.055437066,0.951494728
0.028527612,-0.961822629,0.119572729,0.939400407
0.028615932,-0.946596026,0.181486115,0.928981246
0.028704254,-0.92828095,0.240802154,0.9196912
0.028792574,-0.907095492,0.297669709,0.911429487
0.028880896,-0.883385956,0.352187008,0.904406436
0.028969216,-0.85746485,0.40443489,0.898813549
0.029057536,-0.829609871,0.454483449,0.894807743
0.029145858,-0.800057173,0.502345622,0.892442604
0.029234178,-0.768927515,0.547904134,0.891448463
0.0293225,-0.735986054,0.590967655,0.890918241
0.02941082,-0.700644851,0.631802678,0.890077831
0.02949914,-0.662819982,0.671162724,0.889789731
0.029587462,-0.622926414,0.709344327,0.891206692
0.029675782,-0.581175387,0.746211946,0.894597099
0.029764104,-0.537546754,0.781573415,0.899813516
0.029852424,-0.491941929,0.815258563,0.906653386
0.029940744,-0.444250822,0.847093582,0.91492633
0.030029066,-0.394378185,0.87688309,0.924458106
0.030117386,-0.342255026,0.904399335,0.93507666
0.030205706,-0.287846595,0.929380774,0.946604285
0.030294028,-0.23116295,0.951536536,0.958858089
0.030382348,-0.172263712,0.970549762,0.971641627
0.03047067,-0.111266933,0.986089051,0.984751947
0.03055899,-0.048352473,0.99781698,0.997976687
0.03064731,0.016234472,1.00540245,1.011097645
0.030735632,0.082183249,1.00853431,1.023895541
0.030823952,0.149119616,1.00693548,1.036155721
0.030912274,0.216612116,1.00037444,1.047669829
0.031000594,0.284179807,0.988679886,1.05824608
0.031088914,0.351304233,0.971748054,1.067708945
0.031177236,0.417443067,0.949552774,1.075909185
0.031265556,0.482044041,0.922148049,1.082723482
0.031353878,0.544563174,0.889668822,1.088059663
0.031442198,0.604477167,0.852327645,1.09185506
0.031530518,0.661298156,0.810407817,1.094076081
0.03161884,0.714583218,0.764252722,1.094711399
0.03170716,0.76393652,0.714255214,1.093759517
0.03179548,0.80900538,0.660852909,1.091216272
0.031883802,0.849482238,0.604554176,1.087105824
0.031972122,0.885176599,0.545949936,1.081598944
0.032060444,0.923560321,0.483601123,1.086833713
0.032148764,0.951304257,0.422133774,1.083176713
0.032237084,0.974555254,0.359547138,1.079032088
0.032325406,0.993450403,0.296284586,1.074728259
0.032413726,1.00822961,0.232774749,1.07071103
0.032502048,1.0192796,0.169518113,1.067667294
0.032590368,1.02716947,0.107466333,1.066626133
0.032678688,1.0313226,0.049192332,1.066046191
0.03276701,1.02609372,-0.006769871,1.052914153
0.03285533,1.01599181,-0.066725418,1.036691639
0.032943652,1.00444949,-0.126877964,1.025016796
0.033031972,0.990645409,-0.185731873,1.015874655
0.033120292,0.974212587,-0.243048534,1.008162755
0.033208614,0.955083847,-0.298760325,1.001442887
0.033296934,0.933295965,-0.352819622,0.995523044
0.033385256,0.908919573,-0.405177772,0.990303817
0.033473576,0.882035494,-0.455782503,0.985724303
0.033561896,0.852725565,-0.504576981,0.981738819
0.033650216,0.821069002,-0.551498353,0.978304739
0.03373854,0.787143767,-0.596476972,0.975380088
0.03382686,0.751027584,-0.639436185,0.972921067
0.03391518,0.712799788,-0.680292666,0.970881649
0.0340035,0.672544658,-0.718955934,0.969213952
0.03409182,0.63035351,-0.75533092,0.967870346
0.034180144,0.586326063,-0.789318562,0.966802044
0.034268464,0.54057312,-0.820819438,0.965963848
0.034356784,0.493216723,-0.849734843,0.965312039
0.034445104,0.444390923,-0.875971079,0.964808624
0.034533424,0.394240975,-0.899440348,0.964418886
0.034621744,0.342922598,-0.920065045,0.964115595
0.034710068,0.290600002,-0.937777996,0.963875931
0.034798388,0.237443879,-0.952523947,0.963681465
0.034886708,0.183630854,-0.964260578,0.963518753
0.034975028,0.129341364,-0.972958028,0.963376513
0.035063348,0.074759468,-0.97859937,0.963245705
0.035151672,0.020073442,-0.981182754,0.96312254
0.035239992,-0.034526944,-0.980725348,0.963014318
0.035328312,-0.088859044,-0.977264583,0.962941995
0.035416632,-0.142755672,-0.970850408,0.962929697
0.035504952,-0.196062475,-0.961528957,0.962978429
0.035593276,-0.260645658,-0.956604481,0.983028292
0.035681596,-0.314187914,-0.942988098,0.987940598
0.035769916,-0.367381006,-0.92681545,0.993955682
0.035858236,-0.420438617,-0.908332109,1.001835851
0.035946556,-0.474226475,-0.888296306,1.013961077
0.03603488,-0.533982754,-0.872803271,1.046923131
0.0361232,-0.545798063,-0.854317725,1.027754301
0.03621152,-0.595356047,-0.813134193,1.015636039
0.03629984,-0.64186573,-0.776994586,1.015712202
