Frequency (GHz),Re( S21 ),Im( S21 ),S2
0,-0.020024553,-2.42E-05,4.01E-04
0.000112432,-0.019178342,0.00735145,4.22E-04
0.000224864,-0.016677404,0.014348363,4.84E-04
0.000337296,-0.012647379,0.020607809,5.85E-04
0.000449728,-0.007262825,0.025868002,7.22E-04
0.000562159,-0.00083638,0.029741731,8.85E-04
0.000674591,0.006328183,0.032080688,1.07E-03
0.000787023,0.01387049,0.032756664,1.27E-03
0.000899455,0.021410158,0.031724218,1.46E-03
0.001011887,0.028565085,0.029022915,1.66E-03
0.001124319,0.034970235,0.024776537,1.84E-03
0.001236751,0.0402954,0.019186959,1.99E-03
0.001349183,0.044262104,0.012525069,2.12E-03
0.001461615,0.046656985,0.005117991,2.20E-03
0.001574047,0.047343165,-0.002665963,2.25E-03
0.001686478,0.046267789,-0.010434827,2.25E-03
0.00179891,0.043465734,-0.017791851,2.21E-03
0.001911342,0.039058596,-0.024354603,2.12E-03
0.002023774,0.033251155,-0.029773247,1.99E-03
0.002136206,0.02632219,-0.033749018,1.83E-03
0.002248638,0.018612677,-0.036048785,1.65E-03
0.00236107,0.010510505,-0.036518242,1.44E-03
0.002473502,0.002432645,-0.035091117,1.24E-03
0.002585934,-0.005194548,-0.03179393,1.04E-03
0.002698366,-0.011955754,-0.026747942,8.58E-04
0.002810797,-0.017467456,-0.020164365,7.12E-04
0.002923229,-0.021397147,-0.012337535,6.10E-04
0.003035661,-0.023481019,-0.003632212,5.65E-04
0.003148093,-0.023538692,0.005532641,5.85E-04
0.003260525,-0.021484904,0.014704395,6.78E-04
0.003372957,-0.017353836,0.023458796,8.51E-04
0.003485389,-0.011232316,0.031239525,1.10E-03
0.003597821,-0.00336176,0.037710879,1.43E-03
0.003710253,0.005865977,0.042309802,1.82E-03
0.003822684,0.01622588,0.044977691,2.29E-03
0.003935116,0.027233124,0.045443554,2.81E-03
0.004047548,0.038233817,0.043522619,3.36E-03
0.00415998,0.04879158,0.039250642,3.92E-03
0.004272412,0.058384784,0.032746743,4.48E-03
0.004384844,0.066521861,0.024244869,5.01E-03
0.004497276,0.072764501,0.01408623,5.49E-03
0.004609708,0.076750971,0.002708207,5.90E-03
0.00472214,0.078216344,-0.009372184,6.21E-03
0.004834572,0.077009141,-0.021579893,6.40E-03
0.004947003,0.073103786,-0.033304453,6.45E-03
0.005059435,0.06660831,-0.043928113,6.37E-03
0.005171867,0.057766244,-0.05285224,6.13E-03
0.005284299,0.046953,-0.059527122,5.75E-03
0.005396731,0.034666739,-0.063479222,5.23E-03
0.005509163,0.021513194,-0.064336941,4.60E-03
0.005621595,0.008185306,-0.061854303,3.89E-03
0.005734027,-0.004561917,-0.055929855,3.15E-03
0.005846459,-0.015940672,-0.046620652,2.43E-03
0.00595889,-0.025162742,-0.034151077,1.80E-03
0.006071322,-0.031473246,-0.01891434,1.35E-03
0.006183754,-0.034185898,-0.001467728,1.17E-03
0.006296186,-0.032715894,0.017479977,1.38E-03
0.006408618,-0.026612952,0.037089534,2.08E-03
0.00652105,-0.015590226,0.056416635,3.43E-03
0.006633482,0.000576332,0.074575283,5.56E-03
0.006745914,0.021562079,0.090233028,8.61E-03
0.006858346,0.047160842,0.102453396,1.27E-02
0.006970777,0.076860562,0.110225081,1.81E-02
0.007083209,0.109939925,0.112595834,2.48E-02
0.007195641,0.145398408,0.108777456,3.30E-02
0.007308073,0.182241261,0.098190822,4.29E-02
0.007420505,0.219251603,0.080330581,5.45E-02
0.007532937,0.255104572,0.054969497,6.81E-02
0.007645369,0.288431883,0.022118837,8.37E-02
0.007757801,0.317856431,-0.017964581,1.01E-01
0.007870233,0.342035741,-0.064776227,1.21E-01
0.007982665,0.359708726,-0.117570527,1.43E-01
0.008095096,0.369743228,-0.175379157,1.67E-01
0.008207528,0.37116757,-0.237047747,1.94E-01
0.00831996,0.36318785,-0.301252067,2.23E-01
0.008432392,0.345229834,-0.366522014,2.54E-01
0.008544824,0.316965312,-0.43128866,2.86E-01
0.008657256,0.278322458,-0.493928492,3.21E-01
0.008769687,0.229490519,-0.552804768,3.58E-01
0.008882119,0.170921221,-0.60630703,3.97E-01
0.008994551,0.103324711,-0.652891695,4.37E-01
0.009106983,0.027658597,-0.691123307,4.78E-01
0.009219415,-0.054893889,-0.719709277,5.21E-01
0.009331847,-0.142955527,-0.737537026,5.64E-01
0.009444279,-0.234993398,-0.743712425,6.08E-01
0.009556711,-0.329346687,-0.737598181,6.53E-01
0.009669143,-0.424251407,-0.718829036,6.97E-01
0.009781575,-0.517882347,-0.687311053,7.41E-01
0.009894006,-0.608404934,-0.643225372,7.84E-01
0.010006438,-0.694025159,-0.58702749,8.26E-01
0.01011887,-0.773034036,-0.519440949,8.67E-01
0.010231302,-0.843851268,-0.441443592,9.07E-01
0.010343734,-0.905063987,-0.354242831,9.45E-01
0.010456166,-0.95546174,-0.259246588,9.80E-01
0.010568598,-0.994065821,-0.158026576,1.01E+00
0.01068103,-1.02015316,-0.052277617,1.04E+00
0.010793462,-1.03327107,0.05622679,1.07E+00
0.010905893,-1.03324568,0.165681243,1.10E+00
0.011018325,-1.02017868,0.27429527,1.12E+00
0.011130757,-0.994440019,0.380339593,1.13E+00
0.011243189,-0.956647515,0.48218897,1.15E+00
0.011355621,-0.907642841,0.578361332,1.16E+00
0.011468053,-0.848457575,0.667552471,1.17E+00
0.011580485,-0.780269444,0.748666167,1.17E+00
0.011692917,-0.704356253,0.820866168,1.17E+00
0.011805349,-0.622210741,0.883656085,1.17E+00
0.01191778,-0.535419762,0.936412871,1.16E+00
0.012030212,-0.44523859,0.978906274,1.16E+00
0.012142644,-0.352994084,1.01123142,1.15E+00
0.012255076,-0.259930432,1.03368819,1.14E+00
0.012367508,-0.167084724,1.04683399,1.12E+00
0.01247994,-0.074699082,1.05166614,1.11E+00
0.012592372,0.001201891,1.0402844,1.08E+00
0.012704804,0.09013509,1.03051221,1.07E+00
0.012817236,0.172585979,1.01117098,1.05E+00
0.012929667,0.250121593,0.98574841,1.03E+00
0.013042099,0.322890073,0.955151379,1.02E+00
0.013154531,0.390880197,0.92016679,9.99E-01
0.013266963,0.454131216,0.881515265,9.83E-01
0.013379395,0.512761235,0.839840651,9.68E-01
0.013491827,0.566960156,0.795698583,9.55E-01
0.013604259,0.616970778,0.749545574,9.42E-01
0.013716691,0.663068593,0.701737285,9.32E-01
0.013829123,0.705538392,0.652528882,9.24E-01
0.013941554,0.744653761,0.602081418,9.17E-01
0.014053986,0.780656636,0.550470948,9.12E-01
0.014166418,0.813743174,0.497703373,9.10E-01
0.01427885,0.84404856,0.44372952,9.09E-01
0.014391282,0.871638894,0.388463765,9.11E-01
0.014503714,0.896507323,0.331803441,9.14E-01
0.014616146,0.918572187,0.273649126,9.19E-01
0.014728578,0.937679827,0.213923141,9.25E-01
0.01484101,0.953615487,0.152590379,9.33E-01
0.014953441,0.966114998,0.089673996,9.41E-01
0.015065873,0.974886,0.025267392,9.51E-01
0.015178305,0.97962755,-0.04046486,9.61E-01
0.015290737,0.980044365,-0.107288137,9.72E-01
0.015403169,0.975858927,-0.17489481,9.83E-01
0.015515601,0.966836154,-0.24289827,9.94E-01
0.015628033,0.952827513,-0.310842007,1.00E+00
0.015740465,0.933838069,-0.378263026,1.02E+00
0.015852897,0.910005748,-0.444908589,1.03E+00
0.015965329,0.881093144,-0.51083076,1.04E+00
0.01607776,0.846341133,-0.575427413,1.05E+00
0.016190192,0.805721045,-0.637463689,1.06E+00
0.016302624,0.759753883,-0.696111858,1.06E+00
0.016415056,0.708942115,-0.750844061,1.07E+00
0.016527488,0.653753877,-0.801217675,1.07E+00
0.01663992,0.594677985,-0.846837103,1.07E+00
0.016752352,0.532241225,-0.88736403,1.07E+00
0.016864784,0.467005283,-0.922528744,1.07E+00
0.016977216,0.399557114,-0.952140152,1.07E+00
0.017089648,0.330494702,-0.976089358,1.06E+00
0.01720208,0.260412574,-0.994351566,1.06E+00
0.017314512,0.189887211,-1.00698125,1.05E+00
0.017426944,0.119464472,-1.01410854,1.04E+00
0.017539374,0.049647182,-1.01592815,1.03E+00
0.017651806,-0.019114221,-1.0126915,1.03E+00
0.017764238,-0.086428322,-1.00469255,1.02E+00
0.01787667,-0.151967436,-0.992258012,1.01E+00
0.017989102,-0.21546863,-0.97573036,9.98E-01
0.018101534,-0.276733249,-0.955459356,9.89E-01
0.018213966,-0.335623175,-0.931787729,9.81E-01
0.018326398,-0.39205575,-0.905042529,9.73E-01
0.01843883,-0.44599697,-0.875525713,9.65E-01
0.018551262,-0.497452974,-0.843507946,9.59E-01
0.018663694,-0.546461701,-0.80922401,9.53E-01
0.018776126,-0.593084693,-0.772873163,9.49E-01
0.018888558,-0.637403965,-0.734619796,9.46E-01
0.01900099,-0.679530025,-0.694592416,9.44E-01
0.019113422,-0.719616473,-0.652855396,9.44E-01
0.019225854,-0.757833481,-0.609334707,9.46E-01
0.019338286,-0.794217169,-0.563786507,9.49E-01
0.019450718,-0.828547001,-0.515986264,9.53E-01
0.01956315,-0.860501051,-0.4659141,9.58E-01
0.01967558,-0.889837325,-0.413672179,9.63E-01
0.019788012,-0.91637677,-0.35936299,9.69E-01
0.019900444,-0.939941287,-0.303071886,9.75E-01
0.020012876,-0.96032846,-0.244889632,9.82E-01
0.020125308,-0.977312982,-0.184935674,9.89E-01
0.02023774,-0.990654826,-0.123369418,9.97E-01
0.020350172,-1.00011253,-0.060397413,1.00E+00
0.020462604,-1.00545382,0.003724596,1.01E+00
0.020575036,-1.0064683,0.068693012,1.02E+00
0.020687468,-1.00297797,0.134159908,1.02E+00
0.0207999,-0.994845569,0.19973886,1.03E+00
0.020912332,-0.981984138,0.265012592,1.03E+00
0.021024764,-0.964361668,0.329542369,1.04E+00
0.021137196,-0.942006469,0.392878056,1.04E+00
0.021249628,-0.915008605,0.454568684,1.04E+00
0.02136206,-0.883519769,0.514173985,1.04E+00
0.021474492,-0.847752273,0.571275592,1.05E+00
0.021586924,-0.807973266,0.625486493,1.04E+00
0.021699354,-0.764499366,0.676461756,1.04E+00
0.021811786,-0.71769011,0.723906696,1.04E+00
0.021924218,-0.66793561,0.767583668,1.04E+00
0.02203665,-0.615648806,0.807318211,1.03E+00
0.022149082,-0.561252296,0.843005717,1.03E+00
0.022261514,-0.505159974,0.87461561,1.02E+00
0.022373946,-0.44775331,0.902192473,1.01E+00
0.022486378,-0.38934508,0.925836742,1.01E+00
0.02259881,-0.330157846,0.945652902,1.00E+00
0.022711242,-0.270365566,0.961681247,9.98E-01
0.022823674,-0.210183665,0.973906696,9.93E-01
0.022936106,-0.149895623,0.982347488,9.87E-01
0.023048538,-0.089789674,0.987103939,9.82E-01
0.02316097,-0.030100996,0.988335967,9.78E-01
0.023273402,0.029000698,0.986218274,9.73E-01
0.023385834,0.087398581,0.980915189,9.70E-01
0.023498266,0.145013466,0.972566247,9.67E-01
0.023610698,0.201789752,0.961283326,9.65E-01
0.023723128,0.2576859,0.947148621,9.63E-01
0.02383556,0.312663615,0.930215001,9.63E-01
0.023947992,0.366681188,0.910509646,9.63E-01
0.024060424,0.419684768,0.888034642,9.65E-01
0.024172856,0.471603125,0.862774312,9.67E-01
0.024285288,0.522342086,0.834700465,9.70E-01
0.02439772,0.571781516,0.803777695,9.73E-01
0.024510152,0.61977303,0.769972861,9.77E-01
0.024622584,0.666139543,0.733261168,9.81E-01
0.024735016,0.710677862,0.693634927,9.86E-01
0.024847448,0.753159642,0.651109397,9.91E-01
0.02495988,0.793339789,0.60573107,9.96E-01
0.025072312,0.830960274,0.557581067,1.00E+00
0.025184744,0.865758479,0.506779552,1.01E+00
0.025297176,0.897477686,0.453487307,1.01E+00
0.025409608,0.9258762,0.397904336,1.02E+00
0.02552204,0.950737238,0.34026441,1.02E+00
0.025634472,0.97187674,0.280824304,1.02E+00
0.025746904,0.989144146,0.21984759,1.03E+00
0.025859334,1.00240552,0.157591522,1.03E+00
0.025971766,1.01151741,0.094313011,1.03E+00
0.026084198,1.01631725,0.030308448,1.03E+00
0.02619663,1.01665795,-0.034050882,1.03E+00
0.026309062,1.0124656,-0.098329827,1.03E+00
0.026421494,1.0037657,-0.162077561,1.03E+00
0.026533926,0.990666568,-0.224870637,1.03E+00
0.026646358,0.973334134,-0.286328703,1.03E+00
0.02675879,0.951973021,-0.346117139,1.03E+00
0.026871222,0.926814556,-0.403944641,1.02E+00
0.026983654,0.898109198,-0.459560871,1.02E+00
0.027096086,0.866120338,-0.51275748,1.01E+00
0.027208518,0.831117749,-0.563364327,1.01E+00
0.02732095,0.793372095,-0.611251354,1.00E+00
0.027433382,0.753148079,-0.656323671,9.98E-01
0.027545814,0.710700154,-0.698519588,9.93E-01
0.027658246,0.666266859,-0.737805784,9.88E-01
0.027770678,0.620067418,-0.774171948,9.84E-01
0.027883108,0.572300196,-0.807626009,9.80E-01
0.02799554,0.523140192,-0.838188648,9.76E-01
0.028107972,0.472740024,-0.865885496,9.73E-01
0.028220404,0.421230912,-0.890745044,9.71E-01
0.028332836,0.368725002,-0.912791491,9.69E-01
0.028445268,0.315318495,-0.932042003,9.68E-01
0.0285577,0.261095434,-0.948504329,9.68E-01
0.028670132,0.206130549,-0.962175369,9.68E-01
0.028782564,0.150493175,-0.973041356,9.69E-01
0.028894996,0.094245926,-0.981075823,9.71E-01
0.029007428,0.037445534,-0.986239374,9.74E-01
0.02911986,-0.019857755,-0.988469958,9.77E-01
0.029232292,-0.077612415,-0.987670004,9.82E-01
0.029344724,-0.135742784,-0.983697474,9.86E-01
0.029457156,-0.194117159,-0.976375937,9.91E-01
0.029569588,-0.252527952,-0.96553123,9.96E-01
0.02968202,-0.310706735,-0.951029599,1.00E+00
0.029794452,-0.36835289,-0.932790637,1.01E+00
0.029906882,-0.425155848,-0.910785079,1.01E+00
0.030019314,-0.480803668,-0.885022163,1.01E+00
0.030131746,-0.534986615,-0.855544686,1.02E+00
0.030244178,-0.58739543,-0.822428346,1.02E+00
0.03035661,-0.637724102,-0.785781264,1.02E+00
0.030469042,-0.685674369,-0.745746672,1.03E+00
0.030581474,-0.73096019,-0.702503145,1.03E+00
0.030693906,-0.773313165,-0.656262159,1.03E+00
0.030806338,-0.812489331,-0.607267559,1.03E+00
0.03091877,-0.848272145,-0.555789948,1.03E+00
0.031031202,-0.880479336,-0.502123773,1.03E+00
0.031143634,-0.908964217,-0.446580529,1.03E+00
0.031256066,-0.933619559,-0.389483809,1.02E+00
0.031368498,-0.954377115,-0.331161559,1.02E+00
0.03148093,-0.971208811,-0.271940678,1.02E+00
0.031593362,-0.984124959,-0.212140024,1.01E+00
0.031705794,-0.993171513,-0.152064562,1.01E+00
0.031818226,-0.998428464,-0.092000447,1.01E+00
0.031930658,-1.00000286,-0.032208175,1.00E+00
0.032043088,-0.998025835,0.027080385,9.97E-01
0.03215552,-0.992645979,0.085667998,9.93E-01
0.032267952,-0.984019637,0.143395126,9.89E-01
0.032380384,-0.972300768,0.200141445,9.85E-01
0.032492816,-0.957625031,0.255823731,9.82E-01
0.032605248,-0.940094948,0.310382426,9.80E-01
0.03271768,-0.919776678,0.36375922,9.78E-01
0.032830112,-0.896709979,0.415876001,9.77E-01
0.032942544,-0.870931983,0.466629386,9.76E-01
0.033054976,-0.842493296,0.515900016,9.76E-01
0.033167408,-0.811460197,0.563571095,9.76E-01
0.03327984,-0.777903795,0.609534264,9.77E-01
0.033392272,-0.741892219,0.653688669,9.78E-01
0.033504704,-0.703485727,0.695933044,9.79E-01
0.033617136,-0.662738681,0.736160159,9.81E-01
0.033729568,-0.619703531,0.774251461,9.83E-01
0.033842,-0.574435532,0.810074806,9.86E-01
0.033954432,-0.52699852,0.84348321,9.89E-01
0.034066864,-0.477471322,0.874318779,9.92E-01
0.034179296,-0.425950706,0.902412117,9.96E-01
0.034291728,-0.372555584,0.927588046,9.99E-01
0.03440416,-0.317430735,0.949670792,1.00E+00
0.034516592,-0.260747522,0.968487382,1.01E+00
0.034629024,-0.2027044,0.983874023,1.01E+00
0.034741456,-0.143526733,0.995682657,1.01E+00
0.034853888,-0.083464168,1.0037843,1.01E+00
0.03496632,-0.022788312,1.00807607,1.02E+00
0.035078748,0.03821262,1.00848508,1.02E+00
0.03519118,0.099238612,1.0049721,1.02E+00
0.035303612,0.159984559,0.997532547,1.02E+00
0.035416044,0.220148265,0.986199439,1.02E+00
0.035528476,0.279437035,0.97104013,1.02E+00
0.035640908,0.337576956,0.952150702,1.02E+00
0.03575334,0.394315541,0.929649591,1.02E+00
0.035865772,0.449423105,0.903666019,1.02E+00
0.035978204,0.50268358,0.874331474,1.02E+00
0.036090636,0.553883314,0.841783345,1.02E+00
0.036203068,0.602805078,0.806174517,1.01E+00
0.0363155,0.649234891,0.767689288,1.01E+00
0.036427932,0.692978799,0.726546109,1.01E+00
0.036540364,0.733878851,0.68299067,1.01E+00
0.036652796,0.771819949,0.637279034,1.00E+00
0.036765228,0.806727231,0.589665115,9.99E-01
0.03687766,0.83855921,0.54038918,9.95E-01
0.036990092,0.867300034,0.489674866,9.92E-01
0.037102524,0.892952442,0.437725276,9.89E-01
0.037214956,0.915530741,0.384724408,9.86E-01
0.037327388,0.935056508,0.330836058,9.84E-01
0.03743982,0.951553881,0.276207924,9.82E-01
0.037552252,0.965044022,0.220971629,9.80E-01
0.037664684,0.975545049,0.16524744,9.79E-01
0.037777116,0.983067036,0.109146401,9.78E-01
0.037889548,0.98761183,0.052774709,9.78E-01
0.03800198,0.989173353,-0.003763245,9.78E-01
0.038114412,0.987736881,-0.06036019,9.79E-01
0.038226844,0.983280182,-0.116903603,9.81E-01
0.038339276,0.975777209,-0.17327261,9.82E-01
0.038451708,0.965198994,-0.229336187,9.84E-01
0.03856414,0.951518297,-0.284950823,9.87E-01
0.038676572,0.934711933,-0.339962572,9.89E-01
0.038789004,0.914763808,-0.394206762,9.92E-01
0.038901436,0.891665161,-0.447509706,9.95E-01
0.039013868,0.865415096,-0.499690145,9.99E-01
0.0391263,0.836019337,-0.550559878,1.00E+00
0.039238728,0.803487659,-0.599917948,1.01E+00
0.03935116,0.767837524,-0.647543788,1.01E+00
0.039463592,0.72910428,-0.693191409,1.01E+00
0.039576024,0.68735826,-0.736590207,1.02E+00
0.039688456,0.642717481,-0.777459323,1.02E+00
0.039800888,0.595352411,-0.815524638,1.02E+00
0.03991332,0.545479119,-0.85053736,1.02E+00
0.040025752,0.493347526,-0.882282794,1.02E+00
0.040138184,0.439230621,-0.91058296,1.02E+00
0.040250616,0.383415222,-0.935296953,1.02E+00
0.040363048,0.326196939,-0.956319034,1.02E+00
0.04047548,0.267873973,-0.973577142,1.02E+00
0.040587912,0.208744526,-0.987031639,1.02E+00
0.040700344,0.149102032,-0.996674597,1.02E+00
0.040812776,0.089231379,-1.00252652,1.01E+00
0.040925208,0.029405905,-1.00463629,1.01E+00
0.04103764,-0.030117493,-1.00307548,1.01E+00
0.041150072,-0.089098305,-0.997938275,1.00E+00
0.041262504,-0.147317037,-0.989335716,1.00E+00
0.041374936,-0.204575539,-0.977391899,9.97E-01
0.041487368,-0.260697424,-0.962240636,9.94E-01
0.0415998,-0.31552875,-0.944021404,9.91E-01
0.041712232,-0.368937016,-0.922875822,9.88E-01
0.041824664,-0.420809418,-0.898942173,9.85E-01
0.041937096,-0.47105208,-0.872355819,9.83E-01
0.042049528,-0.519587398,-0.843242824,9.81E-01
0.04216196,-0.566352606,-0.811717808,9.80E-01
0.042274392,-0.611294389,-0.777880788,9.79E-01
0.042386824,-0.65436703,-0.741814256,9.78E-01
0.042499256,-0.69552201,-0.703578711,9.79E-01
0.042611688,-0.734700561,-0.663215935,9.80E-01
0.04272412,-0.771821022,-0.620752394,9.81E-01
0.042836552,-0.806772411,-0.57621336,9.83E-01
0.042948984,-0.839416146,-0.529637992,9.85E-01
0.043061416,-0.869594514,-0.481091291,9.88E-01
0.043173848,-0.897143304,-0.430666864,9.90E-01
0.04328628,-0.921901941,-0.378485084,9.93E-01
0.043398708,-0.943717718,-0.324687302,9.96E-01
0.04351114,-0.962447345,-0.269432604,9.99E-01
0.043623572,-0.977957189,-0.212895557,1.00E+00
0.043736004,-0.990123451,-0.155266568,1.00E+00
0.043848436,-0.998832941,-0.096752115,1.01E+00
0.043960868,-1.00398731,-0.037575029,1.01E+00
0.0440733,-1.00550497,0.022026101,1.01E+00
0.044185732,-1.00332487,0.081798621,1.01E+00
0.044298164,-0.997408688,0.141478047,1.01E+00
0.044410596,-0.987744451,0.200791135,1.02E+00
0.044523028,-0.974348307,0.259460568,1.02E+00
0.04463546,-0.957265317,0.317207545,1.02E+00
0.044747892,-0.936570346,0.373758644,1.02E+00
0.044860324,-0.912366807,0.428847909,1.02E+00
0.044972756,-0.884786427,0.482224643,1.02E+00
0.045085188,-0.853985131,0.533654392,1.01E+00
0.04519762,-0.820140541,0.58292526,1.01E+00
0.045310052,-0.783449113,0.629850805,1.01E+00
0.045422484,-0.74411726,0.674271703,1.01E+00
0.045534916,-0.702359796,0.716058373,1.01E+00
0.045647348,-0.658389151,0.755109608,1.00E+00
0.04575978,-0.612410486,0.791349292,1.00E+00
0.045872212,-0.564615428,0.824720502,9.99E-01
0.045984644,-0.515181363,0.855176508,9.97E-01
0.046097076,-0.464272946,0.882672369,9.95E-01
0.046209508,-0.412051827,0.907161891,9.93E-01
0.04632194,-0.358683199,0.928598762,9.91E-01
0.046434372,-0.304338872,0.946943045,9.89E-01
0.046546804,-0.249195814,0.962168992,9.88E-01
0.046659236,-0.19342877,0.974266231,9.87E-01
0.046771668,-0.137204558,0.983238459,9.86E-01
0.0468841,-0.08067935,0.989099145,9.85E-01
0.046996532,-0.023997031,0.991862655,9.84E-01
0.047108964,0.03270663,0.991544545,9.84E-01
0.047221396,0.089301907,0.988156259,9.84E-01
0.047333828,0.145660937,0.98170346,9.85E-01
0.047446256,0.201653615,0.972188711,9.86E-01
0.047558688,0.257145315,0.959610343,9.87E-01
0.04767112,0.311993629,0.94396615,9.88E-01
0.047783552,0.366047025,0.92525512,9.90E-01
0.047895984,0.419143349,0.903481364,9.92E-01
0.048008416,0.471109778,0.878656447,9.94E-01
0.048120848,0.521763563,0.850803196,9.96E-01
0.04823328,0.570913792,0.819958925,9.98E-01
0.048345712,0.618362188,0.786177218,1.00E+00
0.048458144,0.663908243,0.749531567,1.00E+00
0.048570576,0.707350969,0.710115314,1.00E+00
0.048683008,0.748493791,0.668042481,1.01E+00
0.04879544,0.787147105,0.623446524,1.01E+00
0.048907872,0.823132694,0.576478601,1.01E+00
0.049020304,0.856284738,0.527304471,1.01E+00
0.049132736,0.88645035,0.476100445,1.01E+00
0.049245168,0.913487077,0.42305246,1.01E+00
