Frequency (GHz),Re( S21 ),Im( S21 ),S2
0,0.021569967,0,0.000465263
0.000110525,0.021078195,-0.004593631,0.000465392
0.000221049,0.019623296,-0.008983349,0.000465774
0.000331574,0.017266108,-0.012972382,0.000466401
0.000442098,0.014106354,-0.016379332,0.000467272
0.000552623,0.010279612,-0.019044755,0.000468373
0.000663148,0.005953214,-0.020838698,0.000469692
0.000773672,0.001320785,-0.021667317,0.000471217
0.000884197,-0.003405719,-0.021478705,0.000472934
0.000994722,-0.008004257,-0.020266971,0.000474818
0.001105246,-0.012253115,-0.018075297,0.000476855
0.001215771,-0.015942134,-0.014995869,0.000479028
0.001326295,-0.018884076,-0.011167265,0.000481316
0.00143682,-0.020925518,-0.006768628,0.000483692
0.001547345,-0.021956923,-0.002011828,0.000486154
0.001657869,-0.021918967,0.002870142,0.000488679
0.001768394,-0.020807553,0.007635796,0.00049126
0.001878918,-0.018674145,0.01204865,0.000493894
0.001989443,-0.015622908,0.015890159,0.000496572
0.002099968,-0.011804424,0.018972896,0.000499315
0.002210492,-0.007406509,0.021148881,0.000502132
0.002321017,-0.002643574,0.022316853,0.00050503
0.002431542,0.002255799,0.022426762,0.000508048
0.002542066,0.007060107,0.021479387,0.000511209
0.002652591,0.011546738,0.019524748,0.000514543
0.002763115,0.01551132,0.016658014,0.00051809
0.00287364,0.018776123,0.013012675,0.000521872
0.002984165,0.02119644,0.008754502,0.00052593
0.003094689,0.022664914,0.004073228,0.00053029
0.003205214,0.023115486,-0.00082476,0.000535006
0.003315738,0.02252662,-0.005713803,0.000540096
0.003426263,0.020890441,-0.010416123,0.000544906
0.003536788,0.018307429,-0.014685208,0.000550817
0.003647312,0.014856967,-0.018338431,0.000557028
0.003757837,0.010679378,-0.02120385,0.000563652
0.003868361,0.005947768,-0.023137374,0.000570714
0.003978886,0.000864179,-0.024030794,0.000578226
0.004089411,-0.004347012,-0.023817875,0.000586188
0.004199935,-0.009446751,-0.022480298,0.000594605
0.00431046,-0.014192016,-0.020050831,0.000603449
0.004420985,-0.018347032,-0.016615911,0.000612702
0.004531509,-0.021694994,-0.012315085,0.000622334
0.004642034,-0.024051704,-0.007335836,0.000632299
0.004752558,-0.02527675,-0.00190787,0.000642554
0.004863083,-0.02528394,0.003709232,0.000653036
0.004973608,-0.024048895,0.009238428,0.000663698
0.005084132,-0.02161213,0.014401224,0.000674479
0.005194657,-0.018078715,0.018933922,0.000685333
0.005305181,-0.013612668,0.022603432,0.00069622
0.005415706,-0.008427496,0.025220534,0.000707098
0.005526231,-0.002774105,0.026650699,0.000717955
0.005636755,0.003074515,0.026820313,0.000728782
0.00574728,0.008837853,0.025719151,0.000739582
0.005857805,0.014243476,0.023399096,0.000750394
0.005968329,0.019039482,0.019968547,0.000761245
0.006078854,0.023006525,0.015585389,0.000772205
0.006189378,0.025964925,0.010447335,0.000783324
0.006299903,0.027781747,0.004782157,0.000794695
0.006410428,0.028373173,-0.001162991,0.000806389
0.006520952,0.027706234,-0.00713155,0.000818494
0.006631477,0.025797315,-0.012868083,0.000831089
0.006742001,0.022720894,-0.018128781,0.000844892
0.006852526,0.01858701,-0.022667544,0.000859294
0.006963051,0.013546472,-0.026285797,0.00087445
0.007073575,0.007797874,-0.028807489,0.000890678
0.0071841,0.001571112,-0.030094018,0.000908118
0.007294624,-0.004876419,-0.03005166,0.000926882
0.007405149,-0.011267187,-0.028638361,0.000947105
0.007515674,-0.017312668,-0.025867889,0.000968876
0.007626198,-0.022724394,-0.021815034,0.000992294
0.007736723,-0.027227238,-0.0166166,0.001017434
0.007847247,-0.030572435,-0.010470856,0.001044313
0.007957772,-0.032553699,-0.003632994,0.001072942
0.008068297,-0.03302075,0.003593244,0.001103281
0.008178821,-0.031892479,0.010867824,0.00113524
0.008289346,-0.029166682,0.01783238,0.001168689
0.00839987,-0.024925506,0.02412805,0.001203444
0.008510395,-0.01933505,0.029418865,0.001239314
0.008620919,-0.012639084,0.033410892,0.001276034
0.008731444,-0.005147101,0.035873078,0.00131337
0.008841969,0.002783421,0.036650848,0.001351032
0.008952493,0.010767049,0.035677262,0.001388796
0.009063018,0.018413451,0.032975119,0.001426414
0.009173543,0.025349058,0.02865571,0.001463724
0.009284067,0.031236613,0.022909423,0.001500568
0.009394592,0.035792019,0.015994484,0.001536892
0.009505116,0.038795158,0.00822085,0.001572647
0.009615641,0.040098563,-6.53E-05,0.001607899
0.009726166,0.039630476,-0.008499171,0.001642811
0.00983669,0.037394069,-0.016713163,0.001677646
0.009947215,0.033466753,-0.024351811,0.001713034
0.010057739,0.028001331,-0.031081986,0.001750164
0.010168264,0.0212075,-0.036582254,0.001788019
0.010278789,0.013318131,-0.040596284,0.001825431
0.010389313,0.004643883,-0.042933025,0.00186481
0.010499838,-0.004466381,-0.043442804,0.001907226
0.010610362,-0.013640012,-0.042039998,0.001953411
0.010720887,-0.022487218,-0.038710546,0.002004181
0.010831412,-0.030612053,-0.033516601,0.00206046
0.010941936,-0.037625384,-0.026600134,0.002123237
0.011052461,-0.043161355,-0.018184254,0.00219357
0.011162985,-0.046894133,-0.008571882,0.002272537
0.01127351,-0.048556197,0.001859968,0.002361164
0.011384035,-0.047957528,0.012669654,0.002460445
0.011494559,-0.045002088,0.02336674,0.002571192
0.011605084,-0.039702721,0.033432595,0.002694044
0.011715609,-0.032190666,0.04234536,0.002829368
0.011826133,-0.022718258,0.049609315,0.002977203
0.011936658,-0.011654301,0.054785267,0.003137248
0.012047182,0.000529482,0.057519548,0.003308779
0.012157707,0.013280531,0.057570279,0.003490709
0.012268232,0.025993384,0.054825787,0.003681523
0.012378756,0.038043644,0.049316518,0.003879438
0.012489281,0.048822351,0.041215979,0.004082379
0.012599805,0.057770804,0.03083263,0.004288117
0.01271033,0.064409636,0.018594451,0.004494355
0.012820855,0.068363503,0.005025306,0.004698822
0.012931379,0.069378495,-0.009281004,0.004899513
0.013041904,0.067331545,-0.023690216,0.005094763
0.013152428,0.062234044,-0.037555829,0.005283517
0.013262953,0.054230448,-0.050245319,0.005465534
0.013373478,0.043592677,-0.061160523,0.005640931
0.013484002,0.030701052,-0.069750853,0.005807736
0.013594527,0.016015969,-0.075547472,0.005963932
0.013705051,9.17E-05,-0.078195714,0.006114578
0.013815576,-0.016431857,-0.077438816,0.006266776
0.013926101,-0.03286238,-0.073127791,0.00642761
0.014036625,-0.048474252,-0.065238662,0.006605836
0.01414715,-0.062525854,-0.053882752,0.006812833
0.014257675,-0.074280389,-0.039314587,0.007063213
0.014368199,-0.083030544,-0.021937262,0.007375315
0.014478724,-0.088126831,-0.002303781,0.007771646
0.014589248,-0.089009218,0.018886644,0.008279346
0.014699773,-0.085240893,0.04079945,0.008930605
0.014810298,-0.076541834,0.06248324,0.009762808
0.014920822,-0.062820956,0.082898878,0.010818696
0.015031347,-0.04420292,0.100956611,0.012146135
0.015141871,-0.021047443,0.115563534,0.013797925
0.015252396,0.006043262,0.125676557,0.015831118
0.015362921,0.036230415,0.130359933,0.018306355
0.015473445,0.068459854,0.128841937,0.021286996
0.01558397,0.10149882,0.120566711,0.024838342
0.015694494,0.133985624,0.105235435,0.029026644
0.015805019,0.164489284,0.082834192,0.033918228
0.015915544,0.191575721,0.053645156,0.03957906
0.016026068,0.213872969,0.018241383,0.046074395
0.016136593,0.230132088,-0.022534948,0.053468602
0.016247117,0.239279553,-0.067607045,0.061825417
0.016357642,0.240456104,-0.115706749,0.07120719
0.016468167,0.233044818,-0.165424079,0.081675013
0.016578691,0.216684744,-0.215258285,0.093288408
0.016689216,0.191275164,-0.263667077,0.106106516
0.01679974,0.156972215,-0.309111476,0.120190181
0.016910266,0.114181735,-0.35009408,0.135603333
0.01702079,0.063550837,-0.385188043,0.152408537
0.017131314,0.005990229,-0.413078249,0.170669523
0.017241838,-0.057453089,-0.432794988,0.190612359
0.017352364,-0.125835225,-0.443217665,0.212276402
0.017462888,-0.197746724,-0.443343103,0.235656874
0.017573412,-0.271648347,-0.432446003,0.26080237
0.017683938,-0.345884889,-0.410016954,0.287750259
0.017794462,-0.418699533,-0.375782251,0.316521599
0.017904986,-0.488258094,-0.32972464,0.347114305
0.018015512,-0.552681983,-0.272106767,0.379499467
0.018126036,-0.610089362,-0.203490153,0.413617272
0.01823656,-0.658643186,-0.124749489,0.449373281
0.018347086,-0.696607828,-0.037078776,0.486637302
0.01845761,-0.72240907,0.058014926,0.525240596
0.018568134,-0.734700084,0.158729985,0.564979422
0.018678658,-0.732424855,0.263005137,0.60561787
0.018789184,-0.714877069,0.368569374,0.646892607
0.018899708,-0.681751668,0.473007798,0.688521714
0.019010232,-0.63318181,0.573833942,0.730204598
0.019120758,-0.569759905,0.668559015,0.771597506
0.019231282,-0.49250862,0.754735291,0.8121901
0.019341806,-0.40272364,0.830028951,0.85113439
0.019452332,-0.301840991,0.892563641,0.887777837
0.019562856,-0.191793531,0.9410972,0.922448698
0.01967338,-0.074993052,0.974604309,0.955477517
0.019783904,0.04608047,0.992289364,0.986761592
0.01989443,0.168987036,0.993749321,1.016094331
0.020004954,0.291346252,0.978997648,1.043319033
0.020115478,0.410881221,0.9484272,1.068337531
0.020226004,0.525465608,0.902763486,1.091096017
0.020336528,0.633165419,0.84301728,1.111576582
0.020447052,0.732266486,0.770432293,1.129780125
0.020557578,0.821292579,0.686438739,1.145719643
0.020668102,0.899017692,0.592608869,1.159418082
0.020778626,0.964466035,0.490614295,1.170897119
0.020889152,1.0169096,0.382191032,1.18017512
0.020999676,1.05586386,0.269107282,1.18726722
0.0211102,1.0810802,0.153133333,1.192184217
0.021220724,1.09253645,0.036017079,1.194933125
0.02133125,1.09042895,-0.080542438,1.195522379
0.021441774,1.07516229,-0.194919109,1.193967409
0.021552298,1.04733992,-0.30558455,1.190302825
0.021662824,1.00775492,-0.411135137,1.18460208
0.021773348,0.957383156,-0.510310531,1.176999345
0.021883872,0.89736408,-0.601994216,1.167659328
0.021994398,0.828934312,-0.685231268,1.156673984
0.022104922,0.75338757,-0.75929445,1.144120892
0.022215446,0.672072053,-0.823718429,1.130192895
0.02232597,0.586351454,-0.878315687,1.115246474
0.022436496,0.497526884,-0.923262835,1.099947263
0.02254702,0.40658313,-0.959536552,1.086020236
0.022657544,0.307112962,-0.993528485,1.081417222
0.02276807,0.238687038,-0.989616632,1.03631258
0.022878594,0.147052407,-0.99695605,1.015545776
0.022989118,0.059955664,-0.995943666,0.995498467
0.023099644,-0.023519773,-0.987843156,0.976387281
0.023210168,-0.10330306,-0.97352159,0.958415808
0.023320692,-0.179271087,-0.953774035,0.941823032
0.023431218,-0.251382172,-0.929331541,0.926850109
0.023541742,-0.319691747,-0.900837243,0.913710551
0.023652266,-0.384339005,-0.868834376,0.902589644
0.02376279,-0.445522219,-0.833753824,0.893635487
0.023873316,-0.503471494,-0.795908988,0.886954662
0.02398384,-0.558419108,-0.755499482,0.882611367
0.024094364,-0.610576272,-0.712619901,0.880630507
0.02420489,-0.660106421,-0.667272687,0.880993326
0.024315414,-0.707107842,-0.619386196,0.88364076
0.024425938,-0.751597583,-0.568834424,0.888471529
0.024536464,-0.793501794,-0.515461087,0.895345229
0.024646988,-0.832648396,-0.459103137,0.904079042
0.024757512,-0.868766546,-0.399614394,0.914446975
0.024868036,-0.901485622,-0.336889207,0.926170664
0.024978562,-0.930328786,-0.270884156,0.938889876
0.025089086,-0.954666197,-0.201674938,0.952060328
0.02519961,-0.973819375,-0.129768223,0.965163967
0.025310136,-0.98769182,-0.055679821,0.978635374
0.02542066,-1.0007695,0.024967061,1.002162946
0.025531184,-1.00374091,0.104246341,1.018363114
0.02564171,-0.999883473,0.184967309,1.033979865
0.025752234,-0.982284248,0.255063653,1.029939811
0.025862758,-0.964554906,0.33261013,1.040995665
0.025973284,-0.94136411,0.408855855,1.053329498
0.026083808,-0.912439764,0.485562593,1.068317355
0.026194332,-0.874608457,0.561383426,1.080091304
0.026304856,-0.828574181,0.633091033,1.087339429
0.026415382,-0.775858343,0.699744403,1.091598398
0.026525906,-0.717374027,0.760899305,1.093593247
0.02663643,-0.65387255,0.81613791,1.0936304
0.026746956,-0.586098969,0.865091443,1.091895206
0.02685748,-0.514817953,0.907476485,1.088551096
0.026968004,-0.440800786,0.943109334,1.083760549
0.02707853,-0.364810497,0.971911728,1.077699106
0.027189054,-0.287582815,0.993903875,1.070548788
0.027299578,-0.209811956,1.00919473,1.06249506
0.027410102,-0.132139027,1.01797044,1.053724539
0.027520628,-0.055144388,1.02048063,1.04442162
0.027631152,0.020657312,1.01702237,1.034761226
0.027741676,0.094819367,1.00792801,1.024909586
0.027852202,0.166960448,0.993551791,1.015020953
0.027962726,0.236762673,0.974257648,1.005234528
0.02807325,0.303964764,0.950408459,0.995670817
0.028183776,0.368352562,0.922358632,0.986429056
0.0282943,0.429750144,0.890453339,0.977592335
0.028404824,0.488008112,0.855032861,0.969233111
0.02851535,0.543014467,0.816449046,0.961453756
0.028625874,0.59471792,0.775053382,0.954397149
0.028736398,0.643127203,0.731158495,0.948205344
0.028846922,0.688272595,0.685029268,0.942984263
0.028957448,0.730186105,0.636910796,0.93882711
0.029067972,0.768929005,0.587063551,0.935895428
0.029178496,0.8046785,0.535766065,0.934552765
0.029289022,0.83786428,0.483141273,0.935442041
0.029399546,0.868924379,0.42869696,0.93881066
0.02951007,0.897378802,0.371639311,0.943404492
0.029620596,0.922255814,0.312100023,0.947962211
0.02973112,0.943182111,0.250700921,0.952443446
0.029841644,0.96014148,0.187859371,0.957162805
0.029952168,0.97312963,0.123810209,0.962310245
0.030062694,0.982088804,0.058732532,0.967947929
0.030173218,0.986918688,-0.007195152,0.974060267
0.030283742,0.987496257,-0.073771521,0.980591095
0.030394268,0.983690798,-0.140765727,0.987462576
0.030504792,0.975372016,-0.207914457,0.994578991
0.030615316,0.962421477,-0.274920464,1.001836361
0.030725842,0.944738626,-0.341453254,1.009121396
0.030836366,0.922248244,-0.407150954,1.016313723
0.03094689,0.894908071,-0.471621484,1.02328728
0.031057416,0.862715781,-0.534448206,1.029913404
0.03116794,0.825714052,-0.595191836,1.036057017
0.031278464,0.783998549,-0.653397977,1.041582641
0.031388988,0.737722993,-0.708603978,1.046354812
0.031499514,0.687105358,-0.760347128,1.050241528
0.031610038,0.632432818,-0.808176458,1.053120457
0.031720562,0.574065924,-0.851667762,1.054889662
0.031831088,0.512436867,-0.890442669,1.055479689
0.031941612,0.448039204,-0.924187064,1.054860858
0.032052136,0.381411999,-0.952666342,1.053048272
0.032162662,0.31312564,-0.975730479,1.050097634
0.032273186,0.243768826,-0.993325055,1.046117905
0.03238371,0.173929885,-1.00551391,1.041309828
0.032494234,0.104140341,-1.0125041,1.036009763
0.03260476,0.034757894,-1.01462114,1.030664169
0.032715284,-0.034128096,-1.01210475,1.025520752
0.032825808,-0.102450103,-1.00483692,1.020193259
0.032936334,-0.169736356,-0.992579818,1.014025126
0.033046858,-0.235276937,-0.975448966,1.006855922
0.033157382,-0.298522621,-0.953874707,0.998992712
0.033267908,-0.359158725,-0.928358674,0.990844817
0.033378432,-0.417026579,-0.899364769,0.982768155
0.033488956,-0.472062051,-0.86730206,0.975055443
0.03359948,-0.524262249,-0.832520366,0.967941066
0.033710004,-0.573667765,-0.795315027,0.961620697
0.033820532,-0.620346665,-0.755925536,0.956253401
0.033931056,-0.664381564,-0.714535952,0.951964489
0.03404158,-0.705856085,-0.671277523,0.948846326
0.034152104,-0.7448439,-0.62623316,0.946960406
0.034262628,-0.781395674,-0.579443336,0.946333779
0.034373152,-0.815531194,-0.530915916,0.946962838
0.034483676,-0.847230792,-0.480634928,0.948809949
0.034594204,-0.876431584,-0.428574085,0.951808068
0.034704728,-0.903024077,-0.374708682,0.95585908
0.034815252,-0.926855028,-0.319030583,0.960840756
0.034925776,-0.947730243,-0.26155892,0.966605682
0.0350363,-0.965425074,-0.202355251,0.972993221
0.035146824,-0.979695141,-0.141529575,0.97983319
0.035257352,-0.990290344,-0.079246186,0.986954923
0.035367876,-0.996970236,-0.015725322,0.994196937
0.0354784,-0.999518454,0.048760112,1.001414688
0.035588924,-0.997758627,0.113890722,1.008493374
0.035699448,-0.991574824,0.1793181,1.015375613
0.035809972,-0.980917692,0.244702116,1.022078644
0.035920496,-0.965775073,0.309762776,1.028674469
0.036031024,-0.946069419,0.374289334,1.035139851
0.036141548,-0.921567976,0.438000768,1.041132207
0.036252072,-0.892018139,0.500352144,1.046048628
0.036362596,-0.857414782,0.560603261,1.049436125
0.03647312,-0.81803441,0.618063331,1.051182577
0.036583644,-0.774298131,0.672204077,1.051395917
0.036694172,-0.726664484,0.722635567,1.050243435
0.036804696,-0.675599277,0.769067705,1.047899518
0.03691522,-0.621564806,0.811283827,1.044524256
0.037025744,-0.565018952,0.849132478,1.040272381
0.037136268,-0.506410182,0.882522225,1.03529675
0.037246792,-0.446169645,0.911415994,1.029746466
0.037357316,-0.384707123,0.935827136,1.023771999
0.037467844,-0.322403014,0.955809772,1.017516024
0.037578368,-0.259605736,0.971454561,1.011119102
0.037688892,-0.196628958,0.982878149,1.004712403
0.037799416,-0.133749723,0.990216017,0.998416749
0.03790994,-0.071211569,0.993616343,0.992344525
0.038020464,-0.009223954,0.993230164,0.98659124
0.038130988,0.052031986,0.989210904,0.98124554
0.038241516,0.112400755,0.981705427,0.976379475
0.03835204,0.171747297,0.97085458,0.97205575
0.038462564,0.229954392,0.956792474,0.968330861
0.038573088,0.286918491,0.939643502,0.965252131
0.038683612,0.342547983,0.919525504,0.962866273
0.038794136,0.396762103,0.896549463,0.961221106
0.038904664,0.449492365,0.870821655,0.960373741
0.039015188,0.50068742,0.842442811,0.960397782
0.039125712,0.550326526,0.811501503,0.961393975
0.039236236,0.598427117,0.778042912,0.963465787
0.03934676,0.645020783,0.742019415,0.966644623
0.039457284,0.690060139,0.703264534,0.970764
0.039567808,0.733319283,0.661584377,0.975451059
0.039678336,0.774423182,0.616909504,0.980308601
0.03978886,0.812990904,0.569340527,0.985102846
0.039899384,0.848720014,0.519073665,0.989763132
0.040009908,0.881381154,0.46632579,0.994292481
0.040120432,0.910784364,0.411308974,0.99870323
0.040230956,0.936756372,0.354232997,1.002993517
0.040341484,0.959132016,0.29531315,1.007144081
0.040452008,0.977753997,0.234777331,1.011123274
0.040562532,0.992474973,0.172869667,1.014890494
0.040673056,1.00316143,0.109851837,1.018400281
0.04078358,1.00969672,0.046003833,1.021603819
0.040894104,1.01198542,-0.01837717,1.024452211
0.041004628,1.00995469,-0.082978688,1.026893939
0.041115156,1.00355935,-0.147473648,1.028879846
0.04122568,0.9927845,-0.211523965,1.030363451
0.041336204,0.977647722,-0.274783343,1.031300954
0.041446728,0.958202124,-0.336900592,1.031653319
0.041557252,0.934539497,-0.397525012,1.031390207
0.041667776,0.906792283,-0.456312209,1.030493077
0.041778304,0.875132859,-0.512929916,1.02895462
0.041888828,0.839777052,-0.567066789,1.02679024
0.041999352,0.800978124,-0.618440509,1.024034618
0.042109876,0.75902456,-0.666806579,1.020749296
0.0422204,0.714233577,-0.711968958,1.0170294
0.042330924,0.666939259,-0.753790319,1.01300782
0.042441448,0.617471397,-0.792199731,1.00885134
0.042551976,0.56612736,-0.827194333,1.004750652
0.0426625,0.513132036,-0.858809531,1.000858297
0.042773024,0.458629429,-0.887055159,0.997207808
0.042883548,0.402742267,-0.911857307,0.993685082
0.042994072,0.345664442,-0.933079779,0.99012178
0.043104596,0.287688106,-0.950618386,0.986439762
0.04321512,0.229144812,-0.964464903,0.982699894
0.043325648,0.170334771,-0.974697948,0.979050024
0.043436172,0.111498579,-0.98144275,0.975661805
0.043546696,0.052816868,-0.98483783,0.972695173
0.04365722,-0.00557726,-0.98501265,0.970281026
0.043767744,-0.063587174,-0.982078493,0.968521495
0.043878268,-0.121140212,-0.97612226,0.967489617
0.043988796,-0.178177431,-0.967203796,0.96723038
0.04409932,-0.234645486,-0.955356598,0.967764733
0.044209844,-0.290487349,-0.940586627,0.969086103
0.044320368,-0.345634252,-0.922878087,0.971167
0.044430892,-0.399999768,-0.902196109,0.973957633
0.044541416,-0.453473657,-0.878492177,0.977386863
0.04465194,-0.505916834,-0.851712584,0.981366169
0.044762468,-0.557159722,-0.82180506,0.985790512
0.044872992,-0.607000887,-0.788728416,0.990542591
0.044983516,-0.655209243,-0.752461672,0.99549772
0.04509404,-0.701527596,-0.713011026,1.000525691
0.045204564,-0.745678961,-0.67042017,1.005500317
0.045315088,-0.787376344,-0.624774635,1.010304852
0.045425616,-0.826330602,-0.57620424,1.01483359
