Frequency (GHz),Re( S31 ),Im( S31 ),S2
0,-0.01190823,0,0.000141806
0.000101605,-0.009551048,0.007386533,0.000145783
0.000203211,-0.003222808,0.012086818,0.000156478
0.000304816,0.004878413,0.012109928,0.000170449
0.000406421,0.01151932,0.007062233,0.00018257
0.000508026,0.013649525,-0.001185837,0.000187716
0.000609632,0.010131697,-0.008991661,0.000183501
0.000711237,0.002610051,-0.012850392,0.000171945
0.000812842,-0.005488091,-0.011320415,0.000158271
0.000914447,-0.010894829,-0.005412079,0.000147988
0.001016053,-0.011781852,0.002357414,0.000144369
0.001117658,-0.008070823,0.00923373,0.0001504
0.001219263,-0.000981902,0.012735093,0.000163147
0.001320868,0.007064695,0.011406172,0.000180011
0.001422474,0.012960078,0.005294374,0.000195994
0.001524079,0.013897607,-0.003488785,0.000205315
0.001625684,0.00897698,-0.011109569,0.000204009
0.00172729,0.000290893,-0.013882903,0.00019282
0.001828895,-0.008049037,-0.010607599,0.000177308
0.0019305,-0.01243447,-0.003133445,0.000164435
0.002032105,-0.011514257,0.005145099,0.00015905
0.002133711,-0.006121553,0.011196457,0.000162834
0.002235316,0.001697458,0.013106509,0.000174662
0.002336921,0.009296249,0.010239306,0.000191264
0.002438526,0.014061973,0.003335743,0.000208866
0.002540132,0.013906341,-0.005478557,0.000223401
0.002641737,0.008146784,-0.01283925,0.000231216
0.002743342,-0.001460239,-0.015120958,0.000230776
0.002844947,-0.010638667,-0.010542112,0.000224317
0.002946553,-0.014673433,-0.001032612,0.000216376
0.003048158,-0.011772252,0.008751345,0.000215172
0.003149763,-0.003655212,0.014365389,0.000219725
0.003251369,0.005817767,0.013944862,0.000228306
0.003352974,0.012972175,0.008265989,0.000236604
0.003454579,0.015548378,-0.000276513,0.000241829
0.003556184,0.012880172,-0.008741538,0.000242313
0.00365779,0.005768406,-0.014334156,0.000238743
0.003759395,-0.003641303,-0.014906461,0.000235462
0.003861,-0.012120341,-0.009584311,0.000238762
0.003962605,-0.015969472,0.000405708,0.000255189
0.004064211,-0.012651436,0.011502718,0.000292371
0.004165816,-0.002415034,0.018405605,0.000344599
0.004267421,0.010311415,0.017020071,0.000396008
0.004369027,0.01918784,0.007699565,0.000427456
0.004470632,0.020097587,-0.004854764,0.000427482
0.004572237,0.013305982,-0.014889862,0.000398757
0.004673842,0.002288798,-0.018691208,0.0003546
0.004775448,-0.008584583,-0.015446124,0.000312278
0.004877053,-0.015581199,-0.006659035,0.000287117
0.004978658,-0.016533619,0.004786029,0.000296267
0.005080263,-0.010659005,0.01525799,0.000346421
0.005181869,0.000830585,0.02093067,0.000438783
0.005283474,0.014421543,0.018728197,0.000558726
0.005385079,0.024704613,0.008077335,0.000675561
0.005486684,0.026247343,-0.007573655,0.000746283
0.00558829,0.01709093,-0.021133492,0.000738724
0.005689895,0.001076303,-0.025642712,0.000658707
0.0057915,-0.014100917,-0.018831637,0.000553466
0.005893105,-0.021568436,-0.004161067,0.000482512
0.005994711,-0.018786123,0.012094501,0.000499195
0.006096316,-0.006927365,0.023852551,0.000616933
0.006197921,0.009964998,0.026925325,0.000824274
0.006299527,0.026245493,0.019753465,0.001079025
0.006401132,0.036004949,0.003966695,0.001312091
0.006502737,0.034646291,-0.015438616,0.001438716
0.006604342,0.021120094,-0.030764481,0.001392512
0.006705948,-0.000154238,-0.034310434,0.00117723
0.006807553,-0.019873692,-0.022636242,0.000907363
0.006909158,-0.02798263,0.000377192,0.00078317
0.007010763,-0.019583022,0.025270427,0.001022089
0.007112369,0.003565447,0.041416608,0.001728048
0.007213974,0.033788603,0.041446392,0.002859473
0.007315579,0.059927803,0.023764357,0.004156086
0.007417184,0.072196148,-0.006349047,0.005252594
0.00751879,0.064671122,-0.038733345,0.005682626
0.007620395,0.038038246,-0.06002875,0.005050359
0.007722,0.001851541,-0.058031891,0.003371129
0.007823605,-0.026597735,-0.027795406,0.001480024
0.007925211,-0.027961399,0.023297397,0.001324609
0.008026816,0.010211962,0.076715522,0.005989555
0.008128421,0.08902099,0.107547298,0.019491158
0.008230027,0.193370759,0.091575965,0.045778408
0.008331632,0.297976494,0.016514165,0.089062709
0.008433237,0.372960716,-0.117639028,0.152938637
0.008534842,0.389757782,-0.297155201,0.240212342
0.008636447,0.326008022,-0.494541258,0.350852286
0.008738053,0.174100444,-0.67160058,0.481358304
0.008839658,-0.053175867,-0.787863135,0.623555992
0.008941263,-0.325684071,-0.81088984,0.763612447
0.009042868,-0.599929929,-0.730145633,0.893028565
0.009144474,-0.8323645,-0.555086792,1.000952008
0.009246079,-0.991462708,-0.312715411,1.08078923
0.009347684,-1.06227052,-0.038149729,1.12987406
0.009449289,-1.04594481,0.234031245,1.148771169
0.009550895,-0.956154108,0.475925654,1.140735906
0.0096525,-0.814061999,0.669794202,1.111321211
0.009754105,-0.642162502,0.808959782,1.066788608
0.00985571,-0.469289303,0.888558865,1.009769306
0.009957316,-0.300196409,0.936081231,0.966365955
0.010058921,-0.144267291,0.955753088,0.934277016
0.010160526,0.000252661,0.959210277,0.920084419
0.010262132,0.139687866,0.951752543,0.925345603
0.010363737,0.280212909,0.932140827,0.947405796
0.010465342,0.424297303,0.894632518,0.980395544
0.010566947,0.569076538,0.832391679,1.016724013
0.010668553,0.70662564,0.740762949,1.048049542
0.010770158,0.818549931,0.622196078,1.057151949
0.010871763,0.910758853,0.483034045,1.062803577
0.010973368,0.9703933,0.330685735,1.051016212
0.011074974,0.997509539,0.177857563,1.026658593
0.011176579,0.998218954,0.033571668,0.997568137
0.011278184,0.980845511,-0.098432727,0.971746918
0.011379789,0.952582657,-0.219445303,0.955569959
0.011481395,0.91702801,-0.333882183,0.952417683
0.011583,0.873921871,-0.446666747,0.963250619
0.011684605,0.818301022,-0.553795576,0.976306103
0.01178621,0.749952495,-0.66220969,1.000950418
0.011887816,0.662327349,-0.76546514,1.024614398
0.011989421,0.554810286,-0.855239153,1.039248462
0.012091026,0.432262927,-0.924802363,1.042110649
0.012192631,0.301799744,-0.970984042,1.033893095
0.012294237,0.170644745,-0.994350076,1.017851703
0.012395842,0.04413832,-0.998407543,0.998765813
0.012497447,-0.075407259,-0.987676263,0.981190655
0.012599053,-0.186877698,-0.965977371,0.968035555
0.012700658,-0.293057948,-0.93782407,0.965396947
0.012802263,-0.397658885,-0.902779341,0.973143127
0.012903868,-0.502488256,-0.857459605,0.987731422
0.013005474,-0.605428934,-0.798264027,1.003769651
0.013107079,-0.702640116,-0.723665833,1.01739537
0.013208684,-0.789705396,-0.634081423,1.025693863
0.013310289,-0.862612367,-0.531988204,1.027111545
0.013411895,-0.918776393,-0.421356052,1.021690983
0.0135135,-0.957342148,-0.306690425,1.010563005
0.013615105,-0.979569316,-0.192827106,0.996738338
0.01371671,-0.989229202,-0.08216551,0.985325585
0.013818316,-0.989284098,0.025663652,0.97934165
0.013919921,-0.980582058,0.132110059,0.97899424
0.014021526,-0.962724805,0.237759382,0.983368574
0.014123131,-0.934878945,0.342830837,0.991531625
0.014224737,-0.895540535,0.446778089,1.001603511
0.014326342,-0.843206882,0.547789931,1.011071654
0.014427947,-0.777192533,0.642940581,1.017400824
0.014529553,-0.698281229,0.728673339,1.01856151
0.014631158,-0.609338403,0.802064896,1.014601387
0.014732763,-0.513809979,0.862347245,1.007643465
0.014834368,-0.414261013,0.910005689,0.999722541
0.014935974,-0.312504798,0.945620537,0.991857449
0.015037579,-0.210285679,0.970278025,0.985659513
0.015139184,-0.108203627,0.985630751,0.983176002
0.015240789,-0.005659109,0.992636383,0.985359014
0.015342395,0.09824156,0.990954697,0.991642616
0.015444,0.203708351,0.979081988,1.000098631
0.015545605,0.309510231,0.955121338,1.008053353
0.01564721,0.413174659,0.918103099,1.013626599
0.015748816,0.5121575,0.868184388,1.016049436
0.015850421,0.604073584,0.806103051,1.014707024
0.015952026,0.686366558,0.733423471,1.00900904
0.016053631,0.757412314,0.653164923,1.00029783
0.016155237,0.817528844,0.568402231,0.991434507
0.016256842,0.868247747,0.48099032,0.985205838
0.016358447,0.911201239,0.391271949,0.983381436
0.016460053,0.947167277,0.298493057,0.986223956
0.016561658,0.975669086,0.201749742,0.992633124
0.016663263,0.995438516,0.100735597,1.0010455
0.016764868,1.00480342,-0.004232791,1.009647829
0.016866474,1.00168788,-0.111920066,1.01590471
0.016968078,0.984414637,-0.219422221,1.017218289
0.017069684,0.953308642,-0.323002934,1.013128262
0.01717129,0.910472989,-0.419849217,1.005234429
0.017272894,0.858672917,-0.508710682,0.996105736
0.0173745,0.800339401,-0.589788973,0.988394189
0.017476106,0.736897588,-0.664129138,0.984085567
0.01757771,0.668676674,-0.732844114,0.98418899
0.017679316,0.595150888,-0.796665013,0.988879722
0.01778092,0.515075207,-0.855508924,0.997197988
0.017882526,0.427104145,-0.9077878,1.006496641
0.017984132,0.331332594,-0.9505862,1.013395411
0.018085736,0.229783237,-0.981381714,1.015910405
0.018187342,0.125411347,-0.998997808,1.013724626
0.018288948,0.021211309,-1.00365722,1.007777735
0.018390552,-0.080459096,-0.99668932,0.999863267
0.018492158,-0.178262413,-0.979973912,0.992126356
0.018593764,-0.271921515,-0.955377996,0.986688426
0.018695368,-0.362131268,-0.924225032,0.985330965
0.018796974,-0.450108171,-0.8866207,0.988693631
0.018898578,-0.53639102,-0.841241598,0.995402753
0.019000184,-0.619890153,-0.786527336,1.002889052
0.01910179,-0.698533058,-0.721849442,1.00901505
0.019203394,-0.770029962,-0.647605658,1.012339231
0.019305,-0.832326651,-0.565138757,1.012149469
0.019406606,-0.884032011,-0.476516634,1.008580699
0.01950821,-0.92468971,-0.384122401,1.002601079
0.019609816,-0.954865396,-0.290144563,0.995951792
0.01971142,-0.975927293,-0.195934549,0.990824429
0.019813026,-0.989219248,-0.101580277,0.988873273
0.019914632,-0.995058894,-0.006462325,0.990183964
0.020016236,-0.992874801,0.089640573,0.993835803
0.020117842,-0.981866539,0.186415493,0.998812636
0.020219448,-0.961139023,0.283078551,1.003921688
0.020321052,-0.929930627,0.378252208,1.007845704
0.020422658,-0.887996018,0.470050275,1.009484189
0.020524264,-0.835900366,0.556420326,1.008333001
0.020625868,-0.77506423,0.635690272,1.004826683
0.020727474,-0.707328081,0.707101226,1.000305158
0.020829078,-0.634151638,0.770754337,0.996210548
0.020930684,-0.556351423,0.826870143,0.993241139
0.02103229,-0.474573314,0.875563383,0.991831068
0.021133894,-0.389213651,0.917047918,0.99246415
0.0212355,-0.300267875,0.951308727,0.995149091
0.021337106,-0.207655475,0.977788627,0.999191395
0.02143871,-0.111679919,0.995448768,1.003390654
0.021540316,-0.013331793,1.00314975,1.006487158
0.02164192,0.085779727,1.00018024,1.007718674
0.021743526,0.183906764,0.986530423,1.007063973
0.021845132,0.279563874,0.962623417,1.004799803
0.021946736,0.3713606,0.929091096,1.00111896
0.022048342,0.458108544,0.887084544,0.996782426
0.022149948,0.539374769,0.838002622,0.993173536
0.022251552,0.615392923,0.782818675,0.991513528
0.022353158,0.686528385,0.721805096,0.99232382
0.022454762,0.752771497,0.654698431,0.995294962
0.022556368,0.813500226,0.581135988,0.999501654
0.022657974,0.867622852,0.501084805,1.003855395
0.022759578,0.913894594,0.41495949,1.007394707
0.022861184,0.951003611,0.32357645,1.009109587
0.02296279,0.977691531,0.228442967,1.008066919
0.023064394,0.993485868,0.13173613,1.004368578
0.023166,0.998999238,0.03546102,0.999256961
0.023267606,0.995437145,-0.059157621,0.994394734
0.02336921,0.983972371,-0.151735589,0.991225316
0.023470816,0.965303302,-0.242437288,0.990586303
0.02357242,0.939511299,-0.331536293,0.992597795
0.023674026,0.906188488,-0.419070989,0.99679807
0.023775632,0.864598036,-0.504657924,1.002209384
0.023877236,0.81386447,-0.587208927,1.007189699
0.023978842,0.753648937,-0.664749265,1.009878306
0.024080448,0.684806943,-0.735123634,1.009367306
0.024182052,0.609093606,-0.796868384,1.005994242
0.024283658,0.528505385,-0.849469364,1.000916142
0.024385262,0.444754958,-0.893219292,0.995647676
0.024486868,0.358953834,-0.928872347,0.991651692
0.024588474,0.271540374,-0.957242072,0.990046559
0.024690078,0.182370827,-0.978857398,0.991420924
0.024791684,0.090929292,-0.99362272,0.995554246
0.02489329,-0.003120183,-1.0005374,1.001084824
0.024994894,-0.099142499,-0.998089314,1.006011514
0.0250965,-0.195499986,-0.98519206,1.00882364
0.025198106,-0.290157616,-0.961611867,1.008888825
0.02529971,-0.381183207,-0.927929103,1.006353057
0.025401316,-0.467095882,-0.885336041,1.001998468
0.02550292,-0.547077417,-0.835321605,0.997055884
0.025604526,-0.621012866,-0.779300809,0.992966731
0.025706132,-0.689359426,-0.718225598,0.991064428
0.025807736,-0.752729535,-0.652250409,0.992032349
0.025909342,-0.8111763,-0.580824554,0.995364152
0.026010948,-0.863862276,-0.50345099,0.999720931
0.026112552,-0.909504592,-0.420231909,1.00379346
0.026214158,-0.946797371,-0.331869245,1.006562458
0.026315762,-0.97465539,-0.239589959,1.007356478
0.026417368,-0.992447436,-0.145010263,1.00597989
0.026518974,-1.00016773,-0.049872298,1.002822734
0.026620578,-0.998444676,0.044316698,0.998855741
0.026722184,-0.988300443,0.136651769,0.995411472
0.02682379,-0.970609725,0.226947933,0.993588603
0.026925394,-0.945641637,0.315302312,0.993653654
0.027027,-0.913247108,0.401547492,0.995260669
0.027128606,-0.873200595,0.48523289,0.997930237
0.02723021,-0.825259447,0.56566298,1.001027762
0.027331816,-0.769289732,0.641822338,1.003742605
0.02743342,-0.705504715,0.712430239,1.005293748
0.027535026,-0.634633482,0.776183784,1.005220923
0.027636632,-0.557882667,0.832103014,1.003628496
0.027738236,-0.476620227,0.879778802,1.001177581
0.027839842,-0.391954362,0.91925019,0.998649134
0.027941448,-0.304682761,0.950613916,0.996498402
0.028043052,-0.215524822,0.973976493,0.995081158
0.028144658,-0.125024572,0.989548683,0.99483774
0.028246262,-0.033457894,0.997421741,0.99596956
0.028347868,0.058954891,0.997362375,0.998207386
0.028449474,0.151749268,0.988865852,1.000883514
0.028551078,0.244051203,0.971412063,1.003202386
0.028652684,0.334656239,0.944770634,1.004586349
0.02875429,0.42230311,0.909113765,1.004827754
0.028855894,0.505846739,0.86487329,1.003886731
0.0289575,0.584182024,0.81270051,1.001750756
0.029059106,0.65640533,0.753630042,0.998826197
0.02916071,0.722157121,0.688851416,0.996027181
0.029262316,0.781546056,0.619259715,0.994296832
0.02936392,0.834778011,0.545276225,0.994180489
0.029465526,0.881823182,0.466975093,0.995677862
0.029567132,0.922277927,0.384365886,0.998333709
0.029668736,0.955447078,0.297646433,1.001472518
0.029770342,0.980504453,0.207293704,1.004359662
0.029871948,0.996553361,0.114113674,1.006140532
0.029973552,1.00281298,0.019434638,1.006011578
0.030075158,0.999113142,-0.075000137,1.003852091
0.030176762,0.986047626,-0.167612717,1.000383944
0.030278368,0.964621186,-0.257400393,0.996748995
0.030379974,0.935807824,-0.343960196,0.9940449
0.030481578,0.90025425,-0.427278101,0.99302429
0.030583184,0.85818392,-0.507436156,0.993971093
0.03068479,0.80945766,-0.584367812,0.996707443
0.030786394,0.753685176,-0.657679796,1.000584059
0.030888,0.690434098,-0.726432681,1.004403684
0.030989606,0.619739532,-0.789109945,1.006771593
0.03109121,0.542489886,-0.844147384,1.006880082
0.031192816,0.460192323,-0.890522182,1.004806731
0.03129442,0.374493927,-0.927921057,1.001283189
0.031396026,0.286808223,-0.956617177,0.99737538
0.031497632,0.198099092,-0.977217913,0.9941981
0.031599236,0.108822055,-0.990372658,0.992680241
0.031700842,0.018995814,-0.996497989,0.993369083
0.031802448,-0.071597785,-0.995517135,0.996180609
0.031904052,-0.162964985,-0.986721575,1.000177053
0.032005658,-0.254392266,-0.969126046,1.003920718
0.032107262,-0.344478726,-0.942109764,1.0062364
0.032208868,-0.431579441,-0.90570575,1.006563719
0.032310474,-0.514176071,-0.860550225,1.004923722
0.032412078,-0.591122329,-0.807716012,1.001830764
0.032513684,-0.661787748,-0.748474002,0.998176355
0.03261529,-0.726079524,-0.684004247,0.995053285
0.032716894,-0.784306884,-0.615102708,0.99348863
0.0328185,-0.836831272,-0.54197371,0.99402208
0.032920106,-0.883568525,-0.464373827,0.99633639
0.03302171,-0.923822641,-0.382158667,0.999493519
0.033123316,-0.956614256,-0.29564473,1.002516641
0.03322492,-0.980999351,-0.205599383,1.004630833
0.033326526,-0.996247113,-0.113159932,1.00531348
0.033428132,-1.00199914,-0.019718912,1.004391112
0.033529736,-0.998378932,0.073280312,1.002130496
0.03363134,-0.98597312,0.164619759,0.999242658
0.033732948,-0.965613782,0.253552556,0.996698875
0.033834552,-0.937982976,0.33983317,0.995298647
0.033936156,-0.903334379,0.423372686,0.995257432
0.034037764,-0.861653864,0.503881156,0.996343601
0.034139368,-0.812903523,0.580859244,0.998209599
0.034240972,-0.757071972,0.653643548,1.000407859
0.03434258,-0.694257617,0.721368551,1.002366225
0.034444184,-0.624827266,0.783013225,1.003518823
0.034545788,-0.549526691,0.837586105,1.003530067
0.034647396,-0.469422042,0.884368777,1.002465187
0.034749,-0.385659933,0.923060894,1.000774998
0.034850604,-0.299191654,0.953662515,0.998987838
0.034952212,-0.210769266,0.976213336,0.997416161
0.035053816,-0.121099509,0.990780592,0.996311273
0.03515542,-0.030772109,0.99752152,0.995996106
0.035257028,0.059812479,0.996535242,0.996660021
0.035358632,0.150299236,0.987710178,0.998161256
0.035460236,0.240165129,0.970760703,1.000055632
0.03556184,0.328607202,0.945413589,1.001789547
0.035663448,0.414608985,0.911612391,1.002937762
0.035765052,0.497125238,0.869582713,1.003307597
0.035866656,0.575178087,0.819737852,1.002799978
0.035968264,0.647815704,0.762684524,1.001352869
0.036069868,0.714251041,0.699330032,0.999217043
0.036171472,0.774113715,0.630714118,0.997052342
0.03627308,0.827403069,0.557669997,0.995591664
0.036374684,0.874214172,0.480682999,0.995306564
0.036476288,0.914485931,0.399978399,0.996267238
0.036577896,0.947897255,0.315728068,0.998193419
0.0366795,0.973919213,0.228229299,1.000607246
0.036781104,0.991913021,0.137983575,1.002930908
0.036882712,1.00118268,0.045763295,1.004461038
0.036984316,1.00115073,-0.047244187,1.004534797
0.03708592,0.991725266,-0.139542326,1.002991064
0.037187528,0.973420203,-0.229760915,1.00033697
0.037289132,0.947086096,-0.316983759,0.997450777
0.037390736,0.913562715,-0.400772393,0.995215345
0.03749234,0.873444676,-0.481003672,0.994270135
0.037593948,0.827000856,-0.557644546,0.994897856
0.037695552,0.774209201,-0.63055557,0.997000214
0.037797156,0.714847147,-0.699329913,1.000068771
0.037898764,0.648684621,-0.763120413,1.003144502
0.038000368,0.575885713,-0.820645273,1.005103019
0.038101972,0.497294724,-0.870604932,1.00525499
0.03820358,0.414253622,-0.912144899,1.00361438
0.038305184,0.328217953,-0.944996715,1.000745816
0.038406788,0.240450174,-0.969376326,0.997506748
0.038508396,0.15184471,-0.985779226,0.994817498
0.03861,0.062878206,-0.994740009,0.993461354
0.038711604,-0.026332501,-0.996601582,0.993908114
0.038813212,-0.115846597,-0.991299808,0.996095743
0.038914816,-0.205529183,-0.978281677,0.999277285
0.03901642,-0.294670403,-0.956801236,1.002299252
0.039118028,-0.382016063,-0.926420152,1.00419057
0.039219632,-0.466122478,-0.887246549,1.004476603
0.039321236,-0.545668125,-0.839888871,1.003167018
0.03942284,-0.61965245,-0.785310328,1.00068147
0.039524448,-0.687507153,-0.724627554,0.997751177
0.039626052,-0.749105573,-0.658872545,0.99527219
0.039727656,-0.804637313,-0.588753462,0.994071844
0.039829264,-0.854311705,-0.514507711,0.994566674
0.039930868,-0.897973478,-0.436044216,0.996490925
0.040032472,-0.934989393,-0.35337168,0.999076709
0.04013408,-0.964512885,-0.266888946,1.001514815
0.040235684,-0.985755324,-0.177375942,1.003175784
0.040337288,-0.998136938,-0.085906424,1.003657261
0.040438896,-1.00140429,0.006258506,1.002849721
0.0405405,-0.995704889,0.097843394,1.001001556
0.040642104,-0.981553853,0.187777683,0.998708425
0.040743712,-0.959644735,0.275381714,0.996753106
0.040845316,-0.930533469,0.360361069,0.995752637
0.04094692,-0.894440413,0.442527413,0.995854164
0.041048528,-0.851384819,0.52151829,0.996837437
0.041150132,-0.801391244,0.59678787,0.998383688
0.041251736,-0.744545698,0.667663038,1.000122229
0.04135334,-0.681050301,0.733335555,1.001610549
0.041454948,-0.611335933,0.792904735,1.002429542
0.041556552,-0.53613168,0.845526159,1.002351664
0.041658156,-0.456407577,0.890594184,1.001465877
0.041759764,-0.373175323,0.927838624,1.000144334
