Frequency (GHz),Re( S21 ),Im( S21 ),S2
0,-0.020242037,-2.49E-05,4.10E-04
0.000116929,-0.019322455,0.007685957,4.32E-04
0.000233858,-0.0166081,0.014969432,5.00E-04
0.000350788,-0.012245999,0.021422179,6.09E-04
0.000467717,-0.006442553,0.026746247,7.57E-04
0.000584646,0.00044119,0.030527273,9.32E-04
0.000701575,0.008052425,0.032606084,1.13E-03
0.000818504,0.015977703,0.032857582,1.33E-03
0.000935433,0.023784908,0.031255052,1.54E-03
0.001052363,0.031045964,0.027871804,1.74E-03
0.001169292,0.037359703,0.022877963,1.92E-03
0.001286221,0.042372864,0.016532265,2.07E-03
0.00140315,0.045800041,0.009168776,2.18E-03
0.001520079,0.047437988,0.001180449,2.25E-03
0.001637008,0.047178194,-0.007001231,2.27E-03
0.001753938,0.045013536,-0.014928027,2.25E-03
0.001870867,0.041039705,-0.022158319,2.18E-03
0.001987796,0.035452586,-0.028280983,2.06E-03
0.002104725,0.028539024,-0.03293604,1.90E-03
0.002221654,0.020664005,-0.035835799,1.71E-03
0.002338583,0.012253068,-0.036781106,1.50E-03
0.002455513,0.00377118,-0.035673466,1.29E-03
0.002572442,-0.004300668,-0.032522723,1.08E-03
0.002689371,-0.011490313,-0.027449697,8.86E-04
0.0028063,-0.017359791,-0.020681843,7.29E-04
0.002923229,-0.021529067,-0.012545463,6.21E-04
0.003040158,-0.023697697,-0.003449355,5.73E-04
0.003157088,-0.023662979,0.006133034,5.98E-04
0.003274017,-0.021334598,0.015690267,7.01E-04
0.003390946,-0.016759304,0.024731271,8.93E-04
0.003507875,-0.010053523,0.032662608,1.17E-03
0.003624804,-0.001480896,0.039126631,1.53E-03
0.003741733,0.008440484,0.043394361,1.95E-03
0.003858663,0.019465987,0.045534637,2.45E-03
0.003975592,0.031033741,0.045237951,3.01E-03
0.004092521,0.042408172,0.042339765,3.59E-03
0.00420945,0.053082977,0.036925878,4.18E-03
0.004326379,0.062480457,0.029183727,4.76E-03
0.004443309,0.07006976,0.019432176,5.29E-03
0.004560238,0.075395495,0.008110495,5.75E-03
0.004677167,0.078104407,-0.004238641,6.12E-03
0.004794096,0.077968054,-0.016992411,6.37E-03
0.004911025,0.074900158,-0.029474875,6.48E-03
0.005027954,0.068968177,-0.040989444,6.44E-03
0.005144884,0.060398378,-0.050851025,6.23E-03
0.005261813,0.049573675,-0.058421899,5.87E-03
0.005378742,0.037023909,-0.063145138,5.36E-03
0.005495671,0.023409208,-0.064577721,4.72E-03
0.0056126,0.009496917,-0.062418681,3.99E-03
0.005729529,-0.003869119,-0.056533735,3.21E-03
0.005846459,-0.015803261,-0.046973277,2.46E-03
0.005963388,-0.02541689,-0.033982869,1.80E-03
0.006080317,-0.031860061,-0.01800609,1.34E-03
0.006197246,-0.034364142,0.000321595,1.18E-03
0.006314175,-0.032282122,0.020189077,1.45E-03
0.006431104,-0.025127491,0.040634748,2.28E-03
0.006548034,-0.012611529,0.060579516,3.83E-03
0.006664963,0.005465086,0.078997478,6.27E-03
0.006781892,0.028696781,0.094411291,9.74E-03
0.006898821,0.056779791,0.105766736,1.44E-02
0.00701575,0.089061841,0.111948542,2.05E-02
0.007132679,0.124618784,0.111910984,2.81E-02
0.007249609,0.162292436,0.104922868,3.73E-02
0.007366538,0.200889423,0.0903176,4.85E-02
0.007483467,0.238955617,0.067684576,6.17E-02
0.007600396,0.274970949,0.036908578,7.70E-02
0.007717325,0.307383806,-0.001842727,9.45E-02
0.007834254,0.334662378,-0.048112001,1.14E-01
0.007951184,0.355349004,-0.101155177,1.37E-01
0.008068113,0.368118495,-0.159958631,1.61E-01
0.008185042,0.37182638,-0.223277017,1.88E-01
0.008301971,0.365529358,-0.289665937,2.18E-01
0.0084189,0.348529309,-0.357499987,2.49E-01
0.008535829,0.320412517,-0.425027996,2.83E-01
0.008652758,0.281064123,-0.490428805,3.20E-01
0.008769687,0.230674222,-0.551860511,3.58E-01
0.008886617,0.169740304,-0.607509673,3.98E-01
0.009003546,0.099062048,-0.6556409,4.40E-01
0.009120475,0.019728301,-0.694644392,4.83E-01
0.009237404,-0.066910572,-0.723082185,5.27E-01
0.009354333,-0.159282222,-0.739731252,5.73E-01
0.009471262,-0.255637169,-0.743630886,6.18E-01
0.009588192,-0.354081154,-0.734125376,6.64E-01
0.009705121,-0.452608228,-0.710879147,7.10E-01
0.00982205,-0.549156666,-0.673873603,7.56E-01
0.009938979,-0.641672492,-0.623412311,8.00E-01
0.010055908,-0.728166878,-0.56011802,8.44E-01
0.010172837,-0.806771874,-0.484922826,8.86E-01
0.010289767,-0.875788093,-0.399044037,9.26E-01
0.010406696,-0.933732748,-0.30395335,9.64E-01
0.010523625,-0.97937727,-0.201335117,1.00E+00
0.010640554,-1.01178098,-0.093040742,1.03E+00
0.010757483,-1.03031254,0.018964985,1.06E+00
0.010874412,-1.03466463,0.132659063,1.09E+00
0.010991342,-1.02485359,0.246017873,1.11E+00
0.011108271,-1.00121427,0.357073545,1.13E+00
0.0112252,-0.964376867,0.463967294,1.15E+00
0.011342129,-0.915241301,0.564998627,1.16E+00
0.011459058,-0.854934394,0.658667624,1.16E+00
0.011575987,-0.784764588,0.743714273,1.17E+00
0.011692917,-0.706159651,0.819175303,1.17E+00
0.011809846,-0.620792925,0.88447392,1.17E+00
0.011926775,-0.530426264,0.938916504,1.16E+00
0.012043704,-0.436479479,0.982270956,1.16E+00
0.012160633,-0.340440601,1.01466238,1.15E+00
0.012277562,-0.243686169,1.03646195,1.13E+00
0.012394492,-0.147303656,1.04836071,1.12E+00
0.012511421,-0.050809294,1.05157375,1.11E+00
0.01262835,0.028154429,1.03920698,1.08E+00
0.012745279,0.118086331,1.024629,1.06E+00
0.012862208,0.201893628,1.00218511,1.05E+00
0.012979137,0.280523807,0.973573685,1.03E+00
0.013096067,0.354005992,0.939733922,1.01E+00
0.013212996,0.422342002,0.901516795,9.91E-01
0.013329925,0.485617459,0.859691322,9.75E-01
0.013446854,0.544008374,0.814930558,9.60E-01
0.013563783,0.597764075,0.767795861,9.47E-01
0.013680712,0.647180974,0.718731761,9.35E-01
0.013797642,0.692577243,0.668063819,9.26E-01
0.013914571,0.734265268,0.616005659,9.19E-01
0.0140315,0.772528052,0.562667727,9.13E-01
0.014148429,0.807598054,0.508073747,9.10E-01
0.014265358,0.839640796,0.45217967,9.09E-01
0.014382287,0.868742228,0.394894332,9.11E-01
0.014499217,0.894902825,0.336104542,9.14E-01
0.014616146,0.918035984,0.275697798,9.19E-01
0.014733075,0.937972367,0.21358712,9.25E-01
0.014850004,0.954468906,0.14973405,9.33E-01
0.014966933,0.96722728,0.084168673,9.43E-01
0.015083862,0.97591722,0.017003834,9.53E-01
0.015200792,0.980201066,-0.051564738,9.63E-01
0.015317721,0.97974956,-0.121260077,9.75E-01
0.01543465,0.97425729,-0.191717431,9.86E-01
0.015551579,0.963480532,-0.262480319,9.97E-01
0.015668508,0.947296381,-0.333022475,1.01E+00
0.015785437,0.925779104,-0.40286985,1.02E+00
0.015902367,0.899015903,-0.471907914,1.03E+00
0.016019296,0.866387844,-0.540036559,1.04E+00
0.016136225,0.827300012,-0.606092155,1.05E+00
0.016253154,0.78214246,-0.668865681,1.06E+00
0.016370083,0.73151058,-0.727652192,1.06E+00
0.016487012,0.675936639,-0.781924903,1.07E+00
0.016603942,0.615955412,-0.831218362,1.07E+00
0.016720871,0.552142739,-0.875126779,1.07E+00
0.0168378,0.485117823,-0.913321793,1.07E+00
0.01695473,0.415533632,-0.945563912,1.07E+00
0.017071658,0.344060093,-0.971708536,1.06E+00
0.017188588,0.271366358,-0.991709113,1.06E+00
0.017305516,0.198104113,-1.00561309,1.05E+00
0.017422446,0.124890327,-1.01355708,1.04E+00
0.017539374,0.052293729,-1.01575375,1.03E+00
0.017656304,-0.019177683,-1.01248276,1.03E+00
0.017773234,-0.089085214,-1.00407434,1.02E+00
0.017890162,-0.157063708,-0.990894914,1.01E+00
0.018007092,-0.22282432,-0.973330319,9.97E-01
0.01812402,-0.286152542,-0.951771498,9.88E-01
0.01824095,-0.346903294,-0.926600158,9.79E-01
0.01835788,-0.404995322,-0.898178458,9.71E-01
0.018474808,-0.460401624,-0.866836011,9.63E-01
0.018591738,-0.513139784,-0.832865477,9.57E-01
0.018708666,-0.563260972,-0.796516895,9.52E-01
0.018825596,-0.610842109,-0.757999003,9.48E-01
0.018942524,-0.655986071,-0.717481256,9.45E-01
0.019059454,-0.698837638,-0.675081789,9.44E-01
0.019176384,-0.739588857,-0.630806208,9.45E-01
0.019293312,-0.778375566,-0.58446002,9.47E-01
0.019410242,-0.815066814,-0.535746396,9.51E-01
0.01952717,-0.8493132,-0.484552324,9.56E-01
0.0196441,-0.880805969,-0.430965364,9.62E-01
0.01976103,-0.909329414,-0.375106663,9.68E-01
0.019877958,-0.934687495,-0.317074805,9.74E-01
0.019994888,-0.956658781,-0.256968647,9.81E-01
0.020111816,-0.974993765,-0.194915369,9.89E-01
0.020228746,-0.989424646,-0.13108708,9.96E-01
0.020345674,-0.99967891,-0.065710299,1.00E+00
0.020462604,-1.00549424,0.000931338,1.01E+00
0.020579534,-1.00663412,0.068497859,1.02E+00
0.020696462,-1.00289762,0.136597767,1.02E+00
0.020813392,-0.994134486,0.204794601,1.03E+00
0.02093032,-0.980251133,0.272617131,1.04E+00
0.02104725,-0.961220622,0.339570254,1.04E+00
0.02116418,-0.937085927,0.405146807,1.04E+00
0.021281108,-0.907962739,0.468842,1.04E+00
0.021398038,-0.874038637,0.530166328,1.05E+00
0.021514966,-0.835569441,0.588658333,1.04E+00
0.021631896,-0.792875648,0.643898487,1.04E+00
0.021748824,-0.746330023,0.695518553,1.04E+00
0.021865754,-0.696351588,0.743212819,1.04E+00
0.021982684,-0.643391311,0.78674531,1.03E+00
0.022099612,-0.58791995,0.825957954,1.03E+00
0.022216542,-0.53040874,0.860776424,1.02E+00
0.02233347,-0.47130537,0.891214907,1.02E+00
0.0224504,-0.410994291,0.917366505,1.01E+00
0.02256733,-0.349758655,0.939353585,1.00E+00
0.022684258,-0.287801147,0.957246244,9.99E-01
0.022801188,-0.225344583,0.97103554,9.94E-01
0.022918116,-0.162693873,0.980724871,9.88E-01
0.023035046,-0.100178048,0.986409843,9.83E-01
0.023151974,-0.038071193,0.98826164,9.78E-01
0.023268904,0.023428252,0.986475885,9.74E-01
0.023385834,0.084185593,0.981236339,9.70E-01
0.023502762,0.144109935,0.972700775,9.67E-01
0.023619692,0.203139141,0.960992455,9.65E-01
0.02373662,0.261225432,0.946200728,9.64E-01
0.02385355,0.318325996,0.928382874,9.63E-01
0.02397048,0.3743909,0.907562971,9.64E-01
0.024087408,0.429356128,0.883740067,9.65E-01
0.024204338,0.483135819,0.856892526,9.68E-01
0.024321266,0.535616338,0.826985002,9.71E-01
0.024438196,0.586652637,0.793978095,9.75E-01
0.024555124,0.636066377,0.757835925,9.79E-01
0.024672054,0.683646321,0.718537092,9.84E-01
0.024788984,0.729151607,0.676082671,9.89E-01
0.024905912,0.772315741,0.630505085,9.94E-01
0.025022842,0.812854767,0.581875026,9.99E-01
0.02513977,0.850473881,0.530306578,1.00E+00
0.0252567,0.884880841,0.475961387,1.01E+00
0.02537363,0.915795624,0.419047266,1.01E+00
0.025490558,0.942963541,0.359814882,1.02E+00
0.025607488,0.966166198,0.298545867,1.02E+00
0.025724416,0.985224307,0.23553583,1.03E+00
0.025841346,0.999985397,0.171075314,1.03E+00
0.025958274,1.0102911,0.105450489,1.03E+00
0.026075204,1.01595926,0.038985048,1.03E+00
0.026192134,1.01681983,-0.027913043,1.03E+00
0.026309062,1.01278341,-0.094757989,1.03E+00
0.026425992,1.00387478,-0.161043674,1.03E+00
0.02654292,0.990215898,-0.226295814,1.03E+00
0.02665985,0.971995056,-0.290090084,1.03E+00
0.02677678,0.949444473,-0.35205543,1.03E+00
0.026893708,0.922826231,-0.411869854,1.02E+00
0.027010638,0.892423034,-0.469260782,1.02E+00
0.027127566,0.858532965,-0.52400285,1.01E+00
0.027244496,0.821458757,-0.575916708,1.01E+00
0.027361424,0.781501353,-0.624866962,1.00E+00
0.027478354,0.738954604,-0.670759261,9.96E-01
0.027595284,0.694097102,-0.713535666,9.91E-01
0.027712212,0.64718765,-0.753169954,9.86E-01
0.027829142,0.598461449,-0.7896595,9.82E-01
0.02794607,0.548127949,-0.823019862,9.78E-01
0.028063,0.496369421,-0.853276432,9.74E-01
0.02817993,0.443343133,-0.880460262,9.72E-01
0.028296858,0.389182895,-0.904598832,9.70E-01
0.028413788,0.334002525,-0.925713956,9.69E-01
0.028530716,0.27790001,-0.943816304,9.68E-01
0.028647646,0.220962435,-0.95890528,9.68E-01
0.028764574,0.163268387,-0.970966339,9.69E-01
0.028881504,0.104890503,-0.979972482,9.71E-01
0.028998434,0.045893598,-0.985880673,9.74E-01
0.029115362,-0.013665299,-0.988623619,9.78E-01
0.029232292,-0.073728502,-0.988093495,9.82E-01
0.02934922,-0.134211451,-0.984130621,9.87E-01
0.02946615,-0.194963187,-0.976536453,9.92E-01
0.02958308,-0.255746454,-0.965117037,9.97E-01
0.029700008,-0.316253752,-0.94972676,1.00E+00
0.029816938,-0.376144826,-0.930283785,1.01E+00
0.029933866,-0.43506971,-0.90676254,1.01E+00
0.030050796,-0.492678255,-0.879181623,1.02E+00
0.030167724,-0.548622131,-0.847598076,1.02E+00
0.030284654,-0.60255444,-0.812106729,1.02E+00
0.030401584,-0.654132843,-0.772842109,1.03E+00
0.030518512,-0.703026772,-0.729979455,1.03E+00
0.030635442,-0.748921573,-0.683734298,1.03E+00
0.03075237,-0.791527212,-0.63436079,1.03E+00
0.0308693,-0.830583632,-0.582147539,1.03E+00
0.03098623,-0.865867198,-0.527413428,1.03E+00
0.031103158,-0.897195637,-0.470500559,1.03E+00
0.031220088,-0.924429536,-0.411766917,1.02E+00
0.031337016,-0.947477162,-0.351579905,1.02E+00
0.031453946,-0.966292262,-0.290307283,1.02E+00
0.031570874,-0.980874121,-0.228309706,1.01E+00
0.031687804,-0.991265357,-0.165933922,1.01E+00
0.031804734,-0.997546852,-0.103504702,1.01E+00
0.031921662,-0.999834895,-0.041319374,1.00E+00
0.032038592,-0.998272479,0.02035854,9.97E-01
0.03215552,-0.993024349,0.08130461,9.93E-01
0.03227245,-0.984265566,0.141338557,9.89E-01
0.03238938,-0.972166598,0.200326398,9.85E-01
0.032506308,-0.956877112,0.25817579,9.82E-01
0.032623238,-0.938506842,0.314820707,9.80E-01
0.032740166,-0.917123377,0.370193183,9.78E-01
0.032857096,-0.892768204,0.424199283,9.77E-01
0.032974024,-0.865485489,0.476716846,9.76E-01
0.033090954,-0.835334718,0.527610123,9.76E-01
0.033207884,-0.802392542,0.576749504,9.76E-01
0.033324812,-0.766738594,0.624016047,9.77E-01
0.033441742,-0.728445053,0.669296026,9.79E-01
0.033558672,-0.687575877,0.712472796,9.80E-01
0.0336756,-0.644189894,0.753419101,9.83E-01
0.033792528,-0.598346651,0.791993439,9.85E-01
0.03390946,-0.550113022,0.828037739,9.88E-01
0.034026388,-0.499568403,0.861377299,9.92E-01
0.034143316,-0.44681409,0.891826451,9.95E-01
0.034260244,-0.3919743,0.919189036,9.99E-01
0.034377176,-0.335202843,0.943265855,1.00E+00
0.034494104,-0.276684254,0.963860512,1.01E+00
0.034611032,-0.216634929,0.980786085,1.01E+00
0.034727964,-0.155302122,0.993870199,1.01E+00
0.034844892,-0.092963472,1.00296545,1.01E+00
0.03496182,-0.029921338,1.0079515,1.02E+00
0.035078748,0.033501364,1.00874364,1.02E+00
0.03519568,0.096967824,1.00529587,1.02E+00
0.035312608,0.160135403,0.997604012,1.02E+00
0.035429536,0.222664759,0.985705733,1.02E+00
0.035546468,0.28422913,0.969679594,1.02E+00
0.035663396,0.34452334,0.949637115,1.02E+00
0.035780324,0.403269351,0.925713003,1.02E+00
0.035897256,0.460212857,0.898052096,1.02E+00
0.036014184,0.51511246,0.866802156,1.02E+00
0.036131112,0.567726731,0.832120061,1.01E+00
0.03624804,0.617811024,0.794186831,1.01E+00
0.036364972,0.6651299,0.753223181,1.01E+00
0.0364819,0.709481001,0.70948869,1.01E+00
0.036598828,0.750707567,0.663265228,1.00E+00
0.03671576,0.788702786,0.614839494,1.00E+00
0.036832688,0.823402345,0.564488947,9.97E-01
0.036949616,0.854776621,0.512471795,9.93E-01
0.037066544,0.882819831,0.459024698,9.90E-01
0.037183476,0.907543182,0.404360294,9.87E-01
0.037300404,0.928967774,0.348669708,9.85E-01
0.037417332,0.947118402,0.292122602,9.82E-01
0.037534264,0.962018609,0.234870195,9.81E-01
0.037651192,0.973688066,0.177049398,9.79E-01
0.03776812,0.982138038,0.118786909,9.79E-01
0.037885048,0.987370074,0.060201939,9.79E-01
0.03800198,0.989376485,0.001412618,9.79E-01
0.038118908,0.988139451,-0.057460561,9.80E-01
0.038235836,0.983632624,-0.116290405,9.81E-01
0.038352768,0.975825429,-0.17493993,9.83E-01
0.038469696,0.964684606,-0.233259663,9.85E-01
0.038586624,0.950178444,-0.291086286,9.88E-01
0.038703556,0.932281375,-0.348243713,9.90E-01
0.038820484,0.91097641,-0.404543698,9.94E-01
0.038937412,0.886255085,-0.459787965,9.97E-01
0.03905434,0.858118713,-0.513770878,1.00E+00
0.039171272,0.826574087,-0.566275418,1.00E+00
0.0392882,0.791633964,-0.617067575,1.01E+00
0.039405128,0.753323913,-0.665887773,1.01E+00
0.03952206,0.711699188,-0.712444961,1.01E+00
0.039638988,0.666863263,-0.756425858,1.02E+00
0.039755916,0.618980348,-0.79751581,1.02E+00
0.039872844,0.568273008,-0.835421324,1.02E+00
0.039989776,0.515008032,-0.869884729,1.02E+00
0.040106704,0.459484071,-0.900691271,1.02E+00
0.040223632,0.402019113,-0.927669168,1.02E+00
0.040340564,0.342942268,-0.950688541,1.02E+00
0.040457492,0.282588333,-0.969659567,1.02E+00
0.04057442,0.221292108,-0.984530032,1.02E+00
0.040691348,0.159383744,-0.995284557,1.02E+00
0.04080828,0.097184278,-1.00194275,1.01E+00
0.040925208,0.035000928,-1.00455558,1.01E+00
0.041042136,-0.026876358,-1.0032028,1.01E+00
0.041159068,-0.088179134,-0.997988701,1.00E+00
0.041275996,-0.148661748,-0.989037514,1.00E+00
0.041392924,-0.208104044,-0.976488948,9.97E-01
0.041509856,-0.266311377,-0.960492909,9.93E-01
0.041626784,-0.323115021,-0.941205561,9.90E-01
0.041743712,-0.378370315,-0.918783605,9.87E-01
0.04186064,-0.431956142,-0.893381357,9.85E-01
0.041977572,-0.48377192,-0.865145922,9.83E-01
0.0420945,-0.533735931,-0.834213912,9.81E-01
0.042211428,-0.581781268,-0.800707638,9.80E-01
0.04232836,-0.627851844,-0.764729381,9.79E-01
0.042445288,-0.67189467,-0.72636044,9.79E-01
0.042562216,-0.713849902,-0.685655892,9.80E-01
0.042679144,-0.753638148,-0.6426512,9.81E-01
0.042796076,-0.791147351,-0.597372532,9.83E-01
0.042913004,-0.82623142,-0.549855173,9.85E-01
0.043029932,-0.85871768,-0.500160694,9.88E-01
0.043146864,-0.888421178,-0.448384196,9.90E-01
0.043263792,-0.915157616,-0.394652486,9.93E-01
0.04338072,-0.938752174,-0.33912003,9.96E-01
0.043497648,-0.959040701,-0.281961441,9.99E-01
0.04361458,-0.975869119,-0.223370269,1.00E+00
0.043731508,-0.989095867,-0.163558945,1.01E+00
0.043848436,-0.998591483,-0.102758273,1.01E+00
0.043965368,-1.00424373,-0.041218765,1.01E+00
0.044082296,-1.00595999,0.020791121,1.01E+00
0.044199224,-1.00367105,0.082985677,1.01E+00
0.044316156,-0.997336149,0.14506647,1.02E+00
0.044433084,-0.986944854,0.206724912,1.02E+00
0.044550012,-0.972519577,0.267648041,1.02E+00
0.04466694,-0.954117596,0.327523053,1.02E+00
0.044783872,-0.931830168,0.386043221,1.02E+00
0.0449008,-0.90578258,0.442914367,1.02E+00
0.045017728,-0.876130879,0.497858733,1.02E+00
0.04513466,-0.843059599,0.550621629,1.01E+00
0.045251588,-0.806777,0.600976169,1.01E+00
0.045368516,-0.767509401,0.648725629,1.01E+00
0.045485444,-0.725492954,0.693706393,1.01E+00
0.045602376,-0.680967927,0.735789716,1.01E+00
0.045719304,-0.634168684,0.7748788,1.00E+00
0.045836232,-0.585316062,0.81090039,1.00E+00
0.045953164,-0.534613729,0.843799174,9.98E-01
0.046070092,-0.482250035,0.873523474,9.96E-01
0.04618702,-0.428405613,0.900020957,9.94E-01
0.046303948,-0.373264015,0.923237741,9.92E-01
0.04642088,-0.31701681,0.943126202,9.90E-01
0.046537808,-0.259861529,0.959653854,9.88E-01
0.046654736,-0.201994583,0.972806454,9.87E-01
0.046771668,-0.143603876,0.982586026,9.86E-01
0.046888596,-0.084863879,0.98900485,9.85E-01
0.047005524,-0.02593668,0.992079437,9.85E-01
0.047122456,0.033026591,0.991824627,9.85E-01
0.047239384,0.091879919,0.98825115,9.85E-01
0.047356312,0.150480047,0.98136425,9.86E-01
0.04747324,0.208679527,0.971162975,9.87E-01
0.047590172,0.266325951,0.957644701,9.88E-01
0.0477071,0.323256105,0.94080472,9.90E-01
0.047824028,0.379295766,0.920642436,9.91E-01
0.04794096,0.434258193,0.897162557,9.93E-01
0.048057888,0.487944216,0.870381415,9.96E-01
0.048174816,0.540143847,0.840329707,9.98E-01
0.048291744,0.590637624,0.807055712,1.00E+00
0.048408676,0.639199913,0.770629227,1.00E+00
0.048525604,0.685603619,0.731143534,1.00E+00
0.048642532,0.729623973,0.688715219,1.01E+00
0.048759464,0.771043718,0.643485785,1.01E+00
0.048876392,0.809656084,0.595616758,1.01E+00
0.04899332,0.845269382,0.545289099,1.01E+00
0.049110248,0.877706826,0.492697269,1.01E+00
0.04922718,0.906803906,0.438046396,1.01E+00
0.049344108,0.932406306,0.381553262,1.01E+00
0.049461036,0.954366565,0.323450357,1.02E+00
0.049577968,0.972548544,0.263991505,1.02E+00
0.049694896,0.986834228,0.203458488,1.02E+00
0.049811824,0.997138679,0.142155856,1.01E+00
0.049928756,1.00341773,0.080404878,1.01E+00
0.050045684,1.00567126,0.018526502,1.01E+00
0.050162612,1.00394237,-0.043167379,1.01E+00
0.05027954,0.99830687,-0.104384333,1.01E+00
0.050396472,0.988869488,-0.164855093,1.01E+00
0.0505134,0.975753725,-0.22433506,1.00E+00
0.050630328,0.959098697,-0.282606184,1.00E+00
0.05074726,0.939051092,-0.339473993,9.97E-01
0.050864188,0.915762186,-0.394767642,9.94E-01
0.050981116,0.889384329,-0.448336512,9.92E-01
0.051098044,0.86006701,-0.500049233,9.90E-01
0.051214976,0.827955842,-0.54978925,9.88E-01
