Frequency (GHz),Re( S21 ),Im( S21 ),S2
0,0.020047102,0,0.000401886
0.000110601,0.01958474,-0.004292104,0.000401984
0.000221202,0.018217476,-0.008391152,0.000402288
0.000331803,0.016003091,-0.01211156,0.000402789
0.000442404,0.013036643,-0.015281771,0.000403487
0.000553006,0.009447112,-0.017751971,0.00040438
0.000663607,0.005393423,-0.019400355,0.000405463
0.000774208,0.001059074,-0.020139748,0.000406731
0.000884809,-0.003355286,-0.019922847,0.000408178
0.00099541,-0.007639935,-0.018746389,0.000409796
0.001106011,-0.011586321,-0.016653346,0.000411577
0.001216612,-0.01499716,-0.013733137,0.000413514
0.001327213,-0.017697977,-0.01011839,0.0004156
0.001437814,-0.019546276,-0.00598007,0.000417818
0.001548415,-0.02044153,-0.001519196,0.000420164
0.001659016,-0.020331122,0.003044176,0.000422622
0.001769618,-0.01921458,0.007482323,0.000425185
0.001880219,-0.017143916,0.011573211,0.000427853
0.00199082,-0.014220297,0.015113014,0.00043062
0.002101421,-0.01058847,0.01792676,0.000433484
0.002212022,-0.006427818,0.019877983,0.000436451
0.002322623,-0.001941998,0.020874916,0.000439533
0.002433224,0.002652143,0.020873427,0.000442734
0.002543825,0.007136315,0.019878522,0.000446083
0.002654426,0.011300696,0.017941324,0.000449597
0.002765028,0.014953834,0.015155081,0.000453294
0.002875629,0.017929785,0.011649925,0.000457198
0.00298623,0.020094607,0.007585777,0.000461337
0.003096831,0.021350373,0.003144331,0.000465725
0.003207432,0.021638813,-0.001476278,0.000470418
0.003318033,0.020943679,-0.006059668,0.000475357
0.003428634,0.019262968,-0.01044333,0.000480125
0.003539235,0.016697977,-0.014387555,0.000485824
0.003649836,0.013328961,-0.017723512,0.000491784
0.003760437,0.009294377,-0.020290714,0.000498099
0.003871038,0.004763332,-0.021957172,0.000504807
0.00398164,-6.82E-05,-0.02262588,0.000511935
0.004092241,-0.004984159,-0.022240538,0.000519483
0.004202842,-0.009756284,-0.020791484,0.000527471
0.004313443,-0.014153681,-0.018318197,0.000535883
0.004424044,-0.017954532,-0.014911324,0.000544713
0.004534645,-0.02095728,-0.010711131,0.000553936
0.004645246,-0.022993013,-0.005903604,0.000563531
0.004755847,-0.02393619,-0.000712215,0.000573448
0.004866448,-0.023714712,0.004611808,0.000583656
0.00497705,-0.022315554,0.009803822,0.000594099
0.005087651,-0.019787964,0.014600012,0.000604724
0.005198252,-0.016242115,0.018753085,0.000615485
0.005308853,-0.011843254,0.022047164,0.00062634
0.005419454,-0.006802298,0.024309948,0.000637245
0.005530055,-0.001363766,0.025422612,0.000648169
0.005640656,0.004208903,0.025325697,0.000659106
0.005751257,0.009647839,0.024020061,0.000670044
0.005861858,0.014694098,0.02156576,0.000680998
0.005972459,0.019111576,0.018076228,0.000692002
0.006083061,0.022695612,0.013711033,0.000703083
0.006193662,0.025282627,0.008666568,0.000714321
0.006304263,0.026753223,0.003166557,0.000725762
0.006414864,0.027036794,-0.002548305,0.000737482
0.006525465,0.026112014,-0.008229911,0.000749569
0.006636066,0.024004644,-0.013632958,0.00076208
0.006746667,0.020796416,-0.018525176,0.000775673
0.006857268,0.016603638,-0.02267481,0.000789828
0.006967869,0.011581374,-0.025895551,0.000804708
0.00707847,0.00592901,-0.028025759,0.000820596
0.007189071,-0.000124823,-0.028941641,0.000837634
0.007299673,-0.006326623,-0.0285645,0.000855957
0.007410274,-0.012405216,-0.026866302,0.000875688
0.007520875,-0.018081671,-0.023874559,0.000896941
0.007631476,-0.023079995,-0.019675963,0.00091983
0.007742077,-0.027139919,-0.014416781,0.000944419
0.007852678,-0.030030586,-0.008302178,0.000970762
0.007963279,-0.031564895,-0.001590379,0.000998872
0.00807388,-0.031612951,0.005415965,0.001028711
0.008184481,-0.030114215,0.012383039,0.001060206
0.008295082,-0.0270856,0.018963121,0.00109323
0.008405683,-0.022626199,0.024812585,0.001127609
0.008516284,-0.016914774,0.029614603,0.001163134
0.008626885,-0.010203845,0.033097558,0.001199567
0.008737487,-0.002805726,0.035053894,0.001236648
0.008848088,0.004924759,0.03535315,0.001274098
0.008958689,0.012610276,0.033950843,0.001311679
0.00906929,0.019873502,0.030889979,0.001349147
0.009179891,0.02635769,0.026297785,0.001386301
0.009290492,0.031745579,0.020376992,0.001423004
0.009401093,0.035774097,0.013393209,0.001459164
0.009511694,0.0382456,0.005659089,0.001494751
0.009622295,0.039034315,-0.00248105,0.001529833
0.009732896,0.03808859,-0.010668083,0.001564549
0.009843498,0.035430379,-0.018543713,0.001599181
0.009954099,0.03115353,-0.025764836,0.001634369
0.0100647,0.02542476,-0.032012481,0.001671217
0.010175301,0.018462161,-0.036982104,0.001708527
0.010285902,0.010509661,-0.040438451,0.001745721
0.010396503,0.001883119,-0.042207409,0.001785011
0.010507104,-0.00706744,-0.042159636,0.001827384
0.010617705,-0.015971327,-0.040230792,0.0018736
0.010728306,-0.024443971,-0.03642796,0.001924504
0.010838907,-0.032098405,-0.030834332,0.001981064
0.010949508,-0.038558938,-0.023611365,0.002044288
0.01106011,-0.043477148,-0.01499994,0.002115261
0.011170711,-0.04654884,-0.005317677,0.002195072
0.011281312,-0.047531858,0.005047412,0.002284754
0.011391913,-0.04626447,0.015648313,0.002385271
0.011502514,-0.042681318,0.025994984,0.002497434
0.011613115,-0.036826246,0.035576094,0.002621831
0.011723716,-0.028860357,0.043884404,0.002758761
0.011834317,-0.019063363,0.050446235,0.002908234
0.011944918,-0.007825548,0.054850452,0.003069811
0.012055519,0.00436576,0.056777202,0.00324271
0.012166121,0.01695041,0.056021679,0.003425745
0.012276722,0.029324703,0.052510738,0.003617316
0.012387323,0.040874384,0.046312261,0.003815541
0.012497924,0.051009391,0.037634291,0.004018298
0.012608525,0.059196781,0.026814545,0.004223279
0.012719126,0.064988934,0.01430367,0.004428156
0.012829727,0.068046205,0.000641211,0.004630697
0.012940328,0.06815201,-0.013571675,0.004828887
0.013050929,0.065221205,-0.027700856,0.005021143
0.01316153,0.059301913,-0.041107182,0.005206517
0.013272131,0.050573219,-0.053171843,0.005384895
0.013382733,0.039337684,-0.063316084,0.00555638
0.013493334,0.026001366,-0.071013749,0.005719024
0.013603935,0.011047732,-0.075827606,0.005871878
0.013714536,-0.004949333,-0.07743451,0.006020599
0.013825137,-0.021337695,-0.075612091,0.006172485
0.013935738,-0.037418589,-0.070249386,0.006335127
0.014046339,-0.052465942,-0.061362244,0.006518
0.01415694,-0.065743841,-0.049103376,0.006733394
0.014267541,-0.0765284,-0.033769086,0.006996947
0.014378142,-0.084133305,-0.015803481,0.007328163
0.014488744,-0.087938599,0.004201702,0.007750852
0.014599345,-0.087422364,0.025512507,0.008293558
0.014709946,-0.082194366,0.047265794,0.008989969
0.014820547,-0.07202886,0.068489693,0.009878995
0.014931148,-0.056895424,0.088135637,0.01100498
0.015041749,-0.036983345,0.105116822,0.012417314
0.01515235,-0.012718054,0.118357107,0.014170154
0.015262951,0.015234657,0.126845524,0.016321882
0.015373552,0.045978293,0.129692689,0.018934197
0.015484153,0.078411244,0.126186788,0.022071429
0.015594754,0.111265548,0.115842417,0.025799488
0.015705356,0.143160254,0.098438814,0.030185058
0.015815957,0.172662452,0.074043557,0.035294771
0.015926558,0.198353007,0.043019403,0.041194584
0.016037159,0.218891606,0.006015317,0.047949719
0.01614776,0.233075485,-0.036059313,0.055624456
0.016258361,0.239888415,-0.082071029,0.064282105
0.016368962,0.238538086,-0.130707458,0.073984858
0.016479563,0.228478834,-0.180528626,0.084793162
0.016590164,0.20942463,-0.230016887,0.096766444
0.016700765,0.181349188,-0.27762565,0.10996353
0.016811366,0.144482464,-0.321823686,0.124445667
0.016921968,0.099301577,-0.361130774,0.140276239
0.017032568,0.046524271,-0.394147158,0.15751649
0.01714317,-0.012855064,-0.41961965,0.176245903
0.01725377,-0.077843554,-0.436632186,0.196707285
0.017364372,-0.147370502,-0.444025785,0.218876963
0.017474974,-0.219973773,-0.440894693,0.242776591
0.017585574,-0.294080466,-0.426579356,0.268453267
0.017696176,-0.368005425,-0.400640994,0.295941199
0.017806776,-0.439969808,-0.362880826,0.325255926
0.017917378,-0.508126497,-0.313363045,0.356388935
0.018027978,-0.570597053,-0.252436459,0.389305163
0.01813858,-0.625511944,-0.180751741,0.423936384
0.01824918,-0.671062589,-0.099273674,0.460180261
0.018359782,-0.705556691,-0.009284219,0.497896441
0.018470382,-0.727481902,0.087626338,0.536908293
0.018580984,-0.735568702,0.189582124,0.577002697
0.018691586,-0.728854179,0.294460535,0.617935421
0.018802186,-0.706739008,0.399946302,0.65943707
0.018912788,-0.669034719,0.503599346,0.701219757
0.019023388,-0.615997553,0.602929771,0.742977294
0.01913399,-0.54834336,0.69546479,0.784351715
0.01924459,-0.467207223,0.778788924,0.824794777
0.019355192,-0.373963445,0.850630462,0.863420841
0.019465792,-0.270132154,0.909237683,0.899684545
0.019576394,-0.157758966,0.953469694,0.933992349
0.019686996,-0.0393105,0.982383072,0.966621816
0.019797596,0.082716413,0.995288074,0.997440355
0.019908198,0.205877528,0.991898417,1.026248026
0.020018798,0.327804238,0.972337484,1.052895801
0.0201294,0.446247727,0.937101305,1.07729589
0.02024,0.559123456,0.887007535,1.099401406
0.020350602,0.66455102,0.82314676,1.119198647
0.020461202,0.760878682,0.746832311,1.136694869
0.020571804,0.846699297,0.659550309,1.15190631
0.020682404,0.920860171,0.562917233,1.164859266
0.020793006,0.982459426,0.458637506,1.175574886
0.020903608,1.03084719,0.348469317,1.184076794
0.021014208,1.06561565,0.234192178,1.19038269
0.02112481,1.08659065,0.117578216,1.194503878
0.02123541,1.09382415,0.000367539,1.196451406
0.021346012,1.08758342,-0.115758128,1.19623764
0.021456612,1.06834126,-0.22919853,1.193885014
0.021567214,1.03676367,-0.338460952,1.189434723
0.021677814,0.993703246,-0.442186296,1.182974861
0.021788416,0.940189779,-0.53916502,1.174655739
0.021899016,0.877405584,-0.628333986,1.164644157
0.022009618,0.806614637,-0.708800375,1.153025144
0.02212022,0.729130089,-0.779910088,1.139890432
0.02223082,0.646308839,-0.841273665,1.125456495
0.022341422,0.559509158,-0.892784894,1.110115365
0.022452022,0.470005274,-0.934723496,1.094612972
0.022562624,0.378662556,-0.968336582,1.081061067
0.022673224,0.307376772,-0.960132957,1.016335775
0.022783826,0.210781977,-0.992746592,1.029974838
0.022894426,0.12036448,-0.997306645,1.009108152
0.023005028,0.034289956,-0.993985176,0.989182331
0.023115628,-0.04808509,-0.983857632,0.970288016
0.02322623,-0.126691684,-0.967766404,0.952622596
0.023336832,-0.201440632,-0.94648999,0.936421629
0.023447432,-0.272326648,-0.920735598,0.921915845
0.023558034,-0.339437097,-0.891120732,0.909313702
0.023668634,-0.402935117,-0.858155847,0.898788166
0.023779236,-0.463035792,-0.822237074,0.890475951
0.023889836,-0.519976199,-0.783643126,0.884471796
0.024000438,-0.573989153,-0.742540598,0.880830087
0.024111038,-0.625277042,-0.698993683,0.879563548
0.02422164,-0.67398864,-0.652978003,0.880640959
0.024332242,-0.720202327,-0.604400933,0.88399188
0.024442842,-0.763911664,-0.553122103,0.889505091
0.024553444,-0.80501467,-0.498976916,0.897026582
0.024664044,-0.843311787,-0.441801518,0.906363351
0.024774646,-0.878503263,-0.3814556,0.917276358
0.024885246,-0.910189867,-0.317847043,0.929472337
0.024995848,-0.937865019,-0.250954002,0.942568705
0.025106448,-0.960863173,-0.180904165,0.955984354
0.02521705,-0.97857368,-0.108284384,0.969331955
0.02532765,-0.994768679,-0.029931832,0.990460639
0.025438252,-1.00239491,0.047989335,1.007098532
0.025548854,-1.00348878,0.127771199,1.023315211
0.025659454,-0.997626007,0.208830908,1.038867998
0.025770056,-0.97807014,0.278415531,1.034136407
0.025880656,-0.958433747,0.355705112,1.045121374
0.025991258,-0.933536053,0.431737989,1.057887253
0.026101858,-0.902412117,0.508394241,1.072812333
0.02621246,-0.862134695,0.583405912,1.08363869
0.02632306,-0.813971519,0.653891742,1.090124044
0.026433662,-0.75935787,0.719122827,1.093762015
0.026544262,-0.699169934,0.778681874,1.095184058
0.026654864,-0.634163499,0.832168162,1.094667193
0.026765466,-0.565097868,0.879237473,1.092394134
0.026876066,-0.492747784,0.919634998,1.088528908
0.026986668,-0.417892218,0.953209996,1.083243202
0.027097268,-0.341294169,0.979914665,1.07671446
0.02720787,-0.263686061,0.99980104,1.069132458
0.02731847,-0.185753301,1.01300585,1.060685141
0.027429072,-0.108124763,1.01974154,1.051563773
0.027539672,-0.031365518,1.02027953,1.041954115
0.027650274,0.044027962,1.01493609,1.032033728
0.027760874,0.117627993,1.00405872,1.021970258
0.027871476,0.189073592,0.988013268,1.011919041
0.027982078,0.258066922,0.967170954,1.00201819
0.028092678,0.32436654,0.941898465,0.992386371
0.02820328,0.387776762,0.912552834,0.983123492
0.02831388,0.448137373,0.879478514,0.974309562
0.028424482,0.505316675,0.843017459,0.966023378
0.028535082,0.559221625,0.803519666,0.95837268
0.028645684,0.609822571,0.761327326,0.951502865
0.028756284,0.657141924,0.716738164,0.945549104
0.028866886,0.701215684,0.670003951,0.94060873
0.028977488,0.742082119,0.621363401,0.936778347
0.029088088,0.779816031,0.571075797,0.934240608
0.02919869,0.814633191,0.519408286,0.933412203
0.02930929,0.84701395,0.466404438,0.934965731
0.029419892,0.877303302,0.411421269,0.938928544
0.029530492,0.904811859,0.353747427,0.943821742
0.029641094,0.928614974,0.293694019,0.948581947
0.029751694,0.948444366,0.231879234,0.953314695
0.029862296,0.964301825,0.168675244,0.958329348
0.029972896,0.97617048,0.104298495,0.963786982
0.030083498,0.983977675,0.038925577,0.969727265
0.0301941,0.987612367,-0.027258413,0.976121209
0.0303047,0.986944616,-0.094042935,0.982903749
0.030415302,0.981839895,-0.161184952,0.989990168
0.030525902,0.972167075,-0.228407815,0.997278952
0.030636504,0.957810581,-0.295400947,1.004662829
0.030747104,0.938674808,-0.361819386,1.012023663
0.030857706,0.914693892,-0.427288085,1.019240024
0.030968306,0.88583684,-0.491402715,1.026183535
0.031078908,0.852115035,-0.553734958,1.032722437
0.031189508,0.813588798,-0.613837361,1.038723038
0.03130011,0.770373642,-0.671248972,1.044050731
0.031410712,0.722643912,-0.725503802,1.04856999
0.031521312,0.670641184,-0.776139557,1.05215221
0.031631914,0.61467725,-0.822710931,1.054681398
0.031742514,0.555137455,-0.864804327,1.056064118
0.031853116,0.492475688,-0.902056932,1.056239012
0.031963716,0.427204549,-0.934176445,1.055189357
0.032074318,0.359878212,-0.960952818,1.052942646
0.032184918,0.291076958,-0.982262671,1.04956575
0.03229552,0.221396357,-0.998083532,1.045187084
0.032406122,0.151421815,-1.00851715,1.040035408
0.032516722,0.081662156,-1.01381242,1.034484331
0.032627324,0.012419284,-1.01431549,1.028990152
0.032737924,-0.056267824,-1.01021779,1.023706051
0.032848526,-0.124283075,-1.00133598,1.018120028
0.032959126,-0.191070035,-0.987476707,1.011618005
0.033069728,-0.255927473,-0.968849003,1.004167262
0.033180328,-0.318364769,-0.945922732,0.996125941
0.03329093,-0.37811631,-0.91920191,0.987904095
0.03340153,-0.435057104,-0.889141977,0.979848139
0.033512132,-0.489147365,-0.856137156,0.972235975
0.033622732,-0.540402949,-0.820524275,0.965295433
0.033733336,-0.588877857,-0.782581747,0.959211321
0.033843936,-0.634649694,-0.742532372,0.954134558
0.033954536,-0.677806258,-0.700543344,0.9501823
0.034065136,-0.718432486,-0.656728566,0.947437646
0.03417574,-0.756598055,-0.611155808,0.945952038
0.03428634,-0.792347848,-0.563851535,0.945743666
0.03439694,-0.825690925,-0.514811814,0.946796707
0.03450754,-0.856596291,-0.464014113,0.949066303
0.034618144,-0.884986818,-0.411427408,0.95247418
0.034728744,-0.910738766,-0.357027262,0.956913566
0.034839344,-0.93368423,-0.300809175,0.962252401
0.034949948,-0.9536165,-0.242801368,0.968336933
0.035060548,-0.970300257,-0.183076471,0.974999583
0.035171148,-0.983483732,-0.121758766,0.982065448
0.035281748,-0.992914081,-0.059029128,0.98936281
0.035392352,-0.998351455,0.004875133,0.996729395
0.035502952,-0.999584854,0.069664121,1.00402297
0.035613552,-0.996449232,0.135003895,1.011137124
0.035724152,-0.988844514,0.200536624,1.01802841
0.035834756,-0.976738572,0.265925199,1.024734449
0.035945356,-0.960119963,0.330903351,1.031327371
0.036055956,-0.938882887,0.395261794,1.037732961
0.03616656,-0.912769318,0.458670229,1.043526207
0.03627716,-0.881563842,0.520514607,1.048090264
0.03638776,-0.84533906,0.580036998,1.051041045
0.03649836,-0.804429054,0.636577249,1.052336697
0.036608964,-0.759279668,0.689642787,1.052112788
0.036719564,-0.710362256,0.738873661,1.050548822
0.036830164,-0.658148527,0.784000158,1.047815731
0.036940764,-0.603107095,0.824828029,1.044079445
0.037051368,-0.545698702,0.861224174,1.039494151
0.037161968,-0.486372858,0.893116474,1.034215593
0.037272568,-0.425560206,0.920487344,1.028398439
0.037383172,-0.363665074,0.943365812,1.022191341
0.037493772,-0.301062524,0.961822808,1.015741757
0.037604372,-0.238092899,0.975962162,1.00919037
0.037714972,-0.175059766,0.985911787,1.002667973
0.037825576,-0.112230502,0.991817355,0.996297351
0.037936176,-0.049836896,0.993833125,0.990187997
0.038046776,0.011922062,0.992116272,0.984436833
0.038157376,0.07287582,0.986822546,0.979129622
0.03826798,0.132879198,0.978100419,0.974337311
0.03837858,0.19180654,0.966091275,0.9701221
0.03848918,0.249549314,0.950927794,0.96653853
0.038599784,0.306011707,0.932732165,0.963632456
0.038710384,0.361110061,0.911620319,0.961452082
0.038820984,0.414769471,0.887699127,0.960043454
0.038931584,0.466928363,0.861071765,0.959466681
0.039042188,0.517543972,0.831834316,0.959800092
0.039152788,0.566606879,0.800066352,0.961149523
0.039263388,0.614144146,0.765792131,0.96361062
0.039373992,0.660181403,0.728929639,0.967177903
0.039484592,0.70463419,0.689286649,0.971625426
0.039595192,0.747226119,0.646680355,0.976542354
0.039705792,0.787561297,0.601082742,0.981553259
0.039816396,0.825268805,0.552627504,0.986465759
0.039926996,0.860063791,0.501522601,0.991234644
0.040037596,0.891726255,0.44798559,0.995866803
0.040148196,0.920069695,0.392228931,1.000371778
0.0402588,0.944920063,0.334465116,1.004740839
0.0403694,0.966111124,0.274914533,1.008948704
0.04048,0.983485579,0.213812441,1.012959644
0.040590604,0.99689734,0.151411206,1.01672966
0.040701204,1.00621593,0.087981716,1.02021128
0.040811804,1.01132917,0.023813251,1.023353761
0.040922404,1.01214814,-0.040787835,1.026107505
0.041033008,1.00860882,-0.105500057,1.028422014
0.041143608,1.00067592,-0.169988394,1.030248351
0.041254208,0.9883461,-0.233908311,1.031541111
0.041364808,0.971650422,-0.296907574,1.03225865
0.041475412,0.950656712,-0.358632445,1.032365415
0.041586012,0.925473273,-0.418730587,1.031836084
0.041696612,0.89624846,-0.476859301,1.030656095
0.041807216,0.86317265,-0.532691061,1.02882679
0.041917816,0.826477706,-0.585922003,1.026369992
0.042028416,0.786432564,-0.636281013,1.023329705
0.042139016,0.743339181,-0.683538795,1.019778422
0.04224962,0.697525799,-0.727517545,1.015824019
0.04236022,0.649331748,-0.768101752,1.01161202
0.04247082,0.599085689,-0.80524534,1.00732372
0.04258142,0.547070682,-0.838966131,1.0031505
0.042692024,0.49348858,-0.869306862,0.999225399
0.042802624,0.438466936,-0.896265447,0.995545005
0.042913224,0.38213551,-0.919748366,0.991964605
0.043023828,0.324714333,-0.939620614,0.988326296
0.043134428,0.266512483,-0.95580256,0.984587437
0.043245028,0.207856834,-0.968315959,0.98084026
0.043355628,0.149029881,-0.977259636,0.977246302
0.043466232,0.090251736,-0.982768238,0.973978786
0.043576832,0.031683952,-0.98497957,0.971188626
0.043687432,-0.026555983,-0.984019339,0.96899928
0.043798032,-0.08438272,-0.979991674,0.967504125
0.043908636,-0.141731665,-0.972973526,0.966765347
0.044019236,-0.198548973,-0.963015556,0.966820656
0.044129836,-0.254782647,-0.950139582,0.967679422
0.04424044,-0.310374379,-0.934343159,0.969329394
0.04435104,-0.365250617,-0.91560024,0.971731813
0.04446164,-0.419318438,-0.893868923,0.974829604
0.04457224,-0.472457826,-0.869095802,0.97854391
0.044682844,-0.524519026,-0.841223359,0.982776948
0.044793444,-0.575320482,-0.810201228,0.987419687
0.044904044,-0.62464869,-0.775990844,0.992347776
0.045014644,-0.672261536,-0.738578677,0.997434035
0.045125248,-0.717891037,-0.697981417,1.002545599
0.045235848,-0.761253238,-0.654255092,1.007556218
0.045346448,-0.802055061,-0.607499957,1.012348519
0.045457052,-0.840008199,-0.557863355,1.016825297
