Frequency (GHz),Re( S21 ),Im( S21 ),S2
0,0.038926411,0,0.001515266
8.81E-05,0.038302124,-0.006738672,0.001512462
0.00017618,0.036459751,-0.013224847,0.00150421
0.00026427,0.033486847,-0.019222703,0.001490881
0.00035236,0.029520573,-0.024528394,0.001473106
0.00044045,0.024734993,-0.028980309,0.001451678
0.00052854,0.019326653,-0.032464735,0.001427479
0.00061663,0.013501104,-0.034916475,0.00140144
0.00070472,0.007460028,-0.036315698,0.001374482
0.00079281,0.001391953,-0.036681306,0.001347456
0.0008809,-0.004534395,-0.036063582,0.001321143
0.00096899,-0.010173265,-0.034535606,0.001296203
0.00105708,-0.015402844,-0.032186262,0.001273203
0.00114517,-0.0201244,-0.029114038,0.001252619
0.00123326,-0.024260316,-0.025421422,0.001234812
0.00132135,-0.027751438,-0.021212351,0.001220106
0.00140944,-0.030553669,-0.016589055,0.001208723
0.00149753,-0.032636371,-0.011651409,0.001200888
0.00158562,-0.033978798,-0.00649581,0.001196754
0.00167371,-0.034568507,-0.001215816,0.00119646
0.0017618,-0.034398694,0.004097587,0.00120006
0.00184989,-0.033467915,0.009352437,0.001207569
0.00193798,-0.031780057,0.014455403,0.001218931
0.00202607,-0.029346515,0.019308843,0.001234049
0.00211416,-0.026188081,0.023811229,0.00125279
0.00220225,-0.022337616,0.027857037,0.001274984
0.00229034,-0.017842535,0.031337421,0.00130039
0.00237843,-0.012768279,0.034141876,0.001328697
0.00246652,-0.007201232,0.036160968,0.001359473
0.00255461,-0.001252348,0.037290756,0.001392169
0.002642699,0.004941381,0.037439086,0.001426102
0.002730789,0.011215333,0.036532931,0.001460439
0.002818879,0.017379899,0.03452773,0.001494225
0.002906969,0.02322459,0.031416412,0.001526373
0.002995059,0.028527197,0.027238127,0.001555716
0.003083149,0.03306596,0.022084117,0.001581066
0.003171239,0.036633451,0.016097659,0.001601144
0.003259329,0.039042912,0.009461606,0.001613871
0.003347419,0.039821386,0.00276962,0.001593414
0.003435509,0.040074464,-0.004365701,0.001625022
0.003523599,0.038635291,-0.011346481,0.001621428
0.003611689,0.035929352,-0.017853996,0.001609684
0.003699779,0.032110624,-0.02368113,0.001591888
0.003787869,0.027361304,-0.028643446,0.001569088
0.003875959,0.021892102,-0.032605648,0.001542392
0.003964049,0.015926169,-0.035486527,0.001512936
0.004052139,0.009685029,-0.037257332,0.001481909
0.004140229,0.003375566,-0.037933931,0.001450378
0.004228319,-0.00281749,-0.037568368,0.001419321
0.004316409,-0.00873589,-0.036239423,0.001389612
0.004404499,-0.014249177,-0.034043029,0.001361967
0.004492589,-0.019253848,-0.031084856,0.001336979
0.004580679,-0.023670185,-0.027474489,0.001315125
0.004668769,-0.027439097,-0.023321057,0.001296776
0.004756859,-0.030518776,-0.018730894,0.001282242
0.004844949,-0.032881208,-0.013805901,0.001271777
0.004933039,-0.034510039,-0.008643481,0.001265653
0.005021129,-0.035398576,-0.003335371,0.001264184
0.005109219,-0.035547223,0.002034563,0.001267745
0.005197309,-0.034955453,0.007388557,0.001276474
0.005285399,-0.033621043,0.012645674,0.001290288
0.005373489,-0.031546138,0.017718498,0.001309104
0.005461579,-0.02873995,0.022514852,0.001332903
0.005549669,-0.025220752,0.026937621,0.001361722
0.005637759,-0.021016283,0.030884361,0.001395528
0.005725849,-0.016167885,0.034246929,0.001434253
0.005813939,-0.010733323,0.036912281,0.001477721
0.005902029,-0.00479205,0.03876435,0.001525639
0.005990119,0.001551235,0.039687917,0.001577537
0.006078209,0.008161815,0.039574344,0.001632744
0.006166299,0.014872233,0.038329516,0.001690335
0.006254389,0.021481765,0.035883263,0.001749075
0.006342479,0.027758647,0.032198615,0.001807293
0.006430569,0.033438716,0.027276112,0.001862134
0.006518659,0.038194381,0.021167357,0.001906868
0.006606749,0.041036043,0.014607046,0.001897323
0.006694839,0.043603275,0.007120219,0.001951943
0.006782929,0.044626407,-0.000857121,0.001992251
0.006871019,0.04399477,-0.008926047,0.002015214
0.006959109,0.041757397,-0.0167291,0.002023543
0.007047199,0.03803701,-0.023920246,0.002018992
0.007135289,0.033029176,-0.03020002,0.002002968
0.007223378,0.026989168,-0.035335854,0.001977038
0.007311468,0.02020842,-0.039174382,0.001943012
0.007399558,0.01299,-0.041643351,0.001902909
0.007487648,0.005623987,-0.042744745,0.001858742
0.007575738,-0.001629397,-0.042541545,0.001812438
0.007663828,-0.008549673,-0.041141633,0.001765731
0.007751918,-0.014960922,-0.038681682,0.001720102
0.007840008,-0.020730469,-0.035313357,0.001676786
0.007928098,-0.025764521,-0.031192089,0.001636757
0.008016188,-0.030002305,-0.026469175,0.001600756
0.008104278,-0.033409663,-0.021287294,0.001569354
0.008192368,-0.035972234,-0.015777661,0.001542936
0.008280458,-0.037690781,-0.010059961,0.001521798
0.008368548,-0.038576029,-0.004242509,0.001506109
0.008456638,-0.038645662,0.001575551,0.00149597
0.008544728,-0.037921373,0.007301938,0.001491349
0.008632818,-0.036363907,0.012718857,0.001484103
0.008720908,-0.034265447,0.018065205,0.001500473
0.008808998,-0.031422894,0.023075497,0.001519877
0.008897088,-0.027885171,0.027706163,0.001545214
0.008985178,-0.023691962,0.031873189,0.001577209
0.009073268,-0.018884419,0.035491291,0.001616253
0.009161358,-0.013511065,0.038472116,0.001662653
0.009249448,-0.007632102,0.040724203,0.00171671
0.009337538,-0.001323999,0.04215439,0.001778746
0.009425628,0.005314891,0.042671125,0.001849073
0.009513718,0.012151932,0.042193253,0.00192794
0.009601808,0.018967317,0.040648725,0.002012078
0.009689898,0.025497614,0.037675951,0.002069606
0.009777988,0.032071114,0.033379577,0.002142752
0.009866078,0.038104281,0.028022783,0.002237213
0.009954168,0.043280087,0.021520563,0.002336301
0.010042258,0.047342498,0.01396016,0.002436198
0.010130348,0.050032362,0.005532754,0.002533849
0.010218438,0.051111024,-0.003491583,0.002624528
0.010306527,0.050407782,-0.0127767,0.002704189
0.010394617,0.047847182,-0.021925505,0.002770081
0.010482707,0.043462236,-0.030512454,0.002819976
0.010570797,0.037403487,-0.038122822,0.00285237
0.010658887,0.029931098,-0.044393983,0.002866696
0.010746977,0.021393022,-0.049048767,0.002863443
0.010835067,0.012190011,-0.051917799,0.002844054
0.010923157,0.002738027,-0.052946322,0.00281081
0.011011247,-0.0065682,-0.052185584,0.002766476
0.011099337,-0.01538278,-0.049774014,0.002714082
0.011187427,-0.023424774,-0.045912292,0.002656659
0.011275517,-0.030484699,-0.040837154,0.00259699
0.011363607,-0.036422007,-0.034799408,0.002537561
0.011451697,-0.041156296,-0.028045991,0.002480418
0.011539787,-0.0446571,-0.020808779,0.002427262
0.011627877,-0.046931546,-0.013297978,0.002379406
0.011715967,-0.04801406,-0.005699072,0.002337829
0.011804057,-0.047957763,0.001826617,0.002303284
0.011892147,-0.046827119,0.009139324,0.002276306
0.011980237,-0.044693269,0.016118245,0.002257286
0.012068327,-0.041630793,0.022657799,0.002246499
0.012156417,-0.03771583,0.028664315,0.002244127
0.012244507,-0.033025492,0.034052234,0.002250238
0.012332597,-0.02763753,0.038740989,0.002264697
0.012420687,-0.021707049,0.042531174,0.002280097
0.012508777,-0.015248091,0.045711469,0.002322043
0.012596867,-0.008322286,0.047978316,0.002371179
0.012684957,-0.001028415,0.049279172,0.002429494
0.012773047,0.006520653,0.049548116,0.002497535
0.012861137,0.014200388,0.048721749,0.00257546
0.012949227,0.021870505,0.046743613,0.002663284
0.013037317,0.029372692,0.043569163,0.002761027
0.013125407,0.036528636,0.039172102,0.002868795
0.013213497,0.043139167,0.033552878,0.002986783
0.013301587,0.048775543,0.026807614,0.003097702
0.013389677,0.0536323,0.018926313,0.003234629
0.013477767,0.05725462,0.010062167,0.003379339
0.013565857,0.059405509,0.000399842,0.003529174
0.013653947,0.059872698,-0.009814532,0.003681065
0.013742037,0.058488052,-0.020270998,0.003831766
0.013830127,0.055148732,-0.030603226,0.00397794
0.013918217,0.049836207,-0.040403195,0.004116066
0.014006307,0.042632841,-0.049246091,0.004242737
0.014094397,0.033729281,-0.05672032,0.004354859
0.014182487,0.023420323,-0.062461529,0.004449954
0.014270577,0.012090316,-0.066182867,0.004526348
0.014358666,0.000186327,-0.067700297,0.004583365
0.014446756,-0.011815818,-0.066946432,0.004621438
0.014534846,-0.023445852,-0.06397029,0.004641906
0.014622936,-0.034272157,-0.058927104,0.004646984
0.014711026,-0.043925945,-0.052058142,0.004639539
0.014799116,-0.052116569,-0.043664638,0.004622737
0.014887206,-0.058637165,-0.034082994,0.004599968
0.014975296,-0.063361697,-0.023660639,0.00457453
0.015063386,-0.066236548,-0.01273753,0.004549525
0.015151476,-0.067269519,-0.00163331,0.004527856
0.015239566,-0.066516019,0.009361386,0.004512016
0.015327656,-0.064068094,0.019987557,0.004504223
0.015415746,-0.060043927,0.03001876,0.004506399
0.015503836,-0.054579634,0.039258879,0.004520196
0.015591926,-0.04782334,0.047539018,0.00454703
0.015680016,-0.039931774,0.054713767,0.004588143
0.015768106,-0.03106807,0.06065809,0.004644629
0.015856196,-0.021401452,0.065264598,0.00471749
0.015944286,-0.011107806,0.068441756,0.004807657
0.016032376,-0.000371347,0.070114918,0.00491624
0.016120466,0.010619377,0.070229478,0.005044951
0.016208556,0.021679049,0.068741441,0.005195367
0.016296646,0.032606922,0.065605886,0.005367344
0.016384736,0.043174952,0.060797952,0.005560467
0.016472826,0.053137604,0.054324124,0.005774715
0.016560916,0.062236015,0.04622449,0.006010025
0.016649006,0.070200846,0.036578968,0.00626618
0.016737096,0.076756895,0.025513671,0.006542568
0.016825186,0.081630439,0.013207008,0.006837954
0.016913276,0.084560476,-0.000104549,0.007150485
0.017001366,0.08531192,-0.014123729,0.007477603
0.017089456,0.083692066,-0.028491959,0.007816154
0.017177546,0.079567775,-0.04279469,0.008162416
0.017265636,0.072884128,-0.056570437,0.00851231
0.017353726,0.063679487,-0.069327898,0.008861434
0.017441816,0.052097499,-0.080567852,0.009205328
0.017529906,0.038393579,-0.089809224,0.009539764
0.017617996,0.022931121,-0.096618645,0.009860999
0.017706086,0.006172107,-0.100638308,0.010166164
0.017794176,-0.011344888,-0.101610959,0.010453493
0.017882266,-0.029029647,-0.099397801,0.010722643
0.017970356,-0.0462723,-0.093987353,0.010974748
0.018058446,-0.062475149,-0.085495248,0.011212582
0.018146536,-0.077081487,-0.074154481,0.011440443
0.018234626,-0.089600407,-0.060298935,0.011664194
0.018322716,-0.099623226,-0.044341423,0.011890949
0.018410806,-0.106833823,-0.026750559,0.012129058
0.018498896,-0.111010924,-0.008027837,0.012387871
0.018586986,-0.112025589,0.011312832,0.012677713
0.018675076,-0.109833576,0.030761639,0.013009693
0.018763166,-0.104466721,0.049825005,0.013395827
0.018851256,-0.096022137,0.068034373,0.013848927
0.018939346,-0.084653169,0.084950969,0.014382826
0.019027436,-0.070560955,0.100167662,0.015012409
0.019115526,-0.053987905,0.113310173,0.015753889
0.019203616,-0.03521305,0.124035686,0.01662481
0.019291706,-0.014549447,0.132033616,0.017644562
0.019379796,0.007656956,0.137024969,0.018834471
0.019467886,0.031028587,0.138763562,0.020218099
0.019555976,0.055157118,0.137038663,0.021821903
0.019644066,0.079604685,0.131673709,0.023674872
0.019732156,0.103897661,0.122525878,0.025807315
0.019820246,0.127518162,0.109496512,0.028250368
0.019908336,0.149904683,0.092549175,0.031036764
0.019996426,0.170459718,0.071722589,0.034200645
0.020084516,0.18856062,0.04714248,0.037777521
0.020172606,0.203569934,0.019032762,0.041802964
0.020260696,0.214851841,-0.012273229,0.046311946
0.020348786,0.221791983,-0.046324842,0.051337675
0.020436876,0.223820806,-0.082549542,0.05691018
0.020524964,0.220440894,-0.120253921,0.063055193
0.020613054,0.211255744,-0.158631921,0.069793076
0.020701144,0.195997506,-0.196780831,0.077137718
0.020789234,0.174552798,-0.233725384,0.085096234
0.020877324,0.146981776,-0.268448085,0.093668017
0.020965414,0.113530785,-0.299928248,0.102846193
0.021053504,0.074633196,-0.327180743,0.112617353
0.021141594,0.030901443,-0.349297464,0.122963618
0.021229684,-0.016892696,-0.365484238,0.133864091
0.021317774,-0.067845814,-0.375091285,0.145296527
0.021405864,-0.120958395,-0.377636939,0.157240591
0.021493954,-0.17517215,-0.372817904,0.169678472
0.021582044,-0.229408979,-0.360512197,0.182597524
0.021670134,-0.282606483,-0.340771675,0.195991759
0.021758224,-0.333747447,-0.313806444,0.209861843
0.021846314,-0.381883442,-0.279964805,0.224215255
0.021934404,-0.426149756,-0.239710897,0.239064929
0.022022494,-0.465768248,-0.193601102,0.254421448
0.022110584,-0.500022888,-0.142265067,0.270262238
0.022198674,-0.528348327,-0.086864807,0.286697449
0.022286764,-0.55092591,-0.027440382,0.304272333
0.022374854,-0.566870272,0.035293244,0.322587518
0.022462944,-0.575850606,0.100565776,0.341717396
0.022551034,-0.577600181,0.167633116,0.361722831
0.022639124,-0.571912289,0.235748783,0.382661155
0.022727214,-0.558636069,0.304158717,0.404586783
0.022815304,-0.537674487,0.372097135,0.427550132
0.022903394,-0.508986115,0.438781828,0.451596358
0.022991484,-0.47258696,0.503410339,0.476760404
0.023079574,-0.428558946,0.565158844,0.503067289
0.023167664,-0.377057046,0.62317878,0.530523808
0.023255754,-0.318320364,0.676602066,0.55911821
0.023343844,-0.252684623,0.72454381,0.588813251
0.023431934,-0.180594876,0.766113579,0.619544525
0.023520024,-0.102619112,0.800428867,0.651217053
0.023608114,-0.019458324,0.82663554,0.683704942
0.023696204,0.068045668,0.843929231,0.71684676
0.023784294,0.158906758,0.851584196,0.750447001
0.023872384,0.251998395,0.848984957,0.784278648
0.023960474,0.346065551,0.835658491,0.818086479
0.024048564,0.439743459,0.811305165,0.85159038
0.024136654,0.531587183,0.775828183,0.884494303
0.024224744,0.62010926,0.72935617,0.916495917
0.024312834,0.703822076,0.672257066,0.947295077
0.024400924,0.781288564,0.605141342,0.976607864
0.024489014,0.851168811,0.528852999,1.004173839
0.024577104,0.912270546,0.444449604,1.029773
0.024665194,0.963586986,0.353167832,1.053227397
0.024753284,1.0043323,0.256383598,1.074415918
0.024841374,1.03395975,0.155562013,1.093272305
0.024929464,1.05217087,0.052208293,1.109789246
0.025017554,1.05891216,-0.05218276,1.124018003
0.025105644,1.05435872,-0.156171665,1.136061899
0.025193734,1.03888738,-0.258410692,1.146063074
0.025281824,1.01304686,-0.357674092,1.154194697
0.025369914,0.977519989,-0.452876925,1.160642838
0.025458004,0.93308717,-0.543085992,1.165594062
0.025546094,0.880594134,-0.627519369,1.169226587
0.025634184,0.820922673,-0.705539167,1.171699551
0.025722274,0.754961133,-0.77663517,1.1731285
0.025810364,0.683576941,-0.840409756,1.173565992
0.025898454,0.607589722,-0.896571219,1.173005221
0.025986544,0.527757406,-0.944941461,1.171442244
0.026074634,0.444796473,-0.985464871,1.168984914
0.026162724,0.359421223,-1.01818156,1.165877305
0.026250814,0.272350997,-1.04317391,1.162386872
0.026338904,0.184284911,-1.06053388,1.158693039
0.026426994,0.095882833,-1.07036531,1.154875415
0.026515084,0.007763398,-1.07279229,1.150943568
0.026603174,-0.079487436,-1.06796432,1.146866041
0.026691264,-0.165309161,-1.05606091,1.142591764
0.026779354,-0.249160573,-1.03729165,1.138054958
0.026867444,-0.330515891,-1.01190066,1.1331837
0.026955534,-0.408865184,-0.980167568,1.1278992
0.027043624,-0.483715206,-0.942412198,1.122121151
0.027131714,-0.554593742,-0.898998737,1.115772948
0.027219804,-0.621055603,-0.850336552,1.108782314
0.027307894,-0.682690799,-0.796883225,1.101089601
0.027395984,-0.739132941,-0.739141345,1.092647432
0.027484074,-0.790069997,-0.677657247,1.083429945
0.027572164,-0.835252941,-0.613012254,1.073431499
0.027660254,-0.874505103,-0.545815408,1.062673635
0.027748344,-0.907726824,-0.476688802,1.051200201
0.027836434,-0.934902608,-0.40625757,1.0390881
0.027924524,-0.95609796,-0.33513099,1.02643609
0.028012614,-0.971458256,-0.263888448,1.013368256
0.028100704,-0.981201947,-0.193065062,1.000031379
0.028188794,-0.985609293,-0.123136334,0.986588235
0.028276884,-0.985010207,-0.054505993,0.973216011
0.028364974,-0.979771435,0.012507844,0.960108511
0.028453064,-0.97029233,0.077697262,0.94750407
0.028541154,-0.957108974,0.14098911,0.935935517
0.028629244,-0.940894663,0.201970905,0.926075013
0.028717332,-0.921663344,0.26038155,0.917261871
0.028805422,-0.899671555,0.316385657,0.909508791
0.028893512,-0.87525177,0.370080233,0.90302504
0.028981602,-0.848702729,0.421548307,0.897999297
0.029069692,-0.820287704,0.470855594,0.894576908
0.029157782,-0.790229201,0.517998755,0.8927849
0.029245872,-0.75861311,0.56282717,0.892268274
0.029333962,-0.72512114,0.605152607,0.892010345
0.029422052,-0.689146996,0.645343363,0.891391638
0.029510142,-0.65071702,0.68415761,0.891504275
0.029598232,-0.610259593,0.721798062,0.893409213
0.029686322,-0.56794703,0.75809294,0.897268735
0.029774412,-0.523741484,0.792844355,0.902907313
0.029862502,-0.477541536,0.825875461,0.910116196
0.029950592,-0.429241717,0.857005,0.918706022
0.030038682,-0.378754407,0.886028349,0.928501136
0.030126772,-0.326020926,0.912709594,0.939328447
0.030214862,-0.27101931,0.936780453,0.951009084
0.030302952,-0.213773146,0.957944751,0.963357104
0.030391042,-0.154358432,0.97588414,0.97617638
0.030479132,-0.092908777,0.990266979,0.989260731
0.030567222,-0.029621162,1.0007596,1.00239719
0.030655312,0.035242733,1.00703859,1.015368772
0.030743402,0.101356708,1.00880373,1.027958148
0.030831492,0.16833286,1.00579119,1.03995187
0.030919582,0.23572816,0.99778676,1.051146184
0.031007672,0.303053617,0.984638333,1.061354142
0.031095762,0.369785935,0.966263473,1.070406737
0.031183852,0.435382307,0.942657769,1.078161423
0.031271942,0.499294311,0.913897753,1.084503912
0.031360032,0.560984969,0.880139351,1.089349413
0.031448122,0.619942665,0.841615558,1.092645655
0.031536212,0.675694406,0.798626065,1.094366522
0.031624302,0.727814257,0.75152868,1.09450895
0.031712392,0.775924981,0.700726986,1.093077885
0.031800482,0.819693565,0.646668851,1.090078143
0.031888572,0.858835638,0.589869201,1.085544327
0.031976662,0.893189073,0.530918896,1.079661594
0.032064752,0.930315614,0.468264163,1.084758468
0.032152842,0.95677191,0.406690329,1.080809511
0.032240932,0.978778422,0.344122171,1.076427268
0.032329022,0.996488571,0.280988991,1.071944285
0.032417112,1.01015794,0.217705697,1.067814834
0.032505202,1.0201987,0.154763117,1.06475701
0.032593292,1.02722216,0.093138725,1.063860188
0.032681382,1.03054857,0.035591219,1.06329709
0.032769472,1.02417004,-0.019835485,1.049317717
0.032857562,1.01334107,-0.0794039,1.033165103
0.032945652,1.0011934,-0.139015734,1.021713599
0.033033742,0.986838639,-0.197286561,1.012772487
0.033121832,0.969916523,-0.254011273,1.005259788
0.033209922,0.950360835,-0.309134781,0.99875003
0.033298012,0.928204715,-0.362616867,0.993054985
0.033386102,0.903513908,-0.414414138,0.98807646
0.033474192,0.87636292,-0.464478254,0.983752016
0.03356228,0.846826434,-0.512755036,0.980032736
0.033650372,0.814977407,-0.559183061,0.97687387
0.03373846,0.7808882,-0.603693664,0.974232421
0.033826552,0.744629085,-0.646208704,0.972058163
0.03391464,0.706275105,-0.686643362,0.970303631
0.034002732,0.665905297,-0.724905133,0.968917316
0.03409082,0.62360698,-0.760895669,0.967847885
0.034178912,0.579477012,-0.794512749,0.967044116
0.034267,0.533623993,-0.82565254,0.966456683
0.034355092,0.486168891,-0.854213178,0.966040344
0.03444318,0.437245429,-0.880096138,0.965752777
0.034531272,0.386999607,-0.903210878,0.965558586
0.03461936,0.335588455,-0.92347604,0.965427608
0.034707452,0.283178598,-0.940821886,0.96533594
0.03479554,0.229943648,-0.955191433,0.965264755
0.034883632,0.176063195,-0.966540933,0.965199624
0.03497172,0.121720746,-0.974839807,0.965128589
0.035059812,0.067103833,-0.98007226,0.965044559
0.0351479,0.012404292,-0.982236862,0.96494312
0.035235992,-0.042186361,-0.981352866,0.964833137
0.03532408,-0.096482098,-0.977459729,0.964736317
0.035412172,-0.150312781,-0.970610023,0.964677749
0.03550026,-0.203522548,-0.960853696,0.964661253
0.035588352,-0.268022805,-0.955304682,0.984443259
0.03567644,-0.321393728,-0.941230536,0.98920885
0.035764532,-0.374376416,-0.924595475,0.995034493
0.03585262,-0.427175999,-0.905626893,1.002639403
0.035940712,-0.480626345,-0.884989262,1.014207677
0.0360288,-0.539835155,-0.867450953,1.04389315
0.036116892,-0.550796628,-0.85235399,1.02988425
0.03620498,-0.600689828,-0.809587419,1.016260058
