Frequency (GHz),Re( S21 ),Im( S21 ),S2
0,0.046631355,3.83E-05,2.17E-03
0.000114232,0.045577556,-0.00978208,2.17E-03
0.000228464,0.0424514,-0.019149156,2.17E-03
0.000342696,0.037398808,-0.027630065,2.16E-03
0.000456928,0.030655552,-0.034834448,2.15E-03
0.00057116,0.022535121,-0.040432446,2.14E-03
0.000685393,0.013412969,-0.04416956,2.13E-03
0.000799625,0.003709077,-0.045878276,2.12E-03
0.000913857,-0.006132013,-0.045484405,2.11E-03
0.001028089,-0.015661798,-0.043009549,2.10E-03
0.001142321,-0.024448104,-0.038569205,2.09E-03
0.001256553,-0.032094114,-0.032366261,2.08E-03
0.001370785,-0.038254838,-0.024681443,2.07E-03
0.001485017,-0.042652145,-0.015860796,2.07E-03
0.001599249,-0.045086414,-0.006299604,2.07E-03
0.001713481,-0.045444243,0.003573896,2.08E-03
0.001827713,-0.043703251,0.013316957,2.09E-03
0.001941945,-0.03993351,0.022491319,2.10E-03
0.002056178,-0.034294721,0.030681316,2.12E-03
0.00217041,-0.027030012,0.037512243,2.14E-03
0.002284642,-0.01841622,0.042789985,2.17E-03
0.002398874,-0.008896579,0.046016365,2.20E-03
0.002513106,0.001126499,0.047155086,2.22E-03
0.002627338,0.011200531,0.046136607,2.25E-03
0.00274157,0.020865277,0.042988516,2.28E-03
0.002855802,0.029673956,0.037836246,2.31E-03
0.002970034,0.037213497,0.030899026,2.34E-03
0.003084266,0.043124747,0.022481239,2.37E-03
0.003198498,0.047121145,0.012958469,2.39E-03
0.003312731,0.049022373,0.002747979,2.41E-03
0.003426963,0.048650585,-0.00759659,2.42E-03
0.003541195,0.046085812,-0.017718062,2.44E-03
0.003655427,0.041404352,-0.027081158,2.45E-03
0.003769659,0.034809638,-0.035251495,2.45E-03
0.003883891,0.026596244,-0.041843623,2.46E-03
0.003998123,0.017135834,-0.046543557,2.46E-03
0.004112355,0.006904132,-0.049071305,2.46E-03
0.004226587,-0.003703275,-0.049412042,2.46E-03
0.004340819,-0.014174104,-0.047478177,2.46E-03
0.004455052,-0.024027642,-0.043345712,2.46E-03
0.004569284,-0.032810029,-0.037189379,2.46E-03
0.004683516,-0.04011396,-0.02927657,2.47E-03
0.004797748,-0.045597315,-0.019953555,2.48E-03
0.00491198,-0.048996624,-0.009631065,2.49E-03
0.005026212,-0.050139476,0.001233319,2.52E-03
0.005140444,-0.048951577,0.012154843,2.54E-03
0.005254676,-0.045460746,0.022641705,2.58E-03
0.005368908,-0.039796285,0.032216139,2.62E-03
0.00548314,-0.032175824,0.040559564,2.68E-03
0.005597372,-0.022911441,0.047029495,2.74E-03
0.005711604,-0.012410446,0.051429253,2.80E-03
0.005825837,-0.001129026,0.053526446,2.87E-03
0.005940069,0.010433263,0.053187288,2.94E-03
0.006054301,0.021754101,0.050385278,3.01E-03
0.006168533,0.032311373,0.045205042,3.09E-03
0.006282765,0.041607276,0.037841447,3.16E-03
0.006396997,0.049191549,0.028593548,3.24E-03
0.006511229,0.05468652,0.017853446,3.31E-03
0.006625461,0.05782165,0.00610126,3.38E-03
0.006739693,0.058329772,-0.006071338,3.44E-03
0.006853925,0.056182455,-0.018254237,3.49E-03
0.006968157,0.051468931,-0.029787993,3.54E-03
0.007082389,0.044344861,-0.040123627,3.58E-03
0.007196622,0.035099767,-0.048759472,3.61E-03
0.007310854,0.024171025,-0.055180844,3.63E-03
0.007425086,0.011986768,-0.059225291,3.65E-03
0.007539318,-0.000889586,-0.060573045,3.67E-03
0.00765355,-0.01386876,-0.059115004,3.69E-03
0.007767782,-0.026347743,-0.054869849,3.70E-03
0.007882014,-0.037737288,-0.047984392,3.73E-03
0.007996246,-0.047489382,-0.038727775,3.76E-03
0.008110478,-0.055120889,-0.027480591,3.79E-03
0.00822471,-0.060236361,-0.01471943,3.85E-03
0.008338942,-0.06254603,-0.000996763,3.91E-03
0.008453174,-0.061879069,0.01308204,4.00E-03
0.008567406,-0.058193546,0.026883269,4.11E-03
0.008681638,-0.051579494,0.0397719,4.24E-03
0.00879587,-0.042258587,0.051138256,4.40E-03
0.008910103,-0.030577075,0.060424086,4.59E-03
0.009024335,-0.016995031,0.067147784,4.80E-03
0.009138567,-0.001949097,0.071061909,5.05E-03
0.009252799,0.013707692,0.07161051,5.32E-03
0.009367031,0.029381592,0.06881845,5.60E-03
0.009481263,0.044361256,0.062703356,5.90E-03
0.009595495,0.057942029,0.053433627,6.21E-03
0.009709727,0.069457755,0.041327447,6.53E-03
0.009823959,0.078313023,0.026846539,6.85E-03
0.009938191,0.084009685,0.010587476,7.17E-03
0.010052423,0.086152636,-0.006749958,7.47E-03
0.010166656,0.084510155,-0.024427982,7.74E-03
0.010280888,0.079014897,-0.041494042,7.97E-03
0.01039512,0.069904938,-0.057381999,8.18E-03
0.010509352,0.057396419,-0.071158461,8.36E-03
0.010623584,0.041953296,-0.082085058,8.50E-03
0.010737816,0.024197603,-0.089524888,8.60E-03
0.010852048,0.004886952,-0.092974253,8.67E-03
0.01096628,-0.015113797,-0.092090674,8.71E-03
0.011080512,-0.034867503,-0.086713873,8.74E-03
0.011194744,-0.053402558,-0.076879986,8.76E-03
0.011308976,-0.069753438,-0.062827654,8.81E-03
0.011423208,-0.083001696,-0.044995766,8.91E-03
0.011537441,-0.092315935,-0.024012985,9.10E-03
0.011651673,-0.096990123,-0.000680491,9.41E-03
0.011765905,-0.096475765,0.024053639,9.89E-03
0.011880137,-0.090411887,0.049125489,1.06E-02
0.011994369,-0.078647412,0.073390931,1.16E-02
0.012108601,-0.061256066,0.095666528,1.29E-02
0.012222833,-0.038545944,0.114772767,1.47E-02
0.012337065,-0.01105911,0.129578412,1.69E-02
0.012451297,0.020436658,0.139046431,1.98E-02
0.012565529,0.055316661,0.142437398,2.33E-02
0.012679761,0.09174002,0.138644859,2.76E-02
0.012793993,0.128701463,0.127380759,3.28E-02
0.012908226,0.164773643,0.108389683,3.89E-02
0.013022458,0.198463604,0.08168716,4.61E-02
0.01313669,0.227934003,0.047800597,5.42E-02
0.013250922,0.252438903,0.006925732,6.38E-02
0.013365154,0.270238459,-0.039930835,7.46E-02
0.013479386,0.280114532,-0.091652483,8.69E-02
0.013593618,0.281050771,-0.146889523,1.01E-01
0.01370785,0.27227357,-0.20409739,1.16E-01
0.013822082,0.25328657,-0.261585206,1.33E-01
0.013936314,0.223895907,-0.317569196,1.51E-01
0.014050546,0.184225827,-0.370231003,1.71E-01
0.014164778,0.134720266,-0.41777575,1.93E-01
0.014279011,0.076134458,-0.458489805,2.16E-01
0.014393243,0.009514166,-0.490795344,2.41E-01
0.014507475,-0.063834131,-0.51329869,2.68E-01
0.014621707,-0.142381325,-0.524829984,2.96E-01
0.014735939,-0.224416643,-0.524472713,3.25E-01
0.014850171,-0.308089644,-0.511588097,3.57E-01
0.014964403,-0.391454488,-0.485833496,3.89E-01
0.015078635,-0.472518563,-0.447176009,4.23E-01
0.015192867,-0.549291253,-0.395895749,4.58E-01
0.015307099,-0.619832993,-0.332582235,4.95E-01
0.015421331,-0.682302356,-0.258125246,5.32E-01
0.015535563,-0.73499763,-0.173697829,5.70E-01
0.015649796,-0.77639544,-0.080734558,6.09E-01
0.015764028,-0.805177987,0.01909834,6.49E-01
0.01587826,-0.820258319,0.123952836,6.88E-01
0.015992492,-0.820825756,0.231867492,7.28E-01
0.016106724,-0.80641979,0.34079957,7.66E-01
0.016220956,-0.776948512,0.448610485,8.05E-01
0.016335188,-0.732642293,0.553104103,8.43E-01
0.01644942,-0.674038827,0.652115226,8.80E-01
0.016563652,-0.601988256,0.743580282,9.15E-01
0.016677884,-0.517648458,0.82559073,9.50E-01
0.016792116,-0.422460914,0.89643997,9.82E-01
0.016906348,-0.31811738,0.954669893,1.01E+00
0.01702058,-0.206515163,0.999106884,1.04E+00
0.017134812,-0.089703828,1.02889431,1.07E+00
0.017249044,0.030171176,1.04351294,1.09E+00
0.017363276,0.150929928,1.04278946,1.11E+00
0.017477508,0.270419478,1.02689445,1.13E+00
0.01759174,0.386573046,0.99632746,1.14E+00
0.017705974,0.497464478,0.951889992,1.15E+00
0.017820206,0.601356566,0.894651473,1.16E+00
0.017934438,0.696739554,0.825904667,1.17E+00
0.01804867,0.782359183,0.747114062,1.17E+00
0.018162902,0.857238472,0.659866571,1.17E+00
0.018277134,0.92068696,0.565816998,1.17E+00
0.018391366,0.972308695,0.466646433,1.16E+00
0.018505598,1.01197946,0.364045769,1.16E+00
0.01861983,1.03976882,0.259659678,1.15E+00
0.018734062,1.05594766,0.15497081,1.14E+00
0.018848294,1.06103206,0.051300697,1.13E+00
0.018962526,1.05577314,-0.050182663,1.12E+00
0.019076758,1.04126656,-0.148474231,1.11E+00
0.01919099,1.01986134,-0.242217302,1.10E+00
0.019305222,0.987820983,-0.322937608,1.08E+00
0.019419454,0.943695486,-0.40662843,1.06E+00
0.019533686,0.896504402,-0.48471272,1.04E+00
0.019647918,0.844604492,-0.556326985,1.02E+00
0.01976215,0.788429797,-0.621518552,1.01E+00
0.019876382,0.728646338,-0.68035388,9.94E-01
0.019990614,0.665914834,-0.732947946,9.81E-01
0.020104846,0.600836873,-0.779466867,9.69E-01
0.020219078,0.533937573,-0.820117295,9.58E-01
0.020333312,0.465660393,-0.85512954,9.48E-01
0.020447544,0.396369219,-0.884740114,9.40E-01
0.020561776,0.326355338,-0.909177899,9.33E-01
0.020676008,0.255846411,-0.928648889,9.28E-01
0.02079024,0.185018614,-0.943326652,9.24E-01
0.020904472,0.114010938,-0.95334357,9.22E-01
0.021018704,0.042938799,-0.95878613,9.21E-01
0.021132936,-0.028089777,-0.95969516,9.22E-01
0.021247168,-0.098961003,-0.95606488,9.24E-01
0.0213614,-0.169541255,-0.94784826,9.27E-01
0.021475632,-0.239663199,-0.934961796,9.32E-01
0.021589864,-0.309109122,-0.917290747,9.37E-01
0.021704096,-0.377577513,-0.894702137,9.43E-01
0.021818328,-0.444647163,-0.867129207,9.50E-01
0.02193256,-0.509920299,-0.834661067,9.57E-01
0.022046792,-0.578702986,-0.798307419,9.72E-01
0.022161024,-0.640931129,-0.756262481,9.83E-01
0.022275256,-0.700626612,-0.709055126,9.94E-01
0.022389488,-0.757459402,-0.65657568,1.00E+00
0.02250372,-0.795082808,-0.602184594,9.95E-01
0.022617952,-0.84241426,-0.54582268,1.01E+00
0.022732184,-0.889205515,-0.482535571,1.02E+00
0.022846416,-0.928973079,-0.412865788,1.03E+00
0.022960648,-0.961962402,-0.33993265,1.04E+00
0.023074882,-0.988545477,-0.26442036,1.05E+00
0.023189114,-1.0086472,-0.186837614,1.05E+00
0.023303346,-1.02211392,-0.107756101,1.06E+00
0.023417578,-1.02882421,-0.027802525,1.06E+00
0.02353181,-1.02872205,0.052362625,1.06E+00
0.023646042,-1.02183282,0.132065445,1.06E+00
0.023760274,-1.00826824,0.210635632,1.06E+00
0.023874506,-0.98822403,0.287423462,1.06E+00
0.023988738,-0.961977124,0.361815691,1.06E+00
0.02410297,-0.92987746,0.433247924,1.05E+00
0.024217202,-0.892336845,0.501217246,1.05E+00
0.024331434,-0.84981674,0.565288842,1.04E+00
0.024445666,-0.802815735,0.625104249,1.04E+00
0.024559898,-0.751852453,0.680380642,1.03E+00
0.02467413,-0.697454393,0.730912507,1.02E+00
0.024788362,-0.64014411,0.77656436,1.01E+00
0.024902594,-0.580430686,0.817266166,1.00E+00
0.025016826,-0.518804133,0.853007436,9.97E-01
0.025131058,-0.455731541,0.883835316,9.89E-01
0.02524529,-0.391644895,0.909853637,9.81E-01
0.025359522,-0.32692802,0.931211948,9.74E-01
0.025473754,-0.261916846,0.948083818,9.67E-01
0.025587986,-0.196922943,0.960664988,9.62E-01
0.025702218,-0.132259354,0.969210863,9.57E-01
0.025816452,-0.068198808,0.974176168,9.54E-01
0.025930684,-0.004543027,0.976326227,9.53E-01
0.026044916,0.059883352,0.975682318,9.56E-01
0.026159148,0.125223011,0.97079587,9.58E-01
0.02627338,0.190322474,0.961249471,9.60E-01
0.026387612,0.254606754,0.94741714,9.62E-01
0.026501844,0.317900866,0.929542542,9.65E-01
0.026616076,0.380084246,0.907711864,9.68E-01
0.026730308,0.441005081,0.881936908,9.72E-01
0.02684454,0.500468552,0.852204204,9.77E-01
0.026958772,0.558238506,0.818500996,9.82E-01
0.027073004,0.614041328,0.780828774,9.87E-01
0.027187236,0.66757226,0.739216685,9.92E-01
0.027301468,0.718501985,0.693729341,9.98E-01
0.0274157,0.766483963,0.644474328,1.00E+00
0.027529932,0.811164379,0.591606617,1.01E+00
0.027644164,0.852190793,0.535331726,1.01E+00
0.027758396,0.889222622,0.475907028,1.02E+00
0.027872628,0.921940446,0.413639724,1.02E+00
0.02798686,0.950054824,0.348884195,1.02E+00
0.028101092,0.973316073,0.282039016,1.03E+00
0.028215324,0.991520941,0.213539004,1.03E+00
0.028329556,1.00452197,0.14384988,1.03E+00
0.02844379,1.01223254,0.073458418,1.03E+00
0.028558022,1.01463306,0.002860817,1.03E+00
0.028672254,1.01177323,-0.067449369,1.03E+00
0.028786486,1.00377226,-0.136990786,1.03E+00
0.028900718,0.990825891,-0.205306366,1.02E+00
0.02901495,0.973225296,-0.2719872,1.02E+00
0.029129182,0.951369882,-0.336747587,1.02E+00
0.029243414,0.925670981,-0.39957732,1.02E+00
0.029357646,0.896168768,-0.460715711,1.02E+00
0.029471878,0.862418771,-0.520002067,1.01E+00
0.02958611,0.824313521,-0.576665163,1.01E+00
0.029700342,0.782307804,-0.630073011,1.01E+00
0.029814574,0.736944437,-0.679951906,1.01E+00
0.029928806,0.688663483,-0.726194859,1.00E+00
0.030043038,0.637821257,-0.768747389,9.98E-01
0.03015727,0.584725499,-0.807573259,9.94E-01
0.030271502,0.52965188,-0.842648029,9.91E-01
0.030385734,0.472854555,-0.873955667,9.87E-01
0.030499966,0.414568335,-0.901488066,9.85E-01
0.030614198,0.355012417,-0.92524159,9.82E-01
0.03072843,0.294391632,-0.945215583,9.80E-01
0.030842662,0.23289983,-0.961408615,9.79E-01
0.030956894,0.170722738,-0.973818243,9.77E-01
0.031071126,0.108040512,-0.982438803,9.77E-01
0.03118536,0.04503182,-0.987259746,9.77E-01
0.031299592,-0.018121921,-0.988268435,9.77E-01
0.031413824,-0.08123412,-0.985449731,9.78E-01
0.031528056,-0.144108847,-0.97878927,9.79E-01
0.031642288,-0.206539348,-0.968277097,9.80E-01
0.03175652,-0.268306196,-0.953912377,9.82E-01
0.031870752,-0.329178095,-0.935709,9.84E-01
0.031984984,-0.388914287,-0.913699567,9.86E-01
0.032099216,-0.447268128,-0.887944102,9.88E-01
0.032213448,-0.503996193,-0.858535528,9.91E-01
0.03232768,-0.55887872,-0.825609744,9.94E-01
0.032441912,-0.611760616,-0.789330602,9.97E-01
0.032556144,-0.66259551,-0.749821007,1.00E+00
0.032670376,-0.711381912,-0.707012296,1.01E+00
0.032784608,-0.757887304,-0.660633445,1.01E+00
0.03289884,-0.801522017,-0.610569596,1.02E+00
0.033013072,-0.841669619,-0.557083368,1.02E+00
0.033127304,-0.877930999,-0.500614703,1.02E+00
0.033241536,-0.910073161,-0.441593826,1.02E+00
0.033355768,-0.937933445,-0.380409092,1.02E+00
0.03347,-0.961382627,-0.317427963,1.03E+00
0.033584232,-0.980315924,-0.253015012,1.03E+00
0.033698464,-0.994656622,-0.187537313,1.02E+00
0.033812696,-1.00436008,-0.121366441,1.02E+00
0.033926928,-1.0094173,-0.054874256,1.02E+00
0.03404116,-1.00985467,0.011571562,1.02E+00
0.034155392,-1.00573504,0.077612437,1.02E+00
0.034269624,-0.997156024,0.142904118,1.01E+00
0.034383856,-0.98424679,0.207121506,1.01E+00
0.034498088,-0.967163324,0.269962281,1.01E+00
0.03461232,-0.946086109,0.331149668,1.00E+00
0.034726552,-0.921213746,0.390435785,1.00E+00
0.034840784,-0.89275986,0.447600871,9.97E-01
0.034955016,-0.860946298,0.502454042,9.94E-01
0.035069248,-0.826002181,0.554833889,9.90E-01
0.03518348,-0.788157523,0.604606688,9.87E-01
0.035297716,-0.747643113,0.651665747,9.84E-01
0.035411948,-0.704686046,0.695932627,9.81E-01
0.03552618,-0.659509778,0.73735857,9.79E-01
0.035640412,-0.612327874,0.775933743,9.77E-01
0.035754644,-0.563324869,0.811698318,9.76E-01
0.035868876,-0.512610555,0.844743669,9.76E-01
0.035983108,-0.460156709,0.87515074,9.78E-01
0.03609734,-0.405814767,0.902844846,9.80E-01
0.036211572,-0.349508077,0.92752564,9.82E-01
0.036325804,-0.291385829,0.948827505,9.85E-01
0.036440036,-0.231745213,0.966504037,9.88E-01
0.036554268,-0.170890972,0.980431855,9.90E-01
0.0366685,-0.109086685,0.990542471,9.93E-01
0.036782732,-0.046568286,0.996776521,9.96E-01
0.036896964,0.016434807,0.999072671,9.98E-01
0.037011196,0.079685383,0.997368336,1.00E+00
0.037125428,0.142931223,0.991607547,1.00E+00
0.03723966,0.205903068,0.981747746,1.01E+00
0.037353892,0.268315375,0.967764497,1.01E+00
0.037468124,0.329868853,0.949659407,1.01E+00
0.037582356,0.390254229,0.927462876,1.01E+00
0.037696588,0.44915691,0.901236117,1.01E+00
0.03781082,0.506262481,0.871075928,1.02E+00
0.037925052,0.561261952,0.837112606,1.02E+00
0.038039284,0.613857985,0.799511552,1.02E+00
0.038153516,0.66377008,0.75847131,1.02E+00
0.038267748,0.710739791,0.714220822,1.02E+00
0.03838198,0.754536688,0.667017639,1.01E+00
0.038496212,0.79496181,0.617141724,1.01E+00
0.038610444,0.83185333,0.56489265,1.01E+00
0.038724676,0.865090609,0.510582805,1.01E+00
0.038838908,0.894599736,0.454529971,1.01E+00
0.03895314,0.920358777,0.397045165,1.00E+00
0.039067372,0.94240272,0.338411957,1.00E+00
0.039181604,0.960812211,0.278851241,1.00E+00
0.039295836,0.975664437,0.218488783,1.00E+00
0.039410068,0.986947119,0.157374755,9.99E-01
0.0395243,0.994513512,0.095598817,9.98E-01
0.039638532,0.998175561,0.033397585,9.97E-01
0.039752764,0.997840762,-0.028878005,9.97E-01
0.039866996,0.993539453,-0.090873778,9.95E-01
0.039981228,0.985372543,-0.152292639,9.94E-01
0.04009546,0.973461509,-0.212894604,9.93E-01
0.040209692,0.957924068,-0.272478938,9.92E-01
0.040323924,0.938869953,-0.330866843,9.91E-01
0.040438156,0.916399837,-0.387891173,9.90E-01
0.040552388,0.890609801,-0.443390191,9.90E-01
0.040666624,0.861592293,-0.497204095,9.90E-01
0.040780856,0.82944113,-0.549172997,9.90E-01
0.040895088,0.794252694,-0.599134624,9.90E-01
0.04100932,0.756128073,-0.646925807,9.90E-01
0.041123552,0.71517688,-0.692380905,9.91E-01
0.041237784,0.671518624,-0.735332489,9.92E-01
0.041352016,0.625284672,-0.775614083,9.93E-01
0.041466248,0.576621056,-0.813060582,9.94E-01
0.04158048,0.525688529,-0.847510159,9.95E-01
0.041694712,0.472665548,-0.878810167,9.96E-01
0.041808944,0.41774708,-0.906816781,9.97E-01
0.041923176,0.361145079,-0.931402564,9.98E-01
0.042037408,0.303085476,-0.952459395,9.99E-01
0.04215164,0.243805304,-0.969905019,1.00E+00
0.042265872,0.183543578,-0.98368758,1.00E+00
0.042380104,0.122526981,-0.993789375,1.00E+00
0.042494336,0.060948372,-1.00021553,1.00E+00
0.042608568,-0.001049654,-1.00296211,1.01E+00
0.0427228,-0.063357025,-1.00196457,1.01E+00
0.042837032,-0.125821352,-0.997069955,1.01E+00
0.042951264,-0.188168898,-0.988096416,1.01E+00
0.043065496,-0.25001359,-0.974939942,1.01E+00
0.043179728,-0.310940683,-0.957618535,1.01E+00
0.04329396,-0.370573401,-0.936244011,1.01E+00
0.043408192,-0.428589165,-0.910975218,1.01E+00
0.043522424,-0.484710872,-0.881991446,1.01E+00
0.043636656,-0.538693964,-0.849480808,1.01E+00
0.043750888,-0.590318322,-0.81363982,1.01E+00
0.04386512,-0.639385641,-0.774672449,1.01E+00
0.043979352,-0.685716391,-0.732789993,1.01E+00
0.044093584,-0.729151845,-0.688210964,1.01E+00
0.044207816,-0.76955241,-0.641158879,1.00E+00
0.044322048,-0.806798279,-0.591861665,1.00E+00
0.04443628,-0.840789676,-0.540548682,9.99E-01
0.044550512,-0.871445,-0.487448871,9.97E-01
0.044664744,-0.898701251,-0.432789952,9.95E-01
0.044778976,-0.92251122,-0.376795501,9.93E-01
0.044893208,-0.94284457,-0.319685638,9.91E-01
0.04500744,-0.959684134,-0.261673927,9.89E-01
0.045121672,-0.973026991,-0.202968538,9.88E-01
0.045235904,-0.982882679,-0.143770173,9.87E-01
0.045350136,-0.989273667,-0.084271915,9.86E-01
0.045464368,-0.992235184,-0.024655687,9.85E-01
0.0455786,-0.991815865,0.034911316,9.85E-01
0.045692832,-0.988074243,0.094284862,9.85E-01
0.045807064,-0.9810673,0.153354481,9.86E-01
0.045921296,-0.970826149,0.212047353,9.87E-01
0.046035532,-0.957321644,0.270308882,9.90E-01
0.046149764,-0.940448046,0.32804966,9.92E-01
0.046263996,-0.920063972,0.385083497,9.95E-01
0.046378228,-0.896069944,0.441122651,9.98E-01
0.04649246,-0.868459284,0.495833397,1.00E+00
0.046606692,-0.837308407,0.548897564,1.00E+00
0.046720924,-0.802738547,0.600032747,1.00E+00
0.046835156,-0.764891922,0.648988783,1.01E+00
0.046949388,-0.723922014,0.695537388,1.01E+00
0.04706362,-0.679991603,0.739462137,1.01E+00
0.047177852,-0.633276939,0.780556798,1.01E+00
0.047292084,-0.583970129,0.818625391,1.01E+00
0.047406316,-0.532279789,0.853483617,1.01E+00
0.047520548,-0.478432685,0.88496244,1.01E+00
0.04763478,-0.422672182,0.912911594,1.01E+00
0.047749012,-0.365255892,0.937201619,1.01E+00
0.047863244,-0.306454539,0.957727611,1.01E+00
0.047977476,-0.246546999,0.974409282,1.01E+00
0.048091708,-0.185818329,0.987195551,1.01E+00
0.04820594,-0.124554694,0.996062458,1.01E+00
0.048320172,-0.06304042,1.00101411,1.01E+00
0.048434404,-0.001552829,1.00208318,1.00E+00
0.048548636,0.059640687,0.999329448,1.00E+00
0.048662868,0.120288238,0.99283886,1.00E+00
0.0487771,0.180158049,0.982720137,9.98E-01
0.048891332,0.239044368,0.969102323,9.96E-01
0.049005564,0.296775937,0.95212847,9.95E-01
0.049119796,0.35322094,0.931941867,9.93E-01
0.049234028,0.408290416,0.908664882,9.92E-01
0.04934826,0.461919069,0.88237226,9.92E-01
0.049462492,0.514025629,0.853079081,9.92E-01
0.049576724,0.564466715,0.820767164,9.92E-01
0.049690956,0.613025606,0.785443902,9.93E-01
0.049805188,0.65945226,0.747185588,9.93E-01
0.04991942,0.70351392,0.706134856,9.94E-01
0.050033652,0.745020032,0.662470102,9.94E-01
