Frequency (GHz),Re( S21 ),Im( S21 ),S2
0,-0.020475186,-2.55E-05,4.19E-04
0.000111509,-0.019634286,0.007380193,4.40E-04
0.000223017,-0.017147495,0.014413207,5.02E-04
0.000334526,-0.013137078,0.020719467,6.02E-04
0.000446035,-0.007771296,0.026041213,7.39E-04
0.000557544,-0.001360713,0.029992361,9.01E-04
0.000669052,0.005799593,0.032425869,1.09E-03
0.000780561,0.013356437,0.03321131,1.28E-03
0.00089207,0.020935744,0.032298904,1.48E-03
0.001003579,0.028160956,0.029721897,1.68E-03
0.001115087,0.034670707,0.025595667,1.86E-03
0.001226596,0.040136293,0.020112537,2.02E-03
0.001338105,0.044277709,0.013532721,2.14E-03
0.001449614,0.046877619,0.006173297,2.24E-03
0.001561122,0.047792163,-0.001607073,2.29E-03
0.001672631,0.046958633,-0.009424927,2.29E-03
0.00178414,0.044399265,-0.016889004,2.26E-03
0.001895649,0.040222097,-0.023619896,2.18E-03
0.002007157,0.034616191,-0.029267494,2.05E-03
0.002118666,0.0278448,-0.033528481,1.90E-03
0.002230175,0.020233661,-0.036161345,1.72E-03
0.002341684,0.012157276,-0.036999609,1.52E-03
0.002453192,0.004021707,-0.035961006,1.31E-03
0.002564701,-0.003754043,-0.033053298,1.11E-03
0.00267621,-0.010757638,-0.028376119,9.21E-04
0.002787719,-0.016603528,-0.022118829,7.65E-04
0.002899227,-0.020951835,-0.014552899,6.51E-04
0.003010736,-0.02352595,-0.006021834,5.90E-04
0.003122245,-0.024127327,0.003073955,5.92E-04
0.003233753,-0.022647398,0.012295542,6.64E-04
0.003345262,-0.019094467,0.021185804,8.13E-04
0.003456771,-0.013524778,0.029324804,1.04E-03
0.00356828,-0.006150289,0.036224287,1.35E-03
0.003679788,0.00265229,0.041399542,1.72E-03
0.003791297,0.01274568,0.044741258,2.16E-03
0.003902806,0.023616551,0.045943324,2.67E-03
0.004014315,0.034635149,0.044810895,3.21E-03
0.004125823,0.045389354,0.041336838,3.77E-03
0.004237332,0.055362839,0.035599701,4.33E-03
0.004348841,0.064060226,0.027790967,4.88E-03
0.00446035,0.071030617,0.018209517,5.38E-03
0.004571858,0.075889535,0.007252085,5.81E-03
0.004683367,0.07834018,-0.00460099,6.16E-03
0.004794876,0.0781902,-0.016804531,6.40E-03
0.004906385,0.075365737,-0.028770536,6.51E-03
0.005017893,0.069920376,-0.039892994,6.48E-03
0.005129402,0.06203942,-0.049574133,6.31E-03
0.005240911,0.052038107,-0.057252303,5.99E-03
0.00535242,0.040355865,-0.062428758,5.53E-03
0.005463928,0.027542718,-0.064693667,4.94E-03
0.005575437,0.014242942,-0.06374982,4.27E-03
0.005686946,0.00117186,-0.059432767,3.53E-03
0.005798455,-0.010909687,-0.051726386,2.79E-03
0.005909963,-0.021226179,-0.04077404,2.11E-03
0.006021472,-0.029019339,-0.026882881,1.56E-03
0.006132981,-0.03358091,-0.0105226,1.24E-03
0.006244489,-0.034286566,0.007683584,1.23E-03
0.006355998,-0.030626571,0.026974991,1.67E-03
0.006467507,-0.02223645,0.046476234,2.65E-03
0.006579016,-0.008924242,0.065224119,4.33E-03
0.006690524,0.009452703,0.082333289,6.87E-03
0.006802033,0.032454353,0.096478969,1.04E-02
0.006913542,0.059800599,0.106774837,1.50E-02
0.007025051,0.090898976,0.112261057,2.09E-02
0.007136559,0.12492343,0.112031668,2.82E-02
0.007248068,0.160860941,0.105476812,3.70E-02
0.007359577,0.197689652,0.092006989,4.75E-02
0.007471086,0.234149069,0.071249314,5.99E-02
0.007582594,0.268924505,0.043079037,7.42E-02
0.007694103,0.300670832,0.007603613,9.05E-02
0.007805612,0.328050971,-0.034829587,1.09E-01
0.007917121,0.349780023,-0.083634995,1.29E-01
0.008028629,0.364668727,-0.137998208,1.52E-01
0.008140138,0.371668875,-0.196901143,1.77E-01
0.008251647,0.369892955,-0.259156644,2.04E-01
0.008363155,0.358637154,-0.323417544,2.33E-01
0.008474664,0.33742255,-0.388210177,2.65E-01
0.008586173,0.30601275,-0.45198065,2.98E-01
0.008697681,0.264421493,-0.513136029,3.33E-01
0.00880919,0.212916091,-0.570082605,3.70E-01
0.008920699,0.152017102,-0.621265233,4.09E-01
0.009032208,0.08249329,-0.665205657,4.49E-01
0.009143716,0.005347133,-0.700540721,4.91E-01
0.009255225,-0.078208864,-0.726056814,5.33E-01
0.009366734,-0.16678524,-0.74072361,5.76E-01
0.009478243,-0.258850813,-0.743735433,6.20E-01
0.009589751,-0.352755249,-0.734540164,6.64E-01
0.00970126,-0.446757734,-0.712849677,7.08E-01
0.009812769,-0.539070547,-0.678638995,7.51E-01
0.009924278,-0.627909482,-0.632148087,7.94E-01
0.010035786,-0.711539984,-0.573882759,8.36E-01
0.010147295,-0.788320661,-0.50460577,8.76E-01
0.010258804,-0.856742918,-0.425321162,9.15E-01
0.010370312,-0.915465713,-0.337249011,9.52E-01
0.010481821,-0.963353097,-0.241797268,9.87E-01
0.01059333,-0.99949646,-0.140524268,1.02E+00
0.010704839,-1.02323854,-0.035099749,1.05E+00
0.010816347,-1.03418434,0.072739005,1.07E+00
0.010927856,-1.03220952,0.181231335,1.10E+00
0.011039365,-1.01745629,0.288639098,1.12E+00
0.011150874,-0.990321696,0.393289149,1.14E+00
0.011262382,-0.951440275,0.493615746,1.15E+00
0.011373891,-0.901658654,0.58819598,1.16E+00
0.0114854,-0.842001498,0.675783336,1.17E+00
0.011596909,-0.773629785,0.755336761,1.17E+00
0.011708417,-0.697796464,0.826080322,1.17E+00
0.011819926,-0.616009831,0.887539685,1.17E+00
0.011931435,-0.529754519,0.939094305,1.16E+00
0.012042944,-0.440258741,0.980576217,1.16E+00
0.012154452,-0.348814309,1.01209164,1.15E+00
0.012265961,-0.256622583,1.03395057,1.13E+00
0.01237747,-0.164665297,1.04671884,1.12E+00
0.012488978,-0.073001236,1.05142474,1.11E+00
0.012600487,0.0020837,1.04048073,1.08E+00
0.012711996,0.08994434,1.03012657,1.07E+00
0.012823505,0.171543121,1.01101792,1.05E+00
0.012935013,0.248369232,0.985955477,1.03E+00
0.013046522,0.320536941,0.95580864,1.02E+00
0.013158031,0.388029426,0.921341538,9.99E-01
0.01326954,0.450881839,0.883254468,9.83E-01
0.013381048,0.509206831,0.842175424,9.69E-01
0.013492557,0.563185751,0.798645318,9.55E-01
0.013604066,0.613052666,0.753111243,9.43E-01
0.013715575,0.659073055,0.705922246,9.33E-01
0.013827083,0.70152241,0.657330871,9.24E-01
0.013938592,0.740666389,0.60749799,9.18E-01
0.014050101,0.776741505,0.556503117,9.13E-01
0.01416161,0.809939981,0.504355967,9.10E-01
0.014273118,0.840397477,0.451013029,9.10E-01
0.014384627,0.868182659,0.396394074,9.11E-01
0.014496136,0.893294334,0.340400428,9.14E-01
0.014607644,0.915658534,0.282935083,9.18E-01
0.014719153,0.935132742,0.223920673,9.25E-01
0.014830662,0.95151329,0.163318217,9.32E-01
0.014942171,0.964547217,0.101143867,9.41E-01
0.015053679,0.973953187,0.037480332,9.50E-01
0.015165188,0.979438126,-0.027520869,9.60E-01
0.015276697,0.980713665,-0.09364076,9.71E-01
0.015388206,0.977505267,-0.160590678,9.81E-01
0.015499714,0.969575405,-0.228005707,9.92E-01
0.015611223,0.956764281,-0.295450628,1.00E+00
0.015722732,0.939048111,-0.362467557,1.01E+00
0.015834241,0.91655767,-0.428758562,1.02E+00
0.015945749,0.889173746,-0.494368285,1.04E+00
0.016057258,0.856156051,-0.558893561,1.05E+00
0.016168767,0.817299306,-0.62114042,1.05E+00
0.016280276,0.773072064,-0.680210292,1.06E+00
0.016391784,0.723974109,-0.735555828,1.07E+00
0.016503293,0.670458972,-0.786733747,1.07E+00
0.016614802,0.612993658,-0.833346784,1.07E+00
0.01672631,0.552079022,-0.875048578,1.07E+00
0.01683782,0.488253325,-0.911557615,1.07E+00
0.016949328,0.422081202,-0.942665994,1.07E+00
0.017060836,0.354142338,-0.968244433,1.06E+00
0.017172346,0.285016954,-0.98824358,1.06E+00
0.017283854,0.215272084,-1.00269413,1.05E+00
0.017395362,0.145448834,-1.01169908,1.04E+00
0.017506872,0.076049581,-1.01542759,1.04E+00
0.01761838,0.0075302,-1.01410699,1.03E+00
0.01772989,-0.05970946,-1.00800896,1.02E+00
0.017841398,-0.125328824,-0.997440815,1.01E+00
0.017952906,-0.189050496,-0.982729852,1.00E+00
0.018064416,-0.250658274,-0.964213967,9.93E-01
0.018175924,-0.309996873,-0.942228496,9.84E-01
0.018287432,-0.366965264,-0.917096615,9.76E-01
0.018398942,-0.421512097,-0.889121473,9.68E-01
0.01851045,-0.473627985,-0.858577013,9.61E-01
0.018621958,-0.523337603,-0.825705647,9.56E-01
0.018733468,-0.570690393,-0.790713489,9.51E-01
0.018844976,-0.615757048,-0.753774524,9.47E-01
0.018956486,-0.658630848,-0.71502924,9.45E-01
0.019067994,-0.699442744,-0.674573183,9.44E-01
0.019179502,-0.738361716,-0.632399857,9.45E-01
0.019291012,-0.775502086,-0.588331819,9.48E-01
0.01940252,-0.8107512,-0.542108417,9.51E-01
0.019514028,-0.84380585,-0.493619978,9.56E-01
0.019625538,-0.874388397,-0.442934453,9.61E-01
0.019737046,-0.902305603,-0.39015907,9.66E-01
0.019848556,-0.927388966,-0.335382193,9.73E-01
0.019960064,-0.949452937,-0.278686583,9.79E-01
0.020071572,-0.968287349,-0.220172644,9.86E-01
0.020183082,-0.983663976,-0.159975305,9.93E-01
0.02029459,-0.995346248,-0.098272003,1.00E+00
0.020406098,-1.00310194,-0.035287071,1.01E+00
0.020517608,-1.00671279,0.028708221,1.01E+00
0.020629116,-1.00598741,0.093397461,1.02E+00
0.020740624,-1.00076854,0.15842399,1.03E+00
0.020852134,-0.990943193,0.223397225,1.03E+00
0.020963642,-0.97644943,0.287901044,1.04E+00
0.021075152,-0.957280159,0.351501942,1.04E+00
0.02118666,-0.933487236,0.413760275,1.04E+00
0.021298168,-0.905182838,0.474240541,1.04E+00
0.021409678,-0.872537434,0.532521427,1.04E+00
0.021521186,-0.835778892,0.588205814,1.04E+00
0.021632694,-0.795185804,0.640932918,1.04E+00
0.021744204,-0.751081765,0.690383554,1.04E+00
0.021855712,-0.703827679,0.736290693,1.04E+00
0.021967222,-0.653811693,0.778444231,1.03E+00
0.02207873,-0.601439536,0.816697776,1.03E+00
0.022190238,-0.547120392,0.850973189,1.02E+00
0.022301748,-0.491248459,0.881265163,1.02E+00
0.022413256,-0.434175283,0.907639027,1.01E+00
0.022524764,-0.376173913,0.930199444,1.01E+00
0.022636274,-0.317435443,0.949029684,1.00E+00
0.022747782,-0.258132935,0.964143276,9.96E-01
0.02285929,-0.198500276,0.975522578,9.91E-01
0.0229708,-0.138823599,0.983206332,9.86E-01
0.023082308,-0.079372354,0.987312436,9.81E-01
0.023193818,-0.020357097,0.988002956,9.77E-01
0.023305326,0.038072184,0.985444486,9.73E-01
0.023416834,0.095812351,0.979789674,9.69E-01
0.023528344,0.152792394,0.971165836,9.67E-01
0.023639852,0.208961591,0.959673345,9.65E-01
0.02375136,0.264279574,0.945383489,9.64E-01
0.02386287,0.318707883,0.928340495,9.63E-01
0.023974378,0.372202605,0.908563972,9.64E-01
0.024085888,0.424706459,0.886051059,9.65E-01
0.024197396,0.476144761,0.860782743,9.68E-01
0.024308904,0.526420116,0.832728624,9.71E-01
0.024420414,0.575408638,0.801854253,9.74E-01
0.024531922,0.622959614,0.768127441,9.78E-01
0.02464343,0.668895721,0.731526673,9.83E-01
0.02475494,0.713012457,0.692046821,9.87E-01
0.024866448,0.755085588,0.649707854,9.92E-01
0.024977956,0.794871509,0.604558706,9.97E-01
0.025089466,0.832118392,0.556683898,1.00E+00
0.025200974,0.866569996,0.506205559,1.01E+00
0.025312484,0.897976279,0.453284502,1.01E+00
0.025423992,0.926104963,0.398119569,1.02E+00
0.0255355,0.950747132,0.340940922,1.02E+00
0.02564701,0.971727073,0.28199926,1.02E+00
0.025758518,0.988899469,0.221549958,1.03E+00
0.025870026,1.00213349,0.159840882,1.03E+00
0.025981536,1.01128709,0.097123019,1.03E+00
0.026093044,1.01619816,0.033687819,1.03E+00
0.026204554,1.01672435,-0.03009795,1.03E+00
0.026316062,1.01279867,-0.09380845,1.03E+00
0.02642757,1.00444782,-0.157005981,1.03E+00
0.02653908,0.991778195,-0.219279751,1.03E+00
0.026650588,0.974951208,-0.280261785,1.03E+00
0.026762096,0.954164505,-0.339626938,1.03E+00
0.026873606,0.92964083,-0.397091419,1.02E+00
0.026985114,0.90162313,-0.452411711,1.02E+00
0.027096622,0.870364308,-0.505383432,1.01E+00
0.027208132,0.836125851,-0.555840135,1.01E+00
0.02731964,0.799168885,-0.603652835,1.00E+00
0.02743115,0.759750068,-0.648727,9.98E-01
0.027542658,0.718115628,-0.690999866,9.93E-01
0.027654166,0.674496531,-0.730435669,9.88E-01
0.027765676,0.629107416,-0.767022312,9.84E-01
0.027877184,0.582140446,-0.800763965,9.80E-01
0.027988692,0.533767104,-0.831677914,9.77E-01
0.028100202,0.484136969,-0.859787524,9.74E-01
0.02821171,0.433379352,-0.885118008,9.71E-01
0.02832322,0.381604433,-0.90769124,9.70E-01
0.028434728,0.32890743,-0.927523017,9.68E-01
0.028546236,0.275371879,-0.944620252,9.68E-01
0.028657746,0.22107169,-0.958979607,9.69E-01
0.028769254,0.166074961,-0.970586956,9.70E-01
0.028880762,0.110444404,-0.979418159,9.71E-01
0.028992272,0.054236282,-0.985434353,9.74E-01
0.02910378,-0.002499401,-0.988578916,9.77E-01
0.029215288,-0.059713867,-0.988761902,9.81E-01
0.029326798,-0.117339224,-0.985850394,9.86E-01
0.029438306,-0.175258055,-0.979674876,9.90E-01
0.029549816,-0.233281195,-0.970061541,9.95E-01
0.029661324,-0.291156024,-0.956868708,1.00E+00
0.029772832,-0.348592967,-0.940008044,1.01E+00
0.029884342,-0.405290276,-0.919439793,1.01E+00
0.02999585,-0.460944116,-0.895164907,1.01E+00
0.030107358,-0.515251994,-0.867216468,1.02E+00
0.030218868,-0.567912281,-0.835659206,1.02E+00
0.030330376,-0.618625462,-0.800589859,1.02E+00
0.030441886,-0.667097867,-0.762137949,1.03E+00
0.030553394,-0.713047206,-0.720466852,1.03E+00
0.030664902,-0.756206036,-0.675773203,1.03E+00
0.030776412,-0.796328545,-0.628284037,1.03E+00
0.03088792,-0.833195746,-0.578254879,1.03E+00
0.030999428,-0.866618335,-0.525965035,1.03E+00
0.031110938,-0.896441519,-0.471711725,1.03E+00
0.031222446,-0.922547519,-0.415805787,1.02E+00
0.031333954,-0.944856346,-0.358564556,1.02E+00
0.031445464,-0.963326335,-0.300306439,1.02E+00
0.031556972,-0.977953196,-0.24134405,1.01E+00
0.031668482,-0.988768458,-0.181978896,1.01E+00
0.03177999,-0.995836139,-0.122495778,1.01E+00
0.031891498,-0.999249697,-0.063157573,1.00E+00
0.032003008,-0.999127209,-0.004200142,9.98E-01
0.032114516,-0.995605409,0.05417122,9.94E-01
0.032226024,-0.988832057,0.111786515,9.90E-01
0.032337534,-0.978957832,0.168513998,9.87E-01
0.032449042,-0.966121614,0.224258587,9.84E-01
0.032560552,-0.950435162,0.278954744,9.81E-01
0.03267206,-0.931975007,0.332547367,9.79E-01
0.032783568,-0.910785675,0.384969443,9.78E-01
0.032895078,-0.886899889,0.436128706,9.77E-01
0.033006586,-0.860358417,0.485912234,9.76E-01
0.033118094,-0.831217945,0.534202397,9.76E-01
0.033229604,-0.799545705,0.580887675,9.77E-01
0.033341112,-0.765408814,0.625865877,9.78E-01
0.03345262,-0.728868246,0.669037938,9.79E-01
0.033564128,-0.689978957,0.710301042,9.81E-01
0.03367564,-0.648790896,0.749543965,9.83E-01
0.033787148,-0.605355263,0.786643088,9.85E-01
0.033898656,-0.55972898,0.821460605,9.88E-01
0.034010164,-0.511980057,0.853846848,9.91E-01
0.034121672,-0.462192446,0.883639991,9.94E-01
0.034233184,-0.410470337,0.910671473,9.98E-01
0.034344692,-0.356940269,0.934767723,1.00E+00
0.0344562,-0.301754475,0.955756903,1.00E+00
0.034567708,-0.245091245,0.973472774,1.01E+00
0.034679216,-0.187155575,0.987760425,1.01E+00
0.034790724,-0.128176898,0.998481214,1.01E+00
0.034902236,-0.068407469,1.00551915,1.02E+00
0.035013744,-0.008118692,1.00878334,1.02E+00
0.035125252,0.052403465,1.00821483,1.02E+00
0.03523676,0.112864524,1.00378644,1.02E+00
0.035348268,0.172967732,0.995507419,1.02E+00
0.03545978,0.232421264,0.983420551,1.02E+00
0.035571288,0.290946841,0.967601538,1.02E+00
0.035682796,0.348285079,0.948151231,1.02E+00
0.035794304,0.4041982,0.925186872,1.02E+00
0.035905812,0.458468556,0.898834407,1.02E+00
0.03601732,0.510887623,0.869220197,1.02E+00
0.036128832,0.561245501,0.836479127,1.01E+00
0.03624034,0.609329164,0.80076611,1.01E+00
0.036351848,0.654933691,0.762269258,1.01E+00
0.036463356,0.697877944,0.721208751,1.01E+00
0.036574864,0.738019109,0.677826166,1.00E+00
0.036686376,0.775255263,0.632369816,1.00E+00
0.036797884,0.809521377,0.585081339,9.98E-01
0.036909392,0.840783,0.536189437,9.94E-01
0.0370209,0.869027257,0.485904962,9.91E-01
0.037132408,0.894257903,0.434419423,9.88E-01
0.037243916,0.916489184,0.381906331,9.86E-01
0.037355428,0.935739517,0.328520149,9.84E-01
0.037466936,0.952029884,0.274400383,9.82E-01
0.037578444,0.965378284,0.219672024,9.80E-01
0.037689952,0.975797296,0.164449915,9.79E-01
0.03780146,0.983293712,0.108841188,9.79E-01
0.037912972,0.987864733,0.052948557,9.79E-01
0.03802448,0.989500344,-0.003125148,9.79E-01
0.038135988,0.988182604,-0.059274364,9.80E-01
0.038247496,0.983887076,-0.115387537,9.81E-01
0.038359004,0.976585746,-0.171344265,9.83E-01
0.038470516,0.966248691,-0.227014393,9.85E-01
0.038582024,0.952848256,-0.282255411,9.88E-01
0.038693532,0.936361074,-0.336915046,9.90E-01
0.03880504,0.91677022,-0.39083004,9.93E-01
0.038916548,0.894067943,-0.443830073,9.96E-01
0.039028056,0.868252933,-0.495736748,1.00E+00
0.039139568,0.839329422,-0.546365082,1.00E+00
0.039251076,0.80730617,-0.595516622,1.01E+00
0.039362584,0.772199929,-0.642974079,1.01E+00
0.039474092,0.734045327,-0.688494146,1.01E+00
0.0395856,0.692913115,-0.731811047,1.02E+00
0.039697112,0.648920119,-0.772649765,1.02E+00
0.03980862,0.602234364,-0.810743213,1.02E+00
0.039920128,0.553065956,-0.845849216,1.02E+00
0.040031636,0.501658678,-0.877759039,1.02E+00
0.040143144,0.448277831,-0.906299293,1.02E+00
0.040254652,0.39320156,-0.931331754,1.02E+00
0.040366164,0.336716056,-0.952752054,1.02E+00
0.040477672,0.279111058,-0.970488727,1.02E+00
0.04058918,0.220676154,-0.984501243,1.02E+00
0.040700688,0.161695495,-0.99477917,1.02E+00
0.040812196,0.102446407,-1.00134015,1.01E+00
0.040923708,0.043194138,-1.00422835,1.01E+00
0.041035216,-0.015810216,-1.00351095,1.01E+00
0.041146724,-0.074332789,-0.999276102,1.00E+00
0.041258232,-0.13215892,-0.991628289,1.00E+00
0.04136974,-0.189093977,-0.980685532,9.98E-01
0.041481248,-0.244965136,-0.96657455,9.94E-01
0.04159276,-0.299620152,-0.949428916,9.91E-01
0.041704268,-0.352927268,-0.929382741,9.88E-01
0.041815776,-0.404774398,-0.906570375,9.86E-01
0.041927284,-0.455067009,-0.881119728,9.83E-01
0.042038792,-0.503727436,-0.853153467,9.82E-01
0.042150304,-0.550690472,-0.822782218,9.80E-01
0.042261812,-0.595903039,-0.790103197,9.79E-01
0.04237332,-0.639317334,-0.755197048,9.79E-01
0.042484828,-0.680886388,-0.718124449,9.79E-01
0.042596336,-0.720552385,-0.678925514,9.80E-01
0.042707848,-0.758238375,-0.637626827,9.81E-01
0.042819356,-0.793839157,-0.594250202,9.83E-01
0.042930864,-0.827221334,-0.548829138,9.86E-01
0.043042372,-0.858231425,-0.501420259,9.88E-01
0.04315388,-0.886707306,-0.452108979,9.91E-01
0.043265388,-0.912489176,-0.401006579,9.93E-01
0.0433769,-0.935424149,-0.348246694,9.96E-01
0.043488408,-0.955368757,-0.293979675,9.99E-01
0.043599916,-0.972187519,-0.238372207,1.00E+00
0.043711424,-0.985755146,-0.181605741,1.00E+00
0.043822932,-0.995957136,-0.123877615,1.01E+00
0.043934444,-1.00269091,-0.065400839,1.01E+00
0.044045952,-1.00587058,-0.006404144,1.01E+00
0.04415746,-1.00542855,0.052869365,1.01E+00
0.044268968,-1.00131917,0.112164907,1.02E+00
0.044380476,-0.993521094,0.171217665,1.02E+00
0.044491984,-0.982040048,0.229757771,1.02E+00
0.044603496,-0.966909409,0.287513375,1.02E+00
0.044715004,-0.948191285,0.344215155,1.02E+00
0.044826512,-0.925975382,0.399600893,1.02E+00
0.04493802,-0.900379717,0.453419924,1.02E+00
0.045049528,-0.871546149,0.505437016,1.02E+00
0.04516104,-0.839639544,0.555437326,1.01E+00
0.045272548,-0.804843187,0.603228986,1.01E+00
0.045384056,-0.767354012,0.648646116,1.01E+00
0.045495564,-0.727376878,0.691550791,1.01E+00
0.045607072,-0.685119033,0.731833339,1.00E+00
0.04571858,-0.640780866,0.769408703,1.00E+00
0.045830092,-0.594553888,0.80421418,1.00E+00
0.0459416,-0.546613872,0.836199343,9.98E-01
0.046053108,-0.497124076,0.865318894,9.96E-01
0.046164616,-0.446240485,0.89152658,9.94E-01
0.046276124,-0.394119948,0.914773881,9.92E-01
0.046387636,-0.340926081,0.935016274,9.90E-01
0.046499144,-0.286828369,0.952219307,9.89E-01
0.046610652,-0.231998011,0.966364086,9.88E-01
0.04672216,-0.176600903,0.977446139,9.87E-01
0.046833668,-0.120793022,0.985471249,9.86E-01
0.04694518,-0.064719833,0.990451276,9.85E-01
0.047056688,-0.00851662,0.992399335,9.85E-01
0.047168196,0.047687735,0.991324723,9.85E-01
0.047279704,0.103768185,0.987233341,9.85E-01
0.047391212,0.159599021,0.980126858,9.86E-01
0.04750272,0.215051398,0.970002592,9.87E-01
0.047614232,0.269990325,0.956856191,9.88E-01
0.04772574,0.324271977,0.94068253,9.90E-01
0.047837248,0.377743036,0.921480417,9.92E-01
0.047948756,0.430240303,0.899254441,9.94E-01
0.048060264,0.481589645,0.874018013,9.96E-01
0.048171776,0.531607687,0.845796704,9.98E-01
0.048283284,0.580103755,0.814631283,1.00E+00
0.048394792,0.626882613,0.78058058,1.00E+00
0.0485063,0.671746314,0.743721187,1.00E+00
0.048617808,0.714498401,0.7041502,1.01E+00
0.048729316,0.754948318,0.661985338,1.01E+00
