Frequency (GHz),Re( S21 ),Im( S21 ),S2
0,0.020950267,0,0.000438914
0.000111176,0.020465056,-0.004495748,0.00043903
0.000222352,0.019029953,-0.008788615,0.000439379
0.000333528,0.016706089,-0.012683204,0.000439957
0.000444704,0.01359335,-0.015999464,0.000440762
0.00055588,0.009827603,-0.018579593,0.000441783
0.000667056,0.005576469,-0.020295708,0.000443013
0.000778232,0.001032994,-0.021056416,0.00044444
0.000889407,-0.003591173,-0.020812327,0.000446049
0.001000583,-0.008075252,-0.019560866,0.000447837
0.001111759,-0.012199329,-0.017348085,0.00044978
0.001222935,-0.015756214,-0.014269014,0.000451863
0.001334111,-0.018562309,-0.010464899,0.000454073
0.001445287,-0.020468995,-0.006116921,0.000456396
0.001556463,-0.021371782,-0.001437838,0.00045882
0.001667639,-0.021217298,0.003339775,0.000461328
0.001778815,-0.02000748,0.0079759,0.000463914
0.001889991,-0.017799605,0.012237173,0.000466574
0.002001167,-0.014702877,0.015910098,0.000469306
0.002112343,-0.01087221,0.018812381,0.000472111
0.002223519,-0.006498229,0.020803299,0.000475004
0.002334695,-0.001796597,0.021789273,0.000478
0.002445871,0.00300419,0.021727705,0.000481118
0.002557047,0.007674828,0.0206271,0.00048438
0.002668223,0.011996168,0.018545007,0.000487825
0.002779398,0.015768951,0.015582537,0.000491475
0.002890574,0.0188215,0.011878921,0.000495358
0.00300175,0.021016309,0.007604176,0.000499509
0.003112926,0.022254147,0.002950876,0.000503955
0.003224102,0.022477534,-0.001872809,0.000508747
0.003335278,0.021660645,-0.006633533,0.000513187
0.003446454,0.019843044,-0.01118192,0.000518782
0.00355763,0.017095303,-0.015245603,0.000524678
0.003668806,0.013519432,-0.018657675,0.000530884
0.003779982,0.009263355,-0.021252828,0.000537492
0.003891158,0.004507078,-0.02289594,0.000544538
0.004002334,-0.000541576,-0.023488928,0.000552023
0.00411351,-0.005654356,-0.02297787,0.000559954
0.004224686,-0.010591324,-0.021357633,0.000568325
0.004335862,-0.015111084,-0.018675963,0.000577136
0.004447038,-0.018982783,-0.015033527,0.000586353
0.004558213,-0.021998653,-0.010583751,0.000595957
0.004669389,-0.023986472,-0.005526746,0.000605896
0.004780565,-0.024821788,-0.000101206,0.000616131
0.004891741,-0.024436891,0.005427077,0.000626615
0.005002917,-0.022827284,0.010779696,0.000637287
0.005114093,-0.020054063,0.015682066,0.000648093
0.005225269,-0.016241668,0.019879507,0.000658987
0.005336445,-0.011571307,0.023152487,0.000669933
0.005447621,-0.006269921,0.025329238,0.000680882
0.005558797,-0.000597263,0.026295733,0.000691822
0.005669973,0.005169495,0.026000518,0.000702751
0.005781149,0.010751389,0.024455603,0.000713669
0.005892325,0.015882209,0.021733876,0.000724606
0.006003501,0.020320574,0.017963124,0.0007356
0.006114677,0.023861153,0.013317378,0.000746707
0.006225852,0.026341558,0.008007405,0.000757996
0.006337028,0.027647616,0.002269786,0.000769543
0.006448204,0.02771562,-0.003642773,0.000781425
0.00655938,0.026533125,-0.009472135,0.000793728
0.006670556,0.02413711,-0.014966777,0.000806604
0.006781732,0.020626051,-0.01988231,0.00082074
0.006892908,0.016120678,-0.023988091,0.000835305
0.007004084,0.01079663,-0.027096257,0.000850774
0.00711526,0.004867071,-0.029045871,0.000867351
0.007226436,-0.001424359,-0.029717702,0.000885171
0.007337612,-0.007809649,-0.02904083,0.00090436
0.007448788,-0.014004248,-0.026998535,0.00092504
0.007559964,-0.019717986,-0.023633087,0.000947322
0.00767114,-0.024666498,-0.019048749,0.000971291
0.007782316,-0.028585099,-0.013412411,0.000997001
0.007893491,-0.031243751,-0.00695136,0.001024493
0.008004667,-0.03246152,5.37E-05,0.001053753
0.008115843,-0.032120861,0.007278343,0.001084724
0.008227019,-0.030179225,0.014370701,0.001117303
0.008338195,-0.026676817,0.020968689,0.001151338
0.008449371,-0.021739481,0.026721291,0.001186632
0.008560547,-0.015575338,0.031310909,0.001222964
0.008671723,-0.008465268,0.034473348,0.001260073
0.008782899,-0.000747816,0.036015898,0.001297704
0.008894075,0.007200431,0.035829246,0.001335581
0.009005251,0.014986788,0.033894677,0.001373453
0.009116426,0.022225419,0.030284245,0.001411105
0.009227602,0.028558632,0.025155181,0.001448379
0.009338778,0.033674873,0.01873873,0.001485137
0.009449954,0.037323508,0.011326414,0.001521332
0.00956113,0.039324209,0.003253185,0.001556977
0.009672306,0.039572176,-0.00511942,0.001592166
0.009783482,0.038039822,-0.013419739,0.001627117
0.009894658,0.034774575,-0.021282986,0.001662237
0.010005834,0.02989905,-0.028363921,0.001698465
0.01011701,0.023609147,-0.034336843,0.001736411
0.010228186,0.016129324,-0.03890552,0.001773795
0.010339362,0.00774019,-0.041860055,0.001812175
0.010450538,-0.001216174,-0.043032207,0.00185325
0.010561714,-0.010372073,-0.042310752,0.00189778
0.01067289,-0.01933967,-0.039655559,0.001946586
0.010784065,-0.02772025,-0.035101987,0.002000562
0.010895241,-0.035118096,-0.028765058,0.002060709
0.011006417,-0.0411544,-0.020842053,0.002128076
0.011117593,-0.045485552,-0.011611667,0.002203766
0.011228769,-0.047820568,-0.001430329,0.002288853
0.011339945,-0.04794091,0.009276519,0.002384385
0.011451121,-0.04571769,0.020028463,0.002491247
0.011562297,-0.041128114,0.030308938,0.002610153
0.011673473,-0.034267053,0.039589971,0.002741597
0.011784649,-0.025351975,0.047360607,0.00288575
0.011895825,-0.014720801,0.053157248,0.003042395
0.012007001,-0.002820549,0.056594998,0.003210949
0.012118177,0.009811643,0.057394601,0.003390409
0.012229353,0.022576669,0.055404525,0.003579367
0.012340529,0.034845423,0.050614949,0.003776077
0.012451704,0.045994859,0.043162037,0.003978488
0.01256288,0.055443574,0.03332255,0.004184382
0.012674056,0.062682949,0.021499442,0.004391378
0.012785232,0.067304716,0.008200625,0.004597175
0.012896408,0.069019944,-0.005987927,0.004799608
0.013007584,0.067671396,-0.020431405,0.00499686
0.01311876,0.063238464,-0.034475304,0.00518765
0.013229936,0.055836789,-0.047473569,0.005371487
0.013341112,0.045713328,-0.058811661,0.00554852
0.013452288,0.033233605,-0.067921273,0.005717772
0.013563464,0.018849798,-0.07430435,0.005876451
0.01367464,0.003101701,-0.077577502,0.006027889
0.013785816,-0.013376999,-0.077462114,0.006179323
0.013896992,-0.029892936,-0.073785782,0.006337929
0.014008167,-0.04571576,-0.066500716,0.006512276
0.014119343,-0.060095392,-0.055694681,0.006713354
0.014230519,-0.072283089,-0.041600939,0.006955483
0.014341695,-0.081555508,-0.024602726,0.007256595
0.014452871,-0.087243564,-0.005235889,0.007638854
0.014564047,-0.088764146,0.015813749,0.008129148
0.014675223,-0.085653529,0.037719958,0.008759322
0.014786399,-0.077603258,0.059534859,0.009566665
0.014897575,-0.064492397,0.080215909,0.010593861
0.015008751,-0.046416383,0.098663442,0.011888955
0.015119927,-0.02370782,0.113767281,0.013505055
0.015231103,0.003053767,0.124460243,0.015499678
0.015342279,0.03304629,0.129777238,0.017934189
0.015453455,0.065224305,0.12891373,0.02087296
0.015564631,0.098355092,0.1212788,0.024382271
0.015675806,0.131067902,0.106539652,0.028529492
0.015786982,0.161914527,0.084652402,0.033382343
0.015898158,0.189435959,0.055874541,0.039007947
0.016009334,0.212230548,0.020762367,0.045472881
0.01612051,0.229016811,-0.019850662,0.052842749
0.016231686,0.238688082,-0.064887293,0.061182361
0.016342862,0.240354329,-0.113071062,0.070555269
0.016454038,0.233371928,-0.162976637,0.081023841
0.016565214,0.217358053,-0.213082165,0.092648532
0.01667639,0.19219628,-0.261820346,0.105489304
0.016787566,0.158034161,-0.307625204,0.119608062
0.016898742,0.115274131,-0.34897095,0.135068849
0.017009918,0.064565919,-0.3844046,0.151935654
0.017121094,0.006825276,-0.412583619,0.170271827
0.01723227,-0.056872048,-0.432508796,0.190298288
0.017343446,-0.125572637,-0.443058312,0.212069155
0.017454622,-0.197849303,-0.443205714,0.235575652
0.017565798,-0.272137076,-0.43221274,0.260866441
0.017676974,-0.346754283,-0.409563333,0.287980657
0.01778815,-0.419914812,-0.374981165,0.316939323
0.017899326,-0.489754677,-0.328452885,0.347740941
0.018010502,-0.554365158,-0.270250142,0.380355868
0.018121676,-0.611835301,-0.20095101,0.414723744
0.018232852,-0.66030103,-0.121452384,0.450748132
0.018344028,-0.698003054,-0.032977343,0.488295769
0.018455204,-0.723349392,0.062931798,0.527194754
0.01856638,-0.734981656,0.16443263,0.567236124
0.018677556,-0.731841922,0.26941967,0.608179557
0.018788732,-0.71323055,0.375575751,0.649754962
0.018899908,-0.678860724,0.480439812,0.691674296
0.019011084,-0.628894925,0.581482768,0.733631036
0.01912226,-0.563964427,0.676178157,0.775272775
0.019233436,-0.485139966,0.762046933,0.816076315
0.019344612,-0.393768042,0.836734235,0.855177451
0.019455788,-0.291337192,0.898361266,0.891930324
0.019566964,-0.179844663,0.945694149,0.926681526
0.01967814,-0.061761476,0.977722585,0.959755933
0.019789316,0.06038345,0.993675947,0.991038049
0.019900492,0.184105337,0.993190587,1.020322317
0.020011668,0.306988358,0.97632575,1.047453822
0.020122844,0.426728487,0.94352448,1.072335646
0.02023402,0.541182458,0.895566523,1.09491785
0.020345196,0.648408294,0.833516538,1.115183135
0.020456372,0.746693671,0.758672595,1.133135545
0.020567548,0.83457309,0.6725173,1.148791761
0.020678724,0.910837412,0.576671124,1.162174376
0.0207899,0.974534869,0.472851038,1.173306315
0.020901076,1.02496803,0.362833321,1.182207481
0.021012252,1.06168818,0.248421684,1.188895125
0.021123428,1.08448589,0.131416604,1.193379969
0.021234604,1.09338295,0.013589847,1.195670959
0.02134578,1.08862209,-0.103342168,1.195777659
0.021456954,1.07065797,-0.217742756,1.193720397
0.02156813,1.04014444,-0.328081667,1.189538036
0.021679306,0.997928858,-0.432960927,1.18331717
0.021790482,0.945041358,-0.531133115,1.175205554
0.021901658,0.882671297,-0.621499121,1.165369776
0.022012834,0.812092662,-0.703132868,1.153890322
0.02212401,0.734635949,-0.775353134,1.14086246
0.022235186,0.651679695,-0.837746978,1.126506424
0.022346362,0.564606488,-0.890195072,1.111227753
0.022457538,0.474710971,-0.932980835,1.095803744
0.022568714,0.382832408,-0.967448771,1.082517777
0.02267989,0.314123124,-0.963286281,1.026593796
0.022791066,0.213621989,-0.992494524,1.030679734
0.022902242,0.122831702,-0.997352839,1.009800312
0.023013418,0.036243223,-0.994236588,0.989819964
0.023124594,-0.046655886,-0.984215438,0.9708568
0.02323577,-0.125767723,-0.968145907,0.953124017
0.023346946,-0.200991929,-0.946818709,0.936863423
0.023458122,-0.272318214,-0.920953155,0.922311923
0.023569298,-0.339832932,-0.891175568,0.909680315
0.023680474,-0.403700054,-0.858004153,0.89914486
0.02379165,-0.464136243,-0.821839929,0.890843321
0.023902826,-0.521380544,-0.78296411,0.884870469
0.024014002,-0.575667024,-0.741544485,0.881280746
0.024125178,-0.627197981,-0.697643757,0.880084119
0.024236354,-0.676121354,-0.651235998,0.88124841
0.02434753,-0.722511232,-0.602226079,0.884698731
0.024458706,-0.766355693,-0.550471187,0.890319576
0.024569882,-0.807545602,-0.495805591,0.897953083
0.024681058,-0.845870614,-0.438065052,0.907398085
0.024792232,-0.881019235,-0.377111852,0.918408241
0.024903408,-0.91257751,-0.312857598,0.930677588
0.025014584,-0.940016329,-0.245288745,0.943797267
0.02512576,-0.962630868,-0.174578428,0.957135816
0.025236936,-0.979899049,-0.101384185,0.970480899
0.025348112,-0.995835125,-0.02228649,0.992184284
0.025459288,-1.00280392,0.056287866,1.008784026
0.025570464,-1.00312483,0.136673868,1.024939171
0.02568164,-0.996364474,0.218282729,1.040389515
0.025792816,-0.97583425,0.287602246,1.034967535
0.025903992,-0.955460846,0.36502862,1.046151322
0.026015168,-0.929941237,0.44156608,1.059771307
0.026126344,-0.897335947,0.518792033,1.074356975
0.02623752,-0.8555094,0.593554974,1.084203841
0.026348696,-0.806087554,0.66356796,1.090099582
0.026459872,-0.750336945,0.728236258,1.093333578
0.026571048,-0.689089239,0.787132323,1.094421273
0.026682224,-0.623102725,0.839850187,1.093605343
0.0267934,-0.553146958,0.88605243,1.091060466
0.026904576,-0.480007917,0.925497472,1.086953171
0.027015752,-0.404471189,0.958049357,1.081455513
0.027126928,-0.327304572,0.983678401,1.074751479
0.027238104,-0.249240056,1.00245094,1.067028493
0.02734928,-0.170961171,1.01452029,1.058479141
0.027460456,-0.093091913,1.02011156,1.049293699
0.027571632,-0.016190784,1.01950657,1.039655788
0.027682808,0.059252918,1.01303184,1.029744417
0.027793984,0.132819295,1.00103974,1.019721526
0.02790516,0.204155326,0.983901322,1.009741209
0.028016334,0.272969544,0.961988807,0.999934837
0.02812751,0.339025438,0.935669899,0.990416408
0.028238686,0.402129978,0.905302107,0.981280424
0.028349862,0.462122798,0.87123245,0.972603462
0.028461038,0.518873155,0.833810985,0.96447011
0.028572214,0.572299063,0.793397248,0.957005411
0.02868339,0.622386754,0.750331044,0.950361947
0.028794566,0.669163406,0.704900503,0.944664383
0.028905742,0.71266228,0.657356739,0.940005408
0.029016918,0.752926111,0.607951045,0.936502202
0.029128094,0.790064156,0.556961119,0.934407059
0.02923927,0.82438302,0.504628122,0.934256905
0.029350446,0.856421173,0.450789213,0.93666814
0.029461622,0.886203349,0.394606143,0.941070384
0.029572798,0.912764728,0.33571443,0.945843627
0.029683974,0.935414255,0.27467075,0.950443849
0.02979515,0.954042912,0.21201773,0.955149396
0.029906326,0.96866101,0.148054406,0.960224259
0.030017502,0.979230821,0.082975805,0.965777985
0.030128678,0.985663056,0.016960273,0.971819311
0.030239854,0.987839103,-0.049797058,0.97830584
0.03035103,0.98562479,-0.117071971,0.985162073
0.030462206,0.978886068,-0.18460767,0.992297926
0.030573382,0.967495322,-0.25211224,0.99960778
0.030684558,0.951342642,-0.319259793,1.006979638
0.030795734,0.930341542,-0.385690838,1.014292807
0.03090691,0.904437125,-0.451015204,1.021421227
0.031018086,0.873612463,-0.514814258,1.028232456
0.031129262,0.837897182,-0.576647103,1.034593569
0.031240438,0.797371268,-0.636054277,1.040365982
0.031351612,0.752173126,-0.69256562,1.045411549
0.031462788,0.702505171,-0.745708704,1.049594987
0.031573964,0.648639321,-0.795019984,1.052789744
0.03168514,0.590920866,-0.840056777,1.054882858
0.031796316,0.529769957,-0.880418718,1.055793326
0.031907492,0.465673834,-0.915765643,1.055478833
0.032018668,0.399171263,-0.945835471,1.053942435
0.032129844,0.330836505,-0.970451415,1.051228742
0.03224102,0.261265755,-0.989529908,1.047429234
0.032352196,0.191062793,-1.00310135,1.042717309
0.032463372,0.120795861,-1.01133728,1.037394734
0.032574548,0.050894581,-1.01455045,1.031902874
0.032685724,-0.018480886,-1.01304913,1.026610083
0.0327969,-0.087312564,-1.00682282,1.021315675
0.032908076,-0.155249119,-0.99560231,1.015326249
0.033019252,-0.221583292,-0.979392886,1.00830958
0.033130428,-0.285695314,-0.958578944,1.000495404
0.033241604,-0.347213775,-0.933672249,0.992301274
0.03335278,-0.405950546,-0.905159831,0.984110165
0.033463956,-0.461825252,-0.873470485,0.976233252
0.033575132,-0.514826298,-0.838974059,0.968923589
0.033686308,-0.564989328,-0.801981568,0.962387376
0.033797484,-0.612380803,-0.76274699,0.956793219
0.03390866,-0.657085061,-0.721467495,0.952276124
0.034019836,-0.699189365,-0.678285301,0.948936718
0.034131012,-0.738771677,-0.633290946,0.946841013
0.034242188,-0.775889754,-0.586531699,0.946024344
0.034353364,-0.810569048,-0.538018048,0.946485602
0.03446454,-0.842797518,-0.487736106,0.948194165
0.034575716,-0.872517049,-0.435657531,0.951083485
0.034686892,-0.899623275,-0.381755501,0.955059299
0.034798068,-0.923965633,-0.326016486,0.95999924
0.034909244,-0.945350587,-0.268454671,0.965755643
0.03502042,-0.963551879,-0.209125295,0.972165613
0.035131596,-0.978320241,-0.148132816,0.979053825
0.035242772,-0.989400208,-0.085637733,0.986246593
0.035353948,-0.99654299,-0.021857821,0.993575695
0.035465124,-0.999523282,0.042934042,1.000890123
0.0355763,-0.998154461,0.108415745,1.008066302
0.035687476,-0.992310643,0.174232334,1.015037318
0.035798652,-0.981935263,0.240031093,1.021811786
0.035909828,-0.96701777,0.305516422,1.028463652
0.036021004,-0.947493732,0.370469749,1.034992207
0.03613218,-0.923142016,0.434622735,1.041088103
0.036243352,-0.89369452,0.497446924,1.046143337
0.036354528,-0.859118402,0.55819273,1.049663552
0.036465704,-0.81968087,0.616143346,1.051509351
0.03657688,-0.775808096,0.67074883,1.051782195
0.036688056,-0.727970719,0.721605718,1.05065618
0.036799232,-0.676643968,0.768413544,1.048306434
0.036910408,-0.622302294,0.810951114,1.044901854
0.037021584,-0.565413237,0.849062681,1.040599565
0.03713276,-0.506435215,0.882655263,1.03555694
0.037243936,-0.445809305,0.911691606,1.029927521
0.037355112,-0.383953631,0.936185718,1.023864089
0.037466288,-0.321256876,0.956195295,1.017515423
0.037577464,-0.258074075,0.971813917,1.011024517
0.03768864,-0.194724068,0.983161747,1.004524483
0.037799816,-0.131488845,0.990380406,0.998142665
0.037910992,-0.068614297,0.993621528,0.991991663
0.038022168,-0.00631244,0.993041873,0.986172008
0.038133344,0.055234622,0.988797486,0.980771332
0.03824452,0.115871042,0.981040001,0.975865582
0.038355696,0.175461739,0.969913721,0.971519448
0.038466872,0.233890489,0.955553532,0.967787313
0.038578048,0.291053981,0.938087046,0.964719726
0.038689224,0.346861869,0.917632878,0.962363255
0.0388004,0.401233822,0.894302845,0.960766158
0.038911576,0.454101771,0.86820364,0.959985979
0.039022752,0.505417049,0.83943671,0.960100384
0.039133928,0.555160165,0.808088899,0.961210477
0.039245104,0.603353083,0.774201274,0.963422555
0.03935628,0.650026619,0.73771435,0.966757068
0.039467456,0.6951226,0.69844979,0.971027538
0.039578632,0.738393426,0.656211436,0.9758383
0.039689808,0.779448807,0.610943079,0.980791889
0.039800984,0.817903399,0.562760115,0.985664917
0.03991216,0.853457034,0.511867702,0.990397453
0.040023336,0.885880411,0.458486617,0.994994081
0.040134512,0.914982319,0.402833015,0.999467082
0.040245688,0.940586627,0.345121115,1.003811787
0.040356864,0.962524951,0.285572469,1.008005916
0.04046804,0.980637133,0.224421382,1.012014143
0.040579216,0.994774818,0.161920592,1.015795217
0.040690392,1.00480318,0.098340765,1.019300337
0.040801568,1.01060677,0.033971001,1.022480072
0.040912744,1.01209176,-0.030882029,1.02528343
0.04102392,1.00918949,-0.095895484,1.027659371
0.041135096,1.00185943,-0.160733223,1.029557486
0.041246272,0.990093708,-0.225047603,1.030931974
0.041357448,0.973917603,-0.288484037,1.031738537
0.041468624,0.953394175,-0.350683898,1.031939649
0.0415798,0.928627014,-0.411290199,1.031507759
0.041690976,0.899761081,-0.469954163,1.030426918
0.041802152,0.866983175,-0.526341021,1.028694696
0.041913328,0.830522418,-0.580140173,1.026330107
0.042024504,0.790647745,-0.631072819,1.02337676
0.04213568,0.747661829,-0.678901732,1.019905772
0.042246856,0.701893568,-0.723440647,1.016020951
0.042358032,0.653686225,-0.764567673,1.011869407
0.042469208,0.603372395,-0.802229643,1.007630647
0.042580384,0.551240563,-0.836439967,1.003497977
0.04269156,0.497497529,-0.867238581,0.999606548
0.042802732,0.442274362,-0.894620061,0.995951665
0.042913908,0.385705233,-0.918488264,0.992389218
0.043025084,0.328014016,-0.938704133,0.988758644
0.04313626,0.269515634,-0.955184996,0.985017054
0.043247436,0.210543945,-0.967951894,0.981259622
0.043358612,0.151387066,-0.977103114,0.977648539
0.043469788,0.092269957,-0.982774794,0.974360041
0.043580964,0.033358786,-0.985106826,0.971548267
0.04369214,-0.025225719,-0.984226167,0.969337485
0.043803316,-0.083395198,-0.98023808,0.967821453
0.043914492,-0.141083017,-0.973221481,0.967064469
0.044025668,-0.198233068,-0.963227987,0.967104504
0.044136844,-0.254791439,-0.950280607,0.967951909
0.04424802,-0.310697556,-0.934376359,0.969592152
0.044359196,-0.365876228,-0.915490627,0.971988502
0.044470372,-0.420231432,-0.893580973,0.975081412
0.044581548,-0.473640442,-0.868593633,0.978790168
0.044692724,-0.525950313,-0.840473175,0.98301889
0.0448039,-0.576975584,-0.809168041,0.987653743
0.044915076,-0.626498759,-0.774642408,0.992571555
0.045026252,-0.674272299,-0.736883938,0.997641071
0.045137428,-0.720025063,-0.69591248,1.002730271
0.045248604,-0.763468266,-0.651788771,1.007712395
0.04535978,-0.804306149,-0.604618192,1.012471539
0.045470956,-0.842247963,-0.554552734,1.016910366
0.045582132,-0.877021313,-0.50179112,1.020960712
0.045693308,-0.908385277,-0.44656992,1.024588505
