Frequency (GHz),Re( S21 ),Im( S21 ),S2
0,0.020843538,0,0.000434453
8.92E-05,0.020533567,-0.00359467,0.000434549
0.000178374,0.019612249,-0.007085765,0.000434848
0.000267561,0.018104205,-0.010372235,0.000435345
0.000356748,0.016049832,-0.013357732,0.000436026
0.000445935,0.013505524,-0.015952809,0.000436891
0.000535121,0.010542066,-0.01807775,0.00043794
0.000624308,0.00724276,-0.019664411,0.000439147
0.000713495,0.003703072,-0.020659128,0.000440512
0.000802682,2.72E-05,-0.021024125,0.000442015
0.000891869,-0.003673924,-0.02074006,0.000443648
0.000981056,-0.007285817,-0.019806804,0.000445393
0.001070243,-0.010693898,-0.01824481,0.000447233
0.00115943,-0.013787493,-0.016095299,0.000449154
0.001248617,-0.016463768,-0.013419528,0.000451139
0.001337804,-0.018631412,-0.010297526,0.000453169
0.001426991,-0.020214912,-0.006825923,0.000455236
0.001516177,-0.021157095,-0.003115122,0.000457327
0.001605364,-0.021422176,0.000715326,0.000459421
0.001694551,-0.020997843,0.004540654,0.000461527
0.001783738,-0.019894965,0.008235023,0.000463625
0.001872925,-0.018148253,0.011677267,0.000465718
0.001962112,-0.015814392,0.01475506,0.000467807
0.002051299,-0.01296964,0.017369265,0.000469903
0.002140486,-0.009706929,0.019436564,0.000472005
0.002229673,-0.006132232,0.020893464,0.000474141
0.00231886,-0.002359918,0.021696769,0.000476319
0.002408047,0.001491031,0.021825284,0.000478566
0.002497234,0.005301107,0.021278841,0.000480891
0.00258642,0.008954355,0.020078499,0.000483327
0.002675607,0.012341415,0.018264396,0.000485899
0.002764794,0.015362722,0.015893873,0.000488628
0.002853981,0.017930783,0.013039202,0.000491534
0.002943168,0.019972267,0.009785461,0.000494647
0.003032355,0.021428879,0.006227202,0.000497975
0.003121542,0.02225915,0.002466812,0.000501555
0.003210729,0.022438726,-0.001388683,0.000505425
0.003299916,0.021963112,-0.005224193,0.00050967
0.003389103,0.020807974,-0.008949079,0.000513058
0.00347829,0.019059466,-0.012443193,0.000518096
0.003567476,0.016724598,-0.015602562,0.000523152
0.003656663,0.01386663,-0.018335901,0.000528489
0.00374585,0.010560328,-0.020557869,0.000534147
0.003835037,0.006893614,-0.022194734,0.000540128
0.003924224,0.002967004,-0.02318739,0.000546458
0.004013411,-0.001108785,-0.0234924,0.000553122
0.004102598,-0.005215124,-0.023085173,0.000560123
0.004191785,-0.009227876,-0.021960961,0.000567437
0.004280972,-0.013021499,-0.020136999,0.000575058
0.004370159,-0.016472226,-0.017652925,0.00058296
0.004459346,-0.019462977,-0.014570785,0.000591115
0.004548533,-0.021887407,-0.010974858,0.000599506
0.004637719,-0.023654034,-0.00696894,0.000608079
0.004726906,-0.02469117,-0.002674524,0.000616807
0.004816093,-0.024949968,0.001773461,0.000625646
0.00490528,-0.024407728,0.006231217,0.000634565
0.004994467,-0.023069067,0.010551394,0.000643514
0.005083654,-0.020967137,0.014588977,0.000652459
0.005172841,-0.018162631,0.018206935,0.000661374
0.005262028,-0.014741403,0.021281924,0.000670229
0.005351215,-0.010811174,0.02370912,0.000679004
0.005440402,-0.006497923,0.025406063,0.000687691
0.005529589,-0.001939445,0.026315808,0.000696283
0.005618775,0.002718949,0.026408292,0.000704791
0.005707962,0.007330013,0.025680628,0.000713224
0.005797149,0.011750401,0.024156515,0.000721609
0.005886336,0.015844647,0.021884309,0.000729976
0.005975523,0.019489978,0.018934386,0.00073837
0.00606471,0.022578599,0.015396171,0.000746835
0.006153897,0.025020596,0.011374489,0.000755409
0.006243084,0.02674615,0.006986177,0.000764163
0.006332271,0.027705429,0.002356366,0.000773143
0.006421458,0.027870011,-0.002384733,0.000782424
0.006510645,0.027231542,-0.00710522,0.000792041
0.006599831,0.025802009,-0.011674739,0.000802043
0.006689018,0.023614196,-0.01597088,0.000812699
0.006778205,0.020729939,-0.019867081,0.000824431
0.006867392,0.017205352,-0.023246134,0.000836407
0.006956579,0.01312779,-0.026013615,0.000849047
0.007045766,0.008600212,-0.028081127,0.000862513
0.007134953,0.003737822,-0.029375158,0.000876871
0.00722414,-0.001331778,-0.029839961,0.000892197
0.007313327,-0.006471309,-0.02943928,0.000908549
0.007402514,-0.01153619,-0.028158531,0.000925987
0.0074917,-0.016377112,-0.026006654,0.000944556
0.007580887,-0.020844342,-0.023017732,0.000964303
0.007670074,-0.024791401,-0.019251499,0.000985234
0.007759261,-0.02808019,-0.014794794,0.001007383
0.007848448,-0.030585641,-0.009759859,0.001030736
0.007937635,-0.03220126,-0.004283104,0.001055266
0.008026822,-0.032844201,0.001477266,0.001080924
0.008116009,-0.032460425,0.007346336,0.001107648
0.008205196,-0.031028245,0.013137307,0.001135341
0.008294383,-0.028561687,0.018657837,0.001163885
0.00838357,-0.025112076,0.023718236,0.001193171
0.008472756,-0.020767255,0.028138377,0.001223047
0.008561943,-0.015649732,0.031755965,0.001253355
0.00865113,-0.009913035,0.034433737,0.001283951
0.008740317,-0.003735488,0.036065336,0.001314662
0.008829504,0.002686482,0.036580592,0.001345357
0.008918691,0.009145968,0.03594771,0.001375887
0.009007878,0.01543426,0.034174897,0.00140614
0.009097065,0.021348748,0.031309061,0.001436026
0.009186251,0.026699767,0.027433462,0.001465472
0.009275438,0.031318046,0.022663495,0.001494454
0.009364625,0.035058692,0.017141448,0.001522941
0.009453812,0.037805758,0.011031444,0.001550968
0.009542999,0.03947461,0.00451267,0.001578609
0.009632186,0.040012144,-0.002226337,0.001605928
0.009721373,0.039398033,-0.008993033,0.00163308
0.00981056,0.037642974,-0.015596929,0.001660258
0.009899747,0.034787837,-0.021853974,0.00168779
0.009988934,0.030904282,-0.027591446,0.001716363
0.010078121,0.026096227,-0.0326453,0.001746729
0.010167307,0.020480316,-0.036850497,0.001777402
0.010256494,0.014173208,-0.040082894,0.001807518
0.010345681,0.007334062,-0.042250752,0.001838915
0.010434868,0.000141104,-0.04327172,0.001872462
0.010524055,-0.007219077,-0.043086495,0.001908561
0.010613242,-0.014551477,-0.041663472,0.00194759
0.010702429,-0.021654798,-0.039000753,0.001989989
0.010791616,-0.028324792,-0.035127763,0.002036254
0.010880803,-0.034358252,-0.030106347,0.002086882
0.01096999,-0.039558705,-0.02403196,0.002142426
0.011059177,-0.043740865,-0.017034091,0.002203424
0.011148363,-0.046737295,-0.009275809,0.002270415
0.01123755,-0.048404925,-0.00095207,0.002343943
0.011326737,-0.048631221,0.007712954,0.002424485
0.011415924,-0.047340974,0.016471053,0.002512463
0.011505111,-0.044502597,0.025055327,0.002608251
0.011594298,-0.04013228,0.033188462,0.002712074
0.011683485,-0.034298033,0.040591985,0.002824064
0.011772672,-0.027121391,0.046996202,0.002944213
0.011861859,-0.018775767,0.052151565,0.003072315
0.011951046,-0.00948358,0.055839848,0.003208027
0.012040233,0.000489456,0.057884332,0.003350835
0.012129419,0.010843938,0.058158819,0.003500039
0.012218606,0.021256255,0.056594931,0.003654815
0.012307793,0.031391364,0.053185809,0.003814148
0.01239698,0.040915519,0.047988638,0.003976989
0.012486167,0.049508683,0.041122571,0.004142176
0.012575354,0.056876954,0.032764506,0.004308501
0.012664541,0.062762775,0.023142757,0.004474753
0.012753728,0.066954106,0.012528419,0.004639814
0.012842915,0.069289863,0.001225637,0.004802587
0.012932102,0.069665089,-0.010438743,0.004962192
0.013021289,0.068032183,-0.022125706,0.005117925
0.013110475,0.064400971,-0.033494197,0.005269346
0.013199662,0.058838476,-0.044209823,0.005416475
0.013288849,0.051465571,-0.053953353,0.005559669
0.013378036,0.042454474,-0.062424056,0.005699145
0.013467223,0.032019492,-0.069342375,0.005833613
0.01355641,0.020401012,-0.074463166,0.005960964
0.013645597,0.007872984,-0.077595346,0.006083022
0.013734784,-0.005247074,-0.078592531,0.006204318
0.013823971,-0.018613581,-0.077346489,0.006328945
0.013913158,-0.031863038,-0.073794313,0.006460854
0.014002345,-0.044620246,-0.06792406,0.006604644
0.014091531,-0.056502059,-0.059779245,0.006766041
0.014180718,-0.067123853,-0.04946094,0.006951996
0.014269905,-0.076107025,-0.037130654,0.007170965
0.014359092,-0.083086982,-0.023012204,0.007433008
0.014448279,-0.087723099,-0.007392371,0.007749989
0.014537466,-0.089709498,0.009379337,0.008135766
0.014626653,-0.088786133,0.026893102,0.008606216
0.01471584,-0.084751621,0.044684071,0.009179503
0.014805027,-0.077474661,0.062238477,0.009875951
0.014894214,-0.06690608,0.07900472,0.010718169
0.0149834,-0.053088818,0.094406202,0.011730954
0.015072587,-0.036166042,0.107857071,0.01294113
0.015161774,-0.016386367,0.118780889,0.014377413
0.015250961,0.005895385,0.126630604,0.016070065
0.015340148,0.030220913,0.130909458,0.01805059
0.015429335,0.056036335,0.131192714,0.020351599
0.015518522,0.08270523,0.12714611,0.023006288
0.015607709,0.109524831,0.118542492,0.026048011
0.015696896,0.135747448,0.105275296,0.029510258
0.015786083,0.160603151,0.087365575,0.033426116
0.01587527,0.18332389,0.064965546,0.037828171
0.015964456,0.203168422,0.038355462,0.042748549
0.016053643,0.219444528,0.007936783,0.048218893
0.01614283,0.231528908,-0.025780387,0.054270264
0.016232017,0.238884285,-0.06219184,0.060933527
0.016321204,0.241071135,-0.100616127,0.068238897
0.016410391,0.237756506,-0.140314564,0.076216333
0.016499578,0.228717998,-0.180507958,0.084895046
0.016588765,0.213844106,-0.220395759,0.094303592
0.016677952,0.193133533,-0.259173214,0.104471316
0.016767139,0.166690975,-0.296045244,0.115428668
0.016856326,0.134723663,-0.330239356,0.127208498
0.016945512,0.097537249,-0.361014664,0.139845103
0.0170347,0.055533014,-0.387671143,0.153372831
0.017123886,0.009219614,-0.409568578,0.167831421
0.017213074,-0.04082831,-0.426231652,0.183340372
0.01730226,-0.094184347,-0.437167645,0.199986241
0.017391448,-0.150209755,-0.441786736,0.217738491
0.017480634,-0.208151653,-0.439647764,0.236617267
0.01756982,-0.267213017,-0.430405855,0.256651996
0.017659008,-0.326550305,-0.41380313,0.277868132
0.017748194,-0.385277689,-0.389673531,0.300284358
0.017837382,-0.442472488,-0.357951432,0.32391113
0.017926568,-0.497183859,-0.31867826,0.348747623
0.018015756,-0.548444808,-0.272011846,0.374782152
0.018104942,-0.595283031,-0.218232855,0.401987466
0.01819413,-0.636739373,-0.157751724,0.430322636
0.018283316,-0.671883523,-0.091112047,0.459728874
0.018372502,-0.699836135,-0.018992888,0.490131346
0.01846169,-0.719790757,0.057793908,0.52143887
0.018550876,-0.731035173,0.138310134,0.553542117
0.018640064,-0.732976675,0.221501663,0.586317793
0.01872925,-0.72516346,0.306214303,0.619629243
0.018818438,-0.707304597,0.391214609,0.653328663
0.018907624,-0.679289222,0.475213766,0.687261971
0.018996812,-0.641199708,0.556893945,0.721267932
0.019085998,-0.593320072,0.634932935,0.75516854
0.019175186,-0.536136568,0.708018422,0.788732505
0.019264372,-0.470301747,0.774849117,0.821574887
0.019353558,-0.396527678,0.834176898,0.853085297
0.019442746,-0.315525085,0.88501215,0.882802585
0.019531932,-0.228238538,0.926746428,0.910951772
0.01962112,-0.135945216,0.958889127,0.93794946
0.019710306,-0.040011048,0.980963111,0.963889509
0.019799494,0.058230698,0.992614031,0.988673429
0.01988868,0.15748252,0.993670583,1.012181972
0.019977868,0.256482303,0.984145045,1.034324641
0.020067054,0.354016036,0.964218378,1.055044434
0.020156242,0.448933035,0.934219778,1.074307464
0.020245428,0.540161133,0.894611597,1.092103959
0.020334614,0.62671864,0.845966101,1.108434898
0.020423802,0.707721293,0.788950026,1.123311572
0.020512988,0.782388866,0.724306285,1.136751932
0.020602176,0.850046515,0.652837455,1.14877582
0.020691362,0.910124838,0.575391531,1.159402635
0.02078055,0.962160349,0.492848724,1.168652402
0.020869736,1.00579011,0.406110287,1.176539311
0.020958924,1.04075134,0.3160882,1.183075102
0.02104811,1.0668776,0.223696098,1.188267758
0.021137298,1.08409476,0.129841685,1.192120312
0.021226484,1.09241772,0.035419315,1.194631003
0.02131567,1.09194982,-0.058697965,1.19579986
0.021404858,1.08287752,-0.1516646,1.195625874
0.021494044,1.06546772,-0.242670909,1.194110632
0.021583232,1.04006803,-0.33095175,1.191270568
0.021672418,1.00710285,-0.41579473,1.187141408
0.021761606,0.967075527,-0.496547103,1.1817941
0.021850792,0.920567036,-0.572612584,1.175328839
0.02193998,0.868211806,-0.643445075,1.167813305
0.022029166,0.810666025,-0.70857358,1.159255922
0.022118354,0.748606026,-0.767635643,1.149675463
0.02220754,0.682734072,-0.820385993,1.139158991
0.022296726,0.613764942,-0.866698742,1.127874113
0.022385914,0.542397261,-0.90658927,1.116098893
0.0224751,0.469260991,-0.940283,1.104337998
0.022564288,0.394718826,-0.968476951,1.093750556
0.022653474,0.316827685,-0.993845642,1.088108942
0.022742662,0.269322485,-0.986071587,1.044871776
0.022831848,0.189043805,-0.998550713,1.032841087
0.022921036,0.115333438,-1.00137472,1.016053132
0.023010222,0.044701163,-0.998779416,0.999558516
0.02309941,-0.023329489,-0.991493583,0.98360379
0.023188596,-0.088783376,-0.980021179,0.968323999
0.023277782,-0.151614219,-0.964815378,0.953855585
0.02336697,-0.211791337,-0.946298718,0.940336834
0.023456156,-0.269321799,-0.924859464,0.92789926
0.023545344,-0.32425338,-0.900845468,0.916662812
0.02363453,-0.376669794,-0.874559164,0.906733865
0.023723718,-0.426682323,-0.846253335,0.898202512
0.023812904,-0.474420369,-0.816128552,0.8911405
0.023902092,-0.520021796,-0.784334958,0.885603995
0.023991278,-0.563622355,-0.750971198,0.881627899
0.024080466,-0.605347872,-0.716089904,0.879230797
0.024169652,-0.645304024,-0.679701507,0.878411422
0.024258838,-0.6835711,-0.641780198,0.879151271
0.024348026,-0.72019577,-0.602271199,0.881412544
0.024437212,-0.755188942,-0.56109798,0.885141281
0.0245264,-0.788519263,-0.518170297,0.890263085
0.024615586,-0.820112646,-0.473393172,0.896685847
0.024704774,-0.849851429,-0.42667523,0.904299203
0.02479396,-0.877572417,-0.377937227,0.912969895
0.024883148,-0.903067231,-0.327119708,0.922537727
0.024972334,-0.926079869,-0.27419281,0.932805621
0.025061522,-0.946292162,-0.219172001,0.943505222
0.025150708,-0.963301301,-0.162193641,0.954256174
0.025239894,-0.976823807,-0.103655867,0.964929289
0.025329082,-0.98688215,-0.04379515,0.975854393
0.025418268,-0.998683214,0.022715049,0.997884135
0.025507456,-1.00213289,0.086318545,1.01172122
0.025596642,-1.0012151,0.151041612,1.025245245
0.02568583,-0.995694458,0.216578215,1.038313577
0.025775016,-0.977751017,0.268557101,1.028119968
0.025864204,-0.963155031,0.330856711,1.037133777
0.02595339,-0.94489187,0.392111868,1.046572363
0.026042578,-0.923617244,0.452995002,1.058273285
0.026131764,-0.898014486,0.514701307,1.071347452
0.02622095,-0.866175234,0.575627148,1.08160615
0.026310138,-0.828698754,0.63377589,1.088413504
0.026399324,-0.786601782,0.688508332,1.092786087
0.026488512,-0.740520835,0.73958981,1.095364194
0.026577698,-0.690918088,0.786822796,1.096457917
0.026666886,-0.638209462,0.830014706,1.09623573
0.026756072,-0.582805276,0.868995428,1.094815044
0.02684526,-0.525119722,0.903629541,1.09229707
0.026934446,-0.465568066,0.933822989,1.088778999
0.027023634,-0.404560685,0.959525883,1.084359268
0.02711282,-0.342498392,0.980731666,1.079139749
0.027202006,-0.279765874,0.997474253,1.07322383
0.027291194,-0.216727391,1.0098238,1.066714869
0.02738038,-0.153722987,1.01788211,1.059714747
0.027469568,-0.091066115,1.02177894,1.052325239
0.027558754,-0.029041706,1.02166462,1.044642016
0.027647942,0.03209411,1.01770711,1.036757794
0.027737128,0.092114806,1.01008618,1.028759229
0.027826316,0.150820851,0.998989642,1.020727234
0.027915502,0.208040714,0.984607577,1.012733019
0.02800469,0.263626039,0.96713233,1.004843632
0.028093876,0.317450643,0.946751475,0.997113266
0.028183062,0.369406432,0.92364943,0.989589382
0.02827225,0.419399291,0.898004472,0.982307797
0.028361436,0.467345327,0.869992435,0.975298492
0.028450624,0.513170481,0.839793682,0.968597371
0.02853981,0.556816816,0.807594478,0.962253807
0.028628998,0.598255157,0.773585558,0.956343848
0.028718184,0.637486577,0.737943769,0.950950142
0.028807372,0.674526572,0.700822115,0.946137733
0.028896558,0.709394217,0.662359178,0.941959836
0.028985746,0.742109954,0.62269187,0.938472349
0.029074932,0.77271229,0.581968904,0.935772088
0.029164118,0.801289618,0.540352046,0.934045386
0.029253306,0.828040302,0.497976094,0.933630932
0.029342492,0.8532933,0.454795986,0.934948845
0.02943168,0.877272248,0.410394907,0.938030577
0.029520866,0.899659872,0.364242464,0.942060458
0.029610054,0.919806302,0.316305816,0.946093002
0.02969924,0.937328815,0.266961157,0.949853567
0.029788428,0.952154219,0.216565266,0.953498171
0.029877614,0.964308918,0.165339157,0.957228726
0.0299668,0.97381258,0.113420114,0.961175063
0.030055988,0.980658352,0.060911201,0.965400978
0.030145174,0.984816551,0.007907819,0.969926173
0.030234362,0.986242473,-0.045490846,0.974743633
0.030323548,0.984883606,-0.099175997,0.979831596
0.030412736,0.980682135,-0.153027654,0.985154913
0.030501922,0.973580658,-0.206913531,0.990672507
0.03059111,0.963524222,-0.260688275,0.996337303
0.030680296,0.950462222,-0.314192772,1.002095533
0.030769484,0.934352458,-0.36725539,1.007891037
0.03085867,0.915162921,-0.419691205,1.01366388
0.030947856,0.892873228,-0.471303463,1.019349556
0.031037044,0.867478013,-0.52188319,1.024880167
0.03112623,0.838989437,-0.571212113,1.030186553
0.031215418,0.807438135,-0.619062006,1.035194109
0.031304604,0.772877514,-0.665198445,1.039828623
0.031393792,0.735385358,-0.709382117,1.044014613
0.031482978,0.69506526,-0.751371384,1.047674672
0.031572166,0.652050734,-0.790926754,1.05073529
0.031661352,0.60650593,-0.827814877,1.053126914
0.03175054,0.558628023,-0.861814976,1.054790321
0.031839726,0.508645713,-0.892725766,1.055679755
0.031928912,0.456816614,-0.920373738,1.055769236
0.0320181,0.403421313,-0.944618702,1.055053248
0.032107286,0.348757565,-0.965357423,1.053546793
0.032196474,0.293134272,-0.982524395,1.051281888
0.03228566,0.236868933,-0.996099114,1.048320336
0.032374848,0.18027918,-1.0061121,1.044762141
0.032464034,0.123666942,-1.01265907,1.040771905
0.032553222,0.067281045,-1.015903,1.036585644
0.032642408,0.011262734,-1.01604521,1.032474718
0.032731596,-0.044385154,-1.01322353,1.028591964
0.032820782,-0.099693313,-1.00738382,1.024760917
0.032909968,-0.154513299,-0.99832803,1.020533215
0.032999156,-0.208471388,-0.985950589,1.015558884
0.033088342,-0.261149019,-0.9703632,1.00980355
0.03317753,-0.312230915,-0.951821387,1.003452097
0.033266716,-0.361521482,-0.93061763,0.996746955
0.033355904,-0.408912599,-0.907031953,0.989916477
0.03344509,-0.454351366,-0.881316364,0.983153697
0.033534278,-0.497822195,-0.853693843,0.976620115
0.033623464,-0.539335668,-0.824360311,0.970452885
0.033712652,-0.578922033,-0.793484628,0.964768575
0.03380184,-0.616624415,-0.761209428,0.959665462
0.033891024,-0.652494907,-0.727652013,0.955227056
0.033980212,-0.68658942,-0.692903578,0.9515204
0.0340694,-0.718962967,-0.65703243,0.948599362
0.034158584,-0.749664366,-0.620083988,0.946500814
0.034247772,-0.778734446,-0.582083881,0.945248982
0.03433696,-0.806199551,-0.543041408,0.944851687
0.034426148,-0.832070887,-0.502952337,0.945303014
0.034515332,-0.856341481,-0.461803168,0.946582898
0.03460452,-0.878984034,-0.419576019,0.948656968
0.034693708,-0.899950147,-0.376252592,0.95147628
0.034782896,-0.919171751,-0.331819594,0.954980951
0.03487208,-0.936560631,-0.286273867,0.959098542
0.034961268,-0.9520123,-0.239626214,0.963748142
0.035050456,-0.965408027,-0.191906407,0.968840728
0.03513964,-0.976620734,-0.143166244,0.974284631
0.035228828,-0.985518754,-0.093481079,0.979985927
0.035318016,-0.991972268,-0.042950552,0.98585373
0.035407204,-0.995858312,0.008301105,0.991802686
0.035496388,-0.997066021,0.060126904,0.997755895
0.035585576,-0.995503306,0.112359986,1.003651599
0.035674764,-0.991103768,0.164819106,1.009452017
0.035763948,-0.98383081,0.217320681,1.015151341
0.035853136,-0.973677993,0.269694865,1.020784154
0.035942324,-0.960650742,0.321808994,1.026410877
0.036031512,-0.94472158,0.373571575,1.032054585
0.036120696,-0.925782621,0.4248873,1.037602679
0.036209884,-0.903655112,0.475563675,1.04275337
0.036299072,-0.878193736,0.525258541,1.047120773
0.03638826,-0.849392831,0.57354176,1.050418332
0.036477444,-0.817395091,0.620006621,1.052542945
0.036566632,-0.782430053,0.664326906,1.053527026
0.03665582,-0.744759023,0.706256151,1.053463753
