Frequency (GHz),Re( S21 ),Im( S21 ),S2
0,0.061633635,0,0.003798705
0.000112432,0.060368855,-0.012449562,0.00379939
0.000224864,0.056625139,-0.024392588,0.003801405
0.000337296,0.05055359,-0.03534288,0.003804785
0.000449728,0.042399056,-0.044853844,0.003809547
0.000562159,0.032490559,-0.052536409,0.003815711
0.000674591,0.021228505,-0.058074549,0.003823303
0.000787023,0.009068448,-0.061238363,0.003832374
0.000899455,-0.003496816,-0.061892815,0.003842948
0.001011887,-0.015956702,-0.060003877,0.003855082
0.001124319,-0.027803319,-0.055639707,0.003868801
0.001236751,-0.038551722,-0.048968718,0.003884171
0.001349183,-0.047759123,-0.040252801,0.003901222
0.001461615,-0.055042829,-0.029837586,0.003919995
0.001574047,-0.060095932,-0.018139133,0.003940549
0.001686478,-0.062699564,-0.005627349,0.003962902
0.00179891,-0.062732592,0.007191899,0.003987102
0.001911342,-0.060176827,0.019797264,0.004013182
0.002023774,-0.055118557,0.031671748,0.004041155
0.002136206,-0.047746126,0.04232467,0.00407107
0.002248638,-0.03834286,0.051310115,0.004102903
0.00236107,-0.027277134,0.058246687,0.004136719
0.002473502,-0.014987862,0.06283202,0.004172499
0.002585934,-0.001967922,0.064856723,0.004210267
0.002698366,0.011255379,0.064213388,0.004250043
0.002810797,0.024140988,0.060901925,0.004291832
0.002923229,0.03615604,0.05503092,0.004335661
0.003035661,0.046797358,0.046814337,0.004381575
0.003148093,0.05561227,0.036563102,0.004429585
0.003260525,0.062221363,0.024670072,0.00448011
0.003372957,0.06634827,0.011694477,0.004538854
0.003485389,0.067699976,-0.002024516,0.004587385
0.003597821,0.066289216,-0.015800888,0.004643928
0.003710253,0.062103849,-0.029090945,0.004703171
0.003822684,0.055278864,-0.041343171,0.004765011
0.003935116,0.046059575,-0.052038763,0.004829517
0.004047548,0.034792636,-0.060714942,0.004896832
0.00415998,0.021913376,-0.0669844,0.004967106
0.004272412,0.007929346,-0.070552528,0.005040534
0.004384844,-0.006599468,-0.071230091,0.005117279
0.004497276,-0.021081412,-0.068942942,0.005197555
0.004609708,-0.034917548,-0.063736528,0.00528158
0.00472214,-0.047524657,-0.055776265,0.005369585
0.004834572,-0.05835966,-0.045342971,0.005461835
0.004947003,-0.066941641,-0.032823306,0.005558553
0.005059435,-0.072872847,-0.018696627,0.005660016
0.005171867,-0.075855829,-0.003517577,0.00576648
0.005284299,-0.075707898,0.012104874,0.005878214
0.005396731,-0.072370805,0.027531123,0.005995496
0.005509163,-0.06591592,0.042114977,0.00611858
0.005621595,-0.056544308,0.055231314,0.006247757
0.005734027,-0.044581793,0.066300362,0.006383274
0.005846459,-0.030468611,0.074813657,0.006525419
0.00595889,-0.014744383,0.080355592,0.006674418
0.006071322,0.001971517,0.082623899,0.006830596
0.006183754,0.019003335,0.081443772,0.006994215
0.006296186,0.035645582,0.076779455,0.007165692
0.006408618,0.051191978,0.068738245,0.007345565
0.00652105,0.064967856,0.057571977,0.007535355
0.006633482,0.076366432,0.043689143,0.007740573
0.006745914,0.084756523,0.027648905,0.00794813
0.006858346,0.089742445,0.009913178,0.008151977
0.006970777,0.091082126,-0.008727731,0.008372127
0.007083209,0.088422224,-0.027190222,0.008557798
0.007195641,0.082156815,-0.045290325,0.008800956
0.007308073,0.072209656,-0.061980072,0.009055764
0.007420505,0.058890302,-0.076516412,0.009322829
0.007532937,0.042657577,-0.088223167,0.009602996
0.007645369,0.024104644,-0.096520774,0.009897294
0.007757801,0.003938505,-0.100952655,0.01020695
0.007870233,-0.017044775,-0.101207055,0.010533392
0.007982665,-0.037990298,-0.097134054,0.010878287
0.008095096,-0.058016192,-0.088756315,0.011243562
0.008207528,-0.076247878,-0.076274112,0.011631479
0.00831996,-0.091853589,-0.060062181,0.012044547
0.008432392,-0.104078457,-0.040661726,0.012485701
0.008544824,-0.112277143,-0.018764719,0.012958272
0.008657256,-0.115943566,0.004808477,0.013466032
0.008769687,-0.114735857,0.029136041,0.014013226
0.008882119,-0.10849674,0.053226836,0.014604639
0.008994551,-0.097267121,0.07605774,0.015245673
0.009106983,-0.081292927,0.096611269,0.015942277
0.009219415,-0.061024547,0.113917455,0.016701182
0.009331847,-0.037107814,0.127093717,0.017529803
0.009444279,-0.010367327,0.1353845,0.018436444
0.009556711,0.018217865,0.138197541,0.019430451
0.009669143,0.04754629,0.135135293,0.020522197
0.009781575,0.076431692,0.126021862,0.021723313
0.009894006,0.103642717,0.110920496,0.023045169
0.010006438,0.127946168,0.090135291,0.024494593
0.01011887,0.148170516,0.064198427,0.02607594
0.010231302,0.163272172,0.033883613,0.027805901
0.010343734,0.17235516,0.000197746,0.02970634
0.010456166,0.17470777,-0.035669111,0.03179509
0.010568598,0.169849172,-0.072386637,0.034088566
0.01068103,0.157560214,-0.108527929,0.036603532
0.010793462,0.13790369,-0.142620072,0.039357913
0.010905893,0.111231789,-0.173199475,0.042370569
0.011018325,0.078183435,-0.198868215,0.045661216
0.011130757,0.03967062,-0.218350276,0.049250601
0.011243189,-0.003146539,-0.230543762,0.053160327
0.011355621,-0.048894972,-0.23456803,0.057412879
0.011468053,-0.096031316,-0.229803503,0.062031664
0.011580485,-0.142893106,-0.215922192,0.067040833
0.011692917,-0.187754214,-0.192909062,0.072465551
0.011805349,-0.228883266,-0.161071897,0.078331705
0.01191778,-0.264604449,-0.121040791,0.084666388
0.012030212,-0.293355495,-0.073755823,0.091497368
0.012142644,-0.313744426,-0.020444775,0.098853554
0.012255076,-0.324599892,0.037409537,0.106764563
0.012367508,-0.325015157,0.098109581,0.115260342
0.01247994,-0.314382493,0.159790158,0.124369246
0.012592372,-0.292422861,0.2204687,0.134117577
0.012704804,-0.259205431,0.278101802,0.144528068
0.012817236,-0.215160951,0.330648065,0.155622378
0.012929667,-0.161083683,0.376132548,0.167423647
0.013042099,-0.098123021,0.412710011,0.179957681
0.013154531,-0.027764259,0.438726485,0.193251783
0.013266963,0.04820621,0.452775896,0.207329851
0.013379395,0.12774232,0.453755349,0.222212017
0.013491827,0.208591402,0.440911323,0.237913168
0.013604259,0.288354009,0.413879663,0.25444441
0.013716691,0.364550412,0.372713119,0.271812072
0.013829123,0.434693694,0.317898393,0.290017996
0.013941554,0.496366382,0.250359893,0.309059661
0.014053986,0.547296941,0.171450078,0.328929071
0.014166418,0.585437536,0.082925491,0.349613746
0.01427885,0.609035254,-0.013090869,0.371095311
0.014391282,0.616699517,-0.114160836,0.393350991
0.014503714,0.607457876,-0.217594653,0.416352504
0.014616146,0.580802083,-0.32052511,0.440067406
0.014728578,0.53671968,-0.419990152,0.464459743
0.01484101,0.475711197,-0.513022125,0.489492844
0.014953441,0.398789793,-0.596739411,0.515131224
0.015065873,0.307466924,-0.668438196,0.541345531
0.015178305,0.203720629,-0.725677788,0.568110347
0.015290737,0.089945115,-0.766359031,0.595396288
0.015403169,-0.031118991,-0.788797677,0.623170167
0.015515601,-0.156466007,-0.791793942,0.651419258
0.015628033,-0.282913774,-0.774700522,0.680201102
0.015740465,-0.407197922,-0.737532735,0.709764683
0.015852897,-0.525831699,-0.681361616,0.740752627
0.015965329,-0.632729888,-0.60665518,0.768377619
0.01607776,-0.728559792,-0.511075854,0.791997899
0.016190192,-0.81100589,-0.400687546,0.818281063
0.016302624,-0.876373351,-0.27766186,0.845126359
0.016415056,-0.922506034,-0.144573525,0.871918887
0.016527488,-0.947842836,-0.004460669,0.898425939
0.01663992,-0.951360345,0.139365152,0.924509152
0.016752352,-0.932590842,0.283437163,0.950062304
0.016864784,-0.891633749,0.424239725,0.974990087
0.016977216,-0.829156041,0.558304846,0.999204041
0.017089648,-0.746374786,0.682307005,1.02261817
0.01720208,-0.645026207,0.79315114,1.045147539
0.017314512,-0.527321458,0.888055086,1.066709756
0.017426944,-0.395887911,0.964622855,1.08722449
0.017539374,-0.253700525,1.02090573,1.106612466
0.017651806,-0.104003116,1.05545259,1.124796818
0.017764238,0.049775433,1.0673449,1.141702729
0.01787667,0.204111487,1.05621719,1.157256252
0.017989102,0.35547629,1.02226186,1.171382703
0.018101534,0.500424027,0.966217101,1.183999693
0.018213966,0.635671079,0.889341891,1.19500672
0.018326398,0.758151174,0.793380439,1.204245724
0.01843883,0.865048826,0.680594325,1.211518107
0.018551262,0.954075933,0.553825915,1.21698403
0.018663694,1.02822173,0.414150834,1.228760839
0.018776126,1.07813859,0.267401069,1.233886151
0.018888558,1.10646689,0.115301333,1.237563376
0.01900099,1.11281776,-0.039028782,1.239886613
0.019113422,1.08974588,-0.181365997,1.220439708
0.019225854,1.05501664,-0.32531628,1.218890793
0.019338286,1.00323594,-0.464823395,1.22254314
0.019450718,0.930269599,-0.59685117,1.221632846
0.01956315,0.83920449,-0.715497077,1.216200243
0.01967558,0.73348999,-0.818937659,1.208666455
0.019788012,0.615788162,-0.905828774,1.199720828
0.019900444,0.488722444,-0.97506839,1.189607992
0.020012876,0.354969829,-1.02589726,1.178468768
0.020125308,0.217225373,-1.05793536,1.166414089
0.02023774,0.078144707,-1.07118738,1.153548998
0.020350172,-0.059711725,-1.06602657,1.139978138
0.020462604,-0.193931639,-1.0431658,1.125804367
0.020575036,-0.322294623,-1.00362456,1.111136081
0.020687468,-0.442807883,-0.948683143,1.096078527
0.0207999,-0.553735256,-0.87983954,1.08074035
0.020912332,-0.653613746,-0.798760056,1.065228556
0.021024764,-0.741264462,-0.707230806,1.049648416
0.021137196,-0.815793216,-0.607111692,1.034103178
0.021249628,-0.87658453,-0.500291944,1.018692467
0.02136206,-0.923288405,-0.388650745,1.00351088
0.021474492,-0.955802262,-0.274023414,0.988646795
0.021586924,-0.974252105,-0.158173501,0.974186021
0.021699354,-0.978972793,-0.042769596,0.960216968
0.021811786,-0.970487475,0.070639879,0.946835932
0.021924218,-0.949483097,0.180651918,0.934153267
0.02203665,-0.916770458,0.286023587,0.922277565
0.022149082,-0.873255551,0.38566938,0.911316128
0.022261514,-0.81992799,0.478656888,0.901394325
0.022373946,-0.75787431,0.564235091,0.892734708
0.022486378,-0.688252211,0.641954243,0.885796356
0.02259881,-0.611975729,0.711828113,0.881213555
0.022711242,-0.529156685,0.773744881,0.878687938
0.022823674,-0.440060884,0.826559722,0.876854556
0.022936106,-0.345965862,0.869269371,0.875321617
0.023048538,-0.248224795,0.901555538,0.874417937
0.02316097,-0.147949085,0.923323214,0.874414689
0.023273402,-0.046131268,0.934509695,0.875436464
0.023385834,0.056270145,0.935071409,0.877524869
0.023498266,0.158295423,0.924995363,0.880673863
0.023610698,0.258970946,0.904317319,0.884855764
0.023723128,0.357302547,0.873131692,0.890024062
0.02383556,0.452274799,0.831604958,0.8961193
0.023947992,0.542853415,0.779989421,0.903073327
0.024060424,0.627991199,0.718634546,0.910808557
0.024172856,0.706637025,0.647999763,0.919239578
0.024285288,0.777749896,0.56866467,0.928274408
0.02439772,0.840314865,0.481338441,0.937815767
0.024510152,0.893361628,0.386864752,0.947759335
0.024622584,0.935987949,0.286226034,0.957998783
0.024735016,0.967382312,0.180540144,0.968423281
0.024847448,0.986849546,0.071055308,0.978920883
0.02495988,0.993838191,-0.040861275,0.989383994
0.025072312,0.987963676,-0.153742671,0.999709034
0.025184744,0.969032109,-0.266046464,1.009803949
0.025297176,0.937056661,-0.376184732,1.019590139
0.025409608,0.892271399,-0.48255837,1.02901083
0.02552204,0.835138142,-0.58359617,1.038040206
0.025634472,0.766349912,-0.677807331,1.046714966
0.025746904,0.686807156,-0.763856232,1.055180413
0.025859334,0.597508609,-0.840632379,1.063679334
0.025971766,0.499357641,-0.907164872,1.072306159
0.026084198,0.393203944,-0.962279022,1.080590258
0.02619663,0.280336231,-1.00457358,1.08775648
0.026309062,0.162600368,-1.03296006,1.093445365
0.026421494,0.042005271,-1.04687345,1.097708463
0.026533926,-0.07949388,-1.04612398,1.100694659
0.026646358,-0.200012937,-1.03078401,1.10252085
0.02675879,-0.317729652,-1.00115359,1.103260643
0.026871222,-0.430894673,-0.957755327,1.102965486
0.026983654,-0.537853062,-0.901325405,1.101673402
0.027096086,-0.637072086,-0.832803428,1.099422392
0.027208518,-0.727166712,-0.753312111,1.096250564
0.02732095,-0.806924164,-0.664134502,1.092201243
0.027433382,-0.875321925,-0.566686392,1.087321939
0.027545814,-0.931543052,-0.462487012,1.081666694
0.027658246,-0.974984229,-0.3531259,1.075292148
0.027770678,-1.0052619,-0.240233123,1.068263441
0.027883108,-1.02220953,-0.125446245,1.060649084
0.02799554,-1.02587223,-0.010380354,1.052521584
0.028107972,-1.01649761,0.103400402,1.043959034
0.028220404,-0.994521558,0.214409009,1.035044352
0.028332836,-0.96055162,0.321257651,1.025865893
0.028445268,-0.915346861,0.422680467,1.016518653
0.0285577,-0.85979712,0.517548442,1.007107477
0.028670132,-0.794896543,0.604884207,0.997745418
0.028782564,-0.721721113,0.683872223,0.988562582
0.028894996,-0.641399622,0.753870189,0.979713737
0.029007428,-0.555079162,0.814418733,0.971390749
0.02911986,-0.463868231,0.865243554,0.963820143
0.029232292,-0.368758202,0.906214178,0.957206748
0.029344724,-0.270587444,0.937208235,0.951576841
0.029457156,-0.170177951,0.957983196,0.946692339
0.029569588,-0.068535171,0.968270242,0.942244331
0.02968202,0.03318191,0.96799463,0.938114643
0.029794452,0.13383691,0.957318723,0.934371456
0.029906882,0.232403204,0.936553299,0.931143331
0.030019314,0.327957392,0.906082153,0.928540919
0.030131746,0.419653922,0.866334677,0.926645187
0.030244178,0.506703913,0.817774177,0.92550346
0.03035661,0.588363171,0.760901034,0.925141605
0.030469042,0.663926423,0.696253181,0.925566787
0.030581474,0.732723236,0.624410272,0.926771528
0.030693906,0.794118702,0.545997381,0.928737653
0.030806338,0.847512662,0.46168825,0.931433752
0.03091877,0.892346025,0.372211099,0.934822531
0.031031202,0.928103924,0.278349727,0.938855464
0.031143634,0.954324782,0.180948019,0.943477975
0.031256066,0.970609725,0.08091031,0.948629717
0.031368498,0.976632535,-0.020799927,0.954243745
0.03148093,0.972153068,-0.123162635,0.960250622
0.031593362,0.95702976,-0.225108266,0.966579693
0.031705794,0.931230843,-0.325527102,0.973158777
0.031818226,0.894847453,-0.423282325,0.979919891
0.031930658,0.848103046,-0.517227054,0.986802602
0.032043088,0.791361213,-0.606224418,0.993760614
0.03215552,0.725123703,-0.689171612,1.000761895
0.032267952,0.650030494,-0.765028358,1.007808032
0.032380384,0.566834986,-0.832843542,1.014930267
0.032492816,0.47636649,-0.891768873,1.022176756
0.032605248,0.379485965,-0.941028893,1.029544975
0.03271768,0.277095586,-0.979848742,1.036885521
0.032830112,0.170246303,-1.00742328,1.043885469
0.032942544,0.060238749,-1.02302682,1.050212581
0.033054976,-0.051422071,-1.02617168,1.055672546
0.033167408,-0.163156793,-1.01665747,1.06021255
0.03327984,-0.273402244,-0.994537354,1.063853336
0.033392272,-0.380645633,-0.960073352,1.066631939
0.033504704,-0.483438194,-0.913711309,1.068580844
0.033617136,-0.580406904,-0.856067359,1.069723497
0.033729568,-0.670270622,-0.787918329,1.070078
0.033842,-0.751859486,-0.710190713,1.069663536
0.033954432,-0.82412982,-0.623944998,1.068497321
0.034066864,-0.886184692,-0.530357718,1.066602617
0.034179296,-0.937284946,-0.430700898,1.064006334
0.034291728,-0.976860106,-0.326318502,1.060739431
0.03440416,-1.00451636,-0.21860376,1.056840721
0.034516592,-1.02003837,-0.108972535,1.05235329
0.034629024,-1.0233885,0.001159991,1.047325368
0.034741456,-1.01470351,0.110404313,1.041812326
0.034853888,-0.994285405,0.217418417,1.035874235
0.03496632,-0.962592363,0.320929796,1.029579991
0.035078748,-0.920222819,0.419754416,1.023003806
0.03519118,-0.86790067,0.512812614,1.01622835
0.035303612,-0.806456387,0.599145293,1.009346986
0.035416044,-0.736806512,0.677924514,1.002465483
0.035528476,-0.659929454,0.748464108,0.995705405
0.035640908,-0.576836944,0.81022495,0.98920533
0.03575334,-0.48853898,0.862812757,0.983116189
0.035865772,-0.396003634,0.905954182,0.977571858
0.035978204,-0.300136298,0.939446032,0.972640644
0.036090636,-0.201808497,0.963093579,0.968275911
0.036203068,-0.101934619,0.976702452,0.964338346
0.0363155,-0.001520094,0.980149865,0.960696069
0.036427932,0.098378673,0.973459601,0.957301958
0.036540364,0.196728051,0.956813037,0.954193114
0.036652796,0.292563379,0.930512667,0.951447154
0.036765228,0.384996116,0.894942284,0.949143701
0.03687766,0.473206341,0.850543141,0.947347876
0.036990092,0.556433439,0.79780364,0.94610882
0.037102524,0.633966327,0.737252593,0.94545469
0.037214956,0.705140829,0.669461489,0.945402274
0.037327388,0.769336462,0.59504199,0.945953562
0.03743982,0.825976551,0.514649212,0.947101074
0.037552252,0.874528825,0.428982258,0.948826443
0.037664684,0.91451025,0.338785648,0.951104713
0.037777116,0.945489407,0.244851351,0.953902403
0.037889548,0.967094362,0.148017108,0.957180569
0.03800198,0.979017973,0.04916732,0.960893617
0.038114412,0.981028199,-0.050770145,0.964993935
0.038226844,0.972975791,-0.150828496,0.969431125
0.038339276,0.954803228,-0.250008553,0.974153481
0.038451708,0.926552832,-0.347288549,0.979109487
0.03856414,0.888376772,-0.441634983,0.984254747
0.038676572,0.840540409,-0.532017589,0.989550894
0.038789004,0.783424258,-0.617427349,0.994970099
0.038901436,0.717523694,-0.696894526,1.000502232
0.039013868,0.643435717,-0.769506693,1.006150072
0.0391263,0.56184119,-0.834420621,1.011923296
0.039238728,0.473482162,-0.890855968,1.017809713
0.03935116,0.379156619,-0.93806988,1.023734841
0.039463592,0.279749364,-0.975333512,1.029535166
0.039576024,0.176290363,-1.00195229,1.034986684
0.039688456,0.069979809,-1.01734293,1.039883811
0.039800888,-0.03784978,-1.02111006,1.04409836
0.03991332,-0.145806313,-1.01307476,1.04757995
0.040025752,-0.25249511,-0.993263423,1.050326008
0.040138184,-0.356550515,-0.961886406,1.052353728
0.040250616,-0.456657141,-0.919320464,1.05368586
0.040363048,-0.551561952,-0.866095364,1.054341766
0.04047548,-0.640091658,-0.802884579,1.054340978
0.040587912,-0.721165419,-0.730494559,1.053701862
0.040700344,-0.793812394,-0.649850607,1.052443928
0.040812776,-0.857184768,-0.561984122,1.05059188
0.040925208,-0.91056782,-0.468013376,1.048170275
0.04103764,-0.953392088,-0.36912629,1.045210691
0.041150072,-0.985238433,-0.266560018,1.041749013
0.041262504,-1.00584126,-0.161579445,1.037824557
0.041374936,-1.01509047,-0.055458494,1.033484307
0.041487368,-1.01302707,0.050542519,1.028778391
0.0415998,-0.999839187,0.155194625,1.023763771
0.041712232,-0.975853324,0.257320225,1.018503408
0.041824664,-0.941523612,0.355808407,1.013066334
0.041937096,-0.897420049,0.4496319,1.00753159
0.042049528,-0.844211221,0.537858903,1.001984785
0.04216196,-0.782648265,0.61966604,0.996524308
0.042274392,-0.713541746,0.694345295,0.991257212
0.042386824,-0.637737155,0.761306822,0.986296756
0.042499256,-0.556086481,0.820070565,0.981747906
0.042611688,-0.469425797,0.870242059,0.97768182
0.04272412,-0.378573626,0.911478221,0.974110538
0.042836552,-0.284359783,0.943459034,0.970975435
0.042948984,-0.187665999,0.965899944,0.968181229
0.043061416,-0.089440845,0.978596628,0.965651025
0.043173848,0.009326893,0.981464386,0.963359332
0.04328628,0.107652888,0.974546909,0.961330822
0.043398708,0.204587191,0.957996428,0.959613075
0.04351114,0.299227029,0.93205446,0.958262331
0.043623572,0.390716851,0.89703083,0.957323968
0.043736004,0.478245646,0.85329634,0.956833542
0.043848436,0.561043262,0.801274896,0.956811001
0.043960868,0.638377845,0.741445601,0.957267852
0.0440733,0.709556282,0.674338043,0.958201914
0.044185732,0.773925304,0.60053587,0.959603707
0.044298164,0.830873132,0.520675659,0.961453303
0.044410596,0.879835844,0.435449511,0.963727389
0.044523028,0.920300066,0.345603168,0.966393761
0.04463546,0.951812029,0.251936555,0.969418166
0.044747892,0.973982155,0.155301109,0.972759673
0.044860324,0.98649621,0.056597054,0.976377999
0.044972756,0.989121497,-0.043232597,0.980230393
0.045085188,0.981716692,-0.143208221,0.984276258
0.04519762,0.964238226,-0.24232401,0.988476282
0.045310052,0.936748922,-0.339559406,0.992799133
0.045422484,0.899419606,-0.433892608,0.997218423
0.045534916,0.852532446,-0.524317443,1.001720353
0.045647348,0.796474397,-0.609858334,1.006298653
0.04575978,0.731728911,-0.689583719,1.010952905
0.045872212,0.658859968,-0.762611568,1.015672861
0.045984644,0.578502357,-0.828100979,1.020416208
0.046097076,0.491366386,-0.885237813,1.025086911
0.046209508,0.398267329,-0.933231294,1.029537513
