Frequency (GHz),Re( S21 ),Im( S21 ),S2
0,0.021004407,0,0.000441185
0.000110323,0.020525523,-0.00447257,0.000441301
0.000220646,0.019108905,-0.008746494,0.000441651
0.000330969,0.016813727,-0.012630314,0.000442226
0.000441293,0.01373727,-0.015947178,0.000443025
0.000551616,0.010011511,-0.018542098,0.00044404
0.000661939,0.005799599,-0.020288555,0.000445261
0.000772262,0.001289661,-0.021095412,0.00044668
0.000882585,-0.003311636,-0.020912105,0.000448283
0.000992908,-0.007788498,-0.019733068,0.000450055
0.001103231,-0.011925258,-0.017600402,0.000451986
0.001213554,-0.015517355,-0.014603649,0.000454055
0.001323878,-0.018382883,-0.010877411,0.000456248
0.001434201,-0.020372713,-0.006596186,0.000458557
0.001544524,-0.021379698,-0.001965434,0.000460954
0.001654847,-0.02134637,0.0027881,0.000463441
0.00176517,-0.020268118,0.007429656,0.000465996
0.001875493,-0.01819489,0.011729221,0.000468629
0.001985816,-0.015227194,0.015474462,0.000471326
0.002096139,-0.011511093,0.018481966,0.000474088
0.002206463,-0.007229163,0.020607814,0.000476943
0.002316786,-0.002589498,0.021752784,0.000479889
0.002427109,0.00218528,0.021867352,0.000482957
0.002537432,0.006869971,0.020951295,0.000486153
0.002647755,0.011247508,0.019052999,0.000489523
0.002758078,0.015118438,0.016264189,0.000493091
0.002868401,0.018309137,0.012714677,0.000496887
0.002978725,0.020677999,0.008565261,0.000500943
0.003089048,0.022119729,0.004000836,0.000505289
0.003199371,0.022569083,-0.000777548,0.000509968
0.003309694,0.022004435,-0.005551762,0.000515017
0.003420017,0.020416874,-0.010143196,0.000519733
0.00353034,0.017905392,-0.01431614,0.000525555
0.003640663,0.014545373,-0.017890459,0.000531636
0.003750986,0.010473527,-0.02069818,0.000538109
0.00386131,0.005858124,-0.022598304,0.000545001
0.003971633,0.000895958,-0.023484461,0.000552323
0.004081956,-0.004194373,-0.023291491,0.000560086
0.004192279,-0.00918001,-0.022000335,0.000568287
0.004302602,-0.013823938,-0.019642269,0.00057692
0.004412925,-0.017895846,-0.016300542,0.000585969
0.004523248,-0.021183694,-0.012109603,0.000595391
0.004633572,-0.023506969,-0.007251902,0.000605168
0.004743895,-0.024727471,-0.001950086,0.000615251
0.004854218,-0.024759408,0.003542881,0.00062558
0.004964541,-0.02357739,0.008956918,0.00063612
0.005074864,-0.021218836,0.01402025,0.000646806
0.005185187,-0.017784417,0.018474601,0.000657596
0.00529551,-0.013432253,0.022091113,0.000668443
0.005405833,-0.008369549,0.024683001,0.0006793
0.005516157,-0.002840127,0.026116867,0.000690157
0.00562648,0.002889244,0.026318181,0.000700994
0.005736803,0.008544791,0.025274657,0.000711822
0.005847126,0.013858814,0.023034487,0.000722654
0.005957449,0.018584285,0.019701578,0.000733528
0.006067772,0.022504365,0.015428721,0.000744492
0.006178095,0.025441559,0.010408048,0.0007556
0.006288418,0.02726366,0.004861518,0.000766942
0.006398742,0.027886195,-0.000969134,0.000778579
0.006509065,0.02727481,-0.006832527,0.000790599
0.006619388,0.025443507,-0.012477652,0.000803064
0.006729711,0.022460964,-0.017666059,0.000816585
0.006840034,0.018437766,-0.022155743,0.000830828
0.006950357,0.013517192,-0.025749115,0.000845731
0.00706068,0.007892592,-0.02827299,0.000861655
0.007171003,0.001787986,-0.029589497,0.000878735
0.007281327,-0.004545129,-0.029604962,0.000897112
0.00739165,-0.010835625,-0.028275283,0.000916902
0.007501973,-0.016800894,-0.025611362,0.000938212
0.007612296,-0.022158016,-0.021683216,0.00096114
0.007722619,-0.026636016,-0.016621748,0.00098576
0.007832942,-0.029989645,-0.010618043,0.001012122
0.007943265,-0.032013588,-0.003919107,0.001040229
0.008053588,-0.03255681,0.003179336,0.001070054
0.008163912,-0.031535264,0.010346435,0.001101522
0.008274235,-0.028941484,0.017230855,0.001134512
0.008384558,-0.024850326,0.023480106,0.001168854
0.008494881,-0.019419072,0.028761931,0.001204349
0.008605204,-0.012881825,0.032784313,0.001240753
0.008715527,-0.005538304,0.035314865,0.001277813
0.00882585,0.00226335,0.036196001,0.001315273
0.008936173,0.01014567,0.035354521,0.001352877
0.009046496,0.017724574,0.032805949,0.001390391
0.00915682,0.024630342,0.028652636,0.001427627
0.009267143,0.030527469,0.023075845,0.001464421
0.009377466,0.035131283,0.016324766,0.001500705
0.009487789,0.038219266,0.008700877,0.001536418
0.009598112,0.039639942,0.000542643,0.001571619
0.009708435,0.039315857,-0.007791219,0.00160644
0.009818758,0.03724369,-0.015937921,0.00164111
0.009929081,0.033493232,-0.023545224,0.001676174
0.010039405,0.028207447,-0.030283572,0.001712755
0.010149728,0.021592399,-0.035836138,0.00175046
0.010260051,0.013874531,-0.039938323,0.001787572
0.010370374,0.005351555,-0.042399343,0.001826343
0.010480697,-0.00363422,-0.043067407,0.001868009
0.01059102,-0.0127172,-0.041851737,0.001913295
0.010701343,-0.021514416,-0.038731646,0.00196301
0.010811666,-0.029635191,-0.033761218,0.002018064
0.01092199,-0.036694877,-0.027072571,0.002079438
0.011032313,-0.042329796,-0.018877583,0.002148175
0.011142636,-0.046214152,-0.00946699,0.002225372
0.011252959,-0.048077393,0.000794774,0.002312067
0.011363282,-0.047722612,0.011478805,0.002409211
0.011473605,-0.045044415,0.022105923,0.002517671
0.011583928,-0.040043034,0.032166563,0.002638132
0.011694251,-0.032833818,0.041145168,0.002770984
0.011804575,-0.023651613,0.048548203,0.002916327
0.011914898,-0.012846853,0.053933837,0.0030739
0.012025221,-0.000873518,0.056941014,0.003243042
0.012135544,0.011731419,0.05731583,0.003422731
0.012245867,0.02437474,0.054930724,0.003611512
0.01235619,0.036440495,0.049797192,0.00380767
0.012466513,0.047322545,0.042067967,0.004009137
0.012576836,0.056459989,0.032031074,0.00421372
0.01268716,0.063366577,0.020094523,0.004419113
0.012797483,0.067655847,0.006765479,0.004623085
0.012907806,0.06905888,-0.007376775,0.004823546
0.013018129,0.067435257,-0.021708056,0.005018754
0.013128452,0.062777489,-0.035588369,0.005207545
0.013238775,0.055209909,-0.048387874,0.00538952
0.013349098,0.044983834,-0.059508722,0.005564833
0.013459421,0.032463368,-0.068398818,0.005732269
0.013569745,0.018095139,-0.074577659,0.005889261
0.013680068,0.002412257,-0.077676691,0.006039487
0.013790391,-0.013962335,-0.077427894,0.006190026
0.013900714,-0.030348999,-0.073667407,0.006347949
0.014011037,-0.046032801,-0.066352107,0.006521621
0.01412136,-0.060280506,-0.055571433,0.006721924
0.014231683,-0.072360247,-0.041555151,0.006962836
0.014342006,-0.081564948,-0.024679331,0.00726191
0.01445233,-0.087240763,-0.005467971,0.007640849
0.014562653,-0.088816404,0.015409327,0.008125801
0.014672976,-0.085837126,0.037147153,0.008747923
0.014783299,-0.077997148,0.058820929,0.009543457
0.014893622,-0.065172479,0.079413526,0.01055396
0.015003945,-0.047447875,0.09785144,0.011826205
0.015114268,-0.025137987,0.113048084,0.013411788
0.015224591,0.001203334,0.123957105,0.015366812
0.015334915,0.030786144,0.129627094,0.01775097
0.015445238,0.062602237,0.12925902,0.020626934
0.015555561,0.095458619,0.122257836,0.024059326
0.015665884,0.12802422,0.108276673,0.028114039
0.015776207,0.158887565,0.087245837,0.032857094
0.01588653,0.186620519,0.05938866,0.038354231
0.015996853,0.209844053,0.025218481,0.044670498
0.016107176,0.227289423,-0.014478731,0.051870115
0.0162175,0.237852097,-0.058676541,0.060016556
0.016327823,0.24063307,-0.106149793,0.069172053
0.016438146,0.234969631,-0.155521899,0.079397789
0.016548469,0.22045061,-0.205315799,0.090753049
0.016658792,0.196922973,-0.254003406,0.103296388
0.016769115,0.164490283,-0.300051183,0.117087766
0.016879438,0.123505332,-0.341959238,0.132189687
0.016989762,0.07456103,-0.378293395,0.14866524
0.017100084,0.018498998,-0.407714784,0.166573558
0.017210408,-0.043609493,-0.429172248,0.186090606
0.01732073,-0.110875458,-0.441643387,0.207342248
0.017431054,-0.181971163,-0.444050461,0.230294316
0.017541378,-0.255390614,-0.435624957,0.254993469
0.0176517,-0.329514563,-0.415813714,0.281480892
0.017762024,-0.402618706,-0.384291351,0.309781665
0.017872346,-0.472896457,-0.34098199,0.339899777
0.01798267,-0.538489223,-0.286082029,0.371813571
0.018092992,-0.597525299,-0.220079556,0.405471494
0.018203316,-0.64816606,-0.143770173,0.440789104
0.01831364,-0.688658834,-0.05826496,0.477645795
0.018423962,-0.717396438,0.035012398,0.515883517
0.018534286,-0.732980788,0.134340435,0.555308188
0.018644608,-0.734286904,0.237730637,0.595693113
0.018754932,-0.720521986,0.342972994,0.636782407
0.018865254,-0.691279292,0.447697192,0.678299835
0.018975578,-0.646577537,0.549443781,0.71995098
0.0190859,-0.586889029,0.645736277,0.761414072
0.019196224,-0.513128996,0.734132886,0.802252461
0.019306548,-0.426549613,0.812270403,0.84172778
0.01941687,-0.32853958,0.878103375,0.879003793
0.019527194,-0.220836833,0.930247426,0.91412918
0.019637516,-0.105748259,0.967664242,0.94755678
0.01974784,0.014250354,0.989488065,0.979289703
0.019858162,0.136714503,0.995207608,1.009129038
0.019968486,0.259253711,0.984727442,1.036900622
0.02007881,0.379568636,0.9583413,1.062490397
0.020189132,0.495497912,0.916686416,1.085832166
0.020299456,0.605060339,0.860697687,1.106898522
0.020409778,0.706488252,0.791555524,1.125685798
0.020520102,0.798246741,0.710638821,1.142205393
0.020630424,0.879046977,0.619478881,1.156477672
0.020740748,0.947849751,0.519717216,1.168525135
0.02085107,1.00386453,0.413068473,1.178369558
0.020961394,1.04654384,0.301286668,1.186027665
0.021071718,1.07557654,0.186136231,1.19151159
0.02118204,1.09088051,0.069365241,1.194831824
0.021292364,1.09259152,-0.047320213,1.195995432
0.021402686,1.08105564,-0.162279218,1.195015841
0.02151301,1.05681872,-0.273962289,1.191921143
0.021623332,1.02061558,-0.380935341,1.186767896
0.021733656,0.973365188,-0.48190403,1.179671283
0.02184398,0.91615659,-0.575719714,1.170796086
0.021954302,0.850201726,-0.661381662,1.160268678
0.022064626,0.776771128,-0.738091171,1.148151962
0.022174948,0.697191298,-0.805304646,1.134591279
0.022285272,0.612819552,-0.862745523,1.119877641
0.022395594,0.524983704,-0.910451531,1.10452988
0.022505918,0.434843928,-0.949001074,1.08969228
0.02261624,0.342131376,-0.981354833,1.080111187
0.022726564,0.270079494,-0.98465091,1.042480348
0.022836888,0.175328702,-0.995678663,1.022116154
0.02294721,0.087109007,-0.99707669,1.001749905
0.023057534,0.002630806,-0.991108716,0.982303408
0.023167856,-0.07819099,-0.978681147,0.963930618
0.02327818,-0.155233949,-0.960604608,0.946858792
0.023388502,-0.22842966,-0.937628031,0.931326434
0.023498826,-0.297804207,-0.910422981,0.91755735
0.02360915,-0.363472492,-0.879564285,0.905745584
0.023719472,-0.425617039,-0.845517874,0.896050339
0.023829796,-0.484460086,-0.808634698,0.88859165
0.023940118,-0.540237248,-0.769150913,0.883449411
0.024050442,-0.593169332,-0.727194607,0.880661853
0.024160764,-0.643438756,-0.682796597,0.880224626
0.024271088,-0.691168904,-0.635907829,0.882093221
0.02438141,-0.736407459,-0.586418509,0.886182613
0.024491734,-0.77911377,-0.534179568,0.892366077
0.024602058,-0.819152176,-0.47902742,0.900477557
0.02471238,-0.856288552,-0.420806825,0.910308468
0.024822704,-0.890190244,-0.35939467,0.921603199
0.024933026,-0.920423687,-0.294721872,0.934040745
0.02504335,-0.946432412,-0.226804078,0.9471744
0.025153672,-0.967493117,-0.155923501,0.96035507
0.025263996,-0.983279407,-0.082751378,0.973686183
0.02537432,-0.998012304,-0.003460732,0.996040536
0.025484642,-1.00339532,0.074982785,1.012424586
0.025594966,-1.00213325,0.155076921,1.028319902
0.025705288,-0.993801594,0.236243531,1.043452614
0.025815612,-0.971932352,0.304064274,1.03710758
0.025925934,-0.950584412,0.380580634,1.048452343
0.026036258,-0.924194098,0.456652105,1.062665876
0.02614658,-0.890062332,0.533150971,1.076460913
0.026256904,-0.847034752,0.606551051,1.085372049
0.026367228,-0.796816766,0.675122738,1.09070767
0.02647755,-0.740523338,0.73836112,1.093551958
0.026587874,-0.678939104,0.795849264,1.094334358
0.026698196,-0.612803936,0.847197652,1.093272526
0.02680852,-0.542872965,0.892088771,1.090533431
0.026918842,-0.469914794,0.930300593,1.086279107
0.027029166,-0.394695699,0.961714566,1.080679601
0.02713949,-0.317962229,0.986313164,1.073913637
0.027249812,-0.240424797,1.00417233,1.066166151
0.027360136,-0.162745312,1.01545,1.057624739
0.027470458,-0.08552736,1.02037215,1.048474254
0.027580782,-0.009310431,1.01921928,1.038894625
0.027691104,0.065433323,1.01231122,1.029055526
0.027801428,0.138298109,0.999996662,1.019119691
0.027911752,0.208943486,0.982636034,1.009230956
0.028022074,0.277087718,0.960594177,0.999518776
0.028132398,0.342501789,0.934230566,0.990094226
0.02824272,0.40499869,0.903892994,0.981046484
0.028353044,0.464421511,0.869921148,0.972450144
0.028463366,0.520643413,0.83265847,0.964389691
0.02857369,0.573586166,0.792456865,0.956988973
0.028684012,0.623237252,0.749648631,0.950397742
0.028794336,0.669623792,0.70451504,0.944737464
0.02890466,0.712777853,0.657301903,0.940098059
0.029014982,0.752742052,0.608256221,0.936596227
0.029125306,0.789622426,0.557649374,0.9344764
0.029235628,0.8237167,0.505720079,0.934262
0.029345952,0.855551183,0.452321976,0.936562997
0.029456274,0.885177732,0.396643192,0.940865439
0.029566598,0.911667466,0.338292867,0.945579632
0.029676922,0.934318662,0.277798593,0.95012342
0.029787244,0.953009963,0.21570231,0.954755476
0.029897568,0.967752516,0.152305767,0.959741979
0.03000789,0.978513956,0.087802425,0.965198828
0.030118214,0.985211074,0.022365857,0.971141092
0.030228536,0.987729132,-0.043815922,0.977528673
0.03033886,0.985938668,-0.110527106,0.984291298
0.030449182,0.979708433,-0.177520096,0.991341998
0.030559506,0.968912482,-0.24451445,0.998578714
0.03066983,0.953441381,-0.311195612,1.005893176
0.030780152,0.933206856,-0.377216756,1.013167517
0.030890476,0.908150852,-0.442200214,1.020278999
0.031000798,0.878251314,-0.505741656,1.027099993
0.031111122,0.843529522,-0.567412794,1.033499333
0.031221444,0.804055572,-0.626767099,1.039342359
0.031331768,0.759954631,-0.68334651,1.044493494
0.031442092,0.711413562,-0.73668915,1.04882016
0.031552414,0.658684909,-0.786338627,1.052194246
0.031662738,0.602093399,-0.831858277,1.054504654
0.03177306,0.542035401,-0.872846365,1.055663153
0.031883384,0.478974938,-0.908957303,1.05562037
0.031993706,0.413429677,-0.939917743,1.054369461
0.03210403,0.345954299,-0.965536594,1.051945291
0.032214352,0.277128339,-0.985711217,1.04842672
0.032324676,0.207542434,-1.0004431,1.043960258
0.032435,0.137766212,-1.00986481,1.038806464
0.032545322,0.068265252,-1.01425326,1.03336982
0.032655646,-0.000732591,-1.013937,1.028068777
0.032765968,-0.069213122,-1.00900674,1.022885058
0.032876292,-0.136952579,-0.999218166,1.017192952
0.032986614,-0.203312069,-0.984466195,1.010509486
0.033096938,-0.267627925,-0.965046644,1.002939731
0.033207262,-0.329470754,-0.941446543,0.994872571
0.033317584,-0.388612807,-0.914155841,0.986700815
0.033427908,-0.444948435,-0.883611619,0.978748603
0.03353823,-0.498448163,-0.850194097,0.971280574
0.033648552,-0.54913342,-0.814225256,0.96451028
0.033758876,-0.597061455,-0.775972486,0.95861568
0.0338692,-0.642309725,-0.735647321,0.953738764
0.033979524,-0.684964299,-0.693407297,0.94998977
0.034089848,-0.725106359,-0.649358511,0.947445708
0.034200168,-0.762800753,-0.603561819,0.946151858
0.034310492,-0.798085272,-0.556040049,0.946120637
0.034420816,-0.830963016,-0.50678736,0.947332962
0.03453114,-0.861394942,-0.455780268,0.949736899
0.03464146,-0.889297903,-0.402990639,0.953252215
0.034751784,-0.914542079,-0.348398447,0.957768692
0.034862108,-0.936955094,-0.292005122,0.963151839
0.034972432,-0.956328452,-0.233846873,0.969248468
0.035082756,-0.97242713,-0.174004778,0.975892186
0.035193076,-0.98500222,-0.112611577,0.982910741
0.0353034,-0.993806899,-0.049855661,0.990137739
0.035413724,-0.998608053,0.014020161,0.997414608
0.035524048,-0.999206245,0.078721657,1.004610219
0.035634368,-0.995447993,0.143914267,1.011628023
0.035744692,-0.987247229,0.209247336,1.018441539
0.035855016,-0.974579155,0.274399191,1.025099445
0.03596534,-0.957422256,0.339125425,1.03166343
0.036075664,-0.935637653,0.403214008,1.037999354
0.036185984,-0.908953905,0.466291308,1.043624785
0.036296308,-0.877195716,0.527705669,1.047945597
0.036406632,-0.840486109,0.586711526,1.050647314
0.036516956,-0.799181104,0.642683864,1.051732986
0.03662728,-0.753725648,0.695158958,1.051348329
0.0367376,-0.704583406,0.743794978,1.049668745
0.036847924,-0.652217984,0.788335085,1.046860505
0.036958248,-0.59709096,0.828592956,1.043083901
0.037068572,-0.539655447,0.86444366,1.038490843
0.037178892,-0.480352789,0.895820379,1.033232953
0.037289216,-0.419605762,0.922708988,1.027460872
0.03739954,-0.357811123,0.945141613,1.021321468
0.037509864,-0.295335382,0.963189185,1.014956394
0.037620188,-0.232512504,0.976955235,1.008503596
0.037730508,-0.169639707,0.986566186,1.00209047
0.037840832,-0.10697902,0.992164433,0.995834773
0.037951156,-0.044758331,0.993900895,0.989842297
0.03806148,0.016826004,0.991929829,0.9842079
0.0381718,0.077605724,0.986402094,0.979011739
0.038282124,0.137435481,0.977463841,0.974324072
0.038392448,0.196190074,0.965253174,0.970204235
0.038502772,0.253759712,0.949900508,0.966704967
0.038613096,0.310047954,0.931527555,0.96387332
0.038723416,0.364969254,0.910248339,0.961754595
0.03883374,0.418449342,0.886171937,0.960400554
0.038944064,0.470425785,0.859400928,0.959870374
0.039054388,0.520859241,0.830032945,0.960249039
0.039164708,0.569742978,0.7981444,0.961641544
0.039275032,0.617107332,0.76375246,0.964139279
0.039385356,0.662970483,0.726764143,0.967715981
0.03949568,0.707229614,0.686984658,0.972121647
0.039606004,0.749593735,0.644247651,0.976945803
0.039716324,0.789669156,0.598546743,0.981835579
0.039826648,0.827099264,0.550026655,0.986622514
0.039936972,0.861611605,0.498896182,0.991271958
0.040047296,0.892995298,0.445370346,0.995795347
0.04015762,0.921068251,0.389658451,1.000200431
0.04026794,0.94566071,0.331970662,1.004478699
0.040378264,0.966610014,0.272524834,1.008604704
0.040488588,0.983762562,0.211553589,1.012543699
0.040598912,0.996975303,0.149306327,1.016252134
0.040709232,1.00612044,0.086050734,1.019683069
0.040819556,1.01108861,0.022072328,1.022787365
0.04092988,1.01179159,-0.042326909,1.025513789
0.041040204,1.00816703,-0.106829248,1.027813249
0.041150528,1.00017977,-0.171104386,1.029636283
0.041260848,0.987826347,-0.234811857,1.0309375
0.041371172,0.971136928,-0.297603697,1.031674893
0.041481496,0.95017767,-0.359129608,1.03181168
0.04159182,0.925055325,-0.419041395,1.031323045
0.04170214,0.895915866,-0.476999104,1.030193384
0.041812464,0.862947047,-0.53267777,1.028423213
0.041922788,0.826376259,-0.585776508,1.026031839
0.042033112,0.786470354,-0.636025846,1.023064495
0.042143436,0.743528068,-0.683197677,1.019593054
0.042253756,0.697872698,-0.72711575,1.015723617
0.04236408,0.649839878,-0.767664135,1.011600091
0.042474404,0.599753499,-0.804797113,1.007402653
0.042584728,0.547890723,-0.838529766,1.003316413
0.042695048,0.494449586,-0.868900299,0.999468123
0.042805372,0.439556181,-0.895899415,0.995845398
0.042915696,0.383345038,-0.919429004,0.992303112
0.04302602,0.326039433,-0.939353347,0.988686422
0.043136344,0.267949879,-0.955594838,0.984958632
0.043246664,0.20940271,-0.968176067,0.981214392
0.043356988,0.150679573,-0.977195323,0.977615033
0.043467312,0.092000186,-0.982785165,0.974330715
0.043577636,0.033527397,-0.985083401,0.971513393
0.04368796,-0.024620011,-0.98421514,0.969285587
0.04379828,-0.082355395,-0.980284572,0.967740253
0.043908604,-0.139612824,-0.973369598,0.966940115
0.044018928,-0.196337864,-0.963522375,0.966923924
0.044129252,-0.252477497,-0.950767517,0.967703758
0.044239572,-0.307974011,-0.935103774,0.96926706
0.044349896,-0.362754852,-0.916508615,0.971579124
0.04446022,-0.416728407,-0.894941986,0.974583724
0.044570544,-0.469777495,-0.870352387,0.978204172
0.044680868,-0.52175504,-0.842685282,0.982346806
0.044791188,-0.57248354,-0.811889768,0.986902399
0.044901512,-0.62175405,-0.777929842,0.991752938
0.045011836,-0.669328094,-0.740789592,0.996769317
0.04512216,-0.71494323,-0.700485647,1.001823964
0.04523248,-0.758319318,-0.657070935,1.006790402
0.045342804,-0.799168169,-0.610642135,1.011553579
