Frequency (GHz),Re( S21 ),Im( S21 ),S2
0,0.01907572,0,0.000363883
7.62E-05,0.018866586,-0.002829619,0.000363955
0.000152445,0.018243091,-0.005599375,0.000364163
0.000228668,0.017217483,-0.00825054,0.000364513
0.000304891,0.015809957,-0.010725937,0.000365
0.000381114,0.014048254,-0.012971801,0.000365621
0.000457336,0.011967857,-0.014937961,0.000366372
0.000533559,0.009611061,-0.016579436,0.00036725
0.000609782,0.007026718,-0.017857058,0.000368249
0.000686004,0.004269375,-0.018738512,0.000369359
0.000762227,0.001398823,-0.019199383,0.000370573
0.00083845,-0.001521784,-0.019224327,0.000371891
0.000914672,-0.0044265,-0.018807042,0.000373299
0.000990895,-0.007248234,-0.017951351,0.000374788
0.001067118,-0.009920321,-0.016671598,0.000376355
0.001143341,-0.012377728,-0.014992216,0.000377975
0.001219563,-0.014560073,-0.01294844,0.000379658
0.001295786,-0.016411735,-0.010584749,0.000381382
0.001372009,-0.017884759,-0.007954679,0.000383142
0.001448231,-0.018939892,-0.005119295,0.000384927
0.001524454,-0.019548005,-0.002145759,0.000386729
0.001600677,-0.019691251,0.000894499,0.000388546
0.001676899,-0.019363331,0.003927371,0.000390363
0.001753122,-0.018570503,0.006879184,0.000392187
0.001829345,-0.017330743,0.009677502,0.000394009
0.001905568,-0.015673587,0.012254257,0.000395828
0.00198179,-0.013639218,0.014547247,0.000397651
0.002058013,-0.011277016,0.016501498,0.000399471
0.002134236,-0.008644198,0.018071622,0.000401306
0.002210458,-0.005804139,0.019221624,0.000403159
0.002286681,-0.002824166,0.019926464,0.00040504
0.002362904,0.00022571,0.020171884,0.000406956
0.002439126,0.003275212,0.01995497,0.000408928
0.002515349,0.00625506,0.019283231,0.000410969
0.002591572,0.009098861,0.018174233,0.000413092
0.002667795,0.011744295,0.016654622,0.000415305
0.002744017,0.014134053,0.014760097,0.000417632
0.00282024,0.016217584,0.012533212,0.000420091
0.002896463,0.017951099,0.010022855,0.0004227
0.002972685,0.019298323,0.007283016,0.000425468
0.003048908,0.02023099,0.004371664,0.000428404
0.003125131,0.020729519,0.001349877,0.000431535
0.003201353,0.020782881,-0.001719417,0.000434885
0.003277576,0.0203902,-0.004770442,0.000438517
0.003353799,0.019524597,-0.007721663,0.000440834
0.003430022,0.018259613,-0.01058233,0.000445399
0.003506244,0.016584897,-0.013215653,0.000449712
0.003582467,0.014530234,-0.01558912,0.000454148
0.00365869,0.012135034,-0.01765048,0.000458798
0.003734912,0.00944491,-0.019351475,0.000463686
0.003811135,0.006512053,-0.020649897,0.000468825
0.003887358,0.003394741,-0.021510391,0.000474221
0.00396358,0.000156641,-0.021905387,0.000479871
0.004039803,-0.003133849,-0.021816501,0.000485781
0.004116026,-0.006405087,-0.021234728,0.000491939
0.004192249,-0.009583409,-0.020161882,0.000498343
0.004268471,-0.012594657,-0.018610705,0.000504984
0.004344694,-0.015365583,-0.016605452,0.000511842
0.004420917,-0.017826214,-0.014181959,0.000518902
0.004497139,-0.019911576,-0.01138753,0.000526147
0.004573362,-0.021563675,-0.008279897,0.000533549
0.004649585,-0.022733674,-0.004926838,0.000541094
0.004725808,-0.023383074,-0.001404174,0.00054874
0.00480203,-0.023486372,0.002205744,0.000556475
0.004878253,-0.023030983,0.005816183,0.000564254
0.004954476,-0.022019427,0.009338429,0.000572061
0.005030698,-0.020468414,0.012685002,0.000579865
0.005106921,-0.018409636,0.015771223,0.000587646
0.005183144,-0.015888145,0.018518789,0.000595379
0.005259366,-0.012961743,0.020857519,0.000603043
0.005335589,-0.009698994,0.022727907,0.000610628
0.005411812,-0.006176863,0.024082601,0.000618125
0.005488035,-0.002479224,0.024887439,0.000625531
0.005564257,0.001306806,0.025122514,0.000632848
0.00564048,0.00509232,0.024782091,0.000640084
0.005716703,0.008789758,0.023874486,0.000647251
0.005792925,0.012314724,0.022421302,0.000654367
0.005869148,0.015588123,0.020456523,0.000661459
0.005945371,0.018537816,0.01802494,0.000668549
0.006021593,0.021100046,0.015181001,0.000675675
0.006097816,0.023220275,0.011986841,0.000682866
0.006174039,0.024854036,0.008511162,0.000690163
0.006250261,0.025967326,0.00482701,0.000697602
0.006326484,0.026536923,0.00101074,0.00070523
0.006402707,0.026549982,-0.002859714,0.00071308
0.00647893,0.026004491,-0.006705977,0.000721204
0.006555152,0.024907947,-0.010450549,0.00072962
0.006631375,0.023277424,-0.01401884,0.000738366
0.006707598,0.021142902,-0.017342938,0.0007478
0.00678382,0.01854782,-0.020345986,0.000757981
0.006860043,0.015526485,-0.022962742,0.000768359
0.006936266,0.012133213,-0.025140306,0.00077925
0.007012488,0.008430311,-0.026827291,0.000790774
0.007088711,0.004485549,-0.027979774,0.000802988
0.007164934,0.000373202,-0.028562233,0.00081594
0.007241157,-0.003827452,-0.028548526,0.000829668
0.007317379,-0.008032386,-0.027923014,0.000844214
0.007393602,-0.012154474,-0.026681203,0.000859618
0.007469825,-0.016104156,-0.024830656,0.000875905
0.007546047,-0.019791709,-0.022391964,0.000893112
0.00762227,-0.023128621,-0.01939855,0.000911237
0.007698493,-0.026029971,-0.015898122,0.00093031
0.007774715,-0.028415989,-0.011951426,0.000950305
0.007850938,-0.030215299,-0.007632977,0.000971227
0.007927161,-0.031366635,-0.003029535,0.000993044
0.008003384,-0.031821605,0.001761285,0.001015717
0.008079606,-0.031546708,0.006632659,0.001039187
0.008155829,-0.030525683,0.011470802,0.001063397
0.008232052,-0.028760502,0.016158471,0.001088263
0.008308274,-0.026273029,0.020577323,0.001113698
0.008384497,-0.023104573,0.024612572,0.0011396
0.008460719,-0.019316241,0.028155783,0.001165865
0.008536942,-0.014987197,0.031108787,0.001192373
0.008613165,-0.010212956,0.033387508,0.00121903
0.008689388,-0.005102913,0.034923833,0.001245714
0.00876561,0.000223422,0.035668947,0.001272324
0.008841833,0.005639483,0.035594158,0.001298748
0.008918056,0.011015498,0.034692559,0.001324915
0.008994278,0.016223066,0.032978375,0.001350761
0.009070501,0.021137739,0.03048617,0.001376211
0.009146724,0.025643593,0.02726993,0.001401243
0.009222946,0.029635178,0.023400525,0.001425828
0.009299169,0.033020373,0.018963952,0.001449977
0.009375392,0.035722233,0.01405759,0.001473694
0.009451615,0.037680104,0.008788396,0.001497026
0.009527837,0.038850185,0.003269779,0.001520028
0.00960406,0.039206043,-0.002381657,0.001542786
0.009680283,0.038737893,-0.008047788,0.001565391
0.009756505,0.03745237,-0.013612079,0.001587969
0.009832728,0.035371885,-0.018961513,0.001610709
0.009908951,0.03253359,-0.023988703,0.001633892
0.009985173,0.028990157,-0.028593853,0.001658038
0.010061396,0.024812024,-0.032682292,0.001683769
0.010137619,0.020078236,-0.036155295,0.001710341
0.010213842,0.014855969,-0.038928777,0.001736149
0.010290064,0.009231448,-0.040952325,0.001762313
0.010366287,0.003312339,-0.042178083,0.001789962
0.01044251,-0.002789432,-0.042564366,0.001819506
0.010518732,-0.008958839,-0.042082176,0.00185117
0.010594955,-0.015077076,-0.040717326,0.001885219
0.010671178,-0.021022461,-0.038470425,0.001921917
0.0107474,-0.026671549,-0.03535822,0.001961575
0.010823623,-0.031901222,-0.031413876,0.00200452
0.010899846,-0.036590401,-0.02668738,0.002051074
0.010976069,-0.040622074,-0.021246575,0.00210157
0.011052291,-0.043886539,-0.015176964,0.002156369
0.011128514,-0.046283431,-0.008581371,0.002215796
0.011204737,-0.04772497,-0.001579468,0.002280167
0.011280959,-0.048139125,0.005693216,0.002349788
0.011357182,-0.047472678,0.013087402,0.002424935
0.011433405,-0.045693655,0.020442799,0.002505818
0.011509627,-0.042794813,0.027590169,0.002592613
0.01158585,-0.038795177,0.034356345,0.002685424
0.011662073,-0.033741582,0.040568262,0.002784278
0.011738295,-0.027710052,0.046057303,0.002889122
0.011814518,-0.020804554,0.050665267,0.002999799
0.011890741,-0.013156794,0.054249492,0.003116109
0.011966964,-0.0049228,0.056687072,0.003237658
0.012043186,0.003719857,0.057881173,0.003364067
0.012119409,0.012577167,0.057763483,0.003494805
0.012195632,0.021443281,0.056297891,0.003629267
0.012271854,0.030106735,0.053482492,0.003766792
0.012348077,0.038356978,0.049350061,0.003906686
0.0124243,0.045989625,0.04396769,0.004048203
0.012500522,0.052813005,0.037434526,0.004190557
0.012576745,0.058653232,0.029879579,0.004332991
0.012652968,0.06335865,0.02145779,0.004474755
0.012729191,0.066804007,0.012345347,0.004615183
0.012805413,0.068892144,0.002735342,0.00475361
0.012881636,0.069556788,-0.007167717,0.004889523
0.012957859,0.068762317,-0.017152431,0.005022462
0.013034081,0.066504881,-0.027005758,0.00515221
0.013110304,0.062810302,-0.036517013,0.005278626
0.013186527,0.057734318,-0.0454822,0.005401882
0.013262749,0.051360849,-0.053707156,0.005522395
0.013338972,0.043800369,-0.061009016,0.005640572
0.013415195,0.035187155,-0.067216985,0.005756259
0.013491418,0.02567065,-0.072172605,0.005867867
0.01356764,0.01540948,-0.075741813,0.005974274
0.013643863,0.004580362,-0.077822954,0.006077392
0.013720086,-0.006616808,-0.078337893,0.006180608
0.013796308,-0.017967064,-0.077227436,0.006286892
0.013872531,-0.029247496,-0.074454069,0.006398824
0.013948754,-0.04022878,-0.0700069,0.006519321
0.014024976,-0.05067778,-0.063902043,0.006651708
0.014101199,-0.06035883,-0.056184705,0.006799909
0.014177422,-0.069037274,-0.046931021,0.006968666
0.014253645,-0.076482154,-0.036248077,0.007163443
0.014329867,-0.082470149,-0.024275614,0.007390631
0.01440609,-0.086789385,-0.01118686,0.007657543
0.014482313,-0.08924491,0.002812414,0.007972564
0.014558535,-0.089663215,0.017483363,0.00834516
0.014634758,-0.087897912,0.032556016,0.008785937
0.014710981,-0.083835512,0.047731474,0.009306687
0.014787203,-0.077401221,0.062685736,0.00992045
0.014863426,-0.06856399,0.077073641,0.010641367
0.014939649,-0.057342291,0.09053573,0.011484857
0.015015872,-0.043807406,0.10270445,0.012467293
0.015092094,-0.028087152,0.113213271,0.013606133
0.015168317,-0.010367534,0.12170542,0.014919695
0.01524454,0.009107847,0.127843753,0.016426978
0.015320762,0.030039286,0.131321222,0.018147622
0.015396985,0.052074853,0.131870002,0.020101488
0.015473208,0.074816905,0.129272565,0.022308965
0.01554943,0.097829439,0.123367831,0.024790221
0.015625653,0.12064784,0.114059366,0.02756544
0.015701876,0.142789617,0.101319402,0.030654496
0.015778098,0.163765922,0.085192166,0.034076982
0.015854321,0.183093548,0.06579335,0.037852012
0.015930544,0.200306356,0.043308988,0.041998305
0.016006767,0.214966401,0.017990863,0.046534225
0.016082989,0.22667332,-0.009848828,0.051477793
0.016159212,0.235072762,-0.039845157,0.05684684
0.016235435,0.239862993,-0.071588315,0.062659142
0.016311657,0.24079825,-0.104632959,0.068931853
0.01638788,0.23769331,-0.138507009,0.075682301
0.016464103,0.230422884,-0.172721058,0.082927269
0.016540325,0.218922034,-0.206776083,0.090683205
0.016616548,0.203184843,-0.24017255,0.098966934
0.016692771,0.183261782,-0.272416472,0.107795615
0.016768994,0.159257561,-0.303026259,0.117187884
0.016845216,0.13132903,-0.331536889,0.127164023
0.016921438,0.099682063,-0.357504219,0.13774578
0.016997662,0.06457068,-0.380507886,0.148955624
0.017073884,0.026298637,-0.400158226,0.160818224
0.017150108,-0.014776792,-0.416123003,0.173376707
0.01722633,-0.05833035,-0.428163886,0.186726743
0.017302552,-0.104092136,-0.435961962,0.200898005
0.017378776,-0.151661217,-0.439176321,0.215876966
0.017454998,-0.200579911,-0.43754214,0.231675425
0.01753122,-0.250367522,-0.430847228,0.24831323
0.017607444,-0.300520778,-0.418923646,0.265809759
0.017683666,-0.350514144,-0.401648909,0.284182011
0.017759888,-0.399801433,-0.37894848,0.303443136
0.017836112,-0.447818696,-0.350799292,0.323601728
0.017912334,-0.493987083,-0.317233115,0.344660087
0.017988556,-0.537718058,-0.278340816,0.36661432
0.01806478,-0.578418612,-0.234276175,0.389453417
0.018141002,-0.61549753,-0.185258955,0.41315809
0.018217224,-0.648372412,-0.131577596,0.437699448
0.018293448,-0.676479876,-0.073591501,0.463040732
0.01836967,-0.699282885,-0.011731461,0.48913418
0.018445892,-0.716282964,0.053500705,0.51592361
0.018522116,-0.727029145,0.121535189,0.54334218
0.018598338,-0.731130302,0.191737428,0.57131476
0.018674562,-0.728265643,0.263415366,0.599758502
0.018750784,-0.718194604,0.335826874,0.628583179
0.018827006,-0.700766921,0.408190638,0.657693875
0.01890323,-0.67593056,0.479697078,0.686991409
0.018979452,-0.6437397,0.54952234,0.716375604
0.019055674,-0.604358733,0.61683774,0.745738276
0.019131898,-0.558066487,0.68081969,0.774953654
0.01920812,-0.505250871,0.740649045,0.803839451
0.019284342,-0.446377337,0.795502543,0.832077023
0.019360566,-0.381909311,0.844578147,0.859166968
0.019436788,-0.312257558,0.887237549,0.884695251
0.01951301,-0.23794201,0.923131585,0.908788323
0.019589234,-0.159742132,0.952031314,0.931881172
0.019665456,-0.078560032,0.97366941,0.954203799
0.019741678,0.004719692,0.987790048,0.975751454
0.019817902,0.089251958,0.994219899,0.99643912
0.019894124,0.174220622,0.99289006,1.016183496
0.019970346,0.258835435,0.983832359,1.034921893
0.02004657,0.342336118,0.967171788,1.052615285
0.020122792,0.423999071,0.943114161,1.069239533
0.020199014,0.503144145,0.911940336,1.084789207
0.020275238,0.579140127,0.873991609,1.099264619
0.02035146,0.651407957,0.829663754,1.112674271
0.020427684,0.719425023,0.77939719,1.125032343
0.020503906,0.782725871,0.723669589,1.136357463
0.020580128,0.840901673,0.66298604,1.146666113
0.020656352,0.893600762,0.597875297,1.155977193
0.020732574,0.940528035,0.528880835,1.164307922
0.020808796,0.981441557,0.456557542,1.171672319
0.02088502,1.01615322,0.381466657,1.178084177
0.020961242,1.04452491,0.304171145,1.183552373
0.021037464,1.06646729,0.225232109,1.188081984
0.021113688,1.08193874,0.145206884,1.191676476
0.02118991,1.09094346,0.064644806,1.194336584
0.021266132,1.09352851,-0.015914984,1.196057889
0.021342356,1.08978593,-0.095945843,1.196838978
0.021418578,1.07984757,-0.174937889,1.196674039
0.0214948,1.0638876,-0.25240016,1.195562666
0.021571024,1.04211867,-0.327864885,1.193506705
0.021647246,1.01479566,-0.400891244,1.190524021
0.021723468,0.982211411,-0.471069604,1.186645828
0.021799692,0.944704354,-0.538023233,1.181935316
0.021875914,0.902655482,-0.601400614,1.176469618
0.021952138,0.856472135,-0.660869002,1.170292356
0.02202836,0.80656302,-0.716131747,1.163388584
0.022104582,0.753342211,-0.766953707,1.155742476
0.022180806,0.697237611,-0.813166678,1.147380332
0.022257028,0.638690054,-0.854666889,1.138380476
0.02233325,0.578139186,-0.891418874,1.128872527
0.022409474,0.516006529,-0.92347157,1.119062479
0.022485696,0.452657998,-0.950997114,1.109294774
0.022561918,0.388290823,-0.974406898,1.100238566
0.022638142,0.322315991,-0.994770229,1.093455407
0.022714364,0.278366566,-0.969502211,1.017422482
0.022790586,0.220904753,-0.99688518,1.042578972
0.02286681,0.15320529,-1.00390768,1.031302491
0.022943032,0.089944452,-1.00444555,1.017000867
0.023019254,0.029237198,-1.00091469,1.00268503
0.023095478,-0.029344801,-0.993894219,0.988686836
0.0231717,-0.085888952,-0.983745337,0.9751318
0.023247922,-0.140398324,-0.970776737,0.962119162
0.023324146,-0.192864388,-0.955272317,0.949741872
0.023400368,-0.243290141,-0.937497914,0.938092431
0.02347659,-0.291698515,-0.917695999,0.92725397
0.023552814,-0.338132441,-0.896086454,0.917304481
0.023629036,-0.382654101,-0.872864127,0.908315945
0.02370526,-0.425339639,-0.848194838,0.900348292
0.023781482,-0.466276497,-0.822216153,0.893453174
0.023857704,-0.505558312,-0.795037627,0.887674035
0.023933928,-0.543279529,-0.766739726,0.883042454
0.02401015,-0.579531789,-0.7373752,0.87957928
0.024086372,-0.614399612,-0.706972241,0.877296633
0.024162596,-0.64795661,-0.675536036,0.876196704
0.024238818,-0.680262387,-0.643050551,0.876270926
0.02431504,-0.71135807,-0.609483182,0.877500053
0.024391264,-0.74126637,-0.574787557,0.879856567
0.024467486,-0.769987166,-0.538907349,0.883301367
0.024543708,-0.797497988,-0.501780093,0.887786303
0.024619932,-0.823751569,-0.463341534,0.893252025
0.024696154,-0.848676622,-0.423528999,0.899628822
0.024772376,-0.872176707,-0.382286042,0.906834826
0.0248486,-0.894129872,-0.339566022,0.914773311
0.024924822,-0.914390087,-0.2953372,0.923333293
0.025001044,-0.932781219,-0.24958618,0.932374064
0.025077268,-0.949092567,-0.202330306,0.941714253
0.02515349,-0.963070929,-0.15365307,0.95111488
0.025229714,-0.974489808,-0.103780828,0.960400846
0.025305936,-0.983325005,-0.052962303,0.969733071
0.025382158,-0.989562392,-0.00125862,0.979235312
0.025458382,-0.993057549,0.051260848,0.98879097
0.025534604,-1.00080276,0.11291714,1.014356445
0.025610826,-0.999052584,0.168378666,1.026457441
0.02568705,-0.993904352,0.224437773,1.038218175
0.025763272,-0.976725042,0.265591234,1.024530511
0.025839494,-0.964758217,0.318841666,1.032418425
0.025915718,-0.949879467,0.371328413,1.040155792
0.02599194,-0.932571232,0.422981322,1.048602302
0.026068162,-0.913216174,0.474452555,1.059069007
0.026144386,-0.890871823,0.52666676,1.071030481
0.026220608,-0.863951862,0.578782618,1.081402139
0.02629683,-0.832469225,0.629154742,1.0888407
0.026373054,-0.797202647,0.677017808,1.093885173
0.026449276,-0.758747876,0.722138762,1.097182731
0.026525498,-0.717500985,0.764403403,1.099120226
0.026601722,-0.673768878,0.803706169,1.099908107
0.026677944,-0.6278283,0.839943469,1.099673405
0.026754166,-0.579949319,0.873022676,1.098509805
0.02683039,-0.530399323,0.902866781,1.096491866
0.026906612,-0.479444861,0.92942065,1.093690119
0.026982836,-0.427349836,0.95265168,1.090173106
0.027059058,-0.374373078,0.972550392,1.086009467
0.02713528,-0.32076478,0.989129841,1.081267886
0.027211504,-0.266764522,1.00242388,1.076016945
0.027287726,-0.212600604,1.0124855,1.070325905
0.027363948,-0.158486649,1.01938438,1.064262532
0.027440172,-0.1046215,1.02320445,1.057893005
0.027516394,-0.051187813,1.02404106,1.051280285
0.027592616,0.00164702,1.02200019,1.044487101
0.02766884,0.053732783,1.01719391,1.037570662
0.027745062,0.104934193,1.00973964,1.030585325
0.027821284,0.155131653,0.999757946,1.02358178
0.027897508,0.204218999,0.987370133,1.016605179
0.02797373,0.252104342,0.972697854,1.009697714
0.028049952,0.298706979,0.955860674,1.002895487
0.028126176,0.343956441,0.936975658,0.996229417
0.028202398,0.387791216,0.916155875,0.989723615
0.02827862,0.430155843,0.893512189,0.983398081
0.028354844,0.470999867,0.869154036,0.977269613
0.028431066,0.510276616,0.843190908,0.971353132
0.02850729,0.547944725,0.815736711,0.965669803
0.028583512,0.583975673,0.786910951,0.960256431
0.028659734,0.618355453,0.756832778,0.95515932
0.028735958,0.651088059,0.725614369,0.950431873
0.02881218,0.682185411,0.693355381,0.946118619
0.028888402,0.711662352,0.660145581,0.942255491
0.028964626,0.739533901,0.626072228,0.938876825
0.029040848,0.76582104,0.591227353,0.936031648
0.02911707,0.790559649,0.555710912,0.933799176
0.029193294,0.8138237,0.519629717,0.932324057
0.029269516,0.835754931,0.483070493,0.931843406
0.029345738,0.856575906,0.446024537,0.93266017
0.029421962,0.876503468,0.408273727,0.934945766
0.029498184,0.895511746,0.36941269,0.938407023
0.029574406,0.913220763,0.329161793,0.942319648
0.02965063,0.92917943,0.287602484,0.946089602
0.029726852,0.943147242,0.245017648,0.949560368
0.029803074,0.955073774,0.201667994,0.952835894
0.029879298,0.964981079,0.157727212,0.956066356
0.02995552,0.972899079,0.113306172,0.959370907
0.030031744,0.978842199,0.068482988,0.96282197
0.030107966,0.982809782,0.023322666,0.966459014
0.030184188,0.98478955,-0.022113144,0.970299449
0.030260412,0.984759927,-0.067761391,0.97434372
0.030336634,0.982694626,-0.113554247,0.978583295
0.030412856,0.978564203,-0.159419075,0.983002341
0.03048908,0.972338498,-0.205276504,0.987580598
0.030565302,0.963987052,-0.251041502,0.992292872
0.030641524,0.953480959,-0.296621382,0.997110183
0.030717748,0.940794349,-0.341917604,1.002001655
0.03079397,0.925905406,-0.386824757,1.006934213
0.030870192,0.90879637,-0.431230187,1.011870316
0.030946416,0.889456451,-0.475015402,1.01677241
0.031022638,0.867881119,-0.518055499,1.021599137
0.03109886,0.84407413,-0.560219705,1.026307255
0.031175084,0.818048775,-0.601371467,1.03085144
0.031251306,0.789828241,-0.641369879,1.035183972
0.031327528,0.759448051,-0.680070758,1.039257578
0.031403752,0.726956487,-0.717325985,1.043022303
